! VERSION = 6.00
!Data measured by ggf on Wed Jan 24 09:16:49 2018 using model file NPN_MEAS_SCALE
BEGIN_HEADER
 ICCAP_INPUTS
  vc         V  C GROUND SMU_C 0.2 LIN        1    0          3          61   0.05      
  vs         V  S GROUND SMU_S 0.015 CON        0
  ve         V  E GROUND SMU_E 0.2 CON        0
  ib         I  B GROUND SMU_B 2 LIST       2 6 2E-009 6.25E-007 1.25E-006 2.5E-006 5E-006 1E-005
 ICCAP_OUTPUTS
  ic         I  C GROUND SMU_C M
  vb         V  B GROUND SMU_B M
 ICCAP_VALUES
  TNOM "27"
  TEMP "27"
  TECHNO "SG13G2"
  LOT "EDJ802"
  WAFER "02"
  CHIP "(3.3)"
  MODULE "S439S"
  DEV_NAME "D03"
  DEV_GEOM_L "2.5"
  DEV_GEOM_W "0.07"
  NUM_OF_TRANS_RF "2"
  REMARKS "Nx=2; Power -30/-20dBm, Slope: 0.1dB/GHz"
  TIMEDATE "Wed Jan 24 08:59:39     2018"
  OPERATOR "ggf"
END_HEADER

BEGIN_DB
 ICCAP_VAR vs         0              
 ICCAP_VAR ve         0              
 ICCAP_VAR ib         2e-009         

 #vc              ic              vb             
  0               -4.4376e-009    0.38848        
  0.05            -6.95e-010      0.39164        
  0.1             -1.65e-010      0.4116         
  0.15            9.396e-010      0.43788        
  0.2             3.6144e-009     0.46712        
  0.25            1.5296e-008     0.49496        
  0.3             3.5988e-008     0.5182         
  0.35            9.2642e-008     0.543          
  0.4             2.0396e-007     0.56404        
  0.45            3.7826e-007     0.57988        
  0.5             6.0374e-007     0.5916         
  0.55            7.9452e-007     0.5984         
  0.6             9.503e-007      0.60276        
  0.65            1.0554e-006     0.60532        
  0.7             1.121e-006      0.60672        
  0.75            1.1604e-006     0.60764        
  0.8             1.1902e-006     0.60824        
  0.85            1.2076e-006     0.60864        
  0.9             1.23e-006       0.60896        
  0.95            1.2366e-006     0.60916        
  1               1.2524e-006     0.60936        
  1.05            1.2554e-006     0.60952        
  1.1             1.267e-006      0.60968        
  1.15            1.2704e-006     0.6098         
  1.2             1.2754e-006     0.60992        
  1.25            1.284e-006      0.61004        
  1.3             1.287e-006      0.61012        
  1.35            1.2952e-006     0.61024        
  1.4             1.302e-006      0.6104         
  1.45            1.3086e-006     0.61052        
  1.5             1.3154e-006     0.61068        
  1.55            1.3222e-006     0.61088        
  1.6             1.3356e-006     0.61112        
  1.65            1.3498e-006     0.61136        
  1.7             1.3674e-006     0.61172        
  1.75            1.39e-006       0.6122         
  1.8             1.421e-006      0.61268        
  1.85            1.4438e-006     0.61316        
  1.9             1.4786e-006     0.61384        
  1.95            1.5236e-006     0.61468        
  2               1.5874e-006     0.61568        
  2.05            1.6606e-006     0.61688        
  2.1             1.7454e-006     0.61828        
  2.15            1.8628e-006     0.62004        
  2.2             2.0146e-006     0.62212        
  2.25            2.2244e-006     0.6248         
  2.3             2.5142e-006     0.6282         
  2.35            2.9538e-006     0.63256        
  2.4             3.64e-006       0.63828        
  2.45            4.8502e-006     0.64616        
  2.5             7.5238e-006     0.65852        
  2.55            1.606e-005      0.68084        
  2.6             2.8276e-005     0.70464        
  2.65            0.00034548      0.76896        
  2.7             0.00113842      0.79068        
  2.75            0.0020768       0.80756        
  2.8             0.0036134       0.82404        
  2.85            0.011262        0.8662         
  2.9             0.012046        0.87092        
  2.95            0.012684        0.87508        
  3               0.01326         0.87892        
END_DB

BEGIN_DB
 ICCAP_VAR vs         0              
 ICCAP_VAR ve         0              
 ICCAP_VAR ib         6.25e-007      

 #vc              ic              vb             
  0               -1.155e-005     0.63964        
  0.05            8.9796e-006     0.6868         
  0.1             8.8296e-005     0.72544        
  0.15            0.00022566      0.74824        
  0.2             0.00032626      0.75768        
  0.25            0.00037376      0.76128        
  0.3             0.00039534      0.76276        
  0.35            0.00040668      0.76352        
  0.4             0.000414        0.76392        
  0.45            0.00041932      0.76424        
  0.5             0.00042358      0.76448        
  0.55            0.00042722      0.76468        
  0.6             0.00042998      0.76484        
  0.65            0.00043264      0.76496        
  0.7             0.00043426      0.76508        
  0.75            0.00043644      0.76516        
  0.8             0.00043806      0.7652         
  0.85            0.00043948      0.76528        
  0.9             0.0004409       0.76536        
  0.95            0.00044186      0.76536        
  1               0.00044286      0.7654         
  1.05            0.00044388      0.76544        
  1.1             0.00044498      0.76548        
  1.15            0.00044544      0.76548        
  1.2             0.00044568      0.76552        
  1.25            0.00044708      0.76552        
  1.3             0.0004476       0.76552        
  1.35            0.00044778      0.76552        
  1.4             0.0004489       0.7656         
  1.45            0.00044924      0.76556        
  1.5             0.0004503       0.7656         
  1.55            0.00045108      0.76564        
  1.6             0.00045264      0.76568        
  1.65            0.00045362      0.76572        
  1.7             0.0004555       0.76584        
  1.75            0.00045822      0.76596        
  1.8             0.00046142      0.76612        
  1.85            0.00046564      0.76636        
  1.9             0.00047138      0.76664        
  1.95            0.00047822      0.76704        
  2               0.00048674      0.76748        
  2.05            0.00049758      0.76808        
  2.1             0.00051228      0.76884        
  2.15            0.00052994      0.76972        
  2.2             0.00055298      0.77088        
  2.25            0.00058244      0.77224        
  2.3             0.00062012      0.77396        
  2.35            0.0006699       0.77608        
  2.4             0.00073572      0.77864        
  2.45            0.00082614      0.7818         
  2.5             0.00095312      0.78572        
  2.55            0.00113086      0.79048        
  2.6             0.0013894       0.79628        
  2.65            0.00178         0.80332        
  2.7             0.002364        0.81148        
  2.75            0.0032804       0.82124        
  2.8             0.0052752       0.83616        
  2.85            0.011382        0.867          
  2.9             0.012114        0.87144        
  2.95            0.01273         0.87548        
  3               0.013296        0.87928        
END_DB

BEGIN_DB
 ICCAP_VAR vs         0              
 ICCAP_VAR ve         0              
 ICCAP_VAR ib         1.25e-006      

 #vc              ic              vb             
  0               -2.3318e-005    0.66488        
  0.05            2.588e-005      0.71084        
  0.1             0.0001879       0.74632        
  0.15            0.00043086      0.76668        
  0.2             0.00061766      0.77604        
  0.25            0.00072252      0.78024        
  0.3             0.00077568      0.78212        
  0.35            0.00080348      0.783          
  0.4             0.00082038      0.78356        
  0.45            0.0008328       0.78392        
  0.5             0.00084108      0.78416        
  0.55            0.00084914      0.78436        
  0.6             0.00085512      0.78452        
  0.65            0.00086028      0.7846         
  0.7             0.000864        0.78472        
  0.75            0.00086802      0.78476        
  0.8             0.0008711       0.7848         
  0.85            0.00087396      0.78488        
  0.9             0.0008765       0.78488        
  0.95            0.00087842      0.78496        
  1               0.00088102      0.78496        
  1.05            0.00088198      0.78496        
  1.1             0.00088316      0.78492        
  1.15            0.000885        0.78492        
  1.2             0.00088686      0.78492        
  1.25            0.00088788      0.78488        
  1.3             0.0008878       0.78492        
  1.35            0.00088906      0.78488        
  1.4             0.00088986      0.78484        
  1.45            0.00089122      0.78484        
  1.5             0.0008921       0.78484        
  1.55            0.00089362      0.78484        
  1.6             0.00089524      0.78484        
  1.65            0.0008984       0.78484        
  1.7             0.00089984      0.78492        
  1.75            0.00090398      0.78496        
  1.8             0.00090906      0.78512        
  1.85            0.00091542      0.78528        
  1.9             0.00092504      0.78548        
  1.95            0.00093592      0.78576        
  2               0.00094968      0.78612        
  2.05            0.00096646      0.7866         
  2.1             0.00098948      0.78724        
  2.15            0.00101836      0.78796        
  2.2             0.00105376      0.78888        
  2.25            0.00109894      0.79008        
  2.3             0.0011568       0.7914         
  2.35            0.0012318       0.79316        
  2.4             0.0013272       0.79524        
  2.45            0.0014516       0.79776        
  2.5             0.001621        0.80088        
  2.55            0.0018456       0.80456        
  2.6             0.0021568       0.809          
  2.65            0.0026006       0.81448        
  2.7             0.0032494       0.82112        
  2.75            0.0043274       0.82988        
  2.8             0.0103772       0.8618         
  2.85            0.011484        0.86772        
  2.9             0.012174        0.87196        
  2.95            0.012776        0.87592        
  3               0.013334        0.87968        
END_DB

BEGIN_DB
 ICCAP_VAR vs         0              
 ICCAP_VAR ve         0              
 ICCAP_VAR ib         2.5e-006       

 #vc              ic              vb             
  0               -4.0888e-005    0.6908         
  0.05            7.2442e-005     0.73472        
  0.1             0.00036822      0.766          
  0.15            0.00073422      0.7832         
  0.2             0.00102336      0.79196        
  0.25            0.001234        0.79696        
  0.3             0.0013868       0.80012        
  0.35            0.0014878       0.80204        
  0.4             0.001555        0.8032         
  0.45            0.001599        0.80392        
  0.5             0.0016294       0.8044         
  0.55            0.0016524       0.80472        
  0.6             0.0016696       0.80492        
  0.65            0.0016832       0.80508        
  0.7             0.001694        0.80516        
  0.75            0.0017016       0.8052         
  0.8             0.0017092       0.80524        
  0.85            0.001715        0.80528        
  0.9             0.0017212       0.80528        
  0.95            0.0017264       0.80528        
  1               0.00173         0.80524        
  1.05            0.0017312       0.80516        
  1.1             0.001734        0.80516        
  1.15            0.0017376       0.80512        
  1.2             0.00174         0.80508        
  1.25            0.0017416       0.80504        
  1.3             0.0017426       0.80496        
  1.35            0.0017442       0.80492        
  1.4             0.0017458       0.80484        
  1.45            0.0017468       0.8048         
  1.5             0.0017484       0.80472        
  1.55            0.00175         0.80468        
  1.6             0.0017516       0.80464        
  1.65            0.0017546       0.8046         
  1.7             0.0017576       0.80456        
  1.75            0.001764        0.80456        
  1.8             0.0017702       0.8046         
  1.85            0.001779        0.80468        
  1.9             0.001791        0.8048         
  1.95            0.0018064       0.80496        
  2               0.001827        0.80524        
  2.05            0.0018532       0.80556        
  2.1             0.001886        0.806          
  2.15            0.0019248       0.80652        
  2.2             0.001979        0.80728        
  2.25            0.0020438       0.80816        
  2.3             0.0021288       0.80924        
  2.35            0.0022346       0.8106         
  2.4             0.0023674       0.8122         
  2.45            0.0025384       0.81424        
  2.5             0.0027624       0.81664        
  2.55            0.0030514       0.81964        
  2.6             0.0034462       0.82324        
  2.65            0.0040102       0.82788        
  2.7             0.0048822       0.83404        
  2.75            0.0069548       0.846          
  2.8             0.0108634       0.86452        
  2.85            0.011664        0.86904        
  2.9             0.01229         0.87296        
  2.95            0.01286         0.87672        
  3               0.013398        0.88032        
END_DB

BEGIN_DB
 ICCAP_VAR vs         0              
 ICCAP_VAR ve         0              
 ICCAP_VAR ib         5e-006         

 #vc              ic              vb             
  0               -5.9e-005       0.71752        
  0.05            0.0001815       0.75816        
  0.1             0.00063692      0.784          
  0.15            0.00108852      0.7976         
  0.2             0.001438        0.80488        
  0.25            0.0017202       0.80968        
  0.3             0.0019662       0.81324        
  0.35            0.0021792       0.81608        
  0.4             0.0023742       0.81848        
  0.45            0.0025462       0.82044        
  0.5             0.0026978       0.822          
  0.55            0.0028304       0.82332        
  0.6             0.0029406       0.82436        
  0.65            0.0030292       0.82516        
  0.7             0.003101        0.82576        
  0.75            0.003156        0.82616        
  0.8             0.0031986       0.82644        
  0.85            0.003231        0.82656        
  0.9             0.0032534       0.82668        
  0.95            0.0032738       0.82668        
  1               0.003291        0.82668        
  1.05            0.0033026       0.82664        
  1.1             0.0033132       0.8266         
  1.15            0.00332         0.82652        
  1.2             0.0033294       0.82644        
  1.25            0.0033332       0.82632        
  1.3             0.0033362       0.8262         
  1.35            0.00334         0.82608        
  1.4             0.003339        0.82588        
  1.45            0.0033424       0.82576        
  1.5             0.0033416       0.82564        
  1.55            0.0033456       0.82552        
  1.6             0.003347        0.8254         
  1.65            0.0033484       0.82524        
  1.7             0.003353        0.82512        
  1.75            0.0033586       0.82504        
  1.8             0.003368        0.82496        
  1.85            0.0033754       0.82492        
  1.9             0.0033906       0.82492        
  1.95            0.0034114       0.82496        
  2               0.0034408       0.82508        
  2.05            0.0034746       0.82524        
  2.1             0.0035216       0.82552        
  2.15            0.0035788       0.82588        
  2.2             0.0036516       0.8264         
  2.25            0.0037466       0.82708        
  2.3             0.0038594       0.82796        
  2.35            0.0040096       0.829          
  2.4             0.0042          0.83036        
  2.45            0.0044376       0.83196        
  2.5             0.004763        0.83416        
  2.55            0.0051936       0.83684        
  2.6             0.0058104       0.84052        
  2.65            0.0068288       0.846          
  2.7             0.0089982       0.85624        
  2.75            0.010573        0.86356        
  2.8             0.0113506       0.8678         
  2.85            0.011944        0.87136        
  2.9             0.012488        0.87476        
  2.95            0.013014        0.87824        
  3               0.013526        0.8816         
END_DB

BEGIN_DB
 ICCAP_VAR vs         0              
 ICCAP_VAR ve         0              
 ICCAP_VAR ib         1e-005         

 #vc              ic              vb             
  0               -6.3308e-005    0.74432        
  0.05            0.00035772      0.77956        
  0.1             0.00091962      0.79984        
  0.15            0.001412        0.81064        
  0.2             0.0017908       0.81672        
  0.25            0.002103        0.8208         
  0.3             0.0023834       0.82408        
  0.35            0.0026374       0.82676        
  0.4             0.002882        0.82912        
  0.45            0.0031098       0.8312         
  0.5             0.0033288       0.83308        
  0.55            0.003542        0.8348         
  0.6             0.003743        0.83636        
  0.65            0.0039358       0.8378         
  0.7             0.0041256       0.83908        
  0.75            0.0043038       0.84028        
  0.8             0.0044746       0.84132        
  0.85            0.0046426       0.84232        
  0.9             0.0047994       0.8432         
  0.95            0.0049484       0.844          
  1               0.0050924       0.84472        
  1.05            0.0052236       0.84536        
  1.1             0.0053476       0.84588        
  1.15            0.0054598       0.84632        
  1.2             0.0055618       0.84668        
  1.25            0.0056542       0.84696        
  1.3             0.0057346       0.8472         
  1.35            0.0058026       0.84728        
  1.4             0.005864        0.84736        
  1.45            0.0059108       0.8474         
  1.5             0.005951        0.84736        
  1.55            0.0059846       0.84724        
  1.6             0.0060074       0.84712        
  1.65            0.0060254       0.84696        
  1.7             0.006049        0.8468         
  1.75            0.0060662       0.84664        
  1.8             0.0060882       0.84652        
  1.85            0.0061084       0.84636        
  1.9             0.0061366       0.84628        
  1.95            0.0061714       0.8462         
  2               0.006212        0.8462         
  2.05            0.006271        0.84628        
  2.1             0.006341        0.84644        
  2.15            0.0064338       0.84668        
  2.2             0.0065458       0.84708        
  2.25            0.0067008       0.84768        
  2.3             0.0068872       0.84848        
  2.35            0.0071336       0.84952        
