! VERSION = 6.00
!Data measured by ggf on Wed Jan 24 09:16:49 2018 using model file NPN_MEAS_SCALE
BEGIN_HEADER
 ICCAP_INPUTS
  vc         V  C GROUND SMU_C 0.1 CON        1.5
  ve         V  E GROUND SMU_E 0.1 CON        0
  vs         V  S GROUND SMU_S 0.015 CON        0
  freq       F  LIST       1 74 100000000 200000000 300000000 400000000 500000000 600000000 700000000 800000000 900000000 1000000000 2000000000 3000000000 4000000000 5000000000 6000000000 7000000000 8000000000 9000000000 10000000000 11000000000 12000000000 13000000000 14000000000 15000000000 16000000000 17000000000 18000000000 19000000000 20000000000 21000000000 22000000000 23000000000 24000000000 25000000000 26000000000 27000000000 28000000000 29000000000 30000000000 31000000000 32000000000 33000000000 34000000000 35000000000 36000000000 37000000000 38000000000 39000000000 40000000000 41000000000 42000000000 43000000000 44000000000 45000000000 46000000000 47000000000 48000000000 49000000000 50000000000 51000000000 52000000000 53000000000 54000000000 55000000000 56000000000 57000000000 58000000000 59000000000 60000000000 61000000000 62000000000 63000000000 64000000000 65000000000
  vb         V  B GROUND SMU_B 0.015 LIN        2    0.74       0.87       27   0.005     
 ICCAP_OUTPUTS
  ic         I  C GROUND SMU_C M
  ib         I  B GROUND SMU_B M
  S          S  B C GROUND NWA M
 ICCAP_VALUES
  TNOM "27"
  TEMP "27"
  TECHNO "SG13G2"
  LOT "EDJ802"
  WAFER "02"
  CHIP "(3.3)"
  MODULE "S439S"
  DEV_NAME "D03"
  DEV_GEOM_L "2.5"
  DEV_GEOM_W "0.07"
  NUM_OF_TRANS_RF "2"
  REMARKS "Nx=2; Power -30/-20dBm, Slope: 0.1dB/GHz"
  TIMEDATE "Wed Jan 24 08:59:39     2018"
  OPERATOR "ggf"
END_HEADER

BEGIN_DB
 ICCAP_VAR vc         1.5            
 ICCAP_VAR ve         0              
 ICCAP_VAR vs         0              
 ICCAP_VAR vb         0.74           

 #freq            ic              ib              R:S(1,1)        I:S(1,1)        R:S(1,2)        I:S(1,2)        R:S(2,1)        I:S(2,1)        R:S(2,2)        I:S(2,2)       
  1e+008          0.0001769       2.4668e-007     0.998412        -0.00380728     -2.61126e-007   0.000970097     -0.718402       -0.00542478     1.00077         -0.00297072    
  2e+008          0.0001769       2.4668e-007     0.999319        -0.00960414     2.03422e-005    0.00182466      -0.698625       0.000851694     1.00057         -0.00590792    
  3e+008          0.0001769       2.4668e-007     0.999157        -0.0148441      6.20379e-005    0.00273642      -0.701487       0.00573018      1.00058         -0.00900435    
  4e+008          0.0001769       2.4668e-007     0.999668        -0.0201188      9.38368e-005    0.00367825      -0.692262       0.0107186       1.00032         -0.0117009     
  5e+008          0.0001769       2.4668e-007     0.998841        -0.025266       0.000101749     0.00460755      -0.700039       0.0148371       1.00031         -0.0145679     
  6e+008          0.0001769       2.4668e-007     0.998963        -0.0308903      0.000167195     0.00549096      -0.700099       0.0191099       1.00031         -0.017243      
  7e+008          0.0001769       2.4668e-007     0.998859        -0.0360862      0.000226078     0.00639932      -0.700217       0.0248261       0.999843        -0.0203337     
  8e+008          0.0001769       2.4668e-007     0.998521        -0.0414264      0.000259295     0.00731423      -0.702672       0.0296753       1.00003         -0.022833      
  9e+008          0.0001769       2.4668e-007     0.998267        -0.0467014      0.000317884     0.00825961      -0.696822       0.0354377       0.999755        -0.0257834     
  1e+009          0.0001769       2.4668e-007     0.997768        -0.0516494      0.000434462     0.00915525      -0.703026       0.0413394       0.999492        -0.02852       
  2e+009          0.0001769       2.4668e-007     0.993233        -0.1023         0.00152015      0.0182304       -0.683389       0.0828236       0.996997        -0.0563467     
  3e+009          0.0001769       2.4668e-007     0.984745        -0.154828       0.00331277      0.0270947       -0.687036       0.121292        0.994227        -0.0846378     
  4e+009          0.0001769       2.4668e-007     0.973885        -0.20403        0.00577         0.0357351       -0.679265       0.164527        0.990188        -0.111036      
  5e+009          0.0001769       2.4668e-007     0.960489        -0.251412       0.00885872      0.044236        -0.660583       0.202168        0.984539        -0.137381      
  6e+009          0.0001769       2.4668e-007     0.943217        -0.299952       0.0126263       0.0523139       -0.642257       0.239508        0.977396        -0.165405      
  7e+009          0.0001769       2.4668e-007     0.923808        -0.347064       0.0169505       0.0601434       -0.625825       0.276969        0.971379        -0.191812      
  8e+009          0.0001769       2.4668e-007     0.903104        -0.388813       0.0217475       0.0674528       -0.60807        0.31052         0.962925        -0.215882      
  9e+009          0.0001769       2.4668e-007     0.879291        -0.431088       0.0271531       0.0744242       -0.585843       0.341871        0.953023        -0.240952      
  1e+010          0.0001769       2.4668e-007     0.85324         -0.47344        0.0329771       0.0805713       -0.55758        0.373545        0.94156         -0.267126      
  1.1e+010        0.0001769       2.4668e-007     0.826592        -0.509517       0.0389656       0.0866679       -0.537618       0.398171        0.933125        -0.289143      
  1.2e+010        0.0001769       2.4668e-007     0.797425        -0.545307       0.0457132       0.0922629       -0.513728       0.429262        0.921744        -0.311164      
  1.3e+010        0.0001769       2.4668e-007     0.764764        -0.579794       0.0524455       0.0970932       -0.49017        0.456589        0.906757        -0.331924      
  1.4e+010        0.0001769       2.4668e-007     0.734203        -0.611633       0.0598437       0.101323        -0.458566       0.475752        0.895383        -0.355559      
  1.5e+010        0.0001769       2.4668e-007     0.703725        -0.638344       0.0672583       0.104639        -0.422196       0.491141        0.882546        -0.375638      
  1.6e+010        0.0001769       2.4668e-007     0.669623        -0.665512       0.0745629       0.107643        -0.395521       0.508929        0.869397        -0.393056      
  1.7e+010        0.0001769       2.4668e-007     0.635089        -0.690049       0.0821203       0.109962        -0.362224       0.520186        0.85219         -0.411456      
  1.8e+010        0.0001769       2.4668e-007     0.602609        -0.712014       0.0893184       0.111866        -0.335431       0.534422        0.838705        -0.429773      
  1.9e+010        0.0001769       2.4668e-007     0.569489        -0.729676       0.0968782       0.113334        -0.306322       0.550293        0.826626        -0.452057      
  2e+010          0.0001769       2.4668e-007     0.532672        -0.750375       0.103745        0.113826        -0.277936       0.554652        0.810392        -0.460064      
  2.1e+010        0.0001769       2.4668e-007     0.501814        -0.767874       0.110446        0.114451        -0.252931       0.565797        0.792893        -0.468525      
  2.2e+010        0.0001769       2.4668e-007     0.468068        -0.779955       0.117747        0.114795        -0.221842       0.569092        0.771391        -0.489391      
  2.3e+010        0.0001769       2.4668e-007     0.43387         -0.790372       0.124343        0.113892        -0.192656       0.572831        0.766698        -0.513724      
  2.4e+010        0.0001769       2.4668e-007     0.40116         -0.805616       0.129115        0.11404         -0.169987       0.573106        0.780616        -0.514189      
  2.5e+010        0.0001769       2.4668e-007     0.371459        -0.814768       0.138195        0.117279        -0.15245        0.587904        0.811643        -0.510822      
  2.6e+010        0.0001769       2.4668e-007     0.338978        -0.820054       0.148803        0.111067        -0.107036       0.592184        0.757885        -0.540173      
  2.7e+010        0.0001769       2.4668e-007     0.302112        -0.830258       0.152816        0.108907        -0.0826347      0.589728        0.681816        -0.557743      
  2.8e+010        0.0001769       2.4668e-007     0.273179        -0.834718       0.159456        0.105084        -0.050623       0.584085        0.64942         -0.608653      
  2.9e+010        0.0001769       2.4668e-007     0.246293        -0.836579       0.161862        0.102774        -0.0338152      0.575555        0.655138        -0.610381      
  3e+010          0.0001769       2.4668e-007     0.213087        -0.838476       0.166827        0.102118        -0.0133127      0.569896        0.660453        -0.597441      
  3.1e+010        0.0001769       2.4668e-007     0.181259        -0.844841       0.17306         0.0989455       0.0141181       0.565971        0.634991        -0.605434      
  3.2e+010        0.0001769       2.4668e-007     0.162756        -0.843967       0.177721        0.0960466       0.0353491       0.556021        0.611664        -0.615018      
  3.3e+010        0.0001769       2.4668e-007     0.129698        -0.837616       0.182709        0.0933795       0.0525747       0.552119        0.606205        -0.627855      
  3.4e+010        0.0001769       2.4668e-007     0.0933168       -0.834417       0.188138        0.0898008       0.0757653       0.547426        0.593656        -0.63609       
  3.5e+010        0.0001769       2.4668e-007     0.0741511       -0.841026       0.191911        0.0863191       0.0954534       0.537299        0.581434        -0.640291      
  3.6e+010        0.0001769       2.4668e-007     0.0539227       -0.835728       0.195528        0.0821262       0.112777        0.527579        0.554479        -0.651809      
  3.7e+010        0.0001769       2.4668e-007     0.0256193       -0.829403       0.199232        0.0792696       0.127631        0.519264        0.547701        -0.656601      
  3.8e+010        0.0001769       2.4668e-007     -0.00387595     -0.826982       0.203235        0.0754911       0.146987        0.512471        0.534779        -0.66735       
  3.9e+010        0.0001769       2.4668e-007     -0.0183787      -0.821995       0.205722        0.0711642       0.165264        0.500704        0.508886        -0.673632      
  4e+010          0.0001769       2.4668e-007     -0.0380285      -0.818673       0.208647        0.067738        0.175843        0.491227        0.503336        -0.683406      
  4.1e+010        0.0001769       2.4668e-007     -0.0693925      -0.817174       0.212406        0.0647469       0.192656        0.484599        0.48576         -0.684821      
  4.2e+010        0.0001769       2.4668e-007     -0.0855899      -0.808681       0.215427        0.0595165       0.208728        0.472629        0.468373        -0.694301      
  4.3e+010        0.0001769       2.4668e-007     -0.111231       -0.800152       0.217662        0.0559536       0.219006        0.459869        0.455314        -0.697366      
  4.4e+010        0.0001769       2.4668e-007     -0.123416       -0.797226       0.220313        0.0528437       0.233832        0.4519          0.439207        -0.69417       
  4.5e+010        0.0001769       2.4668e-007     -0.144427       -0.792293       0.223352        0.0481802       0.24504         0.441633        0.417304        -0.713932      
  4.6e+010        0.0001769       2.4668e-007     -0.160907       -0.789972       0.225629        0.0449048       0.255476        0.431455        0.414503        -0.71135       
  4.7e+010        0.0001769       2.4668e-007     -0.186289       -0.777777       0.228307        0.0403507       0.267869        0.420663        0.39767         -0.70807       
  4.8e+010        0.0001769       2.4668e-007     -0.203747       -0.777277       0.231363        0.0344697       0.282356        0.407435        0.366766        -0.722496      
  4.9e+010        0.0001769       2.4668e-007     -0.214709       -0.769168       0.231172        0.0304788       0.288019        0.393856        0.3687          -0.727581      
  5e+010          0.0001769       2.4668e-007     -0.232735       -0.765494       0.234632        0.0270964       0.295937        0.390089        0.361806        -0.720512      
  5.1e+010        0.0001769       2.4668e-007     -0.260693       -0.747513       0.236778        0.0201456       0.310915        0.372725        0.335191        -0.721233      
  5.2e+010        0.0001769       2.4668e-007     -0.271152       -0.752332       0.235238        0.0139396       0.313395        0.358329        0.317401        -0.735403      
  5.3e+010        0.0001769       2.4668e-007     -0.282546       -0.73687        0.236325        0.0118959       0.320978        0.353203        0.318893        -0.733989      
  5.4e+010        0.0001769       2.4668e-007     -0.304176       -0.725932       0.238529        0.005939        0.333786        0.34197         0.301118        -0.73173       
  5.5e+010        0.0001769       2.4668e-007     -0.311469       -0.71781        0.236227        0.000420034     0.336977        0.326327        0.27801         -0.739778      
  5.6e+010        0.0001769       2.4668e-007     -0.327997       -0.723387       0.23471         -0.00166777     0.337096        0.320682        0.274893        -0.741113      
  5.7e+010        0.0001769       2.4668e-007     -0.338856       -0.705972       0.237639        -0.00292738     0.347193        0.314734        0.282147        -0.742264      
  5.8e+010        0.0001769       2.4668e-007     -0.364066       -0.693805       0.238862        -0.00841403     0.356644        0.298145        0.255702        -0.749944      
  5.9e+010        0.0001769       2.4668e-007     -0.379462       -0.692887       0.240076        -0.0134501      0.362368        0.287076        0.244229        -0.749377      
  6e+010          0.0001769       2.4668e-007     -0.384009       -0.687073       0.241           -0.0192992      0.369081        0.275897        0.235659        -0.759414      
  6.1e+010        0.0001769       2.4668e-007     -0.39279        -0.667831       0.238019        -0.0247316      0.372885        0.263935        0.210307        -0.755731      
  6.2e+010        0.0001769       2.4668e-007     -0.422375       -0.656843       0.237103        -0.0282089      0.375258        0.252582        0.20451         -0.769319      
  6.3e+010        0.0001769       2.4668e-007     -0.417615       -0.667022       0.23781         -0.03212        0.379857        0.243517        0.19315         -0.771066      
  6.4e+010        0.0001769       2.4668e-007     -0.43115        -0.642153       0.237615        -0.0381477      0.384882        0.229093        0.191558        -0.761858      
  6.5e+010        0.0001769       2.4668e-007     -0.43993        -0.639864       0.232817        -0.0431517      0.383518        0.216474        0.160512        -0.775389      
END_DB

BEGIN_DB
 ICCAP_VAR vc         1.5            
 ICCAP_VAR ve         0              
 ICCAP_VAR vs         0              
 ICCAP_VAR vb         0.745          

 #freq            ic              ib              R:S(1,1)        I:S(1,1)        R:S(1,2)        I:S(1,2)        R:S(2,1)        I:S(2,1)        R:S(2,2)        I:S(2,2)       
  1e+008          0.00021314      2.97e-007       0.998372        -0.00421375     1.57893e-005    0.000957676     -0.8582         -0.00637261     1.0006          -0.00316305    
  2e+008          0.00021314      2.97e-007       0.999073        -0.00967615     -2.55164e-005   0.00188559      -0.835165       0.000888297     1.00071         -0.00666429    
  3e+008          0.00021314      2.97e-007       0.999034        -0.0153273      3.98968e-005    0.00275068      -0.838395       0.00657145      1.00054         -0.00910401    
  4e+008          0.00021314      2.97e-007       0.999357        -0.0205666      6.70358e-005    0.00367977      -0.827732       0.0123933       1.00017         -0.0119119     
  5e+008          0.00021314      2.97e-007       0.998652        -0.0260978      0.000118576     0.00458709      -0.836803       0.0172614       1.00023         -0.0148402     
  6e+008          0.00021314      2.97e-007       0.998812        -0.0318274      0.000156197     0.00552139      -0.836853       0.0221682       1.00017         -0.0175861     
  7e+008          0.00021314      2.97e-007       0.998791        -0.0372153      0.000213333     0.00642941      -0.83726        0.0288781       0.999737        -0.0206873     
  8e+008          0.00021314      2.97e-007       0.998373        -0.0426959      0.000281382     0.00733931      -0.840032       0.0346533       0.999877        -0.0233552     
  9e+008          0.00021314      2.97e-007       0.998174        -0.0480065      0.000311282     0.0082241       -0.833212       0.041485        0.999737        -0.0263661     
  1e+009          0.00021314      2.97e-007       0.997438        -0.0534498      0.000397853     0.00915394      -0.840396       0.0481329       0.999344        -0.0290391     
  2e+009          0.00021314      2.97e-007       0.992384        -0.105282       0.00155326      0.0182346       -0.817502       0.0967913       0.996776        -0.0575497     
  3e+009          0.00021314      2.97e-007       0.983438        -0.159473       0.00338536      0.0271068       -0.821281       0.141911        0.993868        -0.0864463     
  4e+009          0.00021314      2.97e-007       0.971824        -0.210048       0.00587767      0.0357177       -0.812009       0.192535        0.989528        -0.113324      
  5e+009          0.00021314      2.97e-007       0.957926        -0.258601       0.00901415      0.0441761       -0.789902       0.236517        0.983635        -0.140244      
  6e+009          0.00021314      2.97e-007       0.939453        -0.308172       0.0128471       0.0522131       -0.768412       0.28            0.976038        -0.168657      
  7e+009          0.00021314      2.97e-007       0.91906         -0.355501       0.0172313       0.0599925       -0.748535       0.322924        0.969642        -0.195544      
  8e+009          0.00021314      2.97e-007       0.89684         -0.399034       0.0221201       0.0672228       -0.727281       0.362515        0.960754        -0.220012      
  9e+009          0.00021314      2.97e-007       0.871751        -0.442597       0.0275979       0.0741098       -0.700886       0.399159        0.950235        -0.245375      
  1e+010          0.00021314      2.97e-007       0.844449        -0.484563       0.0334466       0.0801126       -0.667696       0.435161        0.938222        -0.271789      
  1.1e+010        0.00021314      2.97e-007       0.816501        -0.521013       0.0395076       0.0861056       -0.644143       0.463357        0.929305        -0.293994      
  1.2e+010        0.00021314      2.97e-007       0.785789        -0.557661       0.0462652       0.0915785       -0.615664       0.499361        0.917298        -0.316137      
  1.3e+010        0.00021314      2.97e-007       0.751815        -0.591435       0.053063        0.0962446       -0.587871       0.530323        0.901743        -0.336968      
  1.4e+010        0.00021314      2.97e-007       0.720144        -0.623071       0.0604925       0.100267        -0.5511         0.551586        0.889775        -0.36066       
  1.5e+010        0.00021314      2.97e-007       0.688048        -0.649423       0.0678775       0.103459        -0.508963       0.56925         0.876359        -0.380564      
