! VERSION = 6.00
!Data measured by ggf on Wed Jan 24 09:16:49 2018 using model file NPN_MEAS_SCALE
BEGIN_HEADER
 ICCAP_INPUTS
  vbe        V  B GROUND SMU_B 0.015 LIN        2    0.6        -1.8       25   -0.1      
  vc         V  C GROUND SMU_C 0.015 CON        0
  ve         V  E GROUND SMU_E 0 CON        0
  vs         V  S GROUND SMU_S 0 CON        0
  freq       F  LIST       1 74 100000000 200000000 300000000 400000000 500000000 600000000 700000000 800000000 900000000 1000000000 2000000000 3000000000 4000000000 5000000000 6000000000 7000000000 8000000000 9000000000 10000000000 11000000000 12000000000 13000000000 14000000000 15000000000 16000000000 17000000000 18000000000 19000000000 20000000000 21000000000 22000000000 23000000000 24000000000 25000000000 26000000000 27000000000 28000000000 29000000000 30000000000 31000000000 32000000000 33000000000 34000000000 35000000000 36000000000 37000000000 38000000000 39000000000 40000000000 41000000000 42000000000 43000000000 44000000000 45000000000 46000000000 47000000000 48000000000 49000000000 50000000000 51000000000 52000000000 53000000000 54000000000 55000000000 56000000000 57000000000 58000000000 59000000000 60000000000 61000000000 62000000000 63000000000 64000000000 65000000000
 ICCAP_OUTPUTS
  S          S  B C GROUND NWA M
  ib         I  B GROUND SMU_B M
  S_deemb    S B C GROUND n/a B
 ICCAP_VALUES
  TNOM "27"
  TEMP "27"
  TECHNO "SG13G2"
  LOT "EDJ802"
  WAFER "02"
  CHIP "(3.3)"
  MODULE "S439S"
  DEV_NAME "D03"
  DEV_GEOM_L "2.5"
  DEV_GEOM_W "0.07"
  NUM_OF_TRANS_RF "2"
  REMARKS "Nx=2; Power -30/-20dBm, Slope: 0.1dB/GHz"
  TIMEDATE "Wed Jan 24 08:59:39     2018"
  OPERATOR "ggf"
END_HEADER

BEGIN_DB
 ICCAP_VAR vbe        0.6            
 ICCAP_VAR vc         0              
 ICCAP_VAR ve         0              
 ICCAP_VAR vs         0              

 #freq            R:S(1,1)        I:S(1,1)        R:S(1,2)        I:S(1,2)        R:S(2,1)        I:S(2,1)        R:S(2,2)        I:S(2,2)        ib              R:S_deemb(1,1)  I:S_deemb(1,1)  R:S_deemb(1,2)  I:S_deemb(1,2)  R:S_deemb(2,1)  I:S_deemb(2,1)  R:S_deemb(2,2)  I:S_deemb(2,2) 
  1e+008          0.999306        -0.00274766     0.000356803     0.00150204      0.000166348     0.00136854      0.994242        -0.00274582     2.173e-007      0.999518        -0.00162361     0.000323325     0.00144086      0.000395787     0.00133503      0.994394        -0.0012479     
  2e+008          0.999949        -0.00796237     0.00042171      0.00281691      0.00020903      0.00287387      0.993871        -0.00601511     2.173e-007      0.999978        -0.00554321     0.000403564     0.00266883      1.35009e-005    0.00269152      0.99409         -0.0035522     
  3e+008          0.999839        -0.0128667      0.000443378     0.00423741      0.000451296     0.00411344      0.993878        -0.00956984     2.173e-007      0.999784        -0.0093861      0.000419917     0.00398473      0.000573819     0.00389696      0.99399         -0.0059155     
  4e+008          1.00017         -0.0174741      0.00051989      0.00564971      0.000468087     0.00543791      0.993538        -0.0126753      2.173e-007      0.999864        -0.0128788      0.000484834     0.00529875      0.000295263     0.00508973      0.993955        -0.0077523     
  5e+008          0.999956        -0.0228749      0.000608894     0.00700005      0.000602207     0.00696522      0.993368        -0.0158118      2.173e-007      0.999829        -0.0170481      0.000530879     0.00655843      0.000538204     0.00658514      0.993543        -0.00988161    
  6e+008          0.999893        -0.0272308      0.000706582     0.00839394      0.000552005     0.00835562      0.99319         -0.0187094      2.173e-007      0.999823        -0.0200647      0.000646491     0.00786987      0.000598508     0.00779104      0.993339        -0.0116528     
  7e+008          0.999745        -0.0318872      0.000764337     0.00978756      0.000681787     0.00963888      0.993016        -0.0221734      2.173e-007      0.999649        -0.0235965      0.000644374     0.00919864      0.000556849     0.0089889       0.993458        -0.013848      
  8e+008          0.999415        -0.0367294      0.000885124     0.0111278       0.000922627     0.0109405       0.99348         -0.0249597      2.173e-007      0.999517        -0.0271095      0.000753769     0.010444        0.000808866     0.0102753       0.993845        -0.0154661     
  9e+008          0.999266        -0.0413878      0.00105003      0.0125281       0.000897259     0.0123446       0.993145        -0.0281112      2.173e-007      0.999368        -0.0307675      0.000867662     0.0117551       0.000792646     0.0114811       0.993623        -0.017475      
  1e+009          0.998825        -0.0457163      0.00117383      0.0138447       0.00110428      0.0136251       0.99266         -0.0311845      2.173e-007      0.999166        -0.0338116      0.000949867     0.0129735       0.000951836     0.0127335       0.993191        -0.0193496     
  2e+009          0.99534         -0.0909487      0.00300186      0.0272763       0.00308461      0.0268221       0.989783        -0.0610299      2.173e-007      0.997176        -0.0673435      0.0022487       0.0255958       0.00232745      0.0250106       0.991408        -0.037388      
  3e+009          0.988318        -0.137691       0.00624941      0.0405453       0.00600294      0.0398313       0.98537         -0.0909085      2.173e-007      0.992862        -0.102248       0.00456857      0.0382225       0.00434692      0.0374179       0.988671        -0.0559677     
  4e+009          0.979575        -0.181854       0.0101676       0.0531857       0.00998435      0.0523072       0.98046         -0.118673       2.173e-007      0.987696        -0.135419       0.00724461      0.0502953       0.00713914      0.0493539       0.985837        -0.0723466     
  5e+009          0.968716        -0.22431        0.0152223       0.0655872       0.0149358       0.0643867       0.973648        -0.146059       2.173e-007      0.98105         -0.167238       0.010739        0.0623485       0.0106007       0.0610834       0.9818          -0.0886479     
  6e+009          0.954135        -0.26913        0.0212572       0.0772181       0.0206437       0.0758757       0.965718        -0.175033       2.173e-007      0.971889        -0.202781       0.0149984       0.0738539       0.014448        0.0725519       0.977204        -0.106572      
  7e+009          0.9384          -0.310469       0.0280348       0.0883109       0.0274336       0.0868759       0.958749        -0.202118       2.173e-007      0.962651        -0.233208       0.0196425       0.0851137       0.0191094       0.0836088       0.974016        -0.122768      
  8e+009          0.921439        -0.348936       0.0355857       0.0987827       0.0347122       0.0973181       0.94966         -0.226914       2.173e-007      0.952008        -0.263223       0.0249369       0.0960063       0.0242481       0.0944295       0.969022        -0.137506      
  9e+009          0.901555        -0.388331       0.0442848       0.108846        0.0427435       0.107051        0.937982        -0.25267        2.173e-007      0.939721        -0.293933       0.0311338       0.106898        0.02975         0.104963        0.962302        -0.153117      
  1e+010          0.879941        -0.427109       0.0527704       0.116877        0.0520604       0.115642        0.927288        -0.279305       2.173e-007      0.926289        -0.324707       0.0371086       0.115999        0.0365364       0.114809        0.957173        -0.170042      
  1.1e+010        0.857651        -0.460789       0.0626604       0.125857        0.060595        0.124137        0.916558        -0.302229       2.173e-007      0.91256         -0.351673       0.0442918       0.126481        0.0424423       0.124435        0.951422        -0.183667      
  1.2e+010        0.833736        -0.494039       0.0726344       0.133171        0.0712295       0.131367        0.904834        -0.32463        2.173e-007      0.897593        -0.379102       0.0515155       0.135595        0.0502883       0.133591        0.945596        -0.197045      
  1.3e+010        0.806989        -0.525685       0.0832413       0.139735        0.081234        0.137716        0.888445        -0.346132       2.173e-007      0.879933        -0.405798       0.0594243       0.144454        0.0576903       0.142137        0.935678        -0.210903      
  1.4e+010        0.780902        -0.557173       0.0942403       0.145261        0.0922077       0.143772        0.876534        -0.369818       2.173e-007      0.863677        -0.433341       0.0677994       0.152773        0.0659996       0.150798        0.930495        -0.22618       
  1.5e+010        0.754543        -0.583559       0.104736        0.149317        0.102912        0.14725         0.864413        -0.389986       2.173e-007      0.846141        -0.455757       0.075921        0.159675        0.0744253       0.157261        0.924848        -0.238735      
  1.6e+010        0.725682        -0.610452       0.116925        0.153472        0.113516        0.151526        0.848729        -0.408211       2.173e-007      0.826842        -0.479924       0.0857828       0.16727         0.0826066       0.164576        0.915344        -0.250149      
  1.7e+010        0.695404        -0.635196       0.127272        0.15579         0.12433         0.15386         0.832397        -0.426774       2.173e-007      0.80597         -0.50304        0.0941362       0.173042        0.0915025       0.170499        0.90654         -0.262382      
  1.8e+010        0.66757         -0.657602       0.139533        0.158326        0.135016        0.156673        0.816219        -0.445934       2.173e-007      0.787502        -0.524054       0.104475        0.179768        0.100134        0.17715         0.897515        -0.275222      
  1.9e+010        0.640157        -0.675644       0.149631        0.159285        0.147173        0.157441        0.805009        -0.468354       2.173e-007      0.768316        -0.540731       0.11273         0.184565        0.110583        0.182091        0.894073        -0.289995      
  2e+010          0.607491        -0.697696       0.160581        0.159169        0.156054        0.15752         0.787635        -0.47642        2.173e-007      0.745562        -0.563625       0.122797        0.188625        0.118538        0.185897        0.882319        -0.294048      
  2.1e+010        0.58127         -0.716309       0.170403        0.159284        0.167082        0.15843         0.769749        -0.485489       2.173e-007      0.728193        -0.581951       0.131731        0.193012        0.128432        0.191225        0.871827        -0.29967       
  2.2e+010        0.551535        -0.730407       0.180101        0.158867        0.176898        0.157382        0.749026        -0.5067         2.173e-007      0.706172        -0.597225       0.140664        0.197223        0.137614        0.194856        0.861473        -0.316012      
  2.3e+010        0.520818        -0.743563       0.191027        0.156838        0.186621        0.156172        0.742164        -0.531874       2.173e-007      0.683354        -0.612299       0.150879        0.200042        0.146497        0.198101        0.861385        -0.333236      
  2.4e+010        0.490824        -0.761184       0.197729        0.156286        0.194079        0.155662        0.756974        -0.532948       2.173e-007      0.662277        -0.631773       0.156769        0.202273        0.153201        0.200528        0.876925        -0.32761       
  2.5e+010        0.465929        -0.771769       0.212187        0.159669        0.206867        0.159519        0.785228        -0.531503       2.173e-007      0.645884        -0.643098       0.169559        0.209009        0.164189        0.207492        0.897822        -0.3222        
  2.6e+010        0.436038        -0.78168        0.22767         0.149253        0.221976        0.150564        0.728162        -0.558139       2.173e-007      0.622737        -0.655695       0.186467        0.205387        0.179924        0.20498         0.851558        -0.342571      
  2.7e+010        0.401542        -0.791862       0.233572        0.145467        0.229756        0.146958        0.651692        -0.576715       2.173e-007      0.59515         -0.670723       0.19476         0.207977        0.190091        0.208322        0.802103        -0.371289      
  2.8e+010        0.377438        -0.800349       0.242578        0.138327        0.23793         0.138587        0.618585        -0.627192       2.173e-007      0.577965        -0.681347       0.205759        0.208077        0.200685        0.206791        0.790902        -0.418393      
  2.9e+010        0.352749        -0.805164       0.246044        0.134409        0.241228        0.136096        0.624149        -0.629237       2.173e-007      0.559059        -0.688948       0.209747        0.207567        0.203801        0.207749        0.801057        -0.41133       
  3e+010          0.321489        -0.809471       0.253528        0.132446        0.248993        0.133432        0.629546        -0.616689       2.173e-007      0.533872        -0.698483       0.21763         0.208631        0.21243         0.208339        0.802459        -0.393396      
  3.1e+010        0.29271         -0.819993       0.26137         0.1267          0.257757        0.127636        0.603046        -0.624298       2.173e-007      0.512145        -0.713535       0.227493        0.207221        0.223524        0.206709        0.782207        -0.404181      
  3.2e+010        0.274723        -0.822168       0.267786        0.121983        0.263822        0.122018        0.578934        -0.634292       2.173e-007      0.499402        -0.71759        0.235779        0.206996        0.231362        0.205943        0.767686        -0.41483       
  3.3e+010        0.244194        -0.818582       0.275639        0.116928        0.270599        0.119184        0.571866        -0.647027       2.173e-007      0.471698        -0.719565       0.245232        0.206753        0.239069        0.207549        0.768792        -0.421252      
  3.4e+010        0.208778        -0.819744       0.283381        0.110751        0.279589        0.112935        0.55857         -0.655617       2.173e-007      0.440752        -0.728987       0.255603        0.205147        0.250663        0.206192        0.761366        -0.4284        
  3.5e+010        0.190697        -0.828874       0.288281        0.104659        0.284339        0.106195        0.545129        -0.660064       2.173e-007      0.429602        -0.741257       0.262829        0.202749        0.257974        0.203031        0.753355        -0.431695      
  3.6e+010        0.17149         -0.827088       0.29271         0.0982165       0.28834         0.100215        0.51806         -0.670292       2.173e-007      0.414046        -0.742183       0.270458        0.199947        0.26481         0.200655        0.736885        -0.444292      
  3.7e+010        0.14293         -0.823995       0.29873         0.0925428       0.294033        0.0954967       0.509093        -0.675556       2.173e-007      0.387437        -0.745966       0.278715        0.198147        0.272597        0.199694        0.732967        -0.44591       
  3.8e+010        0.115021        -0.824141       0.303861        0.0860878       0.300398        0.0888756       0.495785        -0.686357       2.173e-007      0.361857        -0.752536       0.286654        0.195077        0.281452        0.197154        0.7279          -0.455631      
  3.9e+010        0.101352        -0.823446       0.307088        0.0790311       0.303385        0.0802531       0.468685        -0.692577       2.173e-007      0.353004        -0.752989       0.293451        0.191386        0.288572        0.191602        0.708252        -0.466489      
  4e+010          0.0807966       -0.82222        0.311017        0.0732047       0.306146        0.0765344       0.462078        -0.700501       2.173e-007      0.335647        -0.755816       0.299443        0.189243        0.29285         0.190549        0.709019        -0.46975       
  4.1e+010        0.0508359       -0.823217       0.315914        0.0672592       0.31229         0.0704473       0.443705        -0.70185        2.173e-007      0.308371        -0.764918       0.307264        0.186505        0.301818        0.188411        0.696202        -0.471219      
  4.2e+010        0.0345327       -0.819067       0.319405        0.0595905       0.315392        0.0623736       0.426038        -0.711291       2.173e-007      0.294872        -0.764281       0.314423        0.182774        0.308473        0.183979        0.689334        -0.483743      
  4.3e+010        0.00821024      -0.812508       0.322111        0.0528522       0.318063        0.0569477       0.412119        -0.713937       2.173e-007      0.268689        -0.763681       0.320629        0.178472        0.314322        0.181222        0.68            -0.487676      
  4.4e+010        -0.00343766     -0.813207       0.325296        0.0475899       0.321877        0.050759        0.394768        -0.709923       2.173e-007      0.261148        -0.766297       0.326865        0.176284        0.321322        0.178162        0.664926        -0.485198      
  4.5e+010        -0.0249889      -0.811618       0.328894        0.0402429       0.324966        0.044541        0.372163        -0.72861        2.173e-007      0.242189        -0.770132       0.334322        0.172231        0.328064        0.17528         0.65488         -0.50717       
  4.6e+010        -0.0408616      -0.810921       0.331868        0.0344212       0.328479        0.0388247       0.368236        -0.725707       2.173e-007      0.229607        -0.773272       0.33947         0.169485        0.333515        0.172761        0.654295        -0.501605      
  4.7e+010        -0.0674128      -0.8024         0.334712        0.0269462       0.331769        0.0319976       0.351653        -0.721942       2.173e-007      0.20245         -0.77116        0.34679         0.164759        0.341558        0.169312        0.641334        -0.500318      
  4.8e+010        -0.0850115      -0.804669       0.337735        0.0188138       0.334015        0.0209642       0.320242        -0.735332       2.173e-007      0.189093        -0.778095       0.355279        0.159905        0.350187        0.160953        0.619448        -0.521587      
  4.9e+010        -0.0966343      -0.799046       0.33772         0.0127777       0.333493        0.0161967       0.321624        -0.740683       2.173e-007      0.179177        -0.773951       0.357419        0.155908        0.351268        0.157705        0.627466        -0.52265       
  5e+010          -0.114903       -0.797115       0.34204         0.0065132       0.339817        0.0129017       0.313383        -0.732833       2.173e-007      0.163632        -0.778096       0.365476        0.153107        0.359882        0.158919        0.620485        -0.513652      
  5.1e+010        -0.144123       -0.784175       0.343028        -0.00352147     0.339711        -9.37073e-005   0.28698         -0.73331        2.173e-007      0.131228        -0.773329       0.372617        0.143933        0.367352        0.146292        0.597479        -0.520767      
  5.2e+010        -0.155963       -0.791843       0.341527        -0.0125665      0.335941        -0.00618455     0.267611        -0.746196       2.173e-007      0.126885        -0.7857         0.377293        0.137118        0.367767        0.141662        0.58871         -0.538285      
