#   Hz   S  RI   R   50
! 
0.000000e+00  -9.384598e-01 0.000000e+00 
1.875000e+07  -9.384301e-01 7.434824e-03 
3.750000e+07  -9.383410e-01 1.486894e-02 
5.625000e+07  -9.381925e-01 2.230166e-02 
7.500000e+07  -9.379847e-01 2.973226e-02 
9.375000e+07  -9.377176e-01 3.716006e-02 
1.125000e+08  -9.373913e-01 4.458435e-02 
1.312500e+08  -9.370057e-01 5.200442e-02 
1.500000e+08  -9.365611e-01 5.941959e-02 
1.687500e+08  -9.360574e-01 6.682915e-02 
1.875000e+08  -9.354947e-01 7.423241e-02 
2.062500e+08  -9.348733e-01 8.162868e-02 
2.250000e+08  -9.341931e-01 8.901726e-02 
2.437500e+08  -9.334544e-01 9.639748e-02 
2.625000e+08  -9.326572e-01 1.037686e-01 
2.812500e+08  -9.318017e-01 1.111301e-01 
3.000000e+08  -9.308881e-01 1.184811e-01 
3.187500e+08  -9.299165e-01 1.258210e-01 
3.375000e+08  -9.288872e-01 1.331491e-01 
3.562500e+08  -9.278002e-01 1.404648e-01 
3.750000e+08  -9.266559e-01 1.477674e-01 
3.937500e+08  -9.254545e-01 1.550563e-01 
4.125000e+08  -9.241961e-01 1.623307e-01 
4.312500e+08  -9.228810e-01 1.695901e-01 
4.500000e+08  -9.215094e-01 1.768338e-01 
4.687500e+08  -9.200816e-01 1.840611e-01 
4.875000e+08  -9.185979e-01 1.912714e-01 
5.062500e+08  -9.170585e-01 1.984641e-01 
5.250000e+08  -9.154637e-01 2.056386e-01 
5.437500e+08  -9.138139e-01 2.127942e-01 
5.625000e+08  -9.121092e-01 2.199303e-01 
5.812500e+08  -9.103501e-01 2.270463e-01 
6.000000e+08  -9.085368e-01 2.341417e-01 
6.187500e+08  -9.066697e-01 2.412158e-01 
6.375000e+08  -9.047491e-01 2.482680e-01 
6.562500e+08  -9.027753e-01 2.552977e-01 
6.750000e+08  -9.007488e-01 2.623045e-01 
6.937500e+08  -8.986698e-01 2.692876e-01 
7.125000e+08  -8.965388e-01 2.762466e-01 
7.312500e+08  -8.943561e-01 2.831809e-01 
7.500000e+08  -8.921221e-01 2.900900e-01 
7.687500e+08  -8.898371e-01 2.969732e-01 
7.875000e+08  -8.875017e-01 3.038302e-01 
8.062500e+08  -8.851162e-01 3.106603e-01 
8.250000e+08  -8.826810e-01 3.174630e-01 
8.437500e+08  -8.801966e-01 3.242379e-01 
8.625000e+08  -8.776633e-01 3.309844e-01 
8.812500e+08  -8.750816e-01 3.377021e-01 
9.000000e+08  -8.724520e-01 3.443905e-01 
9.187500e+08  -8.697749e-01 3.510490e-01 
9.375000e+08  -8.670507e-01 3.576773e-01 
9.562500e+08  -8.642799e-01 3.642748e-01 
9.750000e+08  -8.614630e-01 3.708412e-01 
9.937500e+08  -8.586004e-01 3.773759e-01 
1.012500e+09  -8.556926e-01 3.838786e-01 
1.031250e+09  -8.527401e-01 3.903489e-01 
1.050000e+09  -8.497434e-01 3.967863e-01 
1.068750e+09  -8.467030e-01 4.031903e-01 
1.087500e+09  -8.436192e-01 4.095607e-01 
1.106250e+09  -8.404928e-01 4.158971e-01 
1.125000e+09  -8.373241e-01 4.221990e-01 
1.143750e+09  -8.341136e-01 4.284661e-01 
1.162500e+09  -8.308619e-01 4.346980e-01 
1.181250e+09  -8.275695e-01 4.408944e-01 
1.200000e+09  -8.242368e-01 4.470549e-01 
1.218750e+09  -8.208644e-01 4.531793e-01 
1.237500e+09  -8.174529e-01 4.592672e-01 
1.256250e+09  -8.140027e-01 4.653182e-01 
1.275000e+09  -8.105144e-01 4.713321e-01 
1.293750e+09  -8.069884e-01 4.773086e-01 
1.312500e+09  -8.034254e-01 4.832473e-01 
1.331250e+09  -7.998258e-01 4.891481e-01 
1.350000e+09  -7.961902e-01 4.950107e-01 
1.368750e+09  -7.925192e-01 5.008347e-01 
1.387500e+09  -7.888131e-01 5.066200e-01 
1.406250e+09  -7.850727e-01 5.123662e-01 
1.425000e+09  -7.812984e-01 5.180733e-01 
1.443750e+09  -7.774907e-01 5.237409e-01 
1.462500e+09  -7.736503e-01 5.293688e-01 
1.481250e+09  -7.697776e-01 5.349569e-01 
1.500000e+09  -7.658731e-01 5.405048e-01 
1.518750e+09  -7.619375e-01 5.460126e-01 
1.537500e+09  -7.579712e-01 5.514799e-01 
1.556250e+09  -7.539748e-01 5.569066e-01 
1.575000e+09  -7.499489e-01 5.622926e-01 
1.593750e+09  -7.458939e-01 5.676376e-01 
1.612500e+09  -7.418104e-01 5.729416e-01 
1.631250e+09  -7.376989e-01 5.782044e-01 
1.650000e+09  -7.335601e-01 5.834258e-01 
1.668750e+09  -7.293943e-01 5.886059e-01 
1.687500e+09  -7.252022e-01 5.937443e-01 
1.706250e+09  -7.209842e-01 5.988412e-01 
1.725000e+09  -7.167410e-01 6.038963e-01 
1.743750e+09  -7.124730e-01 6.089095e-01 
1.762500e+09  -7.081807e-01 6.138809e-01 
1.781250e+09  -7.038647e-01 6.188102e-01 
1.800000e+09  -6.995256e-01 6.236975e-01 
1.818750e+09  -6.951637e-01 6.285428e-01 
1.837500e+09  -6.907797e-01 6.333458e-01 
1.856250e+09  -6.863740e-01 6.381067e-01 
1.875000e+09  -6.819472e-01 6.428253e-01 
1.893750e+09  -6.774998e-01 6.475017e-01 
1.912500e+09  -6.730323e-01 6.521359e-01 
1.931250e+09  -6.685451e-01 6.567277e-01 
1.950000e+09  -6.640388e-01 6.612772e-01 
1.968750e+09  -6.595140e-01 6.657845e-01 
1.987500e+09  -6.549710e-01 6.702495e-01 
2.006250e+09  -6.504104e-01 6.746722e-01 
2.025000e+09  -6.458326e-01 6.790527e-01 
2.043750e+09  -6.412382e-01 6.833909e-01 
2.062500e+09  -6.366277e-01 6.876870e-01 
2.081250e+09  -6.320014e-01 6.919409e-01 
2.100000e+09  -6.273600e-01 6.961527e-01 
2.118750e+09  -6.227037e-01 7.003225e-01 
2.137500e+09  -6.180333e-01 7.044503e-01 
2.156250e+09  -6.133490e-01 7.085361e-01 
2.175000e+09  -6.086513e-01 7.125801e-01 
2.193750e+09  -6.039407e-01 7.165823e-01 
2.212500e+09  -5.992177e-01 7.205428e-01 
2.231250e+09  -5.944828e-01 7.244617e-01 
2.250000e+09  -5.897362e-01 7.283391e-01 
2.268750e+09  -5.849785e-01 7.321750e-01 
2.287500e+09  -5.802102e-01 7.359695e-01 
2.306250e+09  -5.754316e-01 7.397229e-01 
2.325000e+09  -5.706432e-01 7.434351e-01 
2.343750e+09  -5.658453e-01 7.471063e-01 
2.362500e+09  -5.610385e-01 7.507366e-01 
2.381250e+09  -5.562232e-01 7.543261e-01 
2.400000e+09  -5.513996e-01 7.578750e-01 
2.418750e+09  -5.465683e-01 7.613834e-01 
2.437500e+09  -5.417297e-01 7.648514e-01 
2.456250e+09  -5.368841e-01 7.682791e-01 
2.475000e+09  -5.320319e-01 7.716668e-01 
2.493750e+09  -5.271735e-01 7.750145e-01 
2.512500e+09  -5.223094e-01 7.783224e-01 
2.531250e+09  -5.174398e-01 7.815907e-01 
2.550000e+09  -5.125652e-01 7.848195e-01 
2.568750e+09  -5.076858e-01 7.880089e-01 
2.587500e+09  -5.028022e-01 7.911592e-01 
2.606250e+09  -4.979146e-01 7.942704e-01 
2.625000e+09  -4.930234e-01 7.973429e-01 
2.643750e+09  -4.881290e-01 8.003767e-01 
2.662500e+09  -4.832316e-01 8.033720e-01 
2.681250e+09  -4.783317e-01 8.063289e-01 
2.700000e+09  -4.734295e-01 8.092478e-01 
2.718750e+09  -4.685254e-01 8.121287e-01 
2.737500e+09  -4.636198e-01 8.149719e-01 
2.756250e+09  -4.587129e-01 8.177775e-01 
2.775000e+09  -4.538051e-01 8.205457e-01 
2.793750e+09  -4.488966e-01 8.232767e-01 
2.812500e+09  -4.439878e-01 8.259707e-01 
2.831250e+09  -4.390790e-01 8.286280e-01 
2.850000e+09  -4.341706e-01 8.312486e-01 
2.868750e+09  -4.292626e-01 8.338328e-01 
2.887500e+09  -4.243556e-01 8.363808e-01 
2.906250e+09  -4.194497e-01 8.388929e-01 
2.925000e+09  -4.145453e-01 8.413691e-01 
2.943750e+09  -4.096426e-01 8.438098e-01 
2.962500e+09  -4.047419e-01 8.462150e-01 
2.981250e+09  -3.998434e-01 8.485851e-01 
3.000000e+09  -3.949475e-01 8.509203e-01 
3.018750e+09  -3.900543e-01 8.532207e-01 
3.037500e+09  -3.851642e-01 8.554865e-01 
3.056250e+09  -3.802774e-01 8.577181e-01 
3.075000e+09  -3.753941e-01 8.599155e-01 
3.093750e+09  -3.705146e-01 8.620790e-01 
3.112500e+09  -3.656391e-01 8.642089e-01 
3.131250e+09  -3.607678e-01 8.663053e-01 
3.150000e+09  -3.559011e-01 8.683684e-01 
3.168750e+09  -3.510390e-01 8.703986e-01 
3.187500e+09  -3.461819e-01 8.723959e-01 
3.206250e+09  -3.413299e-01 8.743606e-01 
3.225000e+09  -3.364833e-01 8.762930e-01 
3.243750e+09  -3.316422e-01 8.781932e-01 
3.262500e+09  -3.268070e-01 8.800615e-01 
3.281250e+09  -3.219777e-01 8.818981e-01 
3.300000e+09  -3.171545e-01 8.837032e-01 
3.318750e+09  -3.123378e-01 8.854770e-01 
3.337500e+09  -3.075276e-01 8.872198e-01 
3.356250e+09  -3.027242e-01 8.889318e-01 
3.375000e+09  -2.979277e-01 8.906132e-01 
3.393750e+09  -2.931383e-01 8.922642e-01 
3.412500e+09  -2.883562e-01 8.938850e-01 
3.431250e+09  -2.835816e-01 8.954759e-01 
3.450000e+09  -2.788146e-01 8.970371e-01 
3.468750e+09  -2.740554e-01 8.985688e-01 
3.487500e+09  -2.693042e-01 9.000712e-01 
3.506250e+09  -2.645611e-01 9.015446e-01 
3.525000e+09  -2.598262e-01 9.029891e-01 
3.543750e+09  -2.550998e-01 9.044050e-01 
3.562500e+09  -2.503820e-01 9.057925e-01 
3.581250e+09  -2.456728e-01 9.071518e-01 
3.600000e+09  -2.409726e-01 9.084832e-01 
3.618750e+09  -2.362813e-01 9.097868e-01 
3.637500e+09  -2.315992e-01 9.110629e-01 
3.656250e+09  -2.269264e-01 9.123117e-01 
3.675000e+09  -2.222629e-01 9.135334e-01 
3.693750e+09  -2.176090e-01 9.147283e-01 
3.712500e+09  -2.129647e-01 9.158964e-01 
3.731250e+09  -2.083302e-01 9.170381e-01 
3.750000e+09  -2.037056e-01 9.181536e-01 
3.768750e+09  -1.990910e-01 9.192431e-01 
3.787500e+09  -1.944866e-01 9.203067e-01 
3.806250e+09  -1.898923e-01 9.213448e-01 
3.825000e+09  -1.853084e-01 9.223574e-01 
3.843750e+09  -1.807350e-01 9.233449e-01 
3.862500e+09  -1.761720e-01 9.243074e-01 
3.881250e+09  -1.716198e-01 9.252452e-01 
3.900000e+09  -1.670782e-01 9.261583e-01 
3.918750e+09  -1.625475e-01 9.270472e-01 
3.937500e+09  -1.580277e-01 9.279119e-01 
3.956250e+09  -1.535190e-01 9.287526e-01 
3.975000e+09  -1.490213e-01 9.295696e-01 
3.993750e+09  -1.445348e-01 9.303631e-01 
4.012500e+09  -1.400596e-01 9.311332e-01 
4.031250e+09  -1.355957e-01 9.318802e-01 
4.050000e+09  -1.311433e-01 9.326043e-01 
4.068750e+09  -1.267024e-01 9.333056e-01 
4.087500e+09  -1.222730e-01 9.339844e-01 
4.106250e+09  -1.178553e-01 9.346408e-01 
4.125000e+09  -1.134493e-01 9.352751e-01 
4.143750e+09  -1.090550e-01 9.358874e-01 
4.162500e+09  -1.046727e-01 9.364780e-01 
4.181250e+09  -1.003022e-01 9.370470e-01 
4.200000e+09  -9.594367e-02 9.375946e-01 
4.218750e+09  -9.159719e-02 9.381210e-01 
4.237500e+09  -8.726279e-02 9.386264e-01 
4.256250e+09  -8.294054e-02 9.391110e-01 
4.275000e+09  -7.863047e-02 9.395750e-01 
4.293750e+09  -7.433265e-02 9.400185e-01 
4.312500e+09  -7.004713e-02 9.404418e-01 
4.331250e+09  -6.577394e-02 9.408449e-01 
4.350000e+09  -6.151314e-02 9.412282e-01 
4.368750e+09  -5.726478e-02 9.415918e-01 
4.387500e+09  -5.302888e-02 9.419358e-01 
4.406250e+09  -4.880551e-02 9.422605e-01 
4.425000e+09  -4.459468e-02 9.425660e-01 
4.443750e+09  -4.039645e-02 9.428525e-01 
4.462500e+09  -3.621085e-02 9.431201e-01 
4.481250e+09  -3.203792e-02 9.433691e-01 
4.500000e+09  -2.787768e-02 9.435996e-01 
4.518750e+09  -2.373017e-02 9.438118e-01 
4.537500e+09  -1.959542e-02 9.440059e-01 
4.556250e+09  -1.547346e-02 9.441820e-01 
4.575000e+09  -1.136432e-02 9.443402e-01 
4.593750e+09  -7.268018e-03 9.444809e-01 
4.612500e+09  -3.184585e-03 9.446040e-01 
4.631250e+09  8.859558e-04 9.447099e-01 
4.650000e+09  4.943583e-03 9.447986e-01 
4.668750e+09  8.988275e-03 9.448703e-01 
4.687500e+09  1.302001e-02 9.449252e-01 
4.706250e+09  1.703878e-02 9.449634e-01 
4.725000e+09  2.104455e-02 9.449851e-01 
4.743750e+09  2.503731e-02 9.449905e-01 
4.762500e+09  2.901705e-02 9.449797e-01 
4.781250e+09  3.298376e-02 9.449529e-01 
4.800000e+09  3.693741e-02 9.449101e-01 
4.818750e+09  4.087801e-02 9.448517e-01 
4.837500e+09  4.480553e-02 9.447776e-01 
4.856250e+09  4.871997e-02 9.446882e-01 
4.875000e+09  5.262132e-02 9.445834e-01 
4.893750e+09  5.650957e-02 9.444636e-01 
4.912500e+09  6.038471e-02 9.443287e-01 
4.931250e+09  6.424674e-02 9.441790e-01 
4.950000e+09  6.809566e-02 9.440147e-01 
4.968750e+09  7.193146e-02 9.438358e-01 
4.987500e+09  7.575413e-02 9.436425e-01 
5.006250e+09  7.956368e-02 9.434349e-01 
5.025000e+09  8.336010e-02 9.432132e-01 
5.043750e+09  8.714339e-02 9.429775e-01 
5.062500e+09  9.091356e-02 9.427280e-01 
5.081250e+09  9.467060e-02 9.424648e-01 
5.100000e+09  9.841452e-02 9.421881e-01 
5.118750e+09  1.021453e-01 9.418979e-01 
5.137500e+09  1.058630e-01 9.415944e-01 
5.156250e+09  1.095676e-01 9.412777e-01 
5.175000e+09  1.132590e-01 9.409481e-01 
5.193750e+09  1.169374e-01 9.406055e-01 
5.212500e+09  1.206026e-01 9.402502e-01 
5.231250e+09  1.242548e-01 9.398822e-01 
5.250000e+09  1.278939e-01 9.395017e-01 
5.268750e+09  1.315199e-01 9.391089e-01 
5.287500e+09  1.351329e-01 9.387038e-01 
5.306250e+09  1.387328e-01 9.382866e-01 
5.325000e+09  1.423197e-01 9.378573e-01 
5.343750e+09  1.458935e-01 9.374162e-01 
5.362500e+09  1.494543e-01 9.369634e-01 
5.381250e+09  1.530021e-01 9.364989e-01 
5.400000e+09  1.565369e-01 9.360229e-01 
5.418750e+09  1.600588e-01 9.355355e-01 
5.437500e+09  1.635676e-01 9.350368e-01 
5.456250e+09  1.670635e-01 9.345270e-01 
5.475000e+09  1.705465e-01 9.340062e-01 
5.493750e+09  1.740166e-01 9.334744e-01 
5.512500e+09  1.774737e-01 9.329319e-01 
5.531250e+09  1.809180e-01 9.323786e-01 
5.550000e+09  1.843494e-01 9.318148e-01 
5.568750e+09  1.877679e-01 9.312405e-01 
5.587500e+09  1.911736e-01 9.306558e-01 
5.606250e+09  1.945665e-01 9.300609e-01 
5.625000e+09  1.979466e-01 9.294559e-01 
5.643750e+09  2.013139e-01 9.288409e-01 
5.662500e+09  2.046684e-01 9.282159e-01 
5.681250e+09  2.080102e-01 9.275812e-01 
5.700000e+09  2.113393e-01 9.269367e-01 
5.718750e+09  2.146557e-01 9.262827e-01 
5.737500e+09  2.179595e-01 9.256191e-01 
5.756250e+09  2.212505e-01 9.249462e-01 
5.775000e+09  2.245290e-01 9.242640e-01 
5.793750e+09  2.277948e-01 9.235727e-01 
5.812500e+09  2.310481e-01 9.228722e-01 
5.831250e+09  2.342888e-01 9.221628e-01 
5.850000e+09  2.375169e-01 9.214446e-01 
5.868750e+09  2.407325e-01 9.207175e-01 
5.887500e+09  2.439357e-01 9.199818e-01 
5.906250e+09  2.471264e-01 9.192375e-01 
5.925000e+09  2.503046e-01 9.184847e-01 
5.943750e+09  2.534705e-01 9.177235e-01 
5.962500e+09  2.566239e-01 9.169540e-01 
5.981250e+09  2.597650e-01 9.161764e-01 
6.000000e+09  2.628938e-01 9.153906e-01 
6.018750e+09  2.660103e-01 9.145969e-01 
6.037500e+09  2.691144e-01 9.137952e-01 
6.056250e+09  2.722064e-01 9.129857e-01 
6.075000e+09  2.752861e-01 9.121685e-01 
6.093750e+09  2.783536e-01 9.113437e-01 
6.112500e+09  2.814089e-01 9.105113e-01 
6.131250e+09  2.844521e-01 9.096714e-01 
6.150000e+09  2.874832e-01 9.088241e-01 
6.168750e+09  2.905022e-01 9.079696e-01 
6.187500e+09  2.935092e-01 9.071079e-01 
6.206250e+09  2.965041e-01 9.062391e-01 
6.225000e+09  2.994870e-01 9.053632e-01 
6.243750e+09  3.024580e-01 9.044804e-01 
6.262500e+09  3.054170e-01 9.035907e-01 
6.281250e+09  3.083642e-01 9.026943e-01 
6.300000e+09  3.112995e-01 9.017912e-01 
6.318750e+09  3.142229e-01 9.008814e-01 
6.337500e+09  3.171345e-01 8.999652e-01 
6.356250e+09  3.200343e-01 8.990425e-01 
6.375000e+09  3.229224e-01 8.981134e-01 
6.393750e+09  3.257988e-01 8.971780e-01 
6.412500e+09  3.286635e-01 8.962364e-01 
6.431250e+09  3.315165e-01 8.952887e-01 
6.450000e+09  3.343580e-01 8.943350e-01 
6.468750e+09  3.371878e-01 8.933752e-01 
6.487500e+09  3.400061e-01 8.924096e-01 
6.506250e+09  3.428129e-01 8.914381e-01 
6.525000e+09  3.456081e-01 8.904609e-01 
6.543750e+09  3.483919e-01 8.894780e-01 
6.562500e+09  3.511643e-01 8.884895e-01 
6.581250e+09  3.539254e-01 8.874955e-01 
6.600000e+09  3.566750e-01 8.864960e-01 
6.618750e+09  3.594133e-01 8.854912e-01 
6.637500e+09  3.621404e-01 8.844810e-01 
6.656250e+09  3.648562e-01 8.834656e-01 
6.675000e+09  3.675608e-01 8.824450e-01 
6.693750e+09  3.702541e-01 8.814193e-01 
6.712500e+09  3.729364e-01 8.803885e-01 
6.731250e+09  3.756075e-01 8.793529e-01 
6.750000e+09  3.782676e-01 8.783123e-01 
6.768750e+09  3.809166e-01 8.772668e-01 
6.787500e+09  3.835545e-01 8.762167e-01 
6.806250e+09  3.861816e-01 8.751618e-01 
6.825000e+09  3.887976e-01 8.741022e-01 
6.843750e+09  3.914028e-01 8.730382e-01 
6.862500e+09  3.939971e-01 8.719696e-01 
6.881250e+09  3.965805e-01 8.708965e-01 
6.900000e+09  3.991532e-01 8.698191e-01 
6.918750e+09  4.017151e-01 8.687374e-01 
6.937500e+09  4.042663e-01 8.676514e-01 
6.956250e+09  4.068068e-01 8.665613e-01 
6.975000e+09  4.093366e-01 8.654670e-01 
6.993750e+09  4.118558e-01 8.643686e-01 
7.012500e+09  4.143644e-01 8.632663e-01 
7.031250e+09  4.168625e-01 8.621599e-01 
7.050000e+09  4.193500e-01 8.610497e-01 
7.068750e+09  4.218271e-01 8.599357e-01 
7.087500e+09  4.242938e-01 8.588179e-01 
7.106250e+09  4.267500e-01 8.576963e-01 
7.125000e+09  4.291959e-01 8.565712e-01 
7.143750e+09  4.316314e-01 8.554424e-01 
7.162500e+09  4.340567e-01 8.543100e-01 
7.181250e+09  4.364717e-01 8.531742e-01 
7.200000e+09  4.388765e-01 8.520349e-01 
7.218750e+09  4.412711e-01 8.508923e-01 
7.237500e+09  4.436556e-01 8.497463e-01 
7.256250e+09  4.460299e-01 8.485970e-01 
7.275000e+09  4.483942e-01 8.474445e-01 
7.293750e+09  4.507484e-01 8.462889e-01 
7.312500e+09  4.530927e-01 8.451301e-01 
7.331250e+09  4.554270e-01 8.439683e-01 
7.350000e+09  4.577513e-01 8.428034e-01 
7.368750e+09  4.600658e-01 8.416356e-01 
7.387500e+09  4.623704e-01 8.404648e-01 
7.406250e+09  4.646653e-01 8.392912e-01 
7.425000e+09  4.669503e-01 8.381148e-01 
7.443750e+09  4.692256e-01 8.369356e-01 
7.462500e+09  4.714912e-01 8.357537e-01 
7.481250e+09  4.737472e-01 8.345691e-01 
7.500000e+09  4.759935e-01 8.333819e-01 
7.518750e+09  4.782302e-01 8.321921e-01 
7.537500e+09  4.804574e-01 8.309997e-01 
7.556250e+09  4.826750e-01 8.298049e-01 
7.575000e+09  4.848832e-01 8.286077e-01 
7.593750e+09  4.870820e-01 8.274080e-01 
7.612500e+09  4.892713e-01 8.262060e-01 
7.631250e+09  4.914513e-01 8.250016e-01 
7.650000e+09  4.936219e-01 8.237950e-01 
7.668750e+09  4.957833e-01 8.225862e-01 
7.687500e+09  4.979354e-01 8.213752e-01 
7.706250e+09  5.000783e-01 8.201621e-01 
7.725000e+09  5.022120e-01 8.189468e-01 
7.743750e+09  5.043366e-01 8.177296e-01 
7.762500e+09  5.064521e-01 8.165102e-01 
7.781250e+09  5.085585e-01 8.152890e-01 
7.800000e+09  5.106558e-01 8.140658e-01 
7.818750e+09  5.127442e-01 8.128406e-01 
7.837500e+09  5.148236e-01 8.116137e-01 
7.856250e+09  5.168941e-01 8.103849e-01 
7.875000e+09  5.189557e-01 8.091543e-01 
7.893750e+09  5.210085e-01 8.079220e-01 
7.912500e+09  5.230525e-01 8.066880e-01 
7.931250e+09  5.250877e-01 8.054524e-01 
7.950000e+09  5.271141e-01 8.042151e-01 
7.968750e+09  5.291319e-01 8.029762e-01 
7.987500e+09  5.311410e-01 8.017357e-01 
8.006250e+09  5.331415e-01 8.004938e-01 
8.025000e+09  5.351334e-01 7.992503e-01 
8.043750e+09  5.371167e-01 7.980054e-01 
8.062500e+09  5.390915e-01 7.967591e-01 
8.081250e+09  5.410578e-01 7.955114e-01 
8.100000e+09  5.430157e-01 7.942624e-01 
8.118750e+09  5.449652e-01 7.930120e-01 
8.137500e+09  5.469064e-01 7.917604e-01 
8.156250e+09  5.488392e-01 7.905075e-01 
8.175000e+09  5.507637e-01 7.892534e-01 
8.193750e+09  5.526799e-01 7.879981e-01 
8.212500e+09  5.545879e-01 7.867416e-01 
8.231250e+09  5.564877e-01 7.854841e-01 
8.250000e+09  5.583794e-01 7.842254e-01 
8.268750e+09  5.602629e-01 7.829657e-01 
8.287500e+09  5.621384e-01 7.817049e-01 
8.306250e+09  5.640058e-01 7.804432e-01 
8.325000e+09  5.658652e-01 7.791805e-01 
8.343750e+09  5.677167e-01 7.779168e-01 
8.362500e+09  5.695602e-01 7.766522e-01 
8.381250e+09  5.713957e-01 7.753867e-01 
8.400000e+09  5.732235e-01 7.741204e-01 
8.418750e+09  5.750434e-01 7.728532e-01 
8.437500e+09  5.768555e-01 7.715853e-01 
8.456250e+09  5.786598e-01 7.703165e-01 
8.475000e+09  5.804564e-01 7.690471e-01 
8.493750e+09  5.822453e-01 7.677769e-01 
8.512500e+09  5.840265e-01 7.665059e-01 
8.531250e+09  5.858001e-01 7.652344e-01 
8.550000e+09  5.875662e-01 7.639621e-01 
8.568750e+09  5.893246e-01 7.626893e-01 
8.587500e+09  5.910756e-01 7.614158e-01 
8.606250e+09  5.928191e-01 7.601418e-01 
8.625000e+09  5.945551e-01 7.588673e-01 
8.643750e+09  5.962837e-01 7.575922e-01 
8.662500e+09  5.980049e-01 7.563166e-01 
8.681250e+09  5.997187e-01 7.550405e-01 
8.700000e+09  6.014252e-01 7.537640e-01 
8.718750e+09  6.031245e-01 7.524871e-01 
8.737500e+09  6.048165e-01 7.512097e-01 
8.756250e+09  6.065013e-01 7.499320e-01 
8.775000e+09  6.081789e-01 7.486538e-01 
