! VERSION = 6.00
!Data measured by ggf on Tue Jan 23 14:06:13 2018 using model file NPN_MEAS_SCALE
BEGIN_HEADER
 ICCAP_INPUTS
  vb         V  B GROUND GND 0 CON        0
  vc         V  C GROUND GND 0 CON        0
  ve         V  E GROUND SMU_E 0 CON        0
  vs         V  S GROUND SMU_S 0 CON        0
  freq       F  LIST       1 74 100000000 200000000 300000000 400000000 500000000 600000000 700000000 800000000 900000000 1000000000 2000000000 3000000000 4000000000 5000000000 6000000000 7000000000 8000000000 9000000000 10000000000 11000000000 12000000000 13000000000 14000000000 15000000000 16000000000 17000000000 18000000000 19000000000 20000000000 21000000000 22000000000 23000000000 24000000000 25000000000 26000000000 27000000000 28000000000 29000000000 30000000000 31000000000 32000000000 33000000000 34000000000 35000000000 36000000000 37000000000 38000000000 39000000000 40000000000 41000000000 42000000000 43000000000 44000000000 45000000000 46000000000 47000000000 48000000000 49000000000 50000000000 51000000000 52000000000 53000000000 54000000000 55000000000 56000000000 57000000000 58000000000 59000000000 60000000000 61000000000 62000000000 63000000000 64000000000 65000000000
 ICCAP_OUTPUTS
  S          S  B C Ground NWA M
 ICCAP_VALUES
  TNOM "27"
  TEMP "27"
  TECHNO "SG13G2"
  LOT "EDJ802"
  WAFER "02"
  CHIP "(3.3)"
  MODULE "S439S"
  DEV_NAME "D14"
  DEV_GEOM_L "2.5"
  DEV_GEOM_W "0.07"
  NUM_OF_TRANS_RF "1"
  REMARKS "Nx=5; Power -30/-20dBm, Slope: 0.1dB/GHz"
  TIMEDATE "Tue Jan 23 14:05:08     2018"
  OPERATOR "ggf"
END_HEADER

BEGIN_DB
 ICCAP_VAR vb         0              
 ICCAP_VAR vc         0              
 ICCAP_VAR ve         0              
 ICCAP_VAR vs         0              

 #freq            R:S(1,1)        I:S(1,1)        R:S(1,2)        I:S(1,2)        R:S(2,1)        I:S(2,1)        R:S(2,2)        I:S(2,2)       
  1e+008          1               -0.000954038    5.97822e-005    0.000120898     -8.72521e-005   0.000247319     1.00013         -0.00112172    
  2e+008          1.00021         -0.00234091     -5.75738e-006   0.000262327     9.26682e-006    0.000313255     1.00028         -0.00284604    
  3e+008          1.00045         -0.0033499      1.79286e-006    0.000261944     2.92061e-005    0.000285633     1.00026         -0.00328646    
  4e+008          1.00054         -0.0044325      6.40021e-006    0.000345713     -1.14309e-005   0.000246822     1.00011         -0.00447209    
  5e+008          1.00069         -0.00621455     1.14359e-005    0.000418604     -2.56216e-005   0.000452114     1.00024         -0.00560564    
  6e+008          1.00034         -0.00700901     -6.50771e-006   0.000477307     -3.98877e-005   0.000515697     1.00031         -0.00669722    
  7e+008          1.00056         -0.00795173     -4.65677e-006   0.000585851     -2.42993e-005   0.00061153      1.00022         -0.00791904    
  8e+008          1.00048         -0.00916568     -6.03289e-006   0.000667354     2.32468e-005    0.00068318      1.00018         -0.00899508    
  9e+008          1.00057         -0.0101732      -3.06444e-006   0.000756408     5.04722e-005    0.00074358      1.00017         -0.0100953     
  1e+009          1.00036         -0.0114897      3.83027e-005    0.000847593     1.21229e-006    0.000801427     1.00014         -0.0112576     
  2e+009          1.0002          -0.0227496      2.05906e-005    0.00169542      -4.23522e-005   0.00167916      0.999951        -0.0227046     
  3e+009          0.999733        -0.0345063      5.5233e-005     0.00250194      1.65532e-005    0.00255773      0.999509        -0.0341642     
  4e+009          0.999237        -0.0457812      0.000187355     0.00331321      0.000210802     0.00332248      0.998874        -0.0455219     
  5e+009          0.998266        -0.0573363      0.000275253     0.00416069      0.000271317     0.00422143      0.998007        -0.0569275     
  6e+009          0.99715         -0.0681387      0.000376787     0.00501095      0.000365406     0.00501888      0.997026        -0.0685397     
  7e+009          0.995836        -0.080081       0.000500817     0.00585671      0.000459888     0.00584748      0.995887        -0.0797447     
  8e+009          0.994348        -0.0912354      0.000636533     0.00669552      0.000624318     0.00670464      0.994587        -0.091032      
  9e+009          0.993077        -0.102483       0.00085899      0.00751853      0.000832048     0.00750919      0.992956        -0.102342      
  1e+010          0.991691        -0.114709       0.00109699      0.00836827      0.00105477      0.00831139      0.99118         -0.113714      
  1.1e+010        0.989476        -0.125245       0.00129429      0.00924442      0.00127516      0.00925346      0.989537        -0.124819      
  1.2e+010        0.987314        -0.13606        0.00166322      0.0100896       0.00167571      0.0100549       0.987205        -0.135949      
  1.3e+010        0.98484         -0.147123       0.00201429      0.0108434       0.00202454      0.010863        0.984476        -0.146963      
  1.4e+010        0.982406        -0.15841        0.00242632      0.0115944       0.00241543      0.0116197       0.982104        -0.157819      
  1.5e+010        0.980036        -0.168876       0.00279693      0.0122436       0.00285558      0.0122763       0.979672        -0.168508      
  1.6e+010        0.977019        -0.179909       0.00320703      0.0129605       0.003214        0.0128884       0.9773          -0.179106      
  1.7e+010        0.973811        -0.190481       0.0036698       0.0136392       0.0036921       0.0135902       0.973431        -0.189829      
  1.8e+010        0.971032        -0.201257       0.00411728      0.0141604       0.00402929      0.0142131       0.970381        -0.200797      
  1.9e+010        0.967546        -0.211191       0.00450258      0.014783        0.0045539       0.0148453       0.967921        -0.211933      
  2e+010          0.963787        -0.222098       0.00492293      0.0153342       0.00486466      0.0154277       0.963986        -0.220995      
  2.1e+010        0.960624        -0.232343       0.00539285      0.0158132       0.00530755      0.0159314       0.958198        -0.230078      
  2.2e+010        0.956794        -0.242279       0.00578384      0.016412        0.00588046      0.0165054       0.953001        -0.241185      
  2.3e+010        0.952736        -0.251933       0.00617116      0.0168399       0.00619098      0.0168429       0.952848        -0.253229      
  2.4e+010        0.949105        -0.262265       0.00648052      0.0172956       0.00638139      0.017382        0.953287        -0.255983      
  2.5e+010        0.945031        -0.273005       0.0068272       0.0181127       0.00695684      0.0177739       0.961576        -0.250878      
  2.6e+010        0.940821        -0.282243       0.0075869       0.0187199       0.00747571      0.018647        0.957169        -0.274737      
  2.7e+010        0.935928        -0.291796       0.00799262      0.0188767       0.00795653      0.0191817       0.931736        -0.289453      
  2.8e+010        0.931152        -0.301766       0.00864662      0.0192717       0.00855315      0.0193918       0.924804        -0.309036      
  2.9e+010        0.926516        -0.310427       0.00891799      0.0195265       0.00884952      0.0195232       0.920805        -0.31896       
  3e+010          0.921618        -0.319466       0.00905489      0.0199903       0.00914513      0.0201209       0.921654        -0.322315      
  3.1e+010        0.917443        -0.330142       0.00952709      0.0207252       0.00940801      0.020592        0.917533        -0.328083      
  3.2e+010        0.912395        -0.338667       0.0101193       0.0212916       0.0101085       0.0213338       0.909153        -0.33805       
  3.3e+010        0.906288        -0.34692        0.0107101       0.0215579       0.0108426       0.0214518       0.904591        -0.349891      
  3.4e+010        0.900452        -0.356326       0.0113323       0.0219585       0.0116695       0.0219923       0.901472        -0.357164      
  3.5e+010        0.895376        -0.365116       0.0118462       0.0222499       0.0122085       0.0222079       0.896573        -0.364303      
  3.6e+010        0.889835        -0.373174       0.0123176       0.0224914       0.0127937       0.0222283       0.88812         -0.373312      
  3.7e+010        0.884914        -0.38042        0.012819        0.0228754       0.0126021       0.0226581       0.884041        -0.382957      
  3.8e+010        0.879499        -0.388973       0.0135463       0.0232851       0.0138042       0.0234584       0.879471        -0.39025       
  3.9e+010        0.874172        -0.397896       0.0139253       0.0235827       0.0139205       0.0239469       0.8732          -0.397757      
  4e+010          0.868766        -0.405714       0.0144685       0.0238488       0.0145668       0.0235596       0.866762        -0.407758      
  4.1e+010        0.863596        -0.414443       0.0154973       0.0246805       0.0158178       0.0244739       0.861408        -0.415419      
  4.2e+010        0.855646        -0.42196        0.0167494       0.0249328       0.0166089       0.0244933       0.856856        -0.423356      
  4.3e+010        0.850821        -0.43027        0.0177526       0.0245933       0.0177665       0.0250025       0.84959         -0.430626      
  4.4e+010        0.843985        -0.436299       0.0183562       0.0242824       0.0184848       0.0249994       0.842442        -0.43825       
  4.5e+010        0.837895        -0.445508       0.0193151       0.0245379       0.0196811       0.0245967       0.836499        -0.447228      
  4.6e+010        0.831011        -0.45238        0.0202654       0.0244655       0.0207768       0.0244719       0.830462        -0.453191      
  4.7e+010        0.825481        -0.459134       0.0214258       0.0235449       0.0217459       0.0243493       0.822532        -0.458978      
  4.8e+010        0.818954        -0.467292       0.0215534       0.0229584       0.0222841       0.022285        0.816709        -0.467373      
  4.9e+010        0.813581        -0.473774       0.0222867       0.0223335       0.0227883       0.0223557       0.81158         -0.473188      
  5e+010          0.807388        -0.479251       0.0226564       0.0219297       0.0228625       0.0222578       0.80548         -0.479081      
  5.1e+010        0.79974         -0.48556        0.0230765       0.021016        0.0235515       0.021567        0.799701        -0.485512      
  5.2e+010        0.792603        -0.492472       0.0228292       0.0198374       0.0227103       0.0199099       0.794074        -0.493722      
  5.3e+010        0.788351        -0.499279       0.02342         0.0206955       0.0232477       0.020816        0.788276        -0.500491      
  5.4e+010        0.782223        -0.504902       0.0234705       0.0194116       0.0238517       0.0200746       0.781452        -0.507578      
  5.5e+010        0.775621        -0.509341       0.0235741       0.018895        0.0238667       0.0197312       0.773403        -0.512681      
  5.6e+010        0.772262        -0.515654       0.0215041       0.0176445       0.0224222       0.0181077       0.769372        -0.515617      
  5.7e+010        0.767508        -0.522547       0.0205946       0.0196792       0.0203374       0.0207475       0.767232        -0.523162      
  5.8e+010        0.763831        -0.531042       0.0210468       0.0212357       0.0215015       0.0210873       0.76369         -0.532672      
  5.9e+010        0.754943        -0.538949       0.0230418       0.0224091       0.0224284       0.021797        0.756933        -0.539869      
  6e+010          0.752473        -0.546566       0.0242505       0.0216881       0.0247259       0.0222418       0.74852         -0.547719      
  6.1e+010        0.74352         -0.553846       0.0241336       0.0218257       0.0247331       0.0218257       0.742924        -0.556214      
  6.2e+010        0.738533        -0.560608       0.0263624       0.0225983       0.0259879       0.0225917       0.738851        -0.564442      
  6.3e+010        0.733847        -0.569992       0.027467        0.0213743       0.0274732       0.022201        0.729067        -0.56973       
  6.4e+010        0.727657        -0.577361       0.0296373       0.0210555       0.0298244       0.0214847       0.725812        -0.575929      
  6.5e+010        0.717161        -0.584131       0.0293682       0.019091        0.0297033       0.0183043       0.71895         -0.586942      
END_DB

