! VERSION = 6.00
!Data measured by ggf on Tue Jan 23 14:06:53 2018 using model file NPN_MEAS_SCALE
BEGIN_HEADER
 ICCAP_INPUTS
  vb         V  B GROUND GND 0 CON        0
  vc         V  C GROUND GND 0 CON        0
  ve         V  E GROUND SMU_E 0 CON        0
  vs         V  S GROUND SMU_S 0 CON        0
  freq       F  LIST       1 74 100000000 200000000 300000000 400000000 500000000 600000000 700000000 800000000 900000000 1000000000 2000000000 3000000000 4000000000 5000000000 6000000000 7000000000 8000000000 9000000000 10000000000 11000000000 12000000000 13000000000 14000000000 15000000000 16000000000 17000000000 18000000000 19000000000 20000000000 21000000000 22000000000 23000000000 24000000000 25000000000 26000000000 27000000000 28000000000 29000000000 30000000000 31000000000 32000000000 33000000000 34000000000 35000000000 36000000000 37000000000 38000000000 39000000000 40000000000 41000000000 42000000000 43000000000 44000000000 45000000000 46000000000 47000000000 48000000000 49000000000 50000000000 51000000000 52000000000 53000000000 54000000000 55000000000 56000000000 57000000000 58000000000 59000000000 60000000000 61000000000 62000000000 63000000000 64000000000 65000000000
 ICCAP_OUTPUTS
  S          S  B C Ground NWA M
 ICCAP_VALUES
  TNOM "27"
  TEMP "27"
  TECHNO "SG13G2"
  LOT "EDJ802"
  WAFER "02"
  CHIP "(3.3)"
  MODULE "S439S"
  DEV_NAME "D14"
  DEV_GEOM_L "2.5"
  DEV_GEOM_W "0.07"
  NUM_OF_TRANS_RF "1"
  REMARKS "Nx=5; Power -30/-20dBm, Slope: 0.1dB/GHz"
  TIMEDATE "Tue Jan 23 14:05:08     2018"
  OPERATOR "ggf"
END_HEADER

BEGIN_DB
 ICCAP_VAR vb         0              
 ICCAP_VAR vc         0              
 ICCAP_VAR ve         0              
 ICCAP_VAR vs         0              

 #freq            R:S(1,1)        I:S(1,1)        R:S(1,2)        I:S(1,2)        R:S(2,1)        I:S(2,1)        R:S(2,2)        I:S(2,2)       
  1e+008          -0.967604       0.000287386     0.00449405      8.18478e-005    0.00451303      9.43755e-005    -0.980118       0.000765604    
  2e+008          -0.967799       0.00135363      0.00447476      0.000194119     0.00437752      0.000195121     -0.980397       0.00130719     
  3e+008          -0.967698       0.00250502      0.00450649      0.000289858     0.00441755      0.000329021     -0.980154       0.00209212     
  4e+008          -0.967608       0.00248961      0.00448725      0.000353569     0.00453454      0.000445289     -0.980167       0.00264702     
  5e+008          -0.967475       0.00327741      0.00449029      0.000475073     0.00451183      0.000532966     -0.980025       0.00320445     
  6e+008          -0.967529       0.00376047      0.00452998      0.000567269     0.0044584       0.000511372     -0.979865       0.00380705     
  7e+008          -0.967261       0.00451379      0.00453678      0.000631305     0.00450276      0.000696447     -0.979685       0.00437277     
  8e+008          -0.96721        0.00495488      0.00456815      0.000759394     0.00450391      0.000808198     -0.979625       0.00492147     
  9e+008          -0.967034       0.00541303      0.00453961      0.000842501     0.00443578      0.000816433     -0.979433       0.00546241     
  1e+009          -0.96704        0.00592428      0.00455915      0.000901182     0.00447983      0.000849032     -0.979442       0.00605251     
  2e+009          -0.965906       0.0105705       0.00463812      0.00179155      0.00457179      0.00171646      -0.978445       0.0108652      
  3e+009          -0.964861       0.0147263       0.00472901      0.00259714      0.00463905      0.00256928      -0.977466       0.0156239      
  4e+009          -0.964492       0.0189139       0.00481099      0.00344703      0.00478656      0.00342255      -0.976799       0.0199806      
  5e+009          -0.964025       0.02305         0.00491636      0.0042434       0.00487923      0.00426886      -0.976671       0.0242776      
  6e+009          -0.96347        0.0276497       0.00502301      0.00492013      0.00492866      0.00488666      -0.976173       0.0288472      
  7e+009          -0.962582       0.0312145       0.00497681      0.00557794      0.00489655      0.00558072      -0.975316       0.0332719      
  8e+009          -0.961883       0.0345054       0.00500724      0.00640575      0.00488896      0.0064836       -0.974734       0.0375718      
  9e+009          -0.961671       0.0396872       0.00507553      0.00712939      0.00509007      0.00709912      -0.974433       0.0419987      
  1e+010          -0.960899       0.0427617       0.0051096       0.00781835      0.0051539       0.00776012      -0.973941       0.0463006      
  1.1e+010        -0.960427       0.0474611       0.00500866      0.00837723      0.00503903      0.00841539      -0.973001       0.0511386      
  1.2e+010        -0.959485       0.0514653       0.00465557      0.00907283      0.00469189      0.00905738      -0.971952       0.0555127      
  1.3e+010        -0.958794       0.0555186       0.00424347      0.0100949       0.00425039      0.0101102       -0.97126        0.0593034      
  1.4e+010        -0.957791       0.0574455       0.00415447      0.0113455       0.00406208      0.011265        -0.970296       0.0628047      
  1.5e+010        -0.957398       0.061584        0.00438157      0.0125906       0.00435806      0.0123538       -0.969427       0.066514       
  1.6e+010        -0.956948       0.0654887       0.00454151      0.013408        0.00451428      0.0132989       -0.969372       0.0706027      
  1.7e+010        -0.956688       0.0686714       0.0045725       0.0144324       0.00456206      0.0142004       -0.969868       0.0747335      
  1.8e+010        -0.955983       0.0718752       0.00473013      0.0155124       0.00447414      0.0153893       -0.969468       0.0787296      
  1.9e+010        -0.956514       0.0752786       0.00487494      0.0163232       0.00496388      0.0164304       -0.96731        0.0823926      
  2e+010          -0.95653        0.0792077       0.0051134       0.0172151       0.00509303      0.0169502       -0.966937       0.0871191      
  2.1e+010        -0.956554       0.082722        0.00526804      0.018306        0.00525431      0.0184433       -0.968397       0.0916923      
  2.2e+010        -0.95699        0.0866593       0.00561571      0.0193979       0.00583543      0.0190676       -0.968902       0.0926745      
  2.3e+010        -0.957544       0.091195        0.00599186      0.020418        0.00587505      0.0201156       -0.964543       0.0918572      
  2.4e+010        -0.957565       0.0957698       0.00653041      0.0211095       0.0066687       0.0212316       -0.962495       0.0964362      
  2.5e+010        -0.956531       0.100698        0.00685937      0.0216273       0.00671775      0.0213094       -0.966388       0.111315       
  2.6e+010        -0.956075       0.104984        0.00712981      0.0223964       0.00718697      0.0221307       -0.984431       0.125821       
  2.7e+010        -0.9557         0.10841         0.00744723      0.0231552       0.00760692      0.0233123       -0.982679       0.146993       
  2.8e+010        -0.955274       0.112547        0.0075825       0.0236824       0.0076998       0.0234442       -0.972227       0.131463       
  2.9e+010        -0.954298       0.117149        0.00758012      0.0246006       0.00754452      0.0247415       -0.966227       0.125557       
  3e+010          -0.954475       0.12217         0.00793222      0.0257549       0.00850004      0.0254022       -0.960788       0.133096       
  3.1e+010        -0.951631       0.125727        0.00876634      0.0258375       0.00861607      0.0260097       -0.959925       0.139957       
  3.2e+010        -0.951039       0.128501        0.00860038      0.0263951       0.00906326      0.0262311       -0.961996       0.142458       
  3.3e+010        -0.950423       0.13313         0.00849589      0.0269643       0.00866754      0.0269444       -0.961924       0.143438       
  3.4e+010        -0.950353       0.13693         0.00845716      0.0279986       0.00877055      0.0275491       -0.959966       0.147675       
  3.5e+010        -0.949906       0.139724        0.0090611       0.0286651       0.00896549      0.0285762       -0.958549       0.154162       
  3.6e+010        -0.950464       0.144785        0.00890469      0.0294888       0.00905337      0.0295416       -0.961906       0.157058       
  3.7e+010        -0.949852       0.149626        0.00930941      0.030577        0.00929547      0.0302736       -0.960831       0.160741       
  3.8e+010        -0.950065       0.153628        0.009458        0.0314345       0.00991922      0.0312478       -0.959744       0.166586       
  3.9e+010        -0.94781        0.157156        0.0101863       0.0323205       0.00994894      0.0325433       -0.958782       0.172258       
  4e+010          -0.947525       0.161833        0.0104582       0.032916        0.0104786       0.0322477       -0.958944       0.175106       
  4.1e+010        -0.94638        0.165927        0.0112268       0.0336117       0.0111598       0.0333455       -0.957887       0.179374       
  4.2e+010        -0.94609        0.170434        0.0109735       0.033805        0.0111462       0.0338234       -0.955708       0.18488        
  4.3e+010        -0.944548       0.172851        0.0114267       0.0356731       0.0113656       0.034454        -0.955104       0.188982       
  4.4e+010        -0.943993       0.177851        0.0129346       0.0359232       0.0117053       0.0362761       -0.955175       0.193483       
  4.5e+010        -0.944879       0.180874        0.0128843       0.0358288       0.012863        0.0359778       -0.954083       0.196324       
  4.6e+010        -0.94272        0.186228        0.0132926       0.0367562       0.0134104       0.0353401       -0.952181       0.201306       
  4.7e+010        -0.94265        0.189902        0.0135942       0.0378747       0.0127903       0.0368853       -0.953587       0.205786       
  4.8e+010        -0.942072       0.194584        0.0149009       0.0374467       0.0145312       0.0374315       -0.952939       0.210003       
  4.9e+010        -0.942093       0.198176        0.0142133       0.0378217       0.0156042       0.0372618       -0.951325       0.213705       
  5e+010          -0.940436       0.204913        0.0148036       0.0386257       0.0142647       0.0372357       -0.950932       0.220388       
  5.1e+010        -0.938716       0.207866        0.0157555       0.0388536       0.0148118       0.0389135       -0.949152       0.225572       
  5.2e+010        -0.93837        0.211279        0.0148447       0.0384094       0.01595         0.037904        -0.947226       0.228952       
  5.3e+010        -0.936966       0.215091        0.0142118       0.0403971       0.0144413       0.0387698       -0.946447       0.234087       
  5.4e+010        -0.934553       0.220752        0.0157249       0.0412683       0.0148629       0.0411023       -0.944208       0.237543       
  5.5e+010        -0.93411        0.223923        0.0160941       0.0413355       0.0168194       0.0413432       -0.943473       0.240302       
  5.6e+010        -0.932782       0.227096        0.0167199       0.0420116       0.0173757       0.0414733       -0.943901       0.24502        
  5.7e+010        -0.931054       0.23284         0.0176296       0.0425958       0.0173982       0.0416427       -0.941637       0.249941       
  5.8e+010        -0.929049       0.236272        0.0182145       0.0423052       0.019062        0.0411531       -0.939403       0.253617       
  5.9e+010        -0.927833       0.238864        0.0174824       0.0418945       0.017647        0.0404361       -0.937443       0.259468       
  6e+010          -0.926299       0.243065        0.017821        0.0430633       0.0171529       0.0414351       -0.938051       0.261931       
  6.1e+010        -0.926005       0.245521        0.0177878       0.0429113       0.0189235       0.0435034       -0.936097       0.265431       
  6.2e+010        -0.925103       0.248832        0.0178096       0.044668        0.0192986       0.0429269       -0.93308        0.26781        
  6.3e+010        -0.923377       0.252323        0.0196427       0.0447971       0.0184812       0.0433918       -0.933145       0.27227        
  6.4e+010        -0.922918       0.255574        0.0199617       0.0443294       0.0196491       0.0447662       -0.931223       0.276465       
  6.5e+010        -0.922815       0.259479        0.0192238       0.0447526       0.0215509       0.0437261       -0.930923       0.279174       
END_DB

