! VERSION = 6.00
!Data measured by ggf on Tue Jan 23 14:23:06 2018 using model file NPN_MEAS_SCALE
BEGIN_HEADER
 ICCAP_INPUTS
  ve         V  E GROUND SMU_E 0.2 CON        0
  vc         V  C GROUND SMU_C 0.2 SYNC       1 0 vb
  vs         V  S GROUND SMU_S 0.015 CON        0
  vb         V  B GROUND SMU_B 0.015 LIN        1    -1         1.04       103  0.02      
 ICCAP_OUTPUTS
  ib         I  B GROUND SMU_B M
  ic         I  C GROUND SMU_C M
 ICCAP_VALUES
  TNOM "27"
  TEMP "27"
  TECHNO "SG13G2"
  LOT "EDJ802"
  WAFER "02"
  CHIP "(3.3)"
  MODULE "S439S"
  DEV_NAME "D14"
  DEV_GEOM_L "2.5"
  DEV_GEOM_W "0.07"
  NUM_OF_TRANS_RF "1"
  REMARKS "Nx=5; Power -30/-20dBm, Slope: 0.1dB/GHz"
  TIMEDATE "Tue Jan 23 14:05:08     2018"
  OPERATOR "ggf"
END_HEADER

BEGIN_DB
 ICCAP_VAR ve         0              
 ICCAP_VAR vs         0              

 #vb              vc              ib              ic             
  -1              -1              -2.1992e-005    -0.006207      
  -0.98           -0.98           -1.754e-005     -0.005294      
  -0.96           -0.96           -1.3758e-005    -0.0044694     
  -0.94           -0.94           -1.0576e-005    -0.0037238     
  -0.92           -0.92           -7.9606e-006    -0.0030628     
  -0.9            -0.9            -5.8214e-006    -0.0024746     
  -0.88           -0.88           -4.1418e-006    -0.001966      
  -0.86           -0.86           -2.8586e-006    -0.0015332     
  -0.84           -0.84           -1.9158e-006    -0.0011726     
  -0.82           -0.82           -1.2518e-006    -0.00087786    
  -0.8            -0.8            -8.0892e-007    -0.00064602    
  -0.78           -0.78           -5.254e-007     -0.000468      
  -0.76           -0.76           -3.4986e-007    -0.0003347     
  -0.74           -0.74           -2.422e-007     -0.0002372     
  -0.72           -0.72           -1.7528e-007    -0.00016664    
  -0.7            -0.7            -1.3208e-007    -0.00011626    
  -0.68           -0.68           -1.0286e-007    -8.0322e-005   
  -0.66           -0.66           -8.222e-008     -5.4938e-005   
  -0.64           -0.64           -6.676e-008     -3.7006e-005   
  -0.62           -0.62           -5.4678e-008    -2.46e-005     
  -0.6            -0.6            -4.5076e-008    -1.6098e-005   
  -0.58           -0.58           -3.722e-008     -1.035e-005    
  -0.56           -0.56           -3.0678e-008    -6.5188e-006   
  -0.54           -0.54           -2.527e-008     -4.0074e-006   
  -0.52           -0.52           -2.074e-008     -2.387e-006    
  -0.5            -0.5            -1.6926e-008    -1.3728e-006   
  -0.48           -0.48           -1.3778e-008    -7.5712e-007   
  -0.46           -0.46           -1.1168e-008    -4.02e-007     
  -0.44           -0.44           -9.0064e-009    -2.0484e-007   
  -0.42           -0.42           -7.2104e-009    -1.0018e-007   
  -0.4            -0.4            -5.7364e-009    -4.84e-008     
  -0.38           -0.38           -4.536e-009     -2.1156e-008   
  -0.36           -0.36           -3.5522e-009    -1.0606e-008   
  -0.34           -0.34           -2.7638e-009    -6.386e-009    
  -0.32           -0.32           -2.1334e-009    -2.362e-009    
  -0.3            -0.3            -1.6322e-009    -5.0058e-010   
  -0.28           -0.28           -1.234e-009     3.1988e-010    
  -0.26           -0.26           -9.254e-010     -4.402e-010    
  -0.24           -0.24           -6.8276e-010    -2.524e-010    
  -0.22           -0.22           -4.949e-010     -2.818e-010    
  -0.2            -0.2            -3.519e-010     -9.76e-011     
  -0.18           -0.18           -2.4454e-010    -2.208e-010    
  -0.16           -0.16           -1.6674e-010    -2.886e-010    
  -0.14           -0.14           -1.0656e-010    -1.334e-010    
  -0.12           -0.12           -6.31e-011      -1.66e-010     
  -0.1            -0.1            -3.438e-011     -1.584e-010    
  -0.08           -0.08           -1.464e-011     -1.594e-010    
  -0.06           -0.06           -2.16e-012      -1.706e-010    
  -0.04           -0.04           8.62e-012       -1.434e-010    
  -0.02           -0.02           1.274e-011      -2.076e-010    
  0               0               1.868e-011      -2.09e-010     
  0.02            0.02            1.86e-011       -1.48e-010     
  0.04            0.04            2.02e-011       -2.108e-010    
  0.06            0.06            1.802e-011      -2.45e-010     
  0.08            0.08            1.878e-011      -1.488e-010    
  0.1             0.1             1.998e-011      -1.974e-010    
  0.12            0.12            1.81e-011       -1.588e-010    
  0.14            0.14            2.13e-011       -1.328e-010    
  0.16            0.16            1.844e-011      -2.584e-010    
  0.18            0.18            1.828e-011      -9.14e-011     
  0.2             0.2             2.092e-011      -1.422e-010    
  0.22            0.22            2.178e-011      -1.252e-010    
  0.24            0.24            2.248e-011      -1.692e-010    
  0.26            0.26            2.27e-011       -1.956e-010    
  0.28            0.28            2.164e-011      -1.24e-010     
  0.3             0.3             2.008e-011      -1.69e-010     
  0.32            0.32            2.152e-011      -1.018e-010    
  0.34            0.34            2.26e-011       -1.206e-010    
  0.36            0.36            2.39e-011       2.2e-011       
  0.38            0.38            2.258e-011      2.22e-011      
  0.4             0.4             2.504e-011      1.858e-010     
  0.42            0.42            2.662e-011      5.232e-010     
  0.44            0.44            2.944e-011      1.3456e-009    
  0.46            0.46            3.546e-011      2.7928e-009    
  0.48            0.48            4.272e-011      9.932e-009     
  0.5             0.5             6.534e-011      1.6746e-008    
  0.52            0.52            1.0658e-010     3.5284e-008    
  0.54            0.54            1.7872e-010     7.4994e-008    
  0.56            0.56            3.1498e-010     1.5924e-007    
  0.58            0.58            6.046e-010      3.3996e-007    
  0.6             0.6             1.2076e-009     7.2738e-007    
  0.62            0.62            2.4462e-009     1.5632e-006    
  0.64            0.64            4.9988e-009     3.3488e-006    
  0.66            0.66            1.0322e-008     7.1536e-006    
  0.68            0.68            2.1704e-008     1.5308e-005    
  0.7             0.7             4.521e-008      3.2532e-005    
  0.72            0.72            9.4778e-008     6.9006e-005    
  0.74            0.74            1.9588e-007     0.000145       
  0.76            0.76            4.0376e-007     0.0003005      
  0.78            0.78            8.1954e-007     0.00061166     
  0.8             0.8             1.6106e-006     0.0011984      
  0.82            0.82            3.0448e-006     0.0022412      
  0.84            0.84            5.471e-006      0.0039052      
  0.86            0.86            9.3542e-006     0.006291       
  0.88            0.88            1.5418e-005     0.0094148      
  0.9             0.9             2.4752e-005     0.0132         
  0.92            0.92            3.926e-005      0.017656       
  0.94            0.94            6.1466e-005     0.02272        
  0.96            0.96            9.5452e-005     0.028442       
  0.98            0.98            0.00014584      0.034732       
  1               1               0.00021966      0.041626       
  1.02            1.02            0.0003232       0.04881        
  1.04            1.04            0.00046944      0.055534       
END_DB

