! VERSION = 6.00
!Data measured by ggf on Tue Jan 23 14:23:06 2018 using model file NPN_MEAS_SCALE
BEGIN_HEADER
 ICCAP_INPUTS
  vc         V  C GROUND SMU_C 0.2 LIN        1    0          2          81   0.025     
  vs         V  S GROUND SMU_S 0.015 CON        0
  ve         V  E GROUND SMU_E 0.2 CON        0
  ib         I  B GROUND SMU_B 2 LIST       2 6 1E-009 6.25E-006 1.25E-005 2.5E-005 5E-005 0.0001
 ICCAP_OUTPUTS
  ic         I  C GROUND SMU_C M
  vb         V  B GROUND SMU_B M
 ICCAP_VALUES
  TNOM "27"
  TEMP "27"
  TECHNO "SG13G2"
  LOT "EDJ802"
  WAFER "02"
  CHIP "(3.3)"
  MODULE "S439S"
  DEV_NAME "D14"
  DEV_GEOM_L "2.5"
  DEV_GEOM_W "0.07"
  NUM_OF_TRANS_RF "1"
  REMARKS "Nx=5; Power -30/-20dBm, Slope: 0.1dB/GHz"
  TIMEDATE "Tue Jan 23 14:05:08     2018"
  OPERATOR "ggf"
END_HEADER

BEGIN_DB
 ICCAP_VAR vs         0              
 ICCAP_VAR ve         0              
 ICCAP_VAR ib         1e-009         

 #vc              ic              vb             
  0               -6.1518e-009    0.34988        
  0.025           -2.7388e-009    0.31736        
  0.05            -1.8668e-009    0.30708        
  0.075           -8.6236e-010    0.3056         
  0.1             -4.5812e-010    0.30992        
  0.125           -1.2092e-010    0.31808        
  0.15            1.6142e-010     0.32868        
  0.175           3.4888e-010     0.34108        
  0.2             -5.864e-010     0.35256        
  0.225           -3.374e-010     0.36308        
  0.25            -2.458e-010     0.37436        
  0.275           -1.698e-010     0.38608        
  0.3             3.22e-011       0.39824        
  0.325           1.838e-010      0.4106         
  0.35            5.376e-010      0.42324        
  0.375           1.1112e-009     0.436          
  0.4             1.809e-009      0.44888        
  0.425           3.095e-009      0.46184        
  0.45            5.0364e-009     0.4748         
  0.475           1.1754e-008     0.49276        
  0.5             1.8138e-008     0.503          
  0.525           2.6492e-008     0.51316        
  0.55            3.8196e-008     0.52316        
  0.575           5.5216e-008     0.533          
  0.6             7.9024e-008     0.54248        
  0.625           1.0718e-007     0.5508         
  0.65            1.4102e-007     0.558          
  0.675           1.8216e-007     0.56468        
  0.7             2.3058e-007     0.57076        
  0.725           2.8444e-007     0.5762         
  0.75            3.4174e-007     0.58088        
  0.775           3.994e-007      0.58488        
  0.8             4.5468e-007     0.5882         
  0.825           5.0558e-007     0.59088        
  0.85            5.5074e-007     0.59304        
  0.875           5.8982e-007     0.5948         
  0.9             6.2354e-007     0.5962         
  0.925           6.5264e-007     0.59736        
  0.95            6.7812e-007     0.59836        
  0.975           7.0116e-007     0.5992         
  1               7.2318e-007     0.6            
  1.025           7.4524e-007     0.60076        
  1.05            7.682e-007      0.6016         
  1.075           7.927e-007      0.6024         
  1.1             8.1994e-007     0.60332        
  1.125           8.5126e-007     0.60432        
  1.15            8.87e-007       0.60544        
  1.175           9.288e-007      0.60664        
  1.2             9.782e-007      0.60804        
  1.225           1.0338e-006     0.60948        
  1.25            1.0606e-006     0.6102         
  1.275           1.0972e-006     0.6112         
  1.3             1.1458e-006     0.61244        
  1.325           1.2092e-006     0.614          
  1.35            1.2918e-006     0.61588        
  1.375           1.3958e-006     0.61812        
  1.4             1.5344e-006     0.62076        
  1.425           1.7156e-006     0.62392        
  1.45            1.9588e-006     0.62772        
  1.475           2.2974e-006     0.63228        
  1.5             2.7916e-006     0.63792        
  1.525           3.559e-006      0.645          
  1.55            4.876e-006      0.65448        
  1.575           1.4122e-005     0.68436        
  1.6             2.7576e-005     0.7078         
  1.625           0.0001762       0.7524         
  1.65            0.00050504      0.77648        
  1.675           0.0011598       0.79756        
  1.7             0.0021048       0.81548        
  1.725           0.0033386       0.83004        
  1.75            0.0047336       0.842          
  1.775           0.006219        0.85192        
  1.8             0.0077174       0.8602         
  1.825           0.0092208       0.86744        
  1.85            0.010724        0.87372        
  1.875           0.012216        0.87932        
  1.9             0.013712        0.88432        
  1.925           0.015208        0.88884        
  1.95            0.016706        0.89292        
  1.975           0.01821         0.89664        
  2               0.01971         0.89996        
END_DB

BEGIN_DB
 ICCAP_VAR vs         0              
 ICCAP_VAR ve         0              
 ICCAP_VAR ib         6.25e-006      

 #vc              ic              vb             
  0               -0.00012402     0.7616         
  0.025           0.00022664      0.78096        
  0.05            0.00072692      0.79736        
  0.075           0.001336        0.81088        
  0.1             0.001988        0.82172        
  0.125           0.0026186       0.83032        
  0.15            0.0031804       0.83688        
  0.175           0.0036372       0.8416         
  0.2             0.003975        0.84484        
  0.225           0.0041914       0.8468         
  0.25            0.0043224       0.84792        
  0.275           0.004399        0.84844        
  0.3             0.0044422       0.84868        
  0.325           0.0044742       0.8488         
  0.35            0.0044884       0.84884        
  0.375           0.0045014       0.84876        
  0.4             0.0045118       0.84868        
  0.425           0.0045164       0.84856        
  0.45            0.004522        0.8484         
  0.475           0.004522        0.84828        
  0.5             0.0045232       0.84804        
  0.525           0.0045182       0.84792        
  0.55            0.0045124       0.84772        
  0.575           0.0045126       0.84756        
  0.6             0.0045104       0.84736        
  0.625           0.0045074       0.84716        
  0.65            0.0045016       0.84696        
  0.675           0.0045006       0.8468         
  0.7             0.0044962       0.84664        
  0.725           0.00449         0.84644        
  0.75            0.0044874       0.8462         
  0.775           0.0044846       0.846          
  0.8             0.0044772       0.84584        
  0.825           0.0044728       0.84564        
  0.85            0.0044658       0.8454         
  0.875           0.0044644       0.84524        
  0.9             0.0044598       0.84504        
  0.925           0.0044536       0.84484        
  0.95            0.0044484       0.84468        
  0.975           0.0044476       0.84448        
  1               0.0044426       0.84432        
  1.025           0.0044384       0.84412        
  1.05            0.0044314       0.84392        
  1.075           0.0044332       0.84376        
  1.1             0.0044292       0.84356        
  1.125           0.0044264       0.84344        
  1.15            0.0044258       0.84328        
  1.175           0.004425        0.84312        
  1.2             0.0044334       0.84304        
  1.225           0.0044398       0.84292        
  1.25            0.004455        0.84292        
  1.275           0.0044696       0.84292        
  1.3             0.004495        0.84296        
  1.325           0.00453         0.84312        
  1.35            0.0045742       0.84336        
  1.375           0.0046276       0.84364        
  1.4             0.0046986       0.84404        
  1.425           0.0047836       0.84456        
  1.45            0.0048932       0.84528        
  1.475           0.005027        0.84612        
  1.5             0.0051862       0.84716        
  1.525           0.0053754       0.84836        
  1.55            0.0056038       0.8498         
  1.575           0.0058798       0.8514         
  1.6             0.0061996       0.85336        
  1.625           0.0065822       0.85556        
  1.65            0.0070298       0.85804        
  1.675           0.0075512       0.86072        
  1.7             0.0081604       0.86372        
  1.725           0.0088408       0.86692        
  1.75            0.0096166       0.87028        
  1.775           0.0104806       0.87388        
  1.8             0.011414        0.8774         
  1.825           0.01243         0.88104        
  1.85            0.013502        0.8846         
  1.875           0.014636        0.88808        
  1.9             0.01582         0.8914         
  1.925           0.017054        0.89464        
  1.95            0.018328        0.89772        
  1.975           0.019636        0.9006         
  2               0.020982        0.90328        
END_DB

BEGIN_DB
 ICCAP_VAR vs         0              
 ICCAP_VAR ve         0              
 ICCAP_VAR ib         1.25e-005      

 #vc              ic              vb             
  0               -0.00010154     0.78644        
  0.025           0.0005791       0.80444        
  0.05            0.0014476       0.81988        
  0.075           0.0024402       0.83304        
  0.1             0.0034768       0.84412        
  0.125           0.0044856       0.8534         
  0.15            0.0054214       0.861          
  0.175           0.0062378       0.86704        
  0.2             0.0069168       0.87172        
  0.225           0.0074358       0.87504        
  0.25            0.0078042       0.87724        
  0.275           0.0080338       0.87848        
  0.3             0.0081678       0.87904        
  0.325           0.0082452       0.87928        
  0.35            0.0082852       0.87924        
  0.375           0.0083046       0.87908        
  0.4             0.0083152       0.87888        
  0.425           0.0083208       0.8786         
  0.45            0.0083158       0.87828        
  0.475           0.0083104       0.87792        
  0.5             0.0083014       0.8776         
  0.525           0.0082918       0.87728        
  0.55            0.0082766       0.87688        
  0.575           0.0082636       0.87648        
  0.6             0.008244        0.87612        
  0.625           0.0082344       0.8758         
  0.65            0.008221        0.8754         
  0.675           0.0082058       0.87504        
  0.7             0.0081874       0.87468        
  0.725           0.0081732       0.87428        
  0.75            0.0081556       0.87392        
  0.775           0.0081392       0.87352        
  0.8             0.0081218       0.87316        
  0.825           0.008105        0.8728         
  0.85            0.008088        0.8724         
  0.875           0.0080724       0.87204        
  0.9             0.0080542       0.87168        
  0.925           0.0080408       0.87132        
  0.95            0.008022        0.87092        
  0.975           0.0080034       0.87056        
  1               0.007987        0.8702         
  1.025           0.0079738       0.86988        
  1.05            0.0079538       0.86952        
  1.075           0.007937        0.86916        
  1.1             0.0079242       0.8688         
  1.125           0.0079098       0.86844        
  1.15            0.0078964       0.86812        
  1.175           0.007886        0.8678         
  1.2             0.0078794       0.86748        
  1.225           0.0078746       0.8672         
  1.25            0.007875        0.86696        
  1.275           0.0078818       0.86676        
  1.3             0.0078966       0.8666         
  1.325           0.0079184       0.86644        
  1.35            0.0079518       0.86644        
  1.375           0.0080004       0.8664         
  1.4             0.0080598       0.86648        
  1.425           0.0081386       0.86668        
  1.45            0.008239        0.86696        
  1.475           0.0083602       0.86736        
  1.5             0.008507        0.86788        
  1.525           0.008686        0.86852        
  1.55            0.0088954       0.86932        
  1.575           0.0091472       0.87028        
  1.6             0.009437        0.87144        
  1.625           0.0097774       0.87276        
  1.65            0.010166        0.87424        
  1.675           0.0106066       0.87592        
  1.7             0.0111144       0.87776        
  1.725           0.011674        0.87976        
  1.75            0.012308        0.88192        
  1.775           0.013012        0.88424        
  1.8             0.013782        0.88664        
  1.825           0.01462         0.88912        
  1.85            0.015518        0.89164        
  1.875           0.016482        0.89416        
  1.9             0.017504        0.89672        
  1.925           0.01858         0.89916        
  1.95            0.019714        0.90156        
  1.975           0.02089         0.90392        
  2               0.022112        0.90612        
END_DB

BEGIN_DB
 ICCAP_VAR vs         0              
 ICCAP_VAR ve         0              
 ICCAP_VAR ib         2.5e-005       

 #vc              ic              vb             
  0               -7.6532e-005    0.80836        
  0.025           0.00098428      0.8248         
  0.05            0.0022202       0.83928        
  0.075           0.003573        0.85208        
  0.1             0.0049824       0.86356        
  0.125           0.0063988       0.8738         
  0.15            0.007783        0.88284        
  0.175           0.009093        0.89068        
  0.2             0.0102918       0.89736        
  0.225           0.0113292       0.90272        
  0.25            0.01218         0.90684        
  0.275           0.012846        0.9098         
  0.3             0.013338        0.9118         
  0.325           0.013664        0.91296        
  0.35            0.013862        0.91344        
  0.375           0.01396         0.91344        
  0.4             0.014008        0.9132         
  0.425           0.014022        0.91272        
  0.45            0.014018        0.91228        
  0.475           0.014           0.91172        
  0.5             0.013984        0.91116        
  0.525           0.013956        0.91052        
  0.55            0.013922        0.90988        
  0.575           0.01389         0.90924        
  0.6             0.013854        0.90864        
  0.625           0.013814        0.908          
  0.65            0.013772        0.90732        
  0.675           0.01374         0.90672        
  0.7             0.013698        0.90604        
  0.725           0.013658        0.9054         
  0.75            0.013616        0.9048         
  0.775           0.013578        0.90412        
  0.8             0.013536        0.90348        
  0.825           0.013494        0.90284        
  0.85            0.013456        0.9022         
  0.875           0.013412        0.9016         
  0.9             0.013374        0.90096        
  0.925           0.013336        0.90032        
  0.95            0.013294        0.89972        
  0.975           0.013254        0.89912        
  1               0.013212        0.89848        
  1.025           0.013174        0.89788        
  1.05            0.01313         0.89728        
  1.075           0.013094        0.89668        
  1.1             0.013058        0.89608        
  1.125           0.013018        0.89548        
  1.15            0.012984        0.89488        
  1.175           0.012948        0.89432        
  1.2             0.012916        0.89376        
  1.225           0.012888        0.8932         
  1.25            0.012862        0.89272        
  1.275           0.012848        0.89216        
  1.3             0.012828        0.89172        
  1.325           0.012824        0.89128        
  1.35            0.012828        0.89088        
  1.375           0.01284         0.89048        
  1.4             0.012868        0.8902         
  1.425           0.01291         0.88996        
  1.45            0.012966        0.88976        
  1.475           0.013044        0.88972        
  1.5             0.013148        0.88968        
  1.525           0.013278        0.88976        
  1.55            0.01343         0.89           
  1.575           0.013614        0.89028        
  1.6             0.013832        0.89068        
  1.625           0.014088        0.8912         
  1.65            0.014388        0.89188        
  1.675           0.01473         0.8926         
  1.7             0.015114        0.89352        
  1.725           0.015552        0.89456        
  1.75            0.016042        0.89568        
  1.775           0.016584        0.89692        
  1.8             0.017184        0.89828        
  1.825           0.01784         0.89968        
  1.85            0.01856         0.9012         
  1.875           0.019336        0.9028         
  1.9             0.02017         0.9044         
  1.925           0.021064        0.906          
  1.95            0.022014        0.90764        
  1.975           0.02302         0.90924        
  2               0.024078        0.9108         
END_DB

BEGIN_DB
 ICCAP_VAR vs         0              
 ICCAP_VAR ve         0              
 ICCAP_VAR ib         5e-005         

 #vc              ic              vb             
  0               -7.1512e-005    0.82936        
  0.025           0.0013144       0.84408        
  0.05            0.002816        0.8574         
  0.075           0.0043934       0.86952        
  0.1             0.0060104       0.8806         
  0.125           0.0076406       0.8908         
  0.15            0.009267        0.90012        
  0.175           0.0108722       0.90864        
  0.2             0.01245         0.91648        
  0.225           0.01397         0.92352        
  0.25            0.015418        0.92976        
  0.275           0.016768        0.93524        
  0.3             0.017992        0.93984        
  0.325           0.01905         0.94348        
  0.35            0.019902        0.94616        
  0.375           0.020544        0.94788        
  0.4             0.020986        0.94876        
  0.425           0.021264        0.949          
  0.45            0.021424        0.9488         
  0.475           0.021488        0.94828        
  0.5             0.0215          0.94756        
  0.525           0.021474        0.94672        
  0.55            0.021432        0.94584        
  0.575           0.021374        0.94488        
  0.6             0.021314        0.94396        
  0.625           0.021252        0.94296        
  0.65            0.02119         0.942          
  0.675           0.02112         0.94104        
  0.7             0.021048        0.94008        
  0.725           0.020978        0.93908        
  0.75            0.0209          0.93812        
  0.775           0.02083         0.93716        
  0.8             0.020752        0.9362         
