! VERSION = 6.00
BEGIN_HEADER
 ICCAP_INPUTS
  vc         V  C GROUND SMU_C 0.1 SYNC       1 0.25 vb
  vb         V  B GROUND SMU_B 0.015 LIN        1    0.68       1.04       37   0.01      
  ve         V  E GROUND SMU_E 0 CON        0
  vs         V  S GROUND SMU_S 0 CON        0
  freq       F  CON        30000000000
 ICCAP_OUTPUTS
  ic         I  C GROUND SMU_C B
  S_deemb    S  B C GROUND n/a B
  ft         U
  ft_fit_qual U
  Fmax       U
  mag_s21    U
  ph_s21     U
  err_m_s21  U
  err_p_s21  U
END_HEADER

BEGIN_DB
 ICCAP_VAR ve         0              
 ICCAP_VAR vs         0              
 ICCAP_VAR freq       3e+010         

 #vb              vc              ic              R:S_deemb(1,1)  I:S_deemb(1,1)  R:S_deemb(1,2)  I:S_deemb(1,2)  R:S_deemb(2,1)  I:S_deemb(2,1)  R:S_deemb(2,2)  I:S_deemb(2,2)  R:ft(1,1)       I:ft(1,1)       R:ft_fit_qual(1,1) I:ft_fit_qual(1,1) R:Fmax(1,1)     I:Fmax(1,1)     R:mag_s21(1,1)  I:mag_s21(1,1)  R:ph_s21(1,1)   I:ph_s21(1,1)   R:err_m_s21(1,1) I:err_m_s21(1,1) R:err_p_s21(1,1) I:err_p_s21(1,1)
  0.68            0.93            1.5256e-005     0.590076        -0.6767         0.196276        0.242657        0.154564        0.278511        0.834666        -0.38601        1.25087e+010    0               -3.25746        0               1.93079e+010    0               0.318525        0               1.06415         0               25.1559         0               -12.0299        0              
  0.69            0.94            2.2324e-005     0.582243        -0.681021       0.1967          0.240984        0.137366        0.293178        0.831459        -0.388493       1.26595e+010    0               -2.85632        0               2.50898e+010    0               0.323763        0               1.13263         0               25.0111         0               -10.7179        0              
  0.7             0.95            3.249e-005      0.572269        -0.686624       0.19735         0.238804        0.112938        0.314565        0.826667        -0.391966       1.3006e+010     0               -2.54136        0               3.20621e+010    0               0.334225        0               1.2261          0               24.9496         0               -9.23741        0              
  0.71            0.96            4.7396e-005     0.559094        -0.693305       0.198001        0.236044        0.0787104       0.346151        0.819498        -0.396843       1.37487e+010    0               -2.63168        0               4.03383e+010    0               0.354987        0               1.34721         0               25.17           0               -7.78577        0              
  0.72            0.97            6.904e-005      0.541897        -0.701356       0.198665        0.232297        0.0299912       0.392349        0.809097        -0.403832       1.5176e+010     0               -3.20819        0               5.01672e+010    0               0.393494        0               1.4945          0               25.6908         0               -6.45756        0              
  0.73            0.98            0.000100316     0.519027        -0.71219        0.199369        0.227593        -0.0363451      0.458828        0.794282        -0.413295       1.76635e+010    0               -3.93978        0               6.20351e+010    0               0.460265        0               1.64984         0               26.3421         0               -5.80957        0              
  0.74            0.99            0.0001449       0.488296        -0.724511       0.200201        0.221283        -0.126134       0.553108        0.773468        -0.425871       2.16867e+010    0               -4.4428         0               7.54839e+010    0               0.567308        0               1.79501         0               26.6872         0               -5.711          0              
  0.75            1               0.00020938      0.448804        -0.739184       0.200795        0.213224        -0.243637       0.685521        0.744496        -0.44185        2.77442e+010    0               -4.37921        0               9.13829e+010    0               0.727529        0               1.91228         0               26.4317         0               -6.04855        0              
  0.76            1.01            0.00030108      0.397236        -0.753836       0.200828        0.202868        -0.391542       0.868007        0.704828        -0.461143       3.63523e+010    0               -3.7679         0               1.09356e+011    0               0.95223         0               1.99455         0               25.4275         0               -6.61415        0              
  0.77            1.02            0.00043356      0.330902        -0.768876       0.200276        0.18966         -0.570519       1.11634         0.651603        -0.483735       4.80388e+010    0               -2.88675        0               1.29917e+011    0               1.25368         0               2.04325         0               23.9342         0               -7.25334        0              
  0.78            1.03            0.00061742      0.250858        -0.780426       0.198247        0.174278        -0.770086       1.43727         0.584168        -0.506918       6.30833e+010    0               -1.75164        0               1.53821e+011    0               1.63058         0               2.06267         0               21.706          0               -7.93145        0              
  0.79            1.04            0.00086982      0.157238        -0.785937       0.194543        0.156612        -0.97642        1.83586         0.502413        -0.528183       8.16887e+010    0               -0.716384       0               1.80038e+011    0               2.07937         0               2.05961         0               19.0286         0               -8.56338        0              
  0.8             1.05            0.0012172       0.0546167       -0.781771       0.188462        0.137588        -1.168          2.30171         0.408322        -0.543989       1.03769e+011    0               -0.0821909      0               2.08636e+011    0               2.5811          0               2.04039         0               16.0067         0               -9.09677        0              
  0.81            1.06            0.0016776       -0.0514092      -0.766099       0.180325        0.118687        -1.32515        2.81528         0.307344        -0.551385       1.2901e+011     0               -0.165379       0               2.38748e+011    0               3.11156         0               2.01073         0               12.9609         0               -9.50341        0              
  0.82            1.07            0.0022916       -0.153566       -0.740823       0.170416        0.101144        -1.43664        3.34254         0.205418        -0.549327       1.56622e+011    0               -0.995434       0               2.71183e+011    0               3.6382          0               1.97673         0               10.0733         0               -9.72247        0              
  0.83            1.08            0.0030752       -0.24464        -0.708127       0.15982         0.0858612       -1.49563        3.84127         0.111369        -0.539252       1.84728e+011    0               -2.04183        0               3.01774e+011    0               4.12217         0               1.9421          0               7.2844          0               -9.79231        0              
  0.84            1.09            0.0040388       -0.321486       -0.672277       0.149639        0.0732541       -1.51232        4.2847          0.0286046       -0.524417       2.12078e+011    0               -3.25633        0               3.28725e+011    0               4.54376         0               1.9101          0               4.72835         0               -9.72145        0              
  0.85            1.1             0.0052184       -0.382814       -0.638208       0.14013         0.0635048       -1.50117        4.65997         -0.0405296      -0.506851       2.3758e+011     0               -4.5161         0               3.55243e+011    0               4.8958          0               1.88244         0               2.46522         0               -9.53804        0              
  0.86            1.11            0.0065816       -0.432766       -0.606863       0.131958        0.0558845       -1.4761         4.96732         -0.0967484      -0.489328       2.60188e+011    0               -5.60892        0               3.77437e+011    0               5.182           0               1.85965         0               0.524312        0               -9.26899        0              
  0.87            1.12            0.0081878       -0.472489       -0.578414       0.124831        0.0499443       -1.4401         5.21746         -0.141815       -0.472669       2.79814e+011    0               -6.60393        0               3.96535e+011    0               5.41256         0               1.84011         0               -1.07254        0               -9.01925        0              
  0.88            1.13            0.009965        -0.50358        -0.552885       0.118905        0.0452496       -1.39819        5.41202         -0.177974       -0.45777        2.96213e+011    0               -7.44028        0               4.09759e+011    0               5.58971         0               1.82362         0               -2.48812        0               -8.78169        0              
  0.89            1.14            0.011958        -0.528254       -0.531044       0.11358         0.0417297       -1.35673        5.56487         -0.206117       -0.443878       3.0978e+011     0               -8.24534        0               4.23264e+011    0               5.72787         0               1.80993         0               -3.64127        0               -8.53692        0              
  0.9             1.15            0.014148        -0.549412       -0.5107         0.108883        0.0386563       -1.31371        5.68435         -0.228869       -0.430974       3.20418e+011    0               -8.99349        0               4.31471e+011    0               5.83418         0               1.79792         0               -4.5497         0               -8.31343        0              
  0.91            1.16            0.016524        -0.567613       -0.491647       0.104603        0.0361821       -1.26674        5.77789         -0.247243       -0.418957       3.28844e+011    0               -9.9114         0               4.39795e+011    0               5.91512         0               1.78662         0               -5.20011        0               -8.12932        0              
  0.92            1.17            0.019088        -0.583505       -0.47415        0.10086         0.0338998       -1.22316        5.84548         -0.261858       -0.408152       3.34611e+011    0               -10.9137        0               4.4246e+011     0               5.97208         0               1.77707         0               -5.63064        0               -7.88396        0              
  0.93            1.18            0.021864        -0.597222       -0.457219       0.0972476       0.0322176       -1.17506        5.89096         -0.273297       -0.397419       3.3872e+011     0               -12.3225        0               4.4688e+011     0               6.00701         0               1.76768         0               -5.83616        0               -7.6373         0              
  0.94            1.19            0.02484         -0.609679       -0.440876       0.0937712       0.0304743       -1.1273         5.91496         -0.282281       -0.387605       3.40269e+011    0               -13.9554        0               4.46804e+011    0               6.02142         0               1.75912         0               -5.79289        0               -7.31528        0              
  0.95            1.2             0.028022        -0.621028       -0.424574       0.0906128       0.0291106       -1.07828        5.91671         -0.288558       -0.378075       3.39878e+011    0               -16.0169        0               4.44895e+011    0               6.01416         0               1.75106         0               -5.506          0               -6.90801        0              
  0.96            1.21            0.031394        -0.631788       -0.408695       0.0875838       0.0278855       -1.02696        5.89526         -0.292707       -0.369172       3.3711e+011     0               -18.4122        0               4.42025e+011    0               5.98404         0               1.74327         0               -4.97066        0               -6.40376        0              
  0.97            1.22            0.034968        -0.640461       -0.392543       0.0848685       0.0267441       -0.969192       5.8425          -0.295239       -0.360234       3.31968e+011    0               -21.1188        0               4.32736e+011    0               5.92234         0               1.73519         0               -4.31179        0               -5.81616        0              
  0.98            1.23            0.038698        -0.649498       -0.374926       0.0819777       0.0256627       -0.905006       5.75196         -0.296413       -0.350564       3.23923e+011    0               -23.9419        0               4.20332e+011    0               5.82272         0               1.72686         0               -3.6215         0               -5.1303         0              
  0.99            1.24            0.042654        -0.656924       -0.354819       0.079455        0.0245688       -0.819674       5.59205         -0.296832       -0.339          3.11498e+011    0               -26.4225        0               3.97567e+011    0               5.6518          0               1.71634         0               -3.5051         0               -4.45892        0              
  1               1.25            0.046762        -0.664997       -0.328443       0.0770771       0.023391        -0.693644       5.28919         -0.297924       -0.321452       2.90766e+011    0               -27.4249        0               3.60236e+011    0               5.33448         0               1.7012          0               -5.511          0               -3.9521         0              
  1.01            1.26            0.051028        -0.670903       -0.289281       0.07475         0.021474        -0.505854       4.67613         -0.302316       -0.288742       2.5365e+011     0               -24.1016        0               2.89758e+011    0               4.70341         0               1.67856         0               -14.1916        0               -3.79089        0              
  1.02            1.27            0.055262        -0.672467       -0.234091       0.0724673       0.0185437       -0.316819       3.65824         -0.310589       -0.234899       1.97141e+011    0               -11.6849        0               1.96513e+011    0               3.67193         0               1.65718         0               -38.1515        0               -3.41121        0              
  1.03            1.28            0.059338        -0.672632       -0.18228        0.0706496       0.0160576       -0.180587       2.58688         -0.322163       -0.177758       1.39933e+011    0               11.4424         0               1.25987e+011    0               2.59318         0               1.64049         0               50              0               -2.50614        0              
  1.04            1.29            0.063188        -0.677109       -0.147456       0.0692854       0.0140561       -0.101232       1.85577         -0.333359       -0.13813        1.00887e+011    0               35.7457         0               8.6813e+010     0               1.85853         0               1.62529         0               50              0               -0.81536        0              
END_DB

