! VERSION = 6.00
BEGIN_HEADER
 ICCAP_INPUTS
  vc         V  C GROUND SMU_C 0.1 SYNC       1 0.25 vb
  vb         V  B GROUND SMU_B 0.015 LIN        2    0.88       0.96       5    0.02      
  ve         V  E GROUND SMU_E 0 CON        0
  vs         V  S GROUND SMU_S 0 CON        0
  freq       F  LIST       1 74 100000000 200000000 300000000 400000000 500000000 600000000 700000000 800000000 900000000 1000000000 2000000000 3000000000 4000000000 5000000000 6000000000 7000000000 8000000000 9000000000 10000000000 11000000000 12000000000 13000000000 14000000000 15000000000 16000000000 17000000000 18000000000 19000000000 20000000000 21000000000 22000000000 23000000000 24000000000 25000000000 26000000000 27000000000 28000000000 29000000000 30000000000 31000000000 32000000000 33000000000 34000000000 35000000000 36000000000 37000000000 38000000000 39000000000 40000000000 41000000000 42000000000 43000000000 44000000000 45000000000 46000000000 47000000000 48000000000 49000000000 50000000000 51000000000 52000000000 53000000000 54000000000 55000000000 56000000000 57000000000 58000000000 59000000000 60000000000 61000000000 62000000000 63000000000 64000000000 65000000000
 ICCAP_OUTPUTS
  ic         I  C GROUND SMU_C B
  S_deemb    S  B C GROUND n/a B
  GU         U
  GMAG       U
  h          H
  GU_f       U
  h21_f      U
END_HEADER

BEGIN_DB
 ICCAP_VAR vc         1.13           
 ICCAP_VAR vb         0.88           
 ICCAP_VAR ve         0              
 ICCAP_VAR vs         0              

 #freq            ic              R:S_deemb(1,1)  I:S_deemb(1,1)  R:S_deemb(1,2)  I:S_deemb(1,2)  R:S_deemb(2,1)  I:S_deemb(2,1)  R:S_deemb(2,2)  I:S_deemb(2,2)  R:GU(1,1)       I:GU(1,1)       R:GMAG(1,1)     I:GMAG(1,1)     R:h(1,1)        I:h(1,1)        R:h(1,2)        I:h(1,2)        R:h(2,1)        I:h(2,1)        R:h(2,2)        I:h(2,2)        R:GU_f(1,1)     I:GU_f(1,1)     R:h21_f(1,1)    I:h21_f(1,1)   
  1e+008          0.009965        0.965886        -0.012911       -0.000121644    0.00130792      -15.6708        0.298768        0.983507        0.0211978       53724.9         0               6.23513         -11932.1        2810.84         -210.026        -0.000333175    0.0379898       450.914         -46.6236        0.000289947     0.00578698      2.31786e+010    0               4.53318e+010    0              
  2e+008          0.009965        0.965645        -0.0275683      3.71644e-005    0.00240853      -15.5703        0.349348        0.993615        -0.00226389     108348          0               238.193         -6461.12        2732.01         -724.195        0.0184595       0.0669711       432.156         -122.38         0.00317034      0.0104226       6.58325e+010    0               8.98299e+010    0              
  3e+008          0.009965        0.965047        -0.0429572      0.000101426     0.00365714      -15.5318        0.450598        0.996031        -0.0214529      93986           0               101.384         -4245.92        2456.23         -1080.78        0.0411713       0.0911827       387.041         -175.354        0.00670522      0.0142916       9.19714e+010    0               1.27474e+011    0              
  4e+008          0.009965        0.964412        -0.0574977      0.00015845      0.00485294      -15.5232        0.571406        0.996338        -0.0364928      152987          0               46.7406         -3198.84        2158.87         -1297.64        0.0646485       0.106514        339.895         -208.236        0.0103942       0.0167502       1.56454e+011    0               1.59445e+011    0              
  5e+008          0.009965        0.963435        -0.0722935      0.000252979     0.00604996      -15.523         0.702978        0.995892        -0.0503335      148353          0               31.0856         -2566           1850.9          -1426.58        0.088433        0.113854        291.383         -227.947        0.0141463       0.0179481       1.92583e+011    0               1.84975e+011    0              
  6e+008          0.009965        0.962119        -0.0869888      0.000423307     0.00725666      -15.5194        0.833582        0.994666        -0.0636167      47500.1         0               38.2706         -2137.75        1579.82         -1493.33        0.11188         0.115817        248.726         -238.065        0.0178475       0.0182941       1.30767e+011    0               2.06578e+011    0              
  7e+008          0.009965        0.960147        -0.101613       0.000516263     0.00842086      -15.4782        0.968833        0.993526        -0.0759959      90268.5         0               21.0712         -1838.1         1326.33         -1457.74        0.125953        0.113527        208.391         -231.798        0.0200435       0.0179312       2.10313e+011    0               2.1819e+011     0              
  8e+008          0.009965        0.95804         -0.11577        0.000713977     0.00960616      -15.4705        1.10422         0.992021        -0.0883139      43733.8         0               24.9167         -1609.94        1143.17         -1430.16        0.141562        0.111101        179.555         -227.407        0.0225208       0.0175724       1.67301e+011    0               2.31799e+011    0              
  9e+008          0.009965        0.956051        -0.130026       0.000893553     0.0107659       -15.4687        1.25104         0.990517        -0.10038        39881.8         0               22.8441         -1436.39        980.258         -1388.83        0.154099        0.106747        153.817         -221.051        0.0245355       0.0168999       1.79734e+011    0               2.42371e+011    0              
  1e+009          0.009965        0.95411         -0.14433        0.00103701      0.0119552       -15.4318        1.39854         0.988761        -0.112416       80548.5         0               15.328          -1291.15        845.76          -1334.52        0.163964        0.103046        132.24          -212.228        0.026087        0.0162907       2.83811e+011    0               2.50057e+011    0              
  2e+009          0.009965        0.917451        -0.282061       0.00410951      0.0232894       -15.102         2.72421         0.959071        -0.225436       21278.9         0               12.3672         -648.773        270.597         -847.323        0.207481        0.0645522       41.3738         -134.791        0.0330183       0.010283        2.91746e+011    0               2.81996e+011    0              
  3e+009          0.009965        0.859459        -0.409917       0.00884361      0.0337252       -14.5327        3.92226         0.912666        -0.3279         15063.6         0               9.27785         -431.637        129.582         -586.475        0.215534        0.0460462       19.2131         -93.1938        0.0342755       0.00746228      3.68202e+011    0               2.85461e+011    0              
  4e+009          0.009965        0.786229        -0.52078        0.0148836       0.04286         -13.839         5.02423         0.853781        -0.416739       10647.6         0               9.49353         -324.361        75.3011         -450.66         0.220602        0.0351676       10.4072         -71.7384        0.035142        0.00568911      4.12749e+011    0               2.89958e+011    0              
  5e+009          0.009965        0.700741        -0.613772       0.0219404       0.0505733       -13.0503        5.92844         0.786021        -0.491843       6590.82         0               9.56774         -259.835        51.0522         -365.828        0.224009        0.0290363       6.55417         -58.3652        0.0357583       0.00472701      4.05919e+011    0               2.9366e+011     0              
  6e+009          0.009965        0.609156        -0.689794       0.0295154       0.0566929       -12.1235        6.64634         0.712573        -0.552348       5272.4          0               9.0802          -216.122        35.8581         -303.925        0.223067        0.0240293       4.1608          -48.3526        0.0355161       0.00399343      4.35668e+011    0               2.91188e+011    0              
  7e+009          0.009965        0.513382        -0.747375       0.0373929       0.0616069       -11.2271        7.24229         0.636732        -0.599525       3825.06         0               9.56704         -185.141        27.5677         -263.015        0.225779        0.0209175       2.73042         -41.9472        0.0360165       0.00340737      4.3293e+011     0               2.94252e+011    0              
  8e+009          0.009965        0.418968        -0.789179       0.0451687       0.0649623       -10.329         7.63706         0.561851        -0.633384       2765.65         0               9.48779         -162.076        22.46           -230.193        0.225813        0.0187082       1.96932         -36.7343        0.036043        0.00311844      4.20715e+011    0               2.94296e+011    0              
  9e+009          0.009965        0.329087        -0.817403       0.0526795       0.0672784       -9.44196        7.89543         0.489149        -0.656661       2196.01         0               9.35042         -143.736        18.5585         -204.784        0.226144        0.0167828       1.36946         -32.6347        0.0360542       0.00286591      4.21754e+011    0               2.9397e+011     0              
  1e+010          0.009965        0.241788        -0.834327       0.0598393       0.0685733       -8.6162         8.12729         0.420884        -0.67128        1770.48         0               9.81839         -129.772        14.7393         -184.517        0.226072        0.0138775       0.665813        -29.4695        0.0360661       0.00230877      4.20771e+011    0               2.9477e+011     0              
  1.1e+010        0.009965        0.161609        -0.84197        0.0664125       0.0690937       -7.83301        8.13673         0.356242        -0.678798       1525.24         0               9.12179         -117.497        14.0914         -166.947        0.225525        0.0146766       0.69736         -26.6254        0.0359777       0.0026515       4.29598e+011    0               2.9298e+011     0              
  1.2e+010        0.009965        0.0868364       -0.840747       0.0725853       0.0690647       -7.11059        8.18866         0.296135        -0.678797       1231.64         0               9.67611         -107.808        11.8172         -153.597        0.226419        0.0124237       0.228641        -24.5438        0.0361438       0.00215695      4.21137e+011    0               2.94538e+011    0              
  1.3e+010        0.009965        0.0190899       -0.834559       0.0780188       0.0684557       -6.45562        8.12149         0.241431        -0.673847       1044.74         0               9.6323          -99.4895        10.9898         -141.506        0.226128        0.0121431       0.114495        -22.6349        0.0361565       0.00215776      4.20191e+011    0               2.94257e+011    0              
  1.4e+010        0.009965        -0.0423411      -0.823241       0.0833076       0.0676096       -5.89533        8.02002         0.192848        -0.666752       801.883         0               9.8013          -92.2541        10.3097         -132.089        0.227735        0.0111607       0.023193        -21.153         0.0364178       0.00201527      3.96446e+011    0               2.96143e+011    0              
  1.5e+010        0.009965        -0.0982775      -0.81022        0.0880012       0.066403        -5.30521        7.94177         0.148372        -0.656831       749.863         0               9.97586         -86.0572        8.34519         -122.753        0.226347        0.00880279      -0.365252       -19.6207        0.0360633       0.0015728       4.10755e+011    0               2.94361e+011    0              
  1.6e+010        0.009965        -0.147021       -0.793755       0.0919322       0.0649072       -4.8389         7.74115         0.107837        -0.644151       621.135         0               9.83935         -80.5222        8.61672         -114.958        0.226434        0.00955443      -0.256112       -18.3832        0.0361527       0.00183981      3.98761e+011    0               2.94159e+011    0              
  1.7e+010        0.009965        -0.193378       -0.776718       0.0958689       0.0634654       -4.36754        7.59961         0.0708505       -0.631076       571.183         0               9.89174         -75.5932        7.51985         -107.942        0.226124        0.0081671       -0.466585       -17.2441        0.036023        0.0015866       4.0629e+011     0               2.93257e+011    0              
  1.8e+010        0.009965        -0.233055       -0.759001       0.0991598       0.0615827       -3.99843        7.40255         0.0387325       -0.618149       482.647         0               9.73254         -71.4177        7.45044         -101.76         0.22555         0.00806017      -0.403174       -16.2625        0.0359642       0.00177699      3.95446e+011    0               2.92816e+011    0              
  1.9e+010        0.009965        -0.270766       -0.739659       0.101653        0.0598584       -3.64305        7.27044         0.0084055       -0.603222       452.748         0               9.90022         -68.2204        7.06492         -96.3806        0.224757        0.00788091      -0.505658       -15.4949        0.0360369       0.00168111      4.0428e+011     0               2.9456e+011     0              
  2e+010          0.009965        -0.301406       -0.720205       0.104166        0.0582414       -3.27437        7.02676         -0.018206       -0.586777       416.764         0               9.83831         -64.2084        6.99592         -90.8475        0.223641        0.00850862      -0.51923        -14.5285        0.0357548       0.00187755      4.08296e+011    0               2.90755e+011    0              
  2.1e+010        0.009965        -0.332692       -0.701814       0.106298        0.0565334       -3.05003        6.8867          -0.0431184      -0.571919       355.679         0               9.98267         -61.7575        6.93786         -87.1115        0.224648        0.00800818      -0.509485       -14.0535        0.0362159       0.00177424      3.96049e+011    0               2.95317e+011    0              
  2.2e+010        0.009965        -0.361624       -0.683409       0.108834        0.0553824       -2.71851        6.72311         -0.0665332      -0.559536       377.745         0               9.78431         -58.5746        6.27269         -82.9077        0.224714        0.00814427      -0.670585       -13.3368        0.0360811       0.00172114      4.27585e+011    0               2.93781e+011    0              
  2.3e+010        0.009965        -0.38394        -0.665994       0.110606        0.0537357       -2.52028        6.50594         -0.0831119      -0.545259       316.33          0               9.76024         -55.8927        6.63174         -79.1626        0.224227        0.00873351      -0.556675       -12.7198        0.0360189       0.00197278      4.0907e+011     0               2.92835e+011    0              
  2.4e+010        0.009965        -0.404162       -0.649731       0.112182        0.0523356       -2.31687        6.36273         -0.0960243      -0.529304       282.624         0               10.048          -53.7704        6.11937         -75.8919        0.222963        0.00717049      -0.672671       -12.1841        0.03574         0.00161795      4.03474e+011    0               2.92864e+011    0              
  2.5e+010        0.009965        -0.421764       -0.62867        0.113271        0.0506353       -2.09915        6.13192         -0.113481       -0.513143       245.781         0               10.2577         -51.2203        6.58794         -72.3428        0.22234         0.0084742       -0.609427       -11.6069        0.0357235       0.00189779      3.91935e+011    0               2.90572e+011    0              
  2.6e+010        0.009965        -0.44145        -0.608419       0.114686        0.0490281       -1.92493        5.96905         -0.134143       -0.492516       206.47          0               10.7243         -49.1273        6.25898         -69.7573        0.224324        0.00651949      -0.710184       -11.2624        0.0362864       0.00137767      3.73595e+011    0               2.93403e+011    0              
  2.7e+010        0.009965        -0.462628       -0.593132       0.116119        0.0477806       -1.77416        5.85326         -0.150827       -0.486672       210.599         0               10.285          -47.6114        6.31121         -67.4124        0.225231        0.00808789      -0.660094       -10.9581        0.0366314       0.00174427      3.91825e+011    0               2.96406e+011    0              
  2.8e+010        0.009965        -0.480169       -0.577298       0.117285        0.046056        -1.586          5.70591         -0.167404       -0.477499       213.159         0               9.99713         -45.9249        6.01773         -64.6496        0.22444         0.00855167      -0.685542       -10.5341        0.0366034       0.00202584      4.08799e+011    0               2.9558e+011     0              
  2.9e+010        0.009965        -0.492978       -0.566073       0.117852        0.045452        -1.47555        5.54909         -0.171696       -0.467868       206.345         0               9.89469         -44.3679        6.35069         -62.2287        0.222688        0.0105494       -0.616397       -10.1155        0.0363132       0.00234709      4.16576e+011    0               2.93894e+011    0              
  3e+010          0.009965        -0.50358        -0.552885       0.118905        0.0452496       -1.39819        5.41202         -0.177974       -0.45777        186.559         0               10.0088         -42.7808        6.74893         -60.7062        0.224419        0.0118295       -0.573793       -9.85707        0.0365478       0.00234239      4.09759e+011    0               2.96213e+011    0              
  3.1e+010        0.009965        -0.516635       -0.536285       0.120156        0.0432933       -1.26241        5.29436         -0.190563       -0.445097       167.436         0               10.1505         -41.3893        6.17857         -58.6319        0.224345        0.0093876       -0.668667       -9.5456         0.0365275       0.00202857      4.01131e+011    0               2.96639e+011    0              
  3.2e+010        0.009965        -0.527778       -0.523044       0.121016        0.042418        -1.12662        5.17404         -0.201677       -0.434777       167.71          0               10.112          -40.0364        5.88475         -56.8271        0.224667        0.00945814      -0.748179       -9.25533        0.0365994       0.0019698       4.14409e+011    0               2.97137e+011    0              
  3.3e+010        0.009965        -0.537553       -0.511385       0.121731        0.0414433       -1.05207        5.0156          -0.209032       -0.425809       152.29          0               10.0116         -38.5747        6.1765          -54.9868        0.224806        0.0106394       -0.663901       -8.94457        0.0366723       0.00228159      4.0724e+011     0               2.95983e+011    0              
  3.4e+010        0.009965        -0.547572       -0.498503       0.122387        0.0407296       -0.976121       4.91108         -0.215159       -0.417231       143.564         0               10.0602         -37.493         6.27326         -53.477         0.225026        0.0112508       -0.656284       -8.7216         0.0367541       0.00228933      4.07382e+011    0               2.97373e+011    0              
