! VERSION = 6.00
!Data measured by ggf on Mon Jan 29 08:57:37 2018 using model file NPN_MEAS_SCALE
BEGIN_HEADER
 ICCAP_INPUTS
  vc         V  C GROUND SMU_C 0.1 CON        1.2
  ve         V  E GROUND SMU_E 0.1 CON        0
  vs         V  S GROUND SMU_S 0.015 CON        0
  freq       F  LIST       1 74 100000000 200000000 300000000 400000000 500000000 600000000 700000000 800000000 900000000 1000000000 2000000000 3000000000 4000000000 5000000000 6000000000 7000000000 8000000000 9000000000 10000000000 11000000000 12000000000 13000000000 14000000000 15000000000 16000000000 17000000000 18000000000 19000000000 20000000000 21000000000 22000000000 23000000000 24000000000 25000000000 26000000000 27000000000 28000000000 29000000000 30000000000 31000000000 32000000000 33000000000 34000000000 35000000000 36000000000 37000000000 38000000000 39000000000 40000000000 41000000000 42000000000 43000000000 44000000000 45000000000 46000000000 47000000000 48000000000 49000000000 50000000000 51000000000 52000000000 53000000000 54000000000 55000000000 56000000000 57000000000 58000000000 59000000000 60000000000 61000000000 62000000000 63000000000 64000000000 65000000000
  vb         V  B GROUND SMU_B 0.015 LIN        2    0.68       1.04       37   0.01      
 ICCAP_OUTPUTS
  ic         I  C GROUND SMU_C M
  ib         I  B GROUND SMU_B M
  S          S  B C GROUND NWA M
  S_deemb    S B C GROUND n/a B
 ICCAP_VALUES
  TNOM "27"
  TEMP "27"
  TECHNO "SG13G2"
  LOT "EDJ802"
  WAFER "02"
  CHIP "(3.3)"
  MODULE "S439S"
  DEV_NAME "D14"
  DEV_GEOM_L "2.5"
  DEV_GEOM_W "0.07"
  NUM_OF_TRANS_RF "1"
  REMARKS "Nx=5; Power -30/-20dBm, Slope: 0.1dB/GHz"
  TIMEDATE "Tue Jan 23 14:05:08     2018"
  OPERATOR "ggf"
END_HEADER

BEGIN_DB
 ICCAP_VAR vc         1.2            
 ICCAP_VAR ve         0              
 ICCAP_VAR vs         0              
 ICCAP_VAR vb         0.68           

 #freq            ic              ib              R:S(1,1)        I:S(1,1)        R:S(1,2)        I:S(1,2)        R:S(2,1)        I:S(2,1)        R:S(2,2)        I:S(2,2)        R:S_deemb(1,1)  I:S_deemb(1,1)  R:S_deemb(1,2)  I:S_deemb(1,2)  R:S_deemb(2,1)  I:S_deemb(2,1)  R:S_deemb(2,2)  I:S_deemb(2,2) 
  1e+008          1.5304e-005     2.01e-008       0.999596        -0.00382619     -1.73044e-005   0.00127458      -0.0645545      0.000563109     1.0003          -0.00256066     0.999601        -0.00286845     -7.85618e-005   0.00115367      -0.0644689      0.000246542     1.00017         -0.0014341     
  2e+008          1.5304e-005     2.01e-008       1.00009         -0.00824577     4.61041e-007    0.00256819      -0.0625174      0.00232981      1.00053         -0.00599844     0.999895        -0.0058954      -1.06839e-006   0.00230526      -0.0625224      0.00184976      1.00026         -0.00314163    
  3e+008          1.5304e-005     2.01e-008       1.0001          -0.0123805      3.55583e-005    0.0037804       -0.0625043      0.00392038      1.00035         -0.00812758     0.999682        -0.00901911     1.99844e-005    0.00351736      -0.06253        0.00342001      1.00011         -0.00482992    
  4e+008          1.5304e-005     2.01e-008       1.00022         -0.0166853      8.90919e-005    0.00507993      -0.0617302      0.00550903      1.00018         -0.0108546      0.999738        -0.0122363      5.7859e-005     0.00473313      -0.0617292      0.00497747      1.0001          -0.00636877    
  5e+008          1.5304e-005     2.01e-008       1.00001         -0.0209231      0.000114678     0.00634382      -0.0623658      0.0068667       1.00023         -0.0136111      0.999417        -0.0146887      6.26567e-005    0.0059233       -0.0623593      0.00603296      1.00004         -0.00798787    
  6e+008          1.5304e-005     2.01e-008       0.999984        -0.0251835      0.000163576     0.00762606      -0.0623006      0.00831165      1.00015         -0.0163058      0.999778        -0.0181546      0.000113261     0.00714755      -0.0623063      0.00735393      0.999909        -0.00958848    
  7e+008          1.5304e-005     2.01e-008       0.999874        -0.0293391      0.000246916     0.00888263      -0.0623974      0.0100723       1.00004         -0.0191934      0.999494        -0.0213611      0.000174494     0.0082956       -0.0624395      0.0089473       0.999916        -0.0112511     
  8e+008          1.5304e-005     2.01e-008       0.999683        -0.0337474      0.000320796     0.0101455       -0.0625388      0.0117008       0.999843        -0.021883       0.999441        -0.0245548      0.000226084     0.0094781       -0.0626605      0.0104297       0.999788        -0.0128634     
  9e+008          1.5304e-005     2.01e-008       0.999545        -0.0377635      0.000388851     0.0114181       -0.0618937      0.0132967       0.999857        -0.0245641      0.999272        -0.0275599      0.00026518      0.0106619       -0.0620708      0.0119032       0.999844        -0.0144412     
  1e+009          1.5304e-005     2.01e-008       0.999153        -0.0419214      0.000467101     0.0126867       -0.0624007      0.0148256       0.999629        -0.0273237      0.999164        -0.030406       0.000271122     0.0118423       -0.0625718      0.0132904       0.999685        -0.0160376     
  2e+009          1.5304e-005     2.01e-008       0.996184        -0.0835816      0.00188215      0.0252832       -0.0593259      0.029996        0.997843        -0.0544501      0.997451        -0.0608522      0.0012335       0.0236325       -0.0600179      0.0269268       0.998671        -0.0317292     
  3e+009          1.5304e-005     2.01e-008       0.990835        -0.125588       0.00409964      0.037693        -0.057898       0.0444155       0.995063        -0.0814289      0.994429        -0.0913207      0.00263376      0.0353581       -0.0595865      0.0398326       0.9973          -0.0473366     
  4e+009          1.5304e-005     2.01e-008       0.983565        -0.166551       0.00718636      0.0498935       -0.0545236      0.0593235       0.991076        -0.107847       0.990177        -0.121458       0.00452218      0.0469878       -0.057708       0.0535158       0.995269        -0.0626113     
  5e+009          1.5304e-005     2.01e-008       0.97407         -0.206829       0.0111092       0.061863        -0.0495564      0.0735117       0.986242        -0.134221       0.984854        -0.15098        0.00700322      0.0585123       -0.0544507      0.0665526       0.992988        -0.077934      
  6e+009          1.5304e-005     2.01e-008       0.962889        -0.246009       0.0158851       0.0733801       -0.0438326      0.0872564       0.980655        -0.160381       0.978509        -0.180513       0.0100873       0.0697653       -0.0507532      0.0794704       0.990416        -0.0929976     
  7e+009          1.5304e-005     2.01e-008       0.94916         -0.285267       0.0214574       0.0847335       -0.0376714      0.100754        0.974154        -0.185868       0.970584        -0.20953        0.0136675       0.0810954       -0.046961       0.0923229       0.987384        -0.107995      
  8e+009          1.5304e-005     2.01e-008       0.934397        -0.322962       0.0277052       0.0953477       -0.0305895      0.113672        0.966661        -0.210841       0.962185        -0.238221       0.0177565       0.0919316       -0.0425418      0.10488         0.983806        -0.122636      
  9e+009          1.5304e-005     2.01e-008       0.918258        -0.358852       0.0347078       0.105592        -0.0226866      0.125734        0.958308        -0.235542       0.952602        -0.265445       0.0223246       0.102672        -0.0375228      0.116915        0.979979        -0.137241      
  1e+010          1.5304e-005     2.01e-008       0.899891        -0.395899       0.0422991       0.115052        -0.0129891      0.137449        0.949253        -0.259778       0.941733        -0.293614       0.0272823       0.112922        -0.031012       0.12907         0.975852        -0.151598      
  1.1e+010        1.5304e-005     2.01e-008       0.880112        -0.429295       0.0504097       0.12422         -0.00460026     0.148136        0.939804        -0.283345       0.930049        -0.320409       0.0327539       0.123113        -0.02582        0.1402          0.971415        -0.165753      
  1.2e+010        1.5304e-005     2.01e-008       0.858848        -0.461949       0.0592487       0.132723        0.0055891       0.158578        0.928906        -0.306405       0.917205        -0.346894       0.0387061       0.133072        -0.0191744      0.151789        0.9664          -0.179828      
  1.3e+010        1.5304e-005     2.01e-008       0.836531        -0.493275       0.0683311       0.140466        0.0154454       0.168208        0.91726         -0.328452       0.903846        -0.372509       0.0449138       0.142686        -0.0128859      0.162843        0.961113        -0.193347      
  1.4e+010        1.5304e-005     2.01e-008       0.812489        -0.522774       0.0783548       0.147479        0.0269796       0.176868        0.905593        -0.350216       0.888786        -0.396945       0.0520274       0.151989        -0.00492053     0.173535        0.955617        -0.206995      
  1.5e+010        1.5304e-005     2.01e-008       0.78898         -0.550741       0.0884364       0.153468        0.0393707       0.183419        0.893524        -0.370998       0.874074        -0.420857       0.0593937       0.160529        0.00421799      0.182569        0.949782        -0.220071      
  1.6e+010        1.5304e-005     2.01e-008       0.763664        -0.576973       0.0985896       0.158983        0.0504332       0.190656        0.880886        -0.39116        0.858222        -0.443456       0.0668004       0.168837        0.0118737       0.192443        0.943407        -0.232912      
  1.7e+010        1.5304e-005     2.01e-008       0.738215        -0.602081       0.109301        0.163516        0.0629029       0.195934        0.866893        -0.410741       0.842241        -0.465943       0.0749703       0.176676        0.0211974       0.200962        0.937143        -0.245624      
  1.8e+010        1.5304e-005     2.01e-008       0.711989        -0.625147       0.119646        0.167352        0.0744796       0.201429        0.85337         -0.430162       0.824969        -0.486715       0.0828363       0.184054        0.0296109       0.209776        0.930727        -0.258043      
  1.9e+010        1.5304e-005     2.01e-008       0.684776        -0.647211       0.130134        0.170822        0.0872929       0.205961        0.839777        -0.448992       0.806935        -0.508018       0.0910245       0.191172        0.0393906       0.218131        0.92373         -0.269924      
  2e+010          1.5304e-005     2.01e-008       0.658302        -0.667165       0.140728        0.17325         0.0980565       0.208652        0.825026        -0.464838       0.789895        -0.526617       0.0997202       0.197587        0.0478163       0.224503        0.916315        -0.281217      
  2.1e+010        1.5304e-005     2.01e-008       0.631087        -0.685844       0.151137        0.175088        0.110707        0.212455        0.808467        -0.48034        0.771087        -0.544967       0.108545        0.203741        0.0580411       0.232949        0.90873         -0.292928      
  2.2e+010        1.5304e-005     2.01e-008       0.604111        -0.703016       0.162028        0.176339        0.122688        0.21346         0.792534        -0.497548       0.752658        -0.562536       0.117981        0.209598        0.0679837       0.2386          0.901796        -0.304582      
  2.3e+010        1.5304e-005     2.01e-008       0.577098        -0.718684       0.172203        0.176614        0.134241        0.215102        0.781057        -0.515456       0.734049        -0.579301       0.126579        0.214245        0.0773223       0.244742        0.89513         -0.314947      
  2.4e+010        1.5304e-005     2.01e-008       0.550319        -0.734611       0.181294        0.17666         0.145491        0.215544        0.772246        -0.522228       0.715852        -0.59583        0.134958        0.21768         0.0877044       0.248893        0.887384        -0.321767      
  2.5e+010        1.5304e-005     2.01e-008       0.521313        -0.748177       0.191625        0.178641        0.156255        0.218285        0.769601        -0.527916       0.695644        -0.610688       0.144175        0.221762        0.0971362       0.25416         0.877977        -0.332289      
  2.6e+010        1.5304e-005     2.01e-008       0.494841        -0.760536       0.204456        0.175899        0.170909        0.217124        0.745531        -0.55369        0.676534        -0.625158       0.155368        0.22502         0.109388        0.258819        0.865352        -0.343118      
  2.7e+010        1.5304e-005     2.01e-008       0.467156        -0.77149        0.212916        0.173811        0.181572        0.215935        0.712504        -0.568653       0.656456        -0.638605       0.164477        0.230165        0.119468        0.265272        0.859796        -0.355849      
  2.8e+010        1.5304e-005     2.01e-008       0.440084        -0.781223       0.223112        0.17136         0.192209        0.212203        0.692939        -0.590017       0.636381        -0.651405       0.173919        0.234741        0.129033        0.268485        0.852994        -0.367334      
  2.9e+010        1.5304e-005     2.01e-008       0.413832        -0.790317       0.230574        0.168706        0.201084        0.210633        0.681097        -0.600327       0.616814        -0.664294       0.181687        0.236991        0.137485        0.272308        0.84778         -0.37345       
  3e+010          1.5304e-005     2.01e-008       0.387113        -0.797125       0.239055        0.167053        0.21142         0.208994        0.672526        -0.607898       0.596663        -0.674647       0.190423        0.239103        0.147815        0.274775        0.840642        -0.381013      
  3.1e+010        1.5304e-005     2.01e-008       0.361182        -0.803667       0.24762         0.163415        0.222286        0.205766        0.656799        -0.61604        0.577205        -0.683809       0.199691        0.239949        0.159234        0.276915        0.830746        -0.389676      
  3.2e+010        1.5304e-005     2.01e-008       0.33608         -0.810205       0.256497        0.16001         0.232094        0.201927        0.637605        -0.627302       0.557849        -0.694577       0.209733        0.242148        0.169812        0.278809        0.822112        -0.399515      
  3.3e+010        1.5304e-005     2.01e-008       0.310199        -0.81456        0.264795        0.156176        0.241233        0.198857        0.622556        -0.639752       0.537601        -0.703999       0.218907        0.243883        0.179083        0.281728        0.814923        -0.407525      
  3.4e+010        1.5304e-005     2.01e-008       0.283618        -0.817452       0.272723        0.151746        0.251049        0.194465        0.609166        -0.648898       0.516188        -0.711466       0.228191        0.244271        0.189823        0.282665        0.806927        -0.415599      
  3.5e+010        1.5304e-005     2.01e-008       0.26132         -0.820624       0.279658        0.147229        0.259389        0.18964         0.593635        -0.656779       0.498676        -0.718162       0.236772        0.24432         0.199669        0.282958        0.797889        -0.423282      
  3.6e+010        1.5304e-005     2.01e-008       0.237723        -0.82238        0.286527        0.142476        0.266856        0.18512         0.574963        -0.664863       0.479271        -0.724025       0.245894        0.24453         0.208951        0.283868        0.788598        -0.430992      
  3.7e+010        1.5304e-005     2.01e-008       0.215736        -0.823748       0.293143        0.137734        0.274522        0.180885        0.560954        -0.675233       0.461032        -0.729799       0.254091        0.244337        0.218229        0.284327        0.781674        -0.438836      
  3.8e+010        1.5304e-005     2.01e-008       0.193551        -0.826446       0.299809        0.132663        0.283636        0.175226        0.546358        -0.682424       0.443363        -0.736651       0.262671        0.243715        0.228955        0.28377         0.773077        -0.445839      
  3.9e+010        1.5304e-005     2.01e-008       0.171303        -0.826873       0.305378        0.127556        0.290103        0.168886        0.53068         -0.688428       0.425065        -0.7413         0.270618        0.243069        0.23811         0.282001        0.7645          -0.45194       
  4e+010          1.5304e-005     2.01e-008       0.148481        -0.827619       0.311601        0.121941        0.296759        0.164821        0.513938        -0.697039       0.405658        -0.746809       0.279307        0.24226         0.24635         0.283476        0.755875        -0.459237      
  4.1e+010        1.5304e-005     2.01e-008       0.127513        -0.827708       0.317398        0.117028        0.304257        0.159612        0.499065        -0.704155       0.388099        -0.751044       0.286945        0.241523        0.255479        0.283118        0.747657        -0.466654      
  4.2e+010        1.5304e-005     2.01e-008       0.106605        -0.825692       0.323209        0.110309        0.31093         0.152028        0.484578        -0.710134       0.371001        -0.754239       0.295371        0.239282        0.265305        0.280342        0.738833        -0.472164      
  4.3e+010        1.5304e-005     2.01e-008       0.0885589       -0.826206       0.327668        0.104355        0.316093        0.146957        0.468308        -0.715716       0.35589         -0.758356       0.302927        0.237997        0.272507        0.27976         0.729863        -0.479144      
  4.4e+010        1.5304e-005     2.01e-008       0.0666005       -0.822825       0.332182        0.0989313       0.323458        0.141066        0.452619        -0.720745       0.33568         -0.760713       0.31077         0.236542        0.283309        0.279078        0.721279        -0.484647      
  4.5e+010        1.5304e-005     2.01e-008       0.047238        -0.822575       0.337343        0.0931215       0.326749        0.134347        0.438003        -0.727067       0.319665        -0.763918       0.318569        0.235253        0.289157        0.276423        0.713434        -0.490234      
  4.6e+010        1.5304e-005     2.01e-008       0.0287904       -0.819811       0.341554        0.0863759       0.333467        0.128479        0.423146        -0.730592       0.304174        -0.766005       0.326218        0.232338        0.298727        0.275539        0.704189        -0.495567      
  4.7e+010        1.5304e-005     2.01e-008       0.0115289       -0.818821       0.345228        0.0806008       0.337972        0.122437        0.407916        -0.734025       0.289079        -0.768912       0.333471        0.230697        0.306682        0.273615        0.695608        -0.501191      
  4.8e+010        1.5304e-005     2.01e-008       -0.00838784     -0.814724       0.34957         0.0746464       0.343154        0.113731        0.393268        -0.739629       0.271064        -0.768436       0.341323        0.228834        0.31661         0.27016         0.687204        -0.506087      
