! VERSION = 6.00
!Data measured by ggf on Tue Jan 23 14:23:06 2018 using model file NPN_MEAS_SCALE
BEGIN_HEADER
 ICCAP_INPUTS
  vc         V  C GROUND SMU_C 0.2 SYNC       1 0.5 vb
  ve         V  E GROUND SMU_E 0 CON        0
  vs         V  S GROUND SMU_S 0 CON        0
  freq       F  LIST       1 74 100000000 200000000 300000000 400000000 500000000 600000000 700000000 800000000 900000000 1000000000 2000000000 3000000000 4000000000 5000000000 6000000000 7000000000 8000000000 9000000000 10000000000 11000000000 12000000000 13000000000 14000000000 15000000000 16000000000 17000000000 18000000000 19000000000 20000000000 21000000000 22000000000 23000000000 24000000000 25000000000 26000000000 27000000000 28000000000 29000000000 30000000000 31000000000 32000000000 33000000000 34000000000 35000000000 36000000000 37000000000 38000000000 39000000000 40000000000 41000000000 42000000000 43000000000 44000000000 45000000000 46000000000 47000000000 48000000000 49000000000 50000000000 51000000000 52000000000 53000000000 54000000000 55000000000 56000000000 57000000000 58000000000 59000000000 60000000000 61000000000 62000000000 63000000000 64000000000 65000000000
  vb         V  B GROUND SMU_B 0.015 LIN        2    0.68       1.04       37   0.01      
 ICCAP_OUTPUTS
  ic         I  C GROUND SMU_C M
  ib         I  B GROUND SMU_B M
  S          S  B C GROUND NWA M
  S_deemb    S B C GROUND n/a B
 ICCAP_VALUES
  TNOM "27"
  TEMP "27"
  TECHNO "SG13G2"
  LOT "EDJ802"
  WAFER "02"
  CHIP "(3.3)"
  MODULE "S439S"
  DEV_NAME "D14"
  DEV_GEOM_L "2.5"
  DEV_GEOM_W "0.07"
  NUM_OF_TRANS_RF "1"
  REMARKS "Nx=5; Power -30/-20dBm, Slope: 0.1dB/GHz"
  TIMEDATE "Tue Jan 23 14:05:08     2018"
  OPERATOR "ggf"
END_HEADER

BEGIN_DB
 ICCAP_VAR vc         1.18           
 ICCAP_VAR ve         0              
 ICCAP_VAR vs         0              
 ICCAP_VAR vb         0.68           

 #freq            ic              ib              R:S(1,1)        I:S(1,1)        R:S(1,2)        I:S(1,2)        R:S(2,1)        I:S(2,1)        R:S(2,2)        I:S(2,2)        R:S_deemb(1,1)  I:S_deemb(1,1)  R:S_deemb(1,2)  I:S_deemb(1,2)  R:S_deemb(2,1)  I:S_deemb(2,1)  R:S_deemb(2,2)  I:S_deemb(2,2) 
  1e+008          1.5274e-005     2.036e-008      0.999557        -0.00321477     -1.38362e-005   0.00127651      -0.0644933      0.000486829     1.00057         -0.00240597     0.999561        -0.00225702     -7.50509e-005   0.00115556      -0.0644074      0.0001707       1.00045         -0.0012791     
  2e+008          1.5274e-005     2.036e-008      1.00013         -0.00775604     3.91386e-005    0.00251963      -0.0623971      0.00209529      1.0004          -0.00536977     0.999924        -0.00540568     3.78852e-005    0.00225683      -0.0624011      0.00161603      1.00012         -0.00251352    
  3e+008          1.5274e-005     2.036e-008      1.00018         -0.0120438      4.77131e-005    0.00380604      -0.0626171      0.00385635      1.0004          -0.00821139     0.999757        -0.00868226     3.20877e-005    0.00354301      -0.0626425      0.00335573      1.00016         -0.00491352    
  4e+008          1.5274e-005     2.036e-008      1.00045         -0.0163473      3.98571e-005    0.0050833       -0.0616827      0.00547346      1.00018         -0.0108833      0.999967        -0.0118974      8.68776e-006    0.00473623      -0.0616813      0.00494226      1.0001          -0.00639749    
  5e+008          1.5274e-005     2.036e-008      1.00009         -0.020509       0.00014356      0.00639834      -0.0624312      0.00697944      1.00029         -0.0136534      0.999499        -0.0142743      9.12877e-005    0.00597795      -0.0624253      0.00614544      1.00009         -0.00802986    
  6e+008          1.5274e-005     2.036e-008      1.00001         -0.0249887      0.000192051     0.00761849      -0.0624073      0.00843715      1.00012         -0.0164455      0.999804        -0.0179596      0.000141801     0.00714018      -0.0624139      0.00747872      0.999884        -0.00972828    
  7e+008          1.5274e-005     2.036e-008      0.999949        -0.0292282      0.00023062      0.00890868      -0.0623235      0.0101173       1.00004         -0.019342       0.999569        -0.0212496      0.000157984     0.00832147      -0.0623659      0.00899283      0.999915        -0.0113996     
  8e+008          1.5274e-005     2.036e-008      0.999769        -0.0335266      0.000327123     0.0101668       -0.0625501      0.0116456       0.999888        -0.021989       0.999527        -0.0243333      0.00023226      0.00949935      -0.0626711      0.0103745       0.999832        -0.0129689     
  9e+008          1.5274e-005     2.036e-008      0.999654        -0.0375267      0.00038012      0.011441        -0.0619305      0.0133638       0.999843        -0.0247367      0.999376        -0.027322       0.00025625      0.0106847       -0.0621082      0.0119699       0.999834        -0.0146139     
  1e+009          1.5274e-005     2.036e-008      0.999369        -0.0418832      0.000459362     0.0127039       -0.0623947      0.0149748       0.999624        -0.027503       0.999375        -0.0303652      0.000263114     0.0118593       -0.0625673      0.0134395       0.99968         -0.0162169     
  2e+009          1.5274e-005     2.036e-008      0.996312        -0.0833691      0.00182326      0.0253668       -0.0594823      0.0299917       0.997822        -0.0547242      0.997578        -0.0606366      0.00117263      0.0237146       -0.0601743      0.0269188       0.998657        -0.0320035     
  3e+009          1.5274e-005     2.036e-008      0.991034        -0.12585        0.00410059      0.0377724       -0.0578524      0.0445611       0.994992        -0.0816095      0.994638        -0.0915758      0.00263125      0.0354375       -0.0595468      0.0399795       0.997235        -0.0475198     
  4e+009          1.5274e-005     2.036e-008      0.98371         -0.166639       0.00719764      0.0499785       -0.0545671      0.0595246       0.99095         -0.108071       0.990327        -0.121539       0.00452892      0.0470735       -0.0577617      0.053715        0.995154        -0.0628418     
  5e+009          1.5274e-005     2.036e-008      0.974347        -0.206822       0.0111467       0.0619992       -0.0495449      0.0737458       0.986139        -0.134393       0.985132        -0.150958       0.00703237      0.0586506       -0.0544534      0.0667873       0.992896        -0.0781121     
  6e+009          1.5274e-005     2.036e-008      0.962793        -0.246364       0.0159116       0.0735314       -0.0437345      0.0872739       0.980519        -0.160477       0.978437        -0.180876       0.0101022       0.0699199       -0.0506576      0.0794958       0.990287        -0.0931041     
  7e+009          1.5274e-005     2.036e-008      0.949324        -0.286327       0.0214498       0.0849024       -0.0375014      0.100947        0.973994        -0.186014       0.970838        -0.210583       0.013642        0.0812659       -0.0468112      0.0925318       0.987237        -0.108155      
  8e+009          1.5274e-005     2.036e-008      0.934341        -0.322582       0.0277673       0.0955653       -0.0305695      0.113765        0.96657         -0.210963       0.962093        -0.237844       0.0177999       0.0921563       -0.0425289      0.104976        0.983727        -0.122768      
  9e+009          1.5274e-005     2.036e-008      0.918241        -0.359697       0.0347763       0.105813        -0.0225618      0.125807        0.958169        -0.235708       0.952676        -0.2663         0.0223665       0.102904        -0.0374098      0.117004        0.979858        -0.137423      
  1e+010          1.5274e-005     2.036e-008      0.899736        -0.395924       0.0423798       0.115334        -0.0129503      0.137455        0.94901         -0.259929       0.941581        -0.293659       0.027331        0.113218        -0.0309735      0.129083        0.975627        -0.151779      
  1.1e+010        1.5274e-005     2.036e-008      0.879984        -0.429525       0.050471        0.124452        -0.00445782     0.148224        0.939485        -0.28354        0.92995         -0.320661       0.0327858       0.123358        -0.0256886      0.140311        0.971121        -0.165991      
  1.2e+010        1.5274e-005     2.036e-008      0.858739        -0.462082       0.0593347       0.132984        0.00579897      0.158749        0.928727        -0.30656        0.917114        -0.347047       0.0387565       0.13335         -0.0189866      0.151994        0.966243        -0.180012      
  1.3e+010        1.5274e-005     2.036e-008      0.836617        -0.492982       0.0684846       0.140745        0.0155517       0.168263        0.917008        -0.32863        0.903891        -0.372201       0.0450293       0.142992        -0.0127845      0.162915        0.960886        -0.193567      
  1.4e+010        1.5274e-005     2.036e-008      0.812407        -0.522947       0.0785006       0.147769        0.0271848       0.177081        0.905238        -0.350373       0.888731        -0.397139       0.0521295       0.152311        -0.00474614     0.173789        0.955284        -0.207216      
  1.5e+010        1.5274e-005     2.036e-008      0.788773        -0.551029       0.0886318       0.153767        0.0397963       0.18363         0.893377        -0.371143       0.87391         -0.421195       0.0595411       0.160872        0.00461407      0.182863        0.949658        -0.22025       
  1.6e+010        1.5274e-005     2.036e-008      0.763442        -0.577112       0.0988056       0.159258        0.050689        0.190753        0.880643        -0.391273       0.858017        -0.443645       0.0669726       0.169161        0.0121188       0.192594        0.943181        -0.233077      
  1.7e+010        1.5274e-005     2.036e-008      0.737686        -0.602415       0.109533        0.163873        0.0632795       0.195854        0.866576        -0.410731       0.841756        -0.466396       0.0751443       0.177093        0.021603        0.200962        0.936816        -0.245681      
  1.8e+010        1.5274e-005     2.036e-008      0.711812        -0.625569       0.119843        0.167666        0.0747471       0.201526        0.853061        -0.430276       0.824869        -0.487193       0.0829757       0.184423        0.0298661       0.209939        0.930436        -0.258228      
  1.9e+010        1.5274e-005     2.036e-008      0.684463        -0.647386       0.130355        0.171155        0.0873862       0.205928        0.83951         -0.44893        0.806645        -0.508271       0.0911861       0.191565        0.0394988       0.218122        0.923444        -0.269923      
  2e+010          1.5274e-005     2.036e-008      0.657908        -0.667292       0.140977        0.173575        0.098385        0.208727        0.824753        -0.464994       0.789508        -0.526845       0.0999104       0.197984        0.0481441       0.224662        0.916068        -0.281445      
  2.1e+010        1.5274e-005     2.036e-008      0.630746        -0.686072       0.151344        0.175449        0.111125        0.212639        0.808085        -0.480251       0.770778        -0.545295       0.108683        0.204167        0.0584398       0.233244        0.908314        -0.292937      
  2.2e+010        1.5274e-005     2.036e-008      0.603996        -0.703376       0.162216        0.176707        0.123077        0.213488        0.792122        -0.497348       0.752617        -0.562949       0.118094        0.210029        0.0683875       0.238728        0.901319        -0.304485      
  2.3e+010        1.5274e-005     2.036e-008      0.57649         -0.718995       0.172471        0.176974        0.134669        0.21496         0.780745        -0.515078       0.733476        -0.579786       0.12678         0.214689        0.0778175       0.244706        0.894705        -0.314645      
  2.4e+010        1.5274e-005     2.036e-008      0.549621        -0.7349         0.181563        0.177041        0.145776        0.215687        0.772234        -0.521841       0.715182        -0.596326       0.13515         0.218147        0.0879755       0.249118        0.887268        -0.321383      
  2.5e+010        1.5274e-005     2.036e-008      0.520824        -0.747994       0.191913        0.179093        0.156765        0.218613        0.770146        -0.527763       0.695068        -0.61064        0.144358        0.222301        0.097583        0.254629        0.878487        -0.332011      
  2.6e+010        1.5274e-005     2.036e-008      0.494089        -0.760445       0.204948        0.176337        0.17132         0.217135        0.745508        -0.553755       0.675694        -0.625276       0.155773        0.225611        0.109826        0.258947        0.865335        -0.343202      
  2.7e+010        1.5274e-005     2.036e-008      0.466773        -0.77141        0.213336        0.174019        0.182325        0.215729        0.712061        -0.568644       0.656005        -0.638628       0.164873        0.230503        0.120334        0.265271        0.859315        -0.355973      
  2.8e+010        1.5274e-005     2.036e-008      0.440159        -0.781448       0.223547        0.171654        0.193073        0.212669        0.691982        -0.590135       0.636499        -0.651639       0.174309        0.235188        0.129824        0.269246        0.852013        -0.367774      
  2.9e+010        1.5274e-005     2.036e-008      0.413534        -0.790538       0.230933        0.168977        0.20189         0.210395        0.6803          -0.601018       0.616533        -0.66462        0.182007        0.237407        0.138437        0.272327        0.84715         -0.374435      
  3e+010          1.5274e-005     2.036e-008      0.386722        -0.796894       0.239393        0.167231        0.211851        0.209143        0.671985        -0.608062       0.596153        -0.674522       0.190745        0.239398        0.148247        0.27507         0.840118        -0.381368      
  3.1e+010        1.5274e-005     2.036e-008      0.361326        -0.803554       0.248085        0.163822        0.222598        0.205795        0.656185        -0.615955       0.577308        -0.683651       0.200065        0.240526        0.159568        0.277042        0.830063        -0.389803      
  3.2e+010        1.5274e-005     2.036e-008      0.335882        -0.80981        0.256978        0.160347        0.232687        0.201823        0.637194        -0.627303       0.557481        -0.694213       0.210149        0.242657        0.170496        0.278885        0.821658        -0.399664      
  3.3e+010        1.5274e-005     2.036e-008      0.30985         -0.814838       0.265288        0.156457        0.241419        0.19874         0.622053        -0.639688       0.537292        -0.704418       0.219361        0.244353        0.179344        0.28167         0.814356        -0.40764       
  3.4e+010        1.5274e-005     2.036e-008      0.283213        -0.817126       0.273201        0.15204         0.251591        0.194253        0.608844        -0.648785       0.515609        -0.711241       0.228618        0.24474         0.190499        0.282613        0.806524        -0.4156        
  3.5e+010        1.5274e-005     2.036e-008      0.260987        -0.820812       0.280149        0.147579        0.259807        0.189068        0.593138        -0.65673        0.49835         -0.718471       0.237199        0.244869        0.200344        0.28249         0.797325        -0.423409      
  3.6e+010        1.5274e-005     2.036e-008      0.237929        -0.822182       0.287037        0.142599        0.267758        0.184794        0.574578        -0.664678       0.479393        -0.72372        0.246405        0.244834        0.21005         0.283829        0.788087        -0.430934      
  3.7e+010        1.5274e-005     2.036e-008      0.215747        -0.823577       0.293563        0.13807         0.274985        0.180947        0.560433        -0.675256       0.460955        -0.729609       0.254436        0.244846        0.218724        0.284557        0.781107        -0.43907       
  3.8e+010        1.5274e-005     2.036e-008      0.19371         -0.826698       0.300378        0.132928        0.284689        0.174779        0.54612         -0.682224       0.443584        -0.736854       0.263192        0.244214        0.230269        0.283678        0.772707        -0.445711      
  3.9e+010        1.5274e-005     2.036e-008      0.170841        -0.826385       0.305851        0.12796         0.290547        0.169341        0.530721        -0.688416       0.424339        -0.74094        0.270987        0.243674        0.23843         0.282652        0.764511        -0.451929      
  4e+010          1.5274e-005     2.036e-008      0.147986        -0.827162       0.312009        0.122326        0.29656         0.164534        0.513725        -0.696835       0.404933        -0.746482       0.279616        0.242814        0.246262        0.28306         0.755556        -0.45911       
  4.1e+010        1.5274e-005     2.036e-008      0.127535        -0.827245       0.317835        0.117126        0.305023        0.159413        0.498548        -0.704473       0.387915        -0.750499       0.2874          0.241793        0.256416        0.283195        0.747204        -0.467202      
  4.2e+010        1.5274e-005     2.036e-008      0.106313        -0.825415       0.323742        0.110582        0.31088         0.152021        0.483489        -0.70973        0.370549        -0.754039       0.295879        0.239756        0.265292        0.280276        0.737475        -0.472202      
  4.3e+010        1.5274e-005     2.036e-008      0.0881612       -0.826773       0.328352        0.104833        0.316445        0.14605         0.467896        -0.715125       0.355632        -0.759115       0.303504        0.238788        0.27329         0.278894        0.729135        -0.47867       
  4.4e+010        1.5274e-005     2.036e-008      0.0668999       -0.822834       0.332747        0.0989915       0.323189        0.139908        0.452394        -0.720462       0.336031        -0.760567       0.311361        0.236832        0.283487        0.277677        0.720912        -0.484409      
  4.5e+010        1.5274e-005     2.036e-008      0.0456925       -0.821889       0.337841        0.0931001       0.327655        0.133948        0.437663        -0.726956       0.317613        -0.7637         0.319173        0.235387        0.290383        0.276313        0.712977        -0.490237      
  4.6e+010        1.5274e-005     2.036e-008      0.0288666       -0.819644       0.342161        0.0869449       0.333662        0.12828         0.422941        -0.730389       0.304158        -0.765784       0.326645        0.233212        0.299029        0.275385        0.703844        -0.495444      
  4.7e+010        1.5274e-005     2.036e-008      0.0110407       -0.818561       0.34584         0.0806257       0.338604        0.121477        0.407453        -0.733657       0.288401        -0.768749       0.334158        0.230948        0.307825        0.27278         0.694906        -0.50096       
  4.8e+010        1.5274e-005     2.036e-008      -0.00853151     -0.814447       0.349928        0.0747042       0.342306        0.113557        0.393322        -0.73929        0.270809        -0.768189       0.341684        0.229035        0.315732        0.269569        0.687117        -0.505698      
