! VERSION = 6.00
!Data measured by ggf on Tue Jan 23 14:23:06 2018 using model file NPN_MEAS_SCALE
BEGIN_HEADER
 ICCAP_INPUTS
  vc         V  C GROUND SMU_C 0.2 SYNC       1 0.25 vb
  ve         V  E GROUND SMU_E 0 CON        0
  vs         V  S GROUND SMU_S 0 CON        0
  freq       F  LIST       1 74 100000000 200000000 300000000 400000000 500000000 600000000 700000000 800000000 900000000 1000000000 2000000000 3000000000 4000000000 5000000000 6000000000 7000000000 8000000000 9000000000 10000000000 11000000000 12000000000 13000000000 14000000000 15000000000 16000000000 17000000000 18000000000 19000000000 20000000000 21000000000 22000000000 23000000000 24000000000 25000000000 26000000000 27000000000 28000000000 29000000000 30000000000 31000000000 32000000000 33000000000 34000000000 35000000000 36000000000 37000000000 38000000000 39000000000 40000000000 41000000000 42000000000 43000000000 44000000000 45000000000 46000000000 47000000000 48000000000 49000000000 50000000000 51000000000 52000000000 53000000000 54000000000 55000000000 56000000000 57000000000 58000000000 59000000000 60000000000 61000000000 62000000000 63000000000 64000000000 65000000000
  vb         V  B GROUND SMU_B 0.015 LIN        2    0.68       1.04       37   0.01      
 ICCAP_OUTPUTS
  ic         I  C GROUND SMU_C M
  ib         I  B GROUND SMU_B M
  S          S  B C GROUND NWA M
  S_deemb    S B C GROUND n/a B
 ICCAP_VALUES
  TNOM "27"
  TEMP "27"
  TECHNO "SG13G2"
  LOT "EDJ802"
  WAFER "02"
  CHIP "(3.3)"
  MODULE "S439S"
  DEV_NAME "D14"
  DEV_GEOM_L "2.5"
  DEV_GEOM_W "0.07"
  NUM_OF_TRANS_RF "1"
  REMARKS "Nx=5; Power -30/-20dBm, Slope: 0.1dB/GHz"
  TIMEDATE "Tue Jan 23 14:05:08     2018"
  OPERATOR "ggf"
END_HEADER

BEGIN_DB
 ICCAP_VAR vc         0.93           
 ICCAP_VAR ve         0              
 ICCAP_VAR vs         0              
 ICCAP_VAR vb         0.68           

 #freq            ic              ib              R:S(1,1)        I:S(1,1)        R:S(1,2)        I:S(1,2)        R:S(2,1)        I:S(2,1)        R:S(2,2)        I:S(2,2)        R:S_deemb(1,1)  I:S_deemb(1,1)  R:S_deemb(1,2)  I:S_deemb(1,2)  R:S_deemb(2,1)  I:S_deemb(2,1)  R:S_deemb(2,2)  I:S_deemb(2,2) 
  1e+008          1.5256e-005     2.105e-008      0.999549        -0.00357861     4.71317e-006    0.00129595      -0.064523       0.000281846     1.00048         -0.0024263      0.999553        -0.00262088     -5.65467e-005   0.00117504      -0.0644369      -3.45359e-005   1.00035         -0.00129952    
  2e+008          1.5256e-005     2.105e-008      1.00024         -0.00795638     1.53573e-005    0.00256331      -0.0624523      0.0024965       1.00037         -0.00542736     1.00004         -0.00560569     1.39572e-005    0.00230042      -0.0624573      0.00201692      1.00009         -0.00257115    
  3e+008          1.5256e-005     2.105e-008      1.00023         -0.0123791      2.92499e-005    0.00384893      -0.0626635      0.0040256       1.00041         -0.00826116     0.999812        -0.00901719     1.3426e-005     0.00358581      -0.0626894      0.00352459      1.00017         -0.00496321    
  4e+008          1.5256e-005     2.105e-008      1.00043         -0.0166196      7.19797e-005    0.00521783      -0.0617496      0.0056051       1.00025         -0.0109997      0.999953        -0.0121697      4.0107e-005     0.00487086      -0.061749       0.00507338      1.00017         -0.00651343    
  5e+008          1.5256e-005     2.105e-008      1.00018         -0.0208641      0.000114577     0.00651617      -0.0624369      0.00705543      1.00033         -0.0138589      0.999594        -0.0146285      6.14682e-005    0.00609552      -0.0624315      0.00622107      1.00015         -0.00823488    
  6e+008          1.5256e-005     2.105e-008      1.0001          -0.0252287      0.000197529     0.0078013       -0.0624404      0.00861938      1.00024         -0.0166757      0.999895        -0.0181988      0.000145862     0.00732292      -0.0624483      0.00766041      1               -0.00995757    
  7e+008          1.5256e-005     2.105e-008      1.00004         -0.0294277      0.000243674     0.00909609      -0.0623846      0.0103913       1.00003         -0.0196031      0.999664        -0.0214482      0.000169354     0.00850889      -0.0624294      0.00926602      0.999902        -0.0116608     
  8e+008          1.5256e-005     2.105e-008      0.999721        -0.0338344      0.0003543       0.0104066       -0.0624582      0.011865        0.999913        -0.0222462      0.999482        -0.0246414      0.000256976     0.00973937      -0.0625816      0.0105945       0.999859        -0.0132258     
  9e+008          1.5256e-005     2.105e-008      0.99964         -0.0379773      0.000377001     0.0116853       -0.0619031      0.0135302       0.999899        -0.0250667      0.999367        -0.0277725      0.000250251     0.0109288       -0.0620829      0.0121363       0.999894        -0.0149432     
  1e+009          1.5256e-005     2.105e-008      0.999184        -0.0422637      0.000491044     0.0129995       -0.0624856      0.0152187       0.999633        -0.0278221      0.999195        -0.0307476      0.000291003     0.0121553       -0.0626615      0.013682        0.999693        -0.0165357     
  2e+009          1.5256e-005     2.105e-008      0.996191        -0.0840717      0.00189792      0.0258719       -0.059278       0.030614        0.997877        -0.0553802      0.997475        -0.0613423      0.00123418      0.0242216       -0.0599862      0.0275455       0.998728        -0.0326584     
  3e+009          1.5256e-005     2.105e-008      0.990799        -0.12652        0.00421765      0.0385654       -0.0578024      0.0454254       0.994785        -0.0826257      0.99443         -0.092255       0.00271808      0.0362358       -0.0595304      0.0408464       0.997067        -0.0485436     
  4e+009          1.5256e-005     2.105e-008      0.983381        -0.167609       0.00740624      0.0510693       -0.0544415      0.0605485       0.990686        -0.109372       0.990049        -0.122527       0.00468256      0.0481771       -0.0576894      0.0547473       0.994955        -0.0641561     
  5e+009          1.5256e-005     2.105e-008      0.973772        -0.208183       0.0115012       0.0633091       -0.0490795      0.0750273       0.985671        -0.136028       0.984643        -0.152359       0.00730435      0.059988        -0.054071       0.0681026       0.992529        -0.0797796     
  6e+009          1.5256e-005     2.105e-008      0.962159        -0.24864        0.0163943       0.0751307       -0.0432755      0.0890243       0.979782        -0.162323       0.977972        -0.183212       0.0104639       0.0715651       -0.0503339      0.0812906       0.989687        -0.0950092     
  7e+009          1.5256e-005     2.105e-008      0.948437        -0.287359       0.0221423       0.0866683       -0.0367955      0.102877        0.973107        -0.188128       0.970044        -0.211704       0.0141849       0.0831052       -0.0462719      0.094538        0.986531        -0.110356      
  8e+009          1.5256e-005     2.105e-008      0.933343        -0.324672       0.0286203       0.0975265       -0.0297774      0.115751        0.965456        -0.213301       0.961298        -0.240057       0.0184618       0.0942226       -0.0419357      0.107063        0.982841        -0.125229      
  9e+009          1.5256e-005     2.105e-008      0.916979        -0.362036       0.0358044       0.107925        -0.0214102      0.128166        0.956832        -0.238225       0.951666        -0.268813       0.0231661       0.105159        -0.0365179      0.119522        0.978793        -0.140108      
  1e+010          1.5256e-005     2.105e-008      0.898177        -0.398414       0.0436784       0.117633        -0.0116963      0.140035        0.947458        -0.262655       0.940315        -0.296386       0.0283574       0.115715        -0.0300321      0.131862        0.974399        -0.154724      
  1.1e+010        1.5256e-005     2.105e-008      0.878222        -0.431328       0.051984        0.126942        -0.00290493     0.150895        0.937671        -0.286397       0.928414        -0.322749       0.0339853       0.126097        -0.024479       0.143244        0.969677        -0.169128      
  1.2e+010        1.5256e-005     2.105e-008      0.856707        -0.464059       0.0610918       0.135555        0.0075195       0.161448        0.92661         -0.309572       0.915341        -0.349382       0.0401687       0.136236        -0.017637       0.155011        0.964545        -0.183379      
  1.3e+010        1.5256e-005     2.105e-008      0.833972        -0.496046       0.07045         0.143414        0.0177186       0.171203        0.914747        -0.331726       0.901671        -0.375774       0.046612        0.146048        -0.0110482      0.166286        0.959084        -0.197081      
  1.4e+010        1.5256e-005     2.105e-008      0.809741        -0.525592       0.0807377       0.150495        0.0296553       0.180002        0.902699        -0.353498       0.886442        -0.400338       0.0539617       0.155504        -0.00271815     0.177229        0.953232        -0.210843      
  1.5e+010        1.5256e-005     2.105e-008      0.785897        -0.553316       0.0910911       0.156491        0.0423961       0.18662         0.890569        -0.374357       0.871355        -0.424105       0.0615851       0.164135        0.0067461       0.186434        0.947373        -0.224053      
  1.6e+010        1.5256e-005     2.105e-008      0.760123        -0.579594       0.101533        0.162018        0.0536262       0.193711        0.877584        -0.39457        0.855049        -0.446884       0.0692689       0.172554        0.0145834       0.196242        0.94068         -0.237055      
  1.7e+010        1.5256e-005     2.105e-008      0.734292        -0.604692       0.112497        0.166558        0.0662666       0.199023        0.863296        -0.414081       0.838674        -0.469488       0.0776866       0.180498        0.0240669       0.204884        0.934121        -0.249805      
  1.8e+010        1.5256e-005     2.105e-008      0.708093        -0.627887       0.123088        0.170357        0.0782016       0.204524        0.849541        -0.433719       0.821455        -0.490446       0.0857962       0.187939        0.03283         0.213831        0.927534        -0.262548      
  1.9e+010        1.5256e-005     2.105e-008      0.680565        -0.649497       0.133824        0.173827        0.0911752       0.208865        0.835772        -0.452281       0.802993        -0.511396       0.0942358       0.195152        0.0428135       0.222072        0.920323        -0.274247      
  2e+010          1.5256e-005     2.105e-008      0.653821        -0.669261       0.144686        0.176159        0.102423        0.211575        0.820743        -0.468317       0.785617        -0.529913       0.103228        0.201579        0.0517343       0.228626        0.91267         -0.28585       
  2.1e+010        1.5256e-005     2.105e-008      0.626344        -0.688052       0.155314        0.177977        0.115255        0.215313        0.803903        -0.483603       0.766546        -0.548491       0.112291        0.207812        0.0621733       0.237105        0.904744        -0.297467      
  2.2e+010        1.5256e-005     2.105e-008      0.599393        -0.705011       0.166322        0.179128        0.127423        0.216008        0.787768        -0.500728       0.748071        -0.565876       0.121878        0.213644        0.0723938       0.242534        0.897583        -0.309149      
  2.3e+010        1.5256e-005     2.105e-008      0.571761        -0.720475       0.17675         0.179293        0.13927         0.217664        0.776055        -0.51868        0.728733        -0.582633       0.13077         0.218294        0.0820432       0.248825        0.890712        -0.319677      
  2.4e+010        1.5256e-005     2.105e-008      0.544911        -0.736259       0.186051        0.179226        0.150526        0.218135        0.767293        -0.525091       0.710412        -0.599083       0.139396        0.221684        0.0924265       0.253029        0.882922        -0.326121      
  2.5e+010        1.5256e-005     2.105e-008      0.515785        -0.749139       0.196638        0.181282        0.161934        0.220679        0.76451         -0.531551       0.689886        -0.613301       0.14885         0.225906        0.102573        0.258252        0.873561        -0.3374        
  2.6e+010        1.5256e-005     2.105e-008      0.4895          -0.761766       0.209839        0.17829         0.176366        0.219095        0.740125        -0.556327       0.671008        -0.628023       0.160484        0.229053        0.114702        0.26247         0.860413        -0.34738       
  2.7e+010        1.5256e-005     2.105e-008      0.461695        -0.772499       0.218325        0.175877        0.187577        0.21798         0.706702        -0.571452       0.650705        -0.641286       0.169764        0.233951        0.1254          0.269244        0.854419        -0.360546      
  2.8e+010        1.5256e-005     2.105e-008      0.434716        -0.781767       0.228732        0.17322         0.19814         0.213973        0.686566        -0.592739       0.630537        -0.653606       0.179525        0.238459        0.135007        0.272243        0.847007        -0.372267      
  2.9e+010        1.5256e-005     2.105e-008      0.408082        -0.790871       0.23613         0.170456        0.20717         0.212383        0.674695        -0.603104       0.610519        -0.666656       0.187286        0.240632        0.143662        0.276157        0.841778        -0.378526      
  3e+010          1.5256e-005     2.105e-008      0.381224        -0.797325       0.244803        0.168648        0.217964        0.210483        0.666167        -0.610613       0.590076        -0.6767         0.196276        0.242657        0.154564        0.278511        0.834666        -0.38601       
  3.1e+010        1.5256e-005     2.105e-008      0.355372        -0.803911       0.253585        0.164994        0.228179        0.206855        0.650498        -0.618335       0.570707        -0.685924       0.205787        0.243588        0.165432        0.28005         0.824689        -0.394245      
  3.2e+010        1.5256e-005     2.105e-008      0.330334        -0.809374       0.262542        0.161239        0.238299        0.202588        0.631218        -0.629499       0.55103         -0.695505       0.216065        0.245462        0.176527        0.281609        0.815894        -0.404069      
  3.3e+010        1.5256e-005     2.105e-008      0.304552        -0.814117       0.270832        0.157329        0.247334        0.199766        0.615661        -0.642368       0.530964        -0.705344       0.225292        0.247177        0.185648        0.284828        0.808323        -0.412774      
  3.4e+010        1.5256e-005     2.105e-008      0.277751        -0.816768       0.278928        0.152792        0.257682        0.195238        0.602469        -0.650887       0.509174        -0.712636       0.234809        0.247524        0.197028        0.285816        0.800293        -0.420154      
  3.5e+010        1.5256e-005     2.105e-008      0.255397        -0.819853       0.285941        0.148149        0.26619         0.190241        0.58667         -0.658718       0.491531        -0.719267       0.243547        0.247492        0.20715         0.286012        0.790936        -0.427917      
  3.6e+010        1.5256e-005     2.105e-008      0.23267         -0.821071       0.292851        0.143073        0.273672        0.185377        0.567992        -0.666442       0.472869        -0.724222       0.252835        0.247379        0.216589        0.286564        0.781469        -0.435293      
  3.7e+010        1.5256e-005     2.105e-008      0.211207        -0.822619       0.299411        0.138303        0.281033        0.180795        0.553714        -0.676865       0.455253        -0.730015       0.260996        0.247178        0.225677        0.286579        0.774293        -0.443349      
  3.8e+010        1.5256e-005     2.105e-008      0.188257        -0.825005       0.306086        0.132832        0.290193        0.175384        0.539319        -0.683883       0.436595        -0.736793       0.269764        0.24614         0.2364          0.286324        0.76583         -0.450126      
  3.9e+010        1.5256e-005     2.105e-008      0.165882        -0.825332       0.31156         0.127774        0.296799        0.16914         0.523958        -0.689861       0.418084        -0.741395       0.277608        0.245543        0.245689        0.284749        0.75756         -0.456125      
  4e+010          1.5256e-005     2.105e-008      0.143081        -0.825589       0.317885        0.121906        0.30309         0.164089        0.506709        -0.697806       0.398514        -0.746315       0.286532        0.244489        0.253949        0.284994        0.748119        -0.462945      
  4.1e+010        1.5256e-005     2.105e-008      0.122139        -0.824984       0.323902        0.116768        0.311228        0.159111        0.491781        -0.705447       0.380663        -0.749764       0.294529        0.243618        0.263726        0.285166        0.740015        -0.47099       
  4.2e+010        1.5256e-005     2.105e-008      0.101041        -0.823314       0.329771        0.110075        0.317215        0.151203        0.477043        -0.710956       0.363462        -0.753418       0.303039        0.241447        0.272962        0.281775        0.730741        -0.476142      
  4.3e+010        1.5256e-005     2.105e-008      0.0826756       -0.823656       0.334396        0.103845        0.32204         0.145672        0.460975        -0.716177       0.347904        -0.757444       0.310923        0.239931        0.280018        0.280555        0.721802        -0.482675      
  4.4e+010        1.5256e-005     2.105e-008      0.0619985       -0.819757       0.338628        0.0981766       0.329296        0.138294        0.445293        -0.721335       0.328961        -0.758657       0.318541        0.238103        0.291305        0.278187        0.71329         -0.488308      
  4.5e+010        1.5256e-005     2.105e-008      0.0415211       -0.819792       0.343785        0.0921494       0.333842        0.1329          0.430765        -0.727237       0.311698        -0.762617       0.326478        0.236578        0.298055        0.277524        0.705284        -0.493463      
  4.6e+010        1.5256e-005     2.105e-008      0.0243585       -0.817074       0.348148        0.0855889       0.339674        0.126601        0.415914        -0.730969       0.297682        -0.764263       0.334205        0.23398         0.306817        0.275826        0.696147        -0.499053      
  4.7e+010        1.5256e-005     2.105e-008      0.00539831      -0.815509       0.351579        0.0794566       0.344611        0.120377        0.400114        -0.734064       0.280419        -0.767145       0.341429        0.231766        0.315431        0.273818        0.686749        -0.504577      
  4.8e+010        1.5256e-005     2.105e-008      -0.0134545      -0.811728       0.356012        0.0733539       0.349644        0.112143        0.385852        -0.739474       0.263716        -0.766603       0.349409        0.229821        0.324954        0.270851        0.678663        -0.509123      
