! VERSION = 6.00
!Data measured by ggf on Tue Jan 23 14:23:06 2018 using model file NPN_MEAS_SCALE
BEGIN_HEADER
 ICCAP_INPUTS
  vce        V  C GROUND SMU_C 0.015 LIN        2    1.8        -0.6       25   -0.1      
  vb         V  B GROUND SMU_B 0.015 CON        0
  ve         V  E GROUND SMU_E 0 CON        0
  vs         V  S GROUND SMU_S 0 CON        0
  freq       F  LIST       1 74 100000000 200000000 300000000 400000000 500000000 600000000 700000000 800000000 900000000 1000000000 2000000000 3000000000 4000000000 5000000000 6000000000 7000000000 8000000000 9000000000 10000000000 11000000000 12000000000 13000000000 14000000000 15000000000 16000000000 17000000000 18000000000 19000000000 20000000000 21000000000 22000000000 23000000000 24000000000 25000000000 26000000000 27000000000 28000000000 29000000000 30000000000 31000000000 32000000000 33000000000 34000000000 35000000000 36000000000 37000000000 38000000000 39000000000 40000000000 41000000000 42000000000 43000000000 44000000000 45000000000 46000000000 47000000000 48000000000 49000000000 50000000000 51000000000 52000000000 53000000000 54000000000 55000000000 56000000000 57000000000 58000000000 59000000000 60000000000 61000000000 62000000000 63000000000 64000000000 65000000000
 ICCAP_OUTPUTS
  S          S  B C GROUND NWA M
  ic         I  C GROUND SMU_C M
  S_deemb    S B C GROUND n/a B
 ICCAP_VALUES
  TNOM "27"
  TEMP "27"
  TECHNO "SG13G2"
  LOT "EDJ802"
  WAFER "02"
  CHIP "(3.3)"
  MODULE "S439S"
  DEV_NAME "D14"
  DEV_GEOM_L "2.5"
  DEV_GEOM_W "0.07"
  NUM_OF_TRANS_RF "1"
  REMARKS "Nx=5; Power -30/-20dBm, Slope: 0.1dB/GHz"
  TIMEDATE "Tue Jan 23 14:05:08     2018"
  OPERATOR "ggf"
END_HEADER

BEGIN_DB
 ICCAP_VAR vce        1.8            
 ICCAP_VAR vb         0              
 ICCAP_VAR ve         0              
 ICCAP_VAR vs         0              

 #freq            R:S(1,1)        I:S(1,1)        R:S(1,2)        I:S(1,2)        R:S(2,1)        I:S(2,1)        R:S(2,2)        I:S(2,2)        ic              R:S_deemb(1,1)  I:S_deemb(1,1)  R:S_deemb(1,2)  I:S_deemb(1,2)  R:S_deemb(2,1)  I:S_deemb(2,1)  R:S_deemb(2,2)  I:S_deemb(2,2) 
  1e+008          0.999363        -0.00262644     -7.8411e-005    0.0012039       -0.000234501    0.000872004     1.00058         -0.00231695     1.5438e-008     0.999364        -0.00167297     -0.000139494    0.00108288      -0.00014826     0.000624388     1.00045         -0.00119451    
  2e+008          1.00021         -0.00682102     3.92623e-005    0.00234397      0.000143718     0.00235705      1.00056         -0.0057729      1.5438e-008     1.00001         -0.00447918     3.85537e-005    0.00208117      0.000127871     0.00204363      1.00029         -0.00292524    
  3e+008          1.00018         -0.0106994      5.33904e-005    0.00352766      9.50161e-005    0.00348434      1.00038         -0.00774559     1.5438e-008     0.999753        -0.00734708     3.89794e-005    0.00326475      5.32753e-005    0.00319798      1.00014         -0.00445763    
  4e+008          1.00052         -0.0143588      8.26702e-005    0.00472229      3.37841e-005    0.00486057      1.00021         -0.0103039      1.5438e-008     1.00003         -0.009921       5.3642e-005     0.0043755       2.22985e-005    0.00461231      1.00013         -0.00583069    
  5e+008          1.00039         -0.0182833      9.95442e-005    0.00595385      8.93638e-005    0.00591488      1.00026         -0.0130179      1.5438e-008     0.999782        -0.0120621      5.06684e-005    0.0055333       7.76418e-005    0.00546067      1.00007         -0.00741025    
  6e+008          1.00027         -0.0222272      0.000149393     0.00712112      9.16618e-005    0.00708464      1.00018         -0.0156538      1.5438e-008     1.00004         -0.0152132      0.000103632     0.00664258      7.93481e-005    0.00656716      0.999938        -0.00895431    
  7e+008          1.00027         -0.0258631      0.000203306     0.00830354      0.000173549     0.00831115      1.00004         -0.0183808      1.5438e-008     0.999858        -0.0179033      0.000137065     0.00771622      0.000126734     0.00769781      0.999902        -0.0104606     
  8e+008          0.999905        -0.0298159      0.000271766     0.00946851      0.000247539     0.00946467      0.999933        -0.020901       1.5438e-008     0.999625        -0.0206453      0.000185267     0.00880072      0.000131708     0.00878106      0.999865        -0.0119058     
  9e+008          0.99979         -0.0335106      0.000349151     0.0106494       0.000253826     0.01068         0.999906        -0.0235349      1.5438e-008     0.999467        -0.0233317      0.000235794     0.00989291      8.67851e-005    0.00993582      0.999883        -0.0134397     
  1e+009          0.999536        -0.0372868      0.000411952     0.0118315       0.000410242     0.0117068       0.999705        -0.0261193      1.5438e-008     0.999483        -0.0257965      0.000228798     0.0109863       0.000266004     0.0109073       0.99974         -0.0148641     
  2e+009          0.996993        -0.0745044      0.00159975      0.0236442       0.00157086      0.0237329       0.998084        -0.0520043      1.5438e-008     0.998036        -0.0518116      0.00100058      0.0219853       0.00103274      0.0220884       0.998843        -0.029339      
  3e+009          0.992945        -0.112219       0.00351704      0.035273        0.00348646      0.0353006       0.995609        -0.0775603      1.5438e-008     0.99603         -0.0779496      0.00216076      0.0329098       0.0021663       0.0328796       0.997682        -0.0435375     
  4e+009          0.98722         -0.148953       0.00614901      0.0467385       0.00618008      0.0466922       0.992179        -0.102734       1.5438e-008     0.99294         -0.103767       0.00367343      0.0437637       0.003683        0.0437104       0.996081        -0.0575571     
  5e+009          0.979675        -0.185339       0.00955467      0.0580427       0.00959041      0.0579616       0.987842        -0.127894       1.5438e-008     0.989103        -0.129225       0.00573196      0.0545604       0.00577381      0.0544208       0.994139        -0.0716381     
  6e+009          0.970324        -0.220877       0.0136877       0.0689763       0.0135764       0.0690659       0.982895        -0.15288        1.5438e-008     0.984068        -0.154893       0.00827754      0.0651405       0.00817038      0.0652141       0.992022        -0.085472      
  7e+009          0.959322        -0.257217       0.0184893       0.0798123       0.0185408       0.0797662       0.977197        -0.177321       1.5438e-008     0.978304        -0.180626       0.011197        0.0758258       0.0112932       0.0757906       0.989589        -0.0993327     
  8e+009          0.947191        -0.290847       0.0239598       0.0900307       0.0238696       0.0899962       0.970528        -0.201319       1.5438e-008     0.971826        -0.204805       0.0146187       0.086111        0.0145423       0.0860586       0.986611        -0.112878      
  9e+009          0.934074        -0.324401       0.0300562       0.0999321       0.0298902       0.0998902       0.963031        -0.225201       1.5438e-008     0.964649        -0.229151       0.0183825       0.0963162       0.0182473       0.0962637       0.983415        -0.12651       
  1e+010          0.91916         -0.357943       0.0367766       0.109243        0.0369776       0.109279        0.954845        -0.248704       1.5438e-008     0.95641         -0.253094       0.0225578       0.106188        0.022802        0.1063          0.97992         -0.139946      
  1.1e+010        0.90274         -0.389218       0.0438886       0.118239        0.0437112       0.118268        0.946236        -0.271667       1.5438e-008     0.947453        -0.276991       0.0271075       0.115947        0.0269432       0.115943        0.976096        -0.153297      
  1.2e+010        0.885166        -0.419634       0.0517208       0.12678         0.0519628       0.126689        0.936407        -0.294159       1.5438e-008     0.937612        -0.30031        0.0320909       0.125642        0.0323393       0.125618        0.971916        -0.166533      
  1.3e+010        0.866635        -0.449368       0.0598236       0.134684        0.0600192       0.134475        0.92579         -0.315741       1.5438e-008     0.927428        -0.323281       0.0373167       0.135091        0.0375341       0.134891        0.967437        -0.179285      
  1.4e+010        0.846429        -0.477128       0.0688132       0.141999        0.0687124       0.142045        0.914943        -0.336981       1.5438e-008     0.915573        -0.344791       0.0433493       0.144329        0.0432461       0.144333        0.962531        -0.192107      
  1.5e+010        0.826723        -0.50485        0.0779507       0.148366        0.0779885       0.14774         0.904102        -0.357355       1.5438e-008     0.90432         -0.367269       0.0496793       0.152895        0.0497641       0.152237        0.95773         -0.204387      
  1.6e+010        0.805191        -0.530157       0.0871169       0.154334        0.0867258       0.154004        0.892444        -0.377259       1.5438e-008     0.891803        -0.387616       0.0559745       0.161269        0.0556377       0.16093         0.952161        -0.216606      
  1.7e+010        0.783678        -0.55517        0.0969775       0.1595          0.0963114       0.158862        0.879428        -0.396664       1.5438e-008     0.879541        -0.408591       0.063087        0.169367        0.0625139       0.168632        0.946738        -0.22873       
  1.8e+010        0.761367        -0.578082       0.106468        0.163972        0.105698        0.163861        0.866891        -0.41602        1.5438e-008     0.865951        -0.42773        0.0698675       0.176993        0.0691727       0.17666         0.941185        -0.240661      
  1.9e+010        0.737809        -0.600508       0.116115        0.168203        0.116347        0.167775        0.854272        -0.434715       1.5438e-008     0.851563        -0.447946       0.0769304       0.184493        0.077205        0.184055        0.935024        -0.251973      
  2e+010          0.714898        -0.620762       0.125985        0.171493        0.125135        0.170573        0.840443        -0.450785       1.5438e-008     0.838047        -0.465313       0.0845518       0.191426        0.083921        0.190188        0.928532        -0.26307       
  2.1e+010        0.69127         -0.640308       0.13571         0.174296        0.135678        0.173971        0.824695        -0.46629        1.5438e-008     0.822995        -0.483011       0.0922652       0.198218        0.0923699       0.197757        0.921749        -0.274335      
  2.2e+010        0.66773         -0.658621       0.146068        0.176583        0.144933        0.17547         0.809576        -0.483615       1.5438e-008     0.808328        -0.500207       0.100696        0.204819        0.09969         0.203308        0.915636        -0.285631      
  2.3e+010        0.643396        -0.675537       0.155778        0.177792        0.154395        0.177373        0.799036        -0.501226       1.5438e-008     0.792749        -0.516871       0.108408        0.210119        0.107055        0.209326        0.909719        -0.29523       
  2.4e+010        0.619895        -0.693012       0.164505        0.17885         0.163615        0.178517        0.790973        -0.508413       1.5438e-008     0.778269        -0.533452       0.115982        0.214417        0.115225        0.213748        0.90286         -0.30224       
  2.5e+010        0.59413         -0.708039       0.174406        0.181895        0.172893        0.181441        0.789087        -0.514221       1.5438e-008     0.76172         -0.548227       0.124408        0.219468        0.122896        0.218919        0.894262        -0.31295       
  2.6e+010        0.57015         -0.722129       0.187111        0.180505        0.185884        0.181082        0.766352        -0.540245       1.5438e-008     0.745785        -0.563126       0.134852        0.223891        0.133531        0.224185        0.882802        -0.323319      
  2.7e+010        0.545576        -0.734909       0.19536         0.179438        0.194635        0.180249        0.733636        -0.556085       1.5438e-008     0.729674        -0.576891       0.142995        0.229927        0.141986        0.230295        0.878005        -0.33618       
  2.8e+010        0.520968        -0.746477       0.205538        0.178116        0.203793        0.177566        0.714549        -0.578108       1.5438e-008     0.712831        -0.590074       0.151671        0.235446        0.150062        0.234202        0.871797        -0.347657      
  2.9e+010        0.496633        -0.757668       0.213033        0.176757        0.211072        0.176958        0.703387        -0.589346       1.5438e-008     0.69606         -0.603916       0.158773        0.238986        0.156702        0.238579        0.867584        -0.354254      
  3e+010          0.471643        -0.766513       0.221644        0.176253        0.220131        0.176124        0.695245        -0.596725       1.5438e-008     0.678472        -0.615279       0.167111        0.242334        0.165467        0.241589        0.860796        -0.361462      
  3.1e+010        0.448339        -0.775562       0.230489        0.173544        0.229055        0.17401         0.680071        -0.605212       1.5438e-008     0.662651        -0.625458       0.176094        0.244211        0.174549        0.244337        0.851632        -0.370174      
  3.2e+010        0.424557        -0.783803       0.239451        0.171348        0.237523        0.170455        0.661325        -0.617062       1.5438e-008     0.645541        -0.636971       0.185467        0.247723        0.183734        0.246064        0.84375         -0.380178      
  3.3e+010        0.400767        -0.791699       0.24797         0.16869         0.245126        0.169072        0.64659         -0.630206       1.5438e-008     0.629037        -0.648917       0.194129        0.250816        0.19088         0.250347        0.837119        -0.38856       
  3.4e+010        0.374931        -0.796827       0.256581        0.165349        0.254575        0.165527        0.633881        -0.639339       1.5438e-008     0.609425        -0.657903       0.203468        0.252638        0.200974        0.252126        0.829812        -0.396237      
  3.5e+010        0.353744        -0.802159       0.26377         0.16156         0.26201         0.161721        0.618297        -0.64778        1.5438e-008     0.594109        -0.665952       0.211779        0.253636        0.209537        0.25328         0.820948        -0.404373      
  3.6e+010        0.3319          -0.805946       0.271073        0.157902        0.269081        0.158456        0.600064        -0.656384       1.5438e-008     0.57754         -0.67296        0.220639        0.255315        0.217966        0.255486        0.8124          -0.412256      
  3.7e+010        0.310551        -0.808782       0.278308        0.154057        0.27531         0.155518        0.586423        -0.667131       1.5438e-008     0.560713        -0.679664       0.228906        0.256361        0.225329        0.256923        0.80598         -0.420161      
  3.8e+010        0.289432        -0.81504        0.285745        0.149736        0.28417         0.151095        0.572398        -0.674537       1.5438e-008     0.545735        -0.689526       0.237754        0.256987        0.235306        0.257738        0.798063        -0.427033      
  3.9e+010        0.26725         -0.818075       0.291695        0.145583        0.289867        0.145987        0.556974        -0.681303       1.5438e-008     0.528707        -0.696387       0.245467        0.257666        0.243251        0.257124        0.790097        -0.433672      
  4e+010          0.245514        -0.820415       0.298372        0.140948        0.295334        0.142309        0.540683        -0.690048       1.5438e-008     0.511324        -0.70282        0.253959        0.258226        0.250065        0.258698        0.782032        -0.440697      
  4.1e+010        0.225971        -0.82263        0.305055        0.136637        0.303013        0.138005        0.525467        -0.698314       1.5438e-008     0.496322        -0.708306       0.262029        0.258631        0.259027        0.259505        0.77393         -0.449317      
  4.2e+010        0.203584        -0.823465       0.31172         0.131095        0.309343        0.131001        0.510261        -0.703672       1.5438e-008     0.479057        -0.714786       0.27073         0.258164        0.268384        0.257375        0.764006        -0.454326      
  4.3e+010        0.187102        -0.825761       0.317282        0.125216        0.312893        0.127239        0.495121        -0.70955        1.5438e-008     0.466684        -0.719732       0.279033        0.257651        0.2732          0.257635        0.756471        -0.46095       
  4.4e+010        0.164934        -0.824727       0.321734        0.120398        0.320669        0.121801        0.479701        -0.715378       1.5438e-008     0.447463        -0.724583       0.286372        0.257168        0.284291        0.257843        0.748564        -0.467021      
  4.5e+010        0.143972        -0.827119       0.327866        0.115491        0.32542         0.117217        0.465217        -0.722283       1.5438e-008     0.430861        -0.730955       0.294644        0.257509        0.290922        0.258393        0.741021        -0.473011      
  4.6e+010        0.127531        -0.825181       0.333128        0.109638        0.331433        0.11157         0.450674        -0.725969       1.5438e-008     0.418184        -0.732679       0.302784        0.256243        0.299596        0.257625        0.732194        -0.478242      
  4.7e+010        0.109408        -0.827849       0.337585        0.103802        0.335934        0.10673         0.435513        -0.729303       1.5438e-008     0.403841        -0.739758       0.310727        0.255259        0.307056        0.257235        0.723708        -0.483582      
  4.8e+010        0.0895291       -0.825572       0.342322        0.0985396       0.340715        0.0989079       0.420952        -0.73554        1.5438e-008     0.386715        -0.740951       0.318567        0.254661        0.316208        0.255006        0.715626        -0.488991      
  4.9e+010        0.071436        -0.827724       0.347538        0.0921434       0.342999        0.0937442       0.408204        -0.739004       1.5438e-008     0.372307        -0.747859       0.327405        0.252888        0.321323        0.252529        0.707839        -0.493445      
  5e+010          0.0521593       -0.824367       0.351796        0.0858431       0.349911        0.0906623       0.393591        -0.742802       1.5438e-008     0.355159        -0.749974       0.335436        0.250413        0.330733        0.254656        0.69923         -0.499037      
  5.1e+010        0.0367719       -0.821575       0.354786        0.0799546       0.353928        0.081394        0.37989         -0.746346       1.5438e-008     0.342638        -0.75106        0.342274        0.248483        0.340121        0.249487        0.690911        -0.503338      
  5.2e+010        0.0186546       -0.818006       0.358237        0.0727512       0.354472        0.0749988       0.366098        -0.751214       1.5438e-008     0.326887        -0.751594       0.350242        0.245711        0.345068        0.246215        0.683421        -0.507472      
