! VERSION = 6.00
!Data measured by ggf on Mon Jan 22 13:49:05 2018 using model file NPN_MEAS_SCALE
BEGIN_HEADER
 ICCAP_INPUTS
  ve         V  E GROUND SMU_E 0.1 CON        0
  vc         V  C GROUND SMU_C 0.1 LIN        2    0.5        2          4    0.5       
  vs         V  S GROUND SMU_S 0.015 CON        0
  vb         V  B GROUND SMU_B 0.015 LIN        1    0.4        1.04       33   0.02      
 ICCAP_OUTPUTS
  ib         I  B GROUND SMU_B M
  ic         I  C GROUND SMU_C M
 ICCAP_VALUES
  TNOM "27"
  TEMP "27"
  TECHNO "SG13G2"
  LOT "EDJ802"
  WAFER "02"
  CHIP "(3.3)"
  MODULE "S439S"
  DEV_NAME "D41"
  DEV_GEOM_L "0.9"
  DEV_GEOM_W "0.07"
  NUM_OF_TRANS_RF "4"
  REMARKS "Nx=2; Power -30/-20dBm, Slope: 0.1dB/GHz"
  TIMEDATE "Mon Jan 22 13:32:08     2018"
  OPERATOR "ggf"
END_HEADER

BEGIN_DB
 ICCAP_VAR ve         0              
 ICCAP_VAR vc         0.5            
 ICCAP_VAR vs         0              

 #vb              ib              ic             
  0.4             1.2816e-010     6.4804e-010    
  0.42            8.868e-011      9.3412e-010    
  0.44            4.576e-011      1.7814e-009    
  0.46            5.71e-011       3.7182e-009    
  0.48            6.816e-011      7.9072e-009    
  0.5             6.75e-011       1.6972e-008    
  0.52            1.1806e-010     3.652e-008     
  0.54            1.8202e-010     7.838e-008     
  0.56            3.3368e-010     1.6894e-007    
  0.58            6.279e-010      3.62e-007      
  0.6             1.2366e-009     7.7614e-007    
  0.62            2.491e-009      1.6684e-006    
  0.64            5.0902e-009     3.5876e-006    
  0.66            1.0542e-008     7.6912e-006    
  0.68            2.1818e-008     1.6394e-005    
  0.7             4.5226e-008     3.478e-005     
  0.72            9.3934e-008     7.355e-005     
  0.74            1.9388e-007     0.00015364     
  0.76            3.9514e-007     0.00031606     
  0.78            7.8204e-007     0.0006295      
  0.8             1.4856e-006     0.0011974      
  0.82            2.6746e-006     0.002146       
  0.84            4.5128e-006     0.0035546      
  0.86            7.172e-006      0.0054438      
  0.88            1.08386e-005    0.007747       
  0.9             1.582e-005      0.010398       
  0.92            2.2668e-005     0.013358       
  0.94            3.2858e-005     0.016468       
  0.96            5.4666e-005     0.019154       
  0.98            0.000112174     0.020776       
  1               0.00022502      0.022034       
  1.02            0.00041632      0.023386       
  1.04            0.00071846      0.024874       
END_DB

BEGIN_DB
 ICCAP_VAR ve         0              
 ICCAP_VAR vc         1              
 ICCAP_VAR vs         0              

 #vb              ib              ic             
  0.4             -4.7518e-010    1.0962e-009    
  0.42            -4.1584e-010    1.3126e-009    
  0.44            -3.813e-010     2.1666e-009    
  0.46            -3.439e-010     4.0692e-009    
  0.48            -2.9744e-010    8.2218e-009    
  0.5             -2.5018e-010    1.7246e-008    
  0.52            -2.0976e-010    3.677e-008     
  0.54            -1.1564e-010    7.8596e-008    
  0.56            2.092e-011      1.6914e-007    
  0.58            3.0568e-010     3.6212e-007    
  0.6             8.7628e-010     7.7584e-007    
  0.62            2.0574e-009     1.6694e-006    
  0.64            4.4882e-009     3.587e-006     
  0.66            9.662e-009      7.694e-006     
  0.68            2.0458e-008     1.641e-005     
  0.7             4.3154e-008     3.4836e-005    
  0.72            9.046e-008      7.3814e-005    
  0.74            1.8792e-007     0.00015454     
  0.76            3.874e-007      0.0003194      
  0.78            7.773e-007      0.00064074     
  0.8             1.5028e-006     0.0012324      
  0.82            2.7768e-006     0.0022398      
  0.84            4.8242e-006     0.0037664      
  0.86            7.9464e-006     0.0058498      
  0.88            1.2494e-005     0.0084222      
  0.9             1.8996e-005     0.011422       
  0.92            2.8322e-005     0.014814       
  0.94            4.1314e-005     0.018512       
  0.96            5.9036e-005     0.022458       
  0.98            8.2932e-005     0.026672       
  1               0.00011456      0.03106        
  1.02            0.00015728      0.035114       
  1.04            0.00023524      0.038204       
END_DB

BEGIN_DB
 ICCAP_VAR ve         0              
 ICCAP_VAR vc         1.5            
 ICCAP_VAR vs         0              

 #vb              ib              ic             
  0.4             -2.7074e-009    3.387e-009     
  0.42            -2.5812e-009    3.5042e-009    
  0.44            -2.3926e-009    4.209e-009     
  0.46            -2.2586e-009    6.008e-009     
  0.48            -2.0964e-009    1.0044e-008    
  0.5             -2.0136e-009    1.898e-008     
  0.52            -1.8656e-009    3.8398e-008    
  0.54            -1.7822e-009    8.015e-008     
  0.56            -1.6816e-009    1.707e-007     
  0.58            -1.5774e-009    3.6316e-007    
  0.6             -1.4794e-009    7.7688e-007    
  0.62            -1.2124e-009    1.6702e-006    
  0.64            -6.0808e-010    3.5868e-006    
  0.66            9.3788e-010     7.6902e-006    
  0.68            4.9972e-009     1.6406e-005    
  0.7             1.4974e-008     3.4852e-005    
  0.72            3.9136e-008     7.3914e-005    
  0.74            9.5318e-008     0.00015508     
  0.76            2.2332e-007     0.00032198     
  0.78            5.0324e-007     0.00065094     
  0.8             1.0898e-006     0.0012664      
  0.82            2.2518e-006     0.0023382      
  0.84            4.3926e-006     0.0040012      
  0.86            8.0962e-006     0.0063188      
  0.88            1.4094e-005     0.0092338      
  0.9             2.3482e-005     0.012682       
  0.92            3.786e-005      0.016638       
  0.94            5.8986e-005     0.021          
  0.96            8.896e-005      0.02569        
  0.98            0.00013062      0.03071        
  1               0.0001864       0.035988       
  1.02            0.00025738      0.04134        
  1.04            0.00034524      0.046474       
END_DB

BEGIN_DB
 ICCAP_VAR ve         0              
 ICCAP_VAR vc         2              
 ICCAP_VAR vs         0              

 #vb              ib              ic             
  0.4             -1.008e-008     1.085e-008     
  0.42            -9.6228e-009    1.0696e-008    
  0.44            -9.2454e-009    1.1032e-008    
  0.46            -8.7432e-009    1.2588e-008    
  0.48            -8.5234e-009    1.644e-008     
  0.5             -8.285e-009     2.5254e-008    
  0.52            -8.1602e-009    4.4712e-008    
  0.54            -8.3924e-009    8.667e-008     
  0.56            -9.2148e-009    1.7828e-007    
  0.58            -1.1204e-008    3.7238e-007    
  0.6             -1.5376e-008    7.8924e-007    
  0.62            -2.4054e-008    1.6888e-006    
  0.64            -4.1336e-008    3.62e-006      
  0.66            -7.5466e-008    7.7512e-006    
  0.68            -1.4182e-007    1.653e-005     
  0.7             -2.6974e-007    3.5106e-005    
  0.72            -5.1566e-007    7.45e-005      
  0.74            -9.7752e-007    0.00015668     
  0.76            -1.8302e-006    0.00032668     
  0.78            -3.309e-006     0.00066594     
  0.8             -5.6718e-006    0.001314       
  0.82            -8.9154e-006    0.0024738      
  0.84            -1.2122e-005    0.0043266      
  0.86            -1.3222e-005    0.006981       
  0.88            -9.18e-006      0.0103984      
  0.9             3.492e-006      0.014522       
  0.92            2.882e-005      0.019334       
  0.94            7.0578e-005     0.0247         
  0.96            0.00013234      0.030496       
  0.98            0.00021798      0.036682       
  1               0.00033046      0.043084       
  1.02            0.00046862      0.04941        
  1.04            0.00063216      0.055302       
END_DB

