! VERSION = 6.00
!Data measured by ggf on Mon Jan 22 13:49:05 2018 using model file NPN_MEAS_SCALE
BEGIN_HEADER
 ICCAP_INPUTS
  vc         V  C GROUND SMU_C 0.1 LIN        1    0          2          81   0.025     
  vs         V  S GROUND SMU_S 0.015 CON        0
  ve         V  E GROUND SMU_E 0.1 CON        0
  ib         I  B GROUND SMU_B 2 LIST       2 6 4E-009 7.5E-006 1.5E-005 3E-005 6E-005 0.00012
 ICCAP_OUTPUTS
  ic         I  C GROUND SMU_C M
  vb         V  B GROUND SMU_B M
 ICCAP_VALUES
  TNOM "27"
  TEMP "27"
  TECHNO "SG13G2"
  LOT "EDJ802"
  WAFER "02"
  CHIP "(3.3)"
  MODULE "S439S"
  DEV_NAME "D41"
  DEV_GEOM_L "0.9"
  DEV_GEOM_W "0.07"
  NUM_OF_TRANS_RF "4"
  REMARKS "Nx=2; Power -30/-20dBm, Slope: 0.1dB/GHz"
  TIMEDATE "Mon Jan 22 13:32:08     2018"
  OPERATOR "ggf"
END_HEADER

BEGIN_DB
 ICCAP_VAR vs         0              
 ICCAP_VAR ve         0              
 ICCAP_VAR ib         4e-009         

 #vc              ic              vb             
  0               -1.0494e-008    0.39336        
  0.025           -5.0818e-009    0.37484        
  0.05            -3.885e-009     0.37652        
  0.075           -2.8534e-009    0.38844        
  0.1             -2.711e-009     0.40124        
  0.125           -1.6528e-009    0.42096        
  0.15            -3.7236e-010    0.4478         
  0.175           2.8646e-009     0.47192        
  0.2             9.5836e-009     0.49324        
  0.225           2.284e-008      0.51272        
  0.25            5.028e-008      0.53216        
  0.275           1.10122e-007    0.55212        
  0.3             1.873e-007      0.566          
  0.325           2.4734e-007     0.57356        
  0.35            3.3552e-007     0.58168        
  0.375           4.6042e-007     0.59           
  0.4             6.3122e-007     0.59812        
  0.425           1.1384e-006     0.61264        
  0.45            1.4132e-006     0.61796        
  0.475           1.6998e-006     0.62236        
  0.5             1.973e-006      0.62588        
  0.525           2.2142e-006     0.62856        
  0.55            2.4124e-006     0.63048        
  0.575           2.5676e-006     0.63192        
  0.6             2.682e-006      0.63292        
  0.625           2.7668e-006     0.6336         
  0.65            2.8274e-006     0.63408        
  0.675           2.8716e-006     0.63444        
  0.7             2.904e-006      0.63468        
  0.725           2.9288e-006     0.63492        
  0.75            2.9488e-006     0.63508        
  0.775           2.9666e-006     0.63524        
  0.8             2.9808e-006     0.63532        
  0.825           2.996e-006      0.63548        
  0.85            3.0096e-006     0.63556        
  0.875           3.0222e-006     0.63568        
  0.9             3.0338e-006     0.6358         
  0.925           3.0492e-006     0.63592        
  0.95            3.0654e-006     0.63608        
  0.975           3.0842e-006     0.63624        
  1               3.1062e-006     0.63644        
  1.025           3.1286e-006     0.63664        
  1.05            3.157e-006      0.63688        
  1.075           3.1884e-006     0.63716        
  1.1             3.2272e-006     0.63752        
  1.125           3.2744e-006     0.63792        
  1.15            3.3314e-006     0.63844        
  1.175           3.3992e-006     0.639          
  1.2             3.482e-006      0.63968        
  1.225           3.5808e-006     0.64048        
  1.25            3.7022e-006     0.6414         
  1.275           3.8508e-006     0.64252        
  1.3             4.0308e-006     0.6438         
  1.325           4.2564e-006     0.64536        
  1.35            4.539e-006      0.64716        
  1.375           4.9e-006        0.64932        
  1.4             5.3644e-006     0.65188        
  1.425           5.9766e-006     0.65496        
  1.45            6.8114e-006     0.65868        
  1.475           7.9918e-006     0.66328        
  1.5             9.75e-006       0.66908        
  1.525           1.473e-005      0.67972        
  1.55            1.906e-005      0.6884         
  1.575           2.9454e-005     0.70232        
  1.6             5.8934e-005     0.7238         
  1.625           0.00017674      0.75092        
  1.65            0.00046976      0.77316        
  1.675           0.00098978      0.79264        
  1.7             0.0017096       0.80912        
  1.725           0.0025796       0.8228         
  1.75            0.0035456       0.83416        
  1.775           0.0045518       0.84376        
  1.8             0.0055804       0.85212        
  1.825           0.0066122       0.85952        
  1.85            0.0076408       0.86616        
  1.875           0.008664        0.8722         
  1.9             0.0096858       0.8778         
  1.925           0.0106992       0.88296        
  1.95            0.011706        0.88772        
  1.975           0.012702        0.89216        
  2               0.0137          0.89636        
END_DB

BEGIN_DB
 ICCAP_VAR vs         0              
 ICCAP_VAR ve         0              
 ICCAP_VAR ib         7.5e-006       

 #vc              ic              vb             
  0               -8.5524e-005    0.77112        
  0.025           0.00031796      0.78788        
  0.05            0.00082758      0.80216        
  0.075           0.0014112       0.8142         
  0.1             0.0020332       0.82448        
  0.125           0.002667        0.83332        
  0.15            0.0032896       0.84088        
  0.175           0.0038696       0.84724        
  0.2             0.0043872       0.85252        
  0.225           0.004817        0.8566         
  0.25            0.0051482       0.85956        
  0.275           0.0053764       0.86148        
  0.3             0.0055218       0.8626         
  0.325           0.0056104       0.8632         
  0.35            0.0056632       0.86348        
  0.375           0.0056984       0.86356        
  0.4             0.0057192       0.86356        
  0.425           0.0057316       0.86352        
  0.45            0.0057396       0.86336        
  0.475           0.005746        0.8632         
  0.5             0.0057448       0.86304        
  0.525           0.005746        0.8628         
  0.55            0.0057422       0.8626         
  0.575           0.0057396       0.8624         
  0.6             0.0057354       0.86216        
  0.625           0.005731        0.86192        
  0.65            0.0057252       0.86168        
  0.675           0.00572         0.86144        
  0.7             0.0057134       0.86124        
  0.725           0.0057074       0.861          
  0.75            0.0057002       0.86072        
  0.775           0.0056932       0.86048        
  0.8             0.0056868       0.86024        
  0.825           0.0056778       0.86           
  0.85            0.0056696       0.85972        
  0.875           0.0056636       0.85948        
  0.9             0.0056556       0.85924        
  0.925           0.005646        0.859          
  0.95            0.005638        0.85872        
  0.975           0.00563         0.85848        
  1               0.005621        0.85824        
  1.025           0.0056122       0.858          
  1.05            0.0056046       0.85772        
  1.075           0.0055974       0.85748        
  1.1             0.0055884       0.85724        
  1.125           0.005582        0.857          
  1.15            0.0055758       0.8568         
  1.175           0.0055708       0.85656        
  1.2             0.005567        0.85636        
  1.225           0.0055656       0.85616        
  1.25            0.005567        0.856          
  1.275           0.0055712       0.85588        
  1.3             0.0055842       0.8558         
  1.325           0.0056008       0.8558         
  1.35            0.005625        0.8558         
  1.375           0.0056582       0.85588        
  1.4             0.0057038       0.85608        
  1.425           0.0057604       0.8564         
  1.45            0.0058328       0.8568         
  1.475           0.005924        0.85732        
  1.5             0.0060328       0.858          
  1.525           0.0061646       0.8588         
  1.55            0.0063216       0.8598         
  1.575           0.0065058       0.861          
  1.6             0.0067216       0.86236        
  1.625           0.0069732       0.86392        
  1.65            0.0072604       0.86572        
  1.675           0.0075882       0.86768        
  1.7             0.0079582       0.86984        
  1.725           0.0083722       0.8722         
  1.75            0.0088324       0.87472        
  1.775           0.0093332       0.87744        
  1.8             0.009879        0.88028        
  1.825           0.010468        0.8832         
  1.85            0.0110954       0.88624        
  1.875           0.011758        0.88928        
  1.9             0.012456        0.89232        
  1.925           0.013186        0.89544        
  1.95            0.013942        0.89848        
  1.975           0.01472         0.90152        
  2               0.015524        0.90448        
END_DB

BEGIN_DB
 ICCAP_VAR vs         0              
 ICCAP_VAR ve         0              
 ICCAP_VAR ib         1.5e-005       

 #vc              ic              vb             
  0               -6.0382e-005    0.794          
  0.025           0.0005727       0.80848        
  0.05            0.0012964       0.82108        
  0.075           0.0020838       0.83224        
  0.1             0.0029074       0.8422         
  0.125           0.0037488       0.85112        
  0.15            0.0045978       0.85932        
  0.175           0.00543         0.86668        
  0.2             0.006234        0.87328        
  0.225           0.0069926       0.87916        
  0.25            0.007698        0.88432        
  0.275           0.0083336       0.88876        
  0.3             0.0088788       0.89228        
  0.325           0.009318        0.89504        
  0.35            0.0096464       0.89696        
  0.375           0.0098608       0.89808        
  0.4             0.009986        0.8986         
  0.425           0.010062        0.89872        
  0.45            0.010101        0.89864        
  0.475           0.0101198       0.89844        
  0.5             0.0101258       0.89816        
  0.525           0.0101238       0.8978         
  0.55            0.010117        0.8974         
  0.575           0.0101062       0.89704        
  0.6             0.0100918       0.8966         
  0.625           0.010075        0.89616        
  0.65            0.0100568       0.89568        
  0.675           0.010037        0.89524        
  0.7             0.010016        0.8948         
  0.725           0.0099946       0.89432        
  0.75            0.0099722       0.89388        
  0.775           0.00995         0.8934         
  0.8             0.0099264       0.89292        
  0.825           0.0099026       0.89244        
  0.85            0.0098792       0.892          
  0.875           0.009855        0.89152        
  0.9             0.0098322       0.89108        
  0.925           0.009808        0.8906         
  0.95            0.0097828       0.89012        
  0.975           0.0097606       0.88968        
  1               0.0097364       0.88924        
  1.025           0.0097112       0.88876        
  1.05            0.0096884       0.88832        
  1.075           0.0096652       0.88784        
  1.1             0.0096406       0.8874         
  1.125           0.0096174       0.88692        
  1.15            0.009594        0.88652        
  1.175           0.009574        0.88608        
  1.2             0.0095534       0.88564        
  1.225           0.0095324       0.88524        
  1.25            0.0095148       0.88484        
  1.275           0.0095002       0.88444        
  1.3             0.0094896       0.88408        
  1.325           0.0094824       0.88372        
  1.35            0.009481        0.88344        
  1.375           0.0094868       0.88316        
  1.4             0.0095026       0.883          
  1.425           0.009527        0.88284        
  1.45            0.0095634       0.88276        
  1.475           0.0096134       0.8828         
  1.5             0.0096796       0.88288        
  1.525           0.0097644       0.88312        
  1.55            0.00987         0.88344        
  1.575           0.0099972       0.88388        
  1.6             0.010147        0.88444        
  1.625           0.0103268       0.88516        
  1.65            0.0105338       0.886          
  1.675           0.0107706       0.887          
  1.7             0.0110424       0.88816        
  1.725           0.0113462       0.88944        
  1.75            0.01169         0.89092        
  1.775           0.012064        0.89248        
  1.8             0.012474        0.89416        
  1.825           0.012924        0.896          
  1.85            0.013408        0.89792        
  1.875           0.013932        0.89992        
  1.9             0.01449         0.90204        
  1.925           0.015082        0.9042         
  1.95            0.015708        0.9064         
  1.975           0.01636         0.90864        
  2               0.01704         0.91092        
END_DB

BEGIN_DB
 ICCAP_VAR vs         0              
 ICCAP_VAR ve         0              
 ICCAP_VAR ib         3e-005         

 #vc              ic              vb             
  0               -4.338e-005     0.8154         
  0.025           0.00078506      0.82768        
  0.05            0.0016694       0.83876        
  0.075           0.002594        0.84884        
  0.1             0.0035418       0.85816        
  0.125           0.004504        0.86676        
  0.15            0.0054814       0.87488        
  0.175           0.0064564       0.88244        
  0.2             0.0074226       0.88952        
  0.225           0.00838         0.89612        
  0.25            0.009324        0.90232        
  0.275           0.0102502       0.90808        
  0.3             0.0111422       0.9134         
  0.325           0.011994        0.91824        
  0.35            0.012806        0.9226         
  0.375           0.013554        0.92648        
  0.4             0.014226        0.92976        
  0.425           0.014804        0.93236        
  0.45            0.015276        0.93436        
  0.475           0.015634        0.93568        
  0.5             0.015878        0.93636        
  0.525           0.01602         0.93652        
  0.55            0.01609         0.93632        
  0.575           0.016112        0.93588        
  0.6             0.01611         0.93532        
  0.625           0.01609         0.93472        
  0.65            0.016064        0.93404        
  0.675           0.01603         0.93332        
  0.7             0.015996        0.9326         
  0.725           0.015952        0.93184        
  0.75            0.015908        0.93112        
  0.775           0.015864        0.93036        
  0.8             0.01582         0.92964        
  0.825           0.01577         0.92888        
  0.85            0.015724        0.92812        
  0.875           0.015674        0.92736        
  0.9             0.015626        0.9266         
  0.925           0.015578        0.92584        
  0.95            0.015528        0.92512        
  0.975           0.01548         0.92436        
  1               0.01543         0.9236         
  1.025           0.01538         0.92288        
  1.05            0.015334        0.92216        
  1.075           0.015284        0.9214         
  1.1             0.015234        0.92068        
  1.125           0.015186        0.92           
  1.15            0.015138        0.91928        
  1.175           0.01509         0.91852        
  1.2             0.015042        0.9178         
  1.225           0.014996        0.91716        
  1.25            0.014952        0.91644        
  1.275           0.01491         0.91576        
  1.3             0.014866        0.91508        
  1.325           0.014826        0.9144         
  1.35            0.014792        0.91376        
  1.375           0.014758        0.91316        
  1.4             0.01473         0.91256        
  1.425           0.014708        0.912          
  1.45            0.014692        0.91144        
  1.475           0.014688        0.911          
  1.5             0.014692        0.91056        
  1.525           0.01471         0.9102         
  1.55            0.01474         0.90992        
  1.575           0.01479         0.90972        
  1.6             0.014854        0.90956        
  1.625           0.01494         0.90952        
  1.65            0.015044        0.90956        
  1.675           0.015176        0.90972        
  1.7             0.01533         0.90996        
  1.725           0.015514        0.91032        
  1.75            0.015726        0.9108         
  1.775           0.015966        0.91136        
  1.8             0.016236        0.91208        
  1.825           0.016542        0.91288        
  1.85            0.016878        0.9138         
  1.875           0.017244        0.9148         
  1.9             0.017646        0.91592        
  1.925           0.01808         0.91712        
  1.95            0.018548        0.91836        
  1.975           0.019046        0.91972        
  2               0.019576        0.92108        
END_DB

BEGIN_DB
 ICCAP_VAR vs         0              
 ICCAP_VAR ve         0              
 ICCAP_VAR ib         6e-005         

 #vc              ic              vb             
  0               -4.2828e-005    0.83656        
  0.025           0.0009209       0.84728        
  0.05            0.0019114       0.85716        
  0.075           0.0029228       0.8664         
  0.1             0.003945        0.87504        
  0.125           0.0049748       0.8832         
  0.15            0.0060172       0.89096        
  0.175           0.007056        0.89828        
  0.2             0.0080892       0.9052         
  0.225           0.0091182       0.91172        
  0.25            0.0101436       0.918          
  0.275           0.0111634       0.92388        
  0.3             0.012166        0.92948        
  0.325           0.013154        0.93476        
  0.35            0.014132        0.93972        
  0.375           0.015092        0.94444        
  0.4             0.016034        0.94884        
  0.425           0.016944        0.95292        
  0.45            0.017832        0.95676        
  0.475           0.018688        0.96028        
  0.5             0.019502        0.96344        
  0.525           0.020268        0.96624        
  0.55            0.020978        0.96864        
  0.575           0.021618        0.97064        
  0.6             0.022176        0.97216        
  0.625           0.022638        0.9732         
  0.65            0.022986        0.97372        
  0.675           0.023224        0.97376        
  0.7             0.02336         0.97336        
  0.725           0.023416        0.97272        
  0.75            0.023418        0.97188        
  0.775           0.023384        0.97088        
  0.8             0.023332        0.96988        
