! VERSION = 6.00
!Data measured by ggf on Mon Jan 22 13:49:05 2018 using model file NPN_MEAS_SCALE
BEGIN_HEADER
 ICCAP_INPUTS
  vc         V  C GROUND SMU_C 0.1 LIN        1    0          2          81   0.025     
  ve         V  E GROUND SMU_E 0.1 CON        0
  vs         V  S GROUND SMU_S 0.015 CON        0
  vb         V  B GROUND SMU_B 0.015 LIN        2    0.6        1          9    0.05      
 ICCAP_OUTPUTS
  ic         I  C DEFAULT SMU_C M
  ib         I  B GROUND SMU_B M
 ICCAP_VALUES
  TNOM "27"
  TEMP "27"
  TECHNO "SG13G2"
  LOT "EDJ802"
  WAFER "02"
  CHIP "(3.3)"
  MODULE "S439S"
  DEV_NAME "D41"
  DEV_GEOM_L "0.9"
  DEV_GEOM_W "0.07"
  NUM_OF_TRANS_RF "4"
  REMARKS "Nx=2; Power -30/-20dBm, Slope: 0.1dB/GHz"
  TIMEDATE "Mon Jan 22 13:32:08     2018"
  OPERATOR "ggf"
END_HEADER

BEGIN_DB
 ICCAP_VAR ve         0              
 ICCAP_VAR vs         0              
 ICCAP_VAR vb         0.6            

 #vc              ic              ib             
  0               -1.6268e-006    1.4292e-007    
  0.025           -1.8528e-007    9.6208e-008    
  0.05            3.7782e-007     6.7288e-008    
  0.075           6.0112e-007     4.842e-008     
  0.1             6.9192e-007     3.5368e-008    
  0.125           7.3134e-007     2.6032e-008    
  0.15            7.4964e-007     1.9136e-008    
  0.175           7.592e-007      1.409e-008     
  0.2             7.6456e-007     1.0534e-008    
  0.225           7.6804e-007     7.928e-009     
  0.25            7.7026e-007     6.0542e-009    
  0.275           7.7182e-007     4.7182e-009    
  0.3             7.7318e-007     3.7326e-009    
  0.325           7.7396e-007     2.9972e-009    
  0.35            7.7448e-007     2.4374e-009    
  0.375           7.7494e-007     2.0094e-009    
  0.4             7.7512e-007     1.7078e-009    
  0.425           7.756e-007      1.4938e-009    
  0.45            7.7558e-007     1.3644e-009    
  0.475           7.7604e-007     1.2704e-009    
  0.5             7.759e-007      1.2098e-009    
  0.525           7.7614e-007     1.1678e-009    
  0.55            7.7646e-007     1.136e-009     
  0.575           7.763e-007      1.1224e-009    
  0.6             7.7626e-007     1.0826e-009    
  0.625           7.763e-007      1.0676e-009    
  0.65            7.7622e-007     1.0432e-009    
  0.675           7.762e-007      1.0428e-009    
  0.7             7.7606e-007     1.0356e-009    
  0.725           7.7606e-007     1.04e-009      
  0.75            7.7616e-007     1.0382e-009    
  0.775           7.763e-007      1.0288e-009    
  0.8             7.7644e-007     1.00896e-009   
  0.825           7.7656e-007     9.9336e-010    
  0.85            7.764e-007      9.7954e-010    
  0.875           7.7636e-007     9.6294e-010    
  0.9             7.7632e-007     9.5142e-010    
  0.925           7.7616e-007     9.3908e-010    
  0.95            7.7636e-007     9.1772e-010    
  0.975           7.7622e-007     8.9486e-010    
  1               7.7644e-007     8.5726e-010    
  1.025           7.7632e-007     8.2414e-010    
  1.05            7.76e-007       7.8206e-010    
  1.075           7.7608e-007     7.4022e-010    
  1.1             7.7594e-007     6.9186e-010    
  1.125           7.7628e-007     6.4914e-010    
  1.15            7.761e-007      5.9644e-010    
  1.175           7.7628e-007     5.2958e-010    
  1.2             7.7616e-007     4.5548e-010    
  1.225           7.762e-007      3.6394e-010    
  1.25            7.7604e-007     2.6378e-010    
  1.275           7.764e-007      1.5522e-010    
  1.3             7.7614e-007     3.114e-011     
  1.325           7.7638e-007     -8.926e-011    
  1.35            7.7646e-007     -2.366e-010    
  1.375           7.7646e-007     -3.9532e-010   
  1.4             7.7666e-007     -5.92e-010     
  1.425           7.7674e-007     -7.8856e-010   
  1.45            7.7674e-007     -1.0089e-009   
  1.475           7.7688e-007     -1.2198e-009   
  1.5             7.7722e-007     -1.5062e-009   
  1.525           7.7728e-007     -1.8114e-009   
  1.55            7.7742e-007     -2.1224e-009   
  1.575           7.7756e-007     -2.4704e-009   
  1.6             7.7778e-007     -2.8318e-009   
  1.625           7.7826e-007     -3.2216e-009   
  1.65            7.7856e-007     -3.6418e-009   
  1.675           7.7908e-007     -4.1262e-009   
  1.7             7.7976e-007     -4.5988e-009   
  1.725           7.7996e-007     -5.2092e-009   
  1.75            7.8046e-007     -5.815e-009    
  1.775           7.8092e-007     -6.4902e-009   
  1.8             7.817e-007      -7.232e-009    
  1.825           7.823e-007      -7.9558e-009   
  1.85            7.8302e-007     -8.7778e-009   
  1.875           7.8386e-007     -9.6808e-009   
  1.9             7.8494e-007     -1.06842e-008  
  1.925           7.86e-007       -1.1758e-008   
  1.95            7.8714e-007     -1.2882e-008   
  1.975           7.8822e-007     -1.4148e-008   
  2               7.892e-007      -1.5514e-008   
END_DB

BEGIN_DB
 ICCAP_VAR ve         0              
 ICCAP_VAR vs         0              
 ICCAP_VAR vb         0.65           

 #vc              ic              ib             
  0               -9.566e-006     3.769e-007     
  0.025           -7.1712e-007    2.2932e-007    
  0.05            2.8636e-006     1.486e-007     
  0.075           4.2766e-006     1.0196e-007    
  0.1             4.8346e-006     7.3312e-008    
  0.125           5.0566e-006     5.4362e-008    
  0.15            5.149e-006      4.1164e-008    
  0.175           5.1914e-006     3.1734e-008    
  0.2             5.2096e-006     2.493e-008     
  0.225           5.221e-006      1.9934e-008    
  0.25            5.2264e-006     1.6314e-008    
  0.275           5.2332e-006     1.3712e-008    
  0.3             5.2348e-006     1.1858e-008    
  0.325           5.2388e-006     1.0516e-008    
  0.35            5.2398e-006     9.5274e-009    
  0.375           5.242e-006      8.8036e-009    
  0.4             5.2426e-006     8.2396e-009    
  0.425           5.2452e-006     7.873e-009     
  0.45            5.2446e-006     7.5612e-009    
  0.475           5.248e-006      7.3456e-009    
  0.5             5.2468e-006     7.1908e-009    
  0.525           5.2474e-006     7.0902e-009    
  0.55            5.2474e-006     7.0302e-009    
  0.575           5.2478e-006     6.9416e-009    
  0.6             5.2494e-006     6.938e-009     
  0.625           5.2468e-006     6.8478e-009    
  0.65            5.249e-006      6.8712e-009    
  0.675           5.2488e-006     6.834e-009     
  0.7             5.2496e-006     6.8288e-009    
  0.725           5.2484e-006     6.8034e-009    
  0.75            5.2504e-006     6.7674e-009    
  0.775           5.2486e-006     6.7756e-009    
  0.8             5.2486e-006     6.7364e-009    
  0.825           5.2502e-006     6.7378e-009    
  0.85            5.249e-006      6.6918e-009    
  0.875           5.249e-006      6.6994e-009    
  0.9             5.2488e-006     6.6532e-009    
  0.925           5.2502e-006     6.6516e-009    
  0.95            5.248e-006      6.5876e-009    
  0.975           5.2498e-006     6.5782e-009    
  1               5.2482e-006     6.5412e-009    
  1.025           5.2488e-006     6.4726e-009    
  1.05            5.2474e-006     6.4374e-009    
  1.075           5.248e-006      6.342e-009     
  1.1             5.2474e-006     6.3014e-009    
  1.125           5.2462e-006     6.1526e-009    
  1.15            5.248e-006      6.052e-009     
  1.175           5.2464e-006     5.9016e-009    
  1.2             5.2468e-006     5.7526e-009    
  1.225           5.246e-006      5.5228e-009    
  1.25            5.2476e-006     5.2842e-009    
  1.275           5.2456e-006     5.0264e-009    
  1.3             5.2462e-006     4.676e-009     
  1.325           5.245e-006      4.3268e-009    
  1.35            5.246e-006      3.8776e-009    
  1.375           5.2452e-006     3.4402e-009    
  1.4             5.2448e-006     2.8472e-009    
  1.425           5.2462e-006     2.2558e-009    
  1.45            5.2456e-006     1.539e-009     
  1.475           5.2464e-006     7.7392e-010    
  1.5             5.2474e-006     -7.244e-011    
  1.525           5.2486e-006     -1.07124e-009  
  1.55            5.2474e-006     -2.1454e-009   
  1.575           5.2458e-006     -3.3204e-009   
  1.6             5.2474e-006     -4.6512e-009   
  1.625           5.249e-006      -6.0702e-009   
  1.65            5.2496e-006     -7.7016e-009   
  1.675           5.2498e-006     -9.4214e-009   
  1.7             5.252e-006      -1.1362e-008   
  1.725           5.255e-006      -1.3508e-008   
  1.75            5.2568e-006     -1.5882e-008   
  1.775           5.2576e-006     -1.8406e-008   
  1.8             5.2604e-006     -2.1218e-008   
  1.825           5.263e-006      -2.4294e-008   
  1.85            5.2648e-006     -2.769e-008    
  1.875           5.2696e-006     -3.1246e-008   
  1.9             5.2714e-006     -3.532e-008    
  1.925           5.2758e-006     -3.981e-008    
  1.95            5.2788e-006     -4.4644e-008   
  1.975           5.2858e-006     -4.9874e-008   
  2               5.2906e-006     -5.5556e-008   
END_DB

BEGIN_DB
 ICCAP_VAR ve         0              
 ICCAP_VAR vs         0              
 ICCAP_VAR vb         0.7            

 #vc              ic              ib             
  0               -4.2424e-005    1.242e-006     
  0.025           3.9048e-008     7.0426e-007    
  0.05            2.006e-005      4.184e-007     
  0.075           2.8714e-005     2.686e-007     
  0.1             3.2236e-005     1.8694e-007    
  0.125           3.3646e-005     1.3998e-007    
  0.15            3.423e-005      1.1058e-007    
  0.175           3.4464e-005     9.1626e-008    
  0.2             3.4576e-005     7.8528e-008    
  0.225           3.4636e-005     6.914e-008     
  0.25            3.4664e-005     6.2276e-008    
  0.275           3.4686e-005     5.7166e-008    
  0.3             3.4706e-005     5.3632e-008    
  0.325           3.4718e-005     5.1052e-008    
  0.35            3.4736e-005     4.917e-008     
  0.375           3.474e-005      4.782e-008     
  0.4             3.4758e-005     4.6786e-008    
  0.425           3.4772e-005     4.6088e-008    
  0.45            3.4766e-005     4.5504e-008    
  0.475           3.4778e-005     4.507e-008     
  0.5             3.479e-005      4.4774e-008    
  0.525           3.4788e-005     4.4484e-008    
  0.55            3.4798e-005     4.429e-008     
  0.575           3.4806e-005     4.4136e-008    
  0.6             3.4804e-005     4.3982e-008    
  0.625           3.4816e-005     4.3836e-008    
  0.65            3.4818e-005     4.3798e-008    
  0.675           3.482e-005      4.3712e-008    
  0.7             3.483e-005      4.365e-008     
  0.725           3.4826e-005     4.3574e-008    
  0.75            3.4836e-005     4.344e-008     
  0.775           3.4832e-005     4.345e-008     
  0.8             3.4834e-005     4.3374e-008    
  0.825           3.4848e-005     4.3292e-008    
  0.85            3.4838e-005     4.3296e-008    
  0.875           3.4838e-005     4.3188e-008    
  0.9             3.4848e-005     4.3132e-008    
  0.925           3.4844e-005     4.307e-008     
  0.95            3.4842e-005     4.2992e-008    
  0.975           3.4852e-005     4.2946e-008    
  1               3.4848e-005     4.282e-008     
  1.025           3.4854e-005     4.2666e-008    
  1.05            3.4852e-005     4.2578e-008    
  1.075           3.4846e-005     4.236e-008     
  1.1             3.4852e-005     4.211e-008     
  1.125           3.4852e-005     4.1844e-008    
  1.15            3.4848e-005     4.1406e-008    
  1.175           3.485e-005      4.0996e-008    
  1.2             3.485e-005      4.0338e-008    
  1.225           3.4852e-005     3.9598e-008    
  1.25            3.4852e-005     3.871e-008     
  1.275           3.4844e-005     3.7622e-008    
  1.3             3.4858e-005     3.6228e-008    
  1.325           3.4856e-005     3.477e-008     
  1.35            3.4844e-005     3.2862e-008    
  1.375           3.486e-005      3.0822e-008    
  1.4             3.4852e-005     2.8422e-008    
  1.425           3.485e-005      2.5602e-008    
  1.45            3.486e-005      2.2448e-008    
  1.475           3.4848e-005     1.882e-008     
  1.5             3.486e-005      1.469e-008     
  1.525           3.486e-005      1.0136e-008    
  1.55            3.4858e-005     4.8852e-009    
  1.575           3.4864e-005     -8.658e-010    
  1.6             3.4872e-005     -7.307e-009    
  1.625           3.488e-005      -1.446e-008    
  1.65            3.4882e-005     -2.2378e-008   
  1.675           3.489e-005      -3.1086e-008   
  1.7             3.4886e-005     -4.0806e-008   
  1.725           3.4902e-005     -5.1574e-008   
  1.75            3.4916e-005     -6.346e-008    
  1.775           3.4914e-005     -7.6472e-008   
  1.8             3.4934e-005     -9.0838e-008   
  1.825           3.4944e-005     -1.06666e-007  
  1.85            3.497e-005      -1.239e-007    
  1.875           3.4986e-005     -1.4284e-007   
  1.9             3.5006e-005     -1.638e-007    
  1.925           3.5028e-005     -1.8722e-007   
  1.95            3.505e-005      -2.1254e-007   
  1.975           3.5076e-005     -2.3964e-007   
  2               3.5108e-005     -2.6992e-007   
END_DB

BEGIN_DB
 ICCAP_VAR ve         0              
 ICCAP_VAR vs         0              
 ICCAP_VAR vb         0.75           

 #vc              ic              ib             
  0               -9.035e-005     4.3512e-006    
  0.025           5.7554e-005     2.5864e-006    
  0.05            0.00013942      1.5528e-006    
  0.075           0.00018236      9.7786e-007    
  0.1             0.00020298      6.7144e-007    
  0.125           0.00021202      5.1014e-007    
  0.15            0.00021596      4.2244e-007    
  0.175           0.00021766      3.7292e-007    
  0.2             0.00021844      3.4242e-007    
  0.225           0.0002189       3.2238e-007    
  0.25            0.00021916      3.0864e-007    
  0.275           0.00021942      2.99e-007      
  0.3             0.00021958      2.9196e-007    
  0.325           0.0002198       2.8722e-007    
  0.35            0.00021986      2.8306e-007    
  0.375           0.00022002      2.805e-007     
  0.4             0.00022016      2.7828e-007    
  0.425           0.00022026      2.7712e-007    
  0.45            0.00022042      2.7588e-007    
  0.475           0.00022052      2.7498e-007    
  0.5             0.00022064      2.7422e-007    
  0.525           0.00022078      2.7358e-007    
  0.55            0.00022084      2.7324e-007    
  0.575           0.00022098      2.728e-007     
  0.6             0.00022104      2.7256e-007    
  0.625           0.00022116      2.7218e-007    
  0.65            0.0002213       2.7158e-007    
  0.675           0.00022138      2.7124e-007    
  0.7             0.0002214       2.7114e-007    
  0.725           0.00022156      2.7064e-007    
  0.75            0.0002216       2.7078e-007    
  0.775           0.00022174      2.702e-007     
  0.8             0.00022184      2.7058e-007    
  0.825           0.0002218       2.7046e-007    
  0.85            0.00022196      2.6992e-007    
  0.875           0.000222        2.6986e-007    
  0.9             0.00022208      2.698e-007     
  0.925           0.00022224      2.6954e-007    
  0.95            0.00022224      2.695e-007     
  0.975           0.00022232      2.6932e-007    
  1               0.00022242      2.6912e-007    
  1.025           0.0002224       2.6886e-007    
  1.05            0.00022254      2.6828e-007    
  1.075           0.00022262      2.679e-007     
  1.1             0.00022258      2.68e-007      
  1.125           0.0002227       2.6638e-007    
  1.15            0.0002228       2.6488e-007    
  1.175           0.00022284      2.63e-007      
  1.2             0.00022294      2.6092e-007    
  1.225           0.00022292      2.5824e-007    
  1.25            0.00022308      2.549e-007     
  1.275           0.00022312      2.5042e-007    
  1.3             0.00022312      2.4516e-007    
  1.325           0.00022324      2.3838e-007    
  1.35            0.00022328      2.3072e-007    
  1.375           0.0002233       2.2128e-007    
  1.4             0.0002234       2.1012e-007    
  1.425           0.00022348      1.9738e-007    
  1.45            0.00022352      1.8216e-007    
  1.475           0.00022358      1.6498e-007    
  1.5             0.00022366      1.4474e-007    
  1.525           0.00022372      1.2226e-007    
  1.55            0.00022384      9.6612e-008    
  1.575           0.00022388      6.7862e-008    
  1.6             0.00022402      3.5494e-008    
  1.625           0.00022406      -6.148e-010    
  1.65            0.0002242       -4.137e-008    
  1.675           0.00022424      -8.6098e-008   
  1.7             0.00022438      -1.3594e-007   
  1.725           0.00022446      -1.909e-007    
  1.75            0.0002246       -2.527e-007    
  1.775           0.00022472      -3.2016e-007   
  1.8             0.00022482      -3.9496e-007   
  1.825           0.00022502      -4.7762e-007   
  1.85            0.00022512      -5.6834e-007   
  1.875           0.00022526      -6.6806e-007   
  1.9             0.00022546      -7.7852e-007   
  1.925           0.00022566      -9.0012e-007   
  1.95            0.00022584      -1.03286e-006  
  1.975           0.00022606      -1.1794e-006   
  2               0.00022636      -1.3394e-006   
END_DB

BEGIN_DB
 ICCAP_VAR ve         0              
 ICCAP_VAR vs         0              
 ICCAP_VAR vb         0.8            

 #vc              ic              ib             
  0               -5.399e-005     1.8722e-005    
  0.025           0.0004655       1.147e-005     
  0.05            0.00078122      7.154e-006     
  0.075           0.00096002      4.6688e-006    
  0.1             0.00106124      3.2442e-006    
  0.125           0.00111708      2.435e-006     
  0.15            0.0011466       1.9956e-006    
  0.175           0.001161        1.7684e-006    
  0.2             0.0011688       1.649e-006     
  0.225           0.0011734       1.5818e-006    
  0.25            0.0011766       1.5434e-006    
  0.275           0.0011794       1.5168e-006    
  0.3             0.0011816       1.5026e-006    
  0.325           0.001184        1.4944e-006    
  0.35            0.001186        1.4878e-006    
  0.375           0.001188        1.4812e-006    
  0.4             0.00119         1.4772e-006    
  0.425           0.0011918       1.474e-006     
  0.45            0.0011938       1.4746e-006    
  0.475           0.0011958       1.4736e-006    
  0.5             0.0011974       1.4726e-006    
  0.525           0.0011992       1.4712e-006    
  0.55            0.0012014       1.472e-006     
  0.575           0.001203        1.4736e-006    
  0.6             0.001205        1.4752e-006    
  0.625           0.0012068       1.4746e-006    
  0.65            0.0012086       1.4764e-006    
  0.675           0.00121         1.476e-006     
  0.7             0.001212        1.477e-006     
  0.725           0.0012136       1.4798e-006    
  0.75            0.0012154       1.4808e-006    
  0.775           0.0012172       1.4826e-006    
  0.8             0.0012188       1.484e-006     
