! VERSION = 6.00
!Data measured by ggf on Mon Jan 22 13:49:05 2018 using model file NPN_MEAS_SCALE
BEGIN_HEADER
 ICCAP_INPUTS
  vc         V  C GROUND SMU_C 0.1 CON        1.2
  ve         V  E GROUND SMU_E 0.1 CON        0
  vs         V  S GROUND SMU_S 0.015 CON        0
  freq       F  LIST       1 74 100000000 200000000 300000000 400000000 500000000 600000000 700000000 800000000 900000000 1000000000 2000000000 3000000000 4000000000 5000000000 6000000000 7000000000 8000000000 9000000000 10000000000 11000000000 12000000000 13000000000 14000000000 15000000000 16000000000 17000000000 18000000000 19000000000 20000000000 21000000000 22000000000 23000000000 24000000000 25000000000 26000000000 27000000000 28000000000 29000000000 30000000000 31000000000 32000000000 33000000000 34000000000 35000000000 36000000000 37000000000 38000000000 39000000000 40000000000 41000000000 42000000000 43000000000 44000000000 45000000000 46000000000 47000000000 48000000000 49000000000 50000000000 51000000000 52000000000 53000000000 54000000000 55000000000 56000000000 57000000000 58000000000 59000000000 60000000000 61000000000 62000000000 63000000000 64000000000 65000000000
  vb         V  B GROUND SMU_B 0.015 LIN        2    0.68       1.04       37   0.01      
 ICCAP_OUTPUTS
  ic         I  C GROUND SMU_C M
  ib         I  B GROUND SMU_B M
  S          S  B C GROUND NWA M
 ICCAP_VALUES
  TNOM "27"
  TEMP "27"
  TECHNO "SG13G2"
  LOT "EDJ802"
  WAFER "02"
  CHIP "(3.3)"
  MODULE "S439S"
  DEV_NAME "D41"
  DEV_GEOM_L "0.9"
  DEV_GEOM_W "0.07"
  NUM_OF_TRANS_RF "4"
  REMARKS "Nx=2; Power -30/-20dBm, Slope: 0.1dB/GHz"
  TIMEDATE "Mon Jan 22 13:32:08     2018"
  OPERATOR "ggf"
END_HEADER

BEGIN_DB
 ICCAP_VAR vc         1.2            
 ICCAP_VAR ve         0              
 ICCAP_VAR vs         0              
 ICCAP_VAR vb         0.68           

 #freq            ic              ib              R:S(1,1)        I:S(1,1)        R:S(1,2)        I:S(1,2)        R:S(2,1)        I:S(2,1)        R:S(2,2)        I:S(2,2)       
  1e+008          1.6456e-005     1.9722e-008     0.999507        -0.00444396     -5.3434e-005    0.00110894      -0.069308       0.000659368     0.999427        -0.00297117    
  2e+008          1.6456e-005     1.9722e-008     0.999753        -0.00814892     -2.96937e-006   0.00222651      -0.0674099      0.00203681      1.00026         -0.00559037    
  3e+008          1.6456e-005     1.9722e-008     0.999676        -0.0120565      4.83822e-005    0.00330319      -0.0675753      0.0034271       1.00001         -0.00783488    
  4e+008          1.6456e-005     1.9722e-008     0.999305        -0.0153038      6.6939e-005     0.00434429      -0.0665038      0.00478833      1.00049         -0.0112647     
  5e+008          1.6456e-005     1.9722e-008     0.999326        -0.0195042      0.00011032      0.00543781      -0.0673866      0.00622208      1.00014         -0.0141614     
  6e+008          1.6456e-005     1.9722e-008     0.999126        -0.0233188      0.000165651     0.00654109      -0.067254       0.00747344      1.00003         -0.0171756     
  7e+008          1.6456e-005     1.9722e-008     0.998896        -0.0270162      0.000199836     0.00763327      -0.0672947      0.00896972      1.0001          -0.0200356     
  8e+008          1.6456e-005     1.9722e-008     0.998787        -0.030768       0.000199288     0.0087247       -0.0675139      0.0101972       0.999907        -0.0229043     
  9e+008          1.6456e-005     1.9722e-008     0.998664        -0.0347508      0.000306952     0.00982083      -0.0669266      0.0118844       0.999748        -0.0257839     
  1e+009          1.6456e-005     1.9722e-008     0.998584        -0.0388684      0.000357889     0.0108671       -0.0673486      0.0133572       0.999798        -0.0285761     
  2e+009          1.6456e-005     1.9722e-008     0.995668        -0.0771113      0.00147367      0.0217164       -0.0644993      0.0266997       0.997595        -0.0569658     
  3e+009          1.6456e-005     1.9722e-008     0.991107        -0.114785       0.00327232      0.0324071       -0.0633673      0.0396925       0.994831        -0.0856762     
  4e+009          1.6456e-005     1.9722e-008     0.984571        -0.152474       0.00582734      0.0429822       -0.0608751      0.0529543       0.990757        -0.113352      
  5e+009          1.6456e-005     1.9722e-008     0.976597        -0.189783       0.00908916      0.0533338       -0.0562673      0.0659127       0.98541         -0.141101      
  6e+009          1.6456e-005     1.9722e-008     0.967391        -0.226028       0.0129292       0.0633477       -0.05144        0.0781077       0.979008        -0.168636      
  7e+009          1.6456e-005     1.9722e-008     0.956211        -0.261863       0.0175518       0.0732085       -0.0463833      0.0902838       0.972309        -0.194939      
  8e+009          1.6456e-005     1.9722e-008     0.943641        -0.297078       0.0226844       0.082576        -0.0402034      0.101857        0.964274        -0.22118       
  9e+009          1.6456e-005     1.9722e-008     0.929709        -0.332074       0.0285067       0.0915425       -0.0333866      0.113069        0.95601         -0.24677       
  1e+010          1.6456e-005     1.9722e-008     0.914658        -0.365473       0.034849        0.100048        -0.0250786      0.123567        0.946735        -0.272038      
  1.1e+010        1.6456e-005     1.9722e-008     0.89794         -0.397012       0.0415927       0.108164        -0.0174954      0.133912        0.936441        -0.296914      
  1.2e+010        1.6456e-005     1.9722e-008     0.879759        -0.42824        0.0490376       0.115844        -0.0093195      0.143682        0.925216        -0.321288      
  1.3e+010        1.6456e-005     1.9722e-008     0.860564        -0.458004       0.0566601       0.122861        -0.000538998    0.152707        0.913866        -0.344784      
  1.4e+010        1.6456e-005     1.9722e-008     0.840402        -0.486822       0.0652515       0.129287        0.00974748      0.160863        0.901022        -0.366935      
  1.5e+010        1.6456e-005     1.9722e-008     0.81877         -0.51465        0.073859        0.134784        0.0201158       0.1674          0.88856         -0.389374      
  1.6e+010        1.6456e-005     1.9722e-008     0.797477        -0.540455       0.082496        0.139888        0.0303535       0.17383         0.87468         -0.410479      
  1.7e+010        1.6456e-005     1.9722e-008     0.775248        -0.564841       0.0917187       0.144253        0.0414783       0.179745        0.860886        -0.431885      
  1.8e+010        1.6456e-005     1.9722e-008     0.751928        -0.588352       0.100654        0.147787        0.0518426       0.184723        0.846685        -0.451193      
  1.9e+010        1.6456e-005     1.9722e-008     0.728438        -0.610496       0.109596        0.151373        0.062617        0.188851        0.830864        -0.470738      
  2e+010          1.6456e-005     1.9722e-008     0.704707        -0.631428       0.11877         0.153882        0.073456        0.193145        0.816358        -0.488534      
  2.1e+010        1.6456e-005     1.9722e-008     0.680304        -0.650686       0.128011        0.155846        0.0832382       0.196002        0.79993         -0.506295      
  2.2e+010        1.6456e-005     1.9722e-008     0.65571         -0.668761       0.137407        0.157175        0.0949702       0.197896        0.785187        -0.523213      
  2.3e+010        1.6456e-005     1.9722e-008     0.632233        -0.68583        0.146127        0.157739        0.105407        0.199911        0.769027        -0.539464      
  2.4e+010        1.6456e-005     1.9722e-008     0.608079        -0.702122       0.154672        0.158401        0.115559        0.200877        0.753672        -0.554835      
  2.5e+010        1.6456e-005     1.9722e-008     0.583924        -0.718775       0.163199        0.158728        0.125846        0.20175         0.736565        -0.570157      
  2.6e+010        1.6456e-005     1.9722e-008     0.558607        -0.731917       0.172287        0.158374        0.136884        0.202199        0.720168        -0.585606      
  2.7e+010        1.6456e-005     1.9722e-008     0.533493        -0.744531       0.180468        0.157595        0.146673        0.20204         0.705361        -0.597226      
  2.8e+010        1.6456e-005     1.9722e-008     0.508613        -0.756471       0.188976        0.155667        0.156595        0.200381        0.685948        -0.611984      
  2.9e+010        1.6456e-005     1.9722e-008     0.484519        -0.768098       0.196489        0.154449        0.164805        0.199918        0.66933         -0.624197      
  3e+010          1.6456e-005     1.9722e-008     0.460874        -0.778283       0.204281        0.153082        0.174721        0.199244        0.653185        -0.636572      
  3.1e+010        1.6456e-005     1.9722e-008     0.434571        -0.788334       0.211656        0.150731        0.184457        0.196468        0.639176        -0.645199      
  3.2e+010        1.6456e-005     1.9722e-008     0.41148         -0.796429       0.219936        0.148362        0.193066        0.193943        0.621318        -0.657258      
  3.3e+010        1.6456e-005     1.9722e-008     0.387097        -0.802899       0.227814        0.145652        0.201746        0.191487        0.60434         -0.670027      
  3.4e+010        1.6456e-005     1.9722e-008     0.364347        -0.808582       0.234876        0.142216        0.21177         0.188961        0.587559        -0.679538      
  3.5e+010        1.6456e-005     1.9722e-008     0.340569        -0.814257       0.241361        0.138479        0.219716        0.184653        0.570659        -0.687457      
  3.6e+010        1.6456e-005     1.9722e-008     0.31647         -0.819508       0.248513        0.135511        0.227179        0.181374        0.555974        -0.695323      
  3.7e+010        1.6456e-005     1.9722e-008     0.295425        -0.824892       0.255137        0.130632        0.236218        0.177532        0.538482        -0.705454      
  3.8e+010        1.6456e-005     1.9722e-008     0.273751        -0.827991       0.261644        0.126102        0.243393        0.172844        0.52311         -0.714044      
  3.9e+010        1.6456e-005     1.9722e-008     0.252159        -0.831195       0.266717        0.121666        0.25025         0.167657        0.506604        -0.721217      
  4e+010          1.6456e-005     1.9722e-008     0.23014         -0.835368       0.272779        0.116826        0.256469        0.162733        0.488289        -0.727271      
  4.1e+010        1.6456e-005     1.9722e-008     0.207156        -0.836965       0.277756        0.1116          0.263417        0.158332        0.474373        -0.733293      
  4.2e+010        1.6456e-005     1.9722e-008     0.187211        -0.837303       0.283812        0.106337        0.270477        0.15322         0.457718        -0.743021      
  4.3e+010        1.6456e-005     1.9722e-008     0.164706        -0.836425       0.287969        0.100205        0.276858        0.14606         0.442101        -0.750696      
  4.4e+010        1.6456e-005     1.9722e-008     0.146792        -0.838774       0.291824        0.0957326       0.281741        0.140864        0.423087        -0.753576      
  4.5e+010        1.6456e-005     1.9722e-008     0.126855        -0.83914        0.296287        0.0908174       0.286577        0.136075        0.40889         -0.758176      
  4.6e+010        1.6456e-005     1.9722e-008     0.106188        -0.839756       0.300476        0.0844822       0.290673        0.129572        0.392865        -0.762492      
  4.7e+010        1.6456e-005     1.9722e-008     0.0848234       -0.836855       0.303354        0.0787827       0.295916        0.123307        0.37905         -0.767292      
  4.8e+010        1.6456e-005     1.9722e-008     0.0673355       -0.837582       0.306653        0.0739476       0.300741        0.118002        0.363795        -0.770598      
  4.9e+010        1.6456e-005     1.9722e-008     0.0523074       -0.833459       0.310157        0.0677367       0.303341        0.111232        0.347031        -0.775443      
  5e+010          1.6456e-005     1.9722e-008     0.0302585       -0.834789       0.313186        0.0616456       0.308921        0.106872        0.332036        -0.777606      
  5.1e+010        1.6456e-005     1.9722e-008     0.0137052       -0.829979       0.315626        0.0564391       0.313211        0.0994046       0.317619        -0.784121      
  5.2e+010        1.6456e-005     1.9722e-008     -0.00198144     -0.828185       0.318511        0.0504791       0.313562        0.0934787       0.307781        -0.781411      
  5.3e+010        1.6456e-005     1.9722e-008     -0.0180838      -0.82601        0.32049         0.0435766       0.318768        0.0888849       0.28648         -0.789961      
  5.4e+010        1.6456e-005     1.9722e-008     -0.0368996      -0.822769       0.321883        0.0382236       0.320934        0.0806452       0.277372        -0.789402      
  5.5e+010        1.6456e-005     1.9722e-008     -0.0497468      -0.820969       0.322983        0.0323566       0.322114        0.0737504       0.25847         -0.788504      
  5.6e+010        1.6456e-005     1.9722e-008     -0.0663206      -0.818919       0.323541        0.0280383       0.322507        0.0707058       0.250341        -0.793678      
  5.7e+010        1.6456e-005     1.9722e-008     -0.0819566      -0.817501       0.325899        0.0243064       0.327869        0.0677949       0.236975        -0.795373      
  5.8e+010        1.6456e-005     1.9722e-008     -0.0970254      -0.815315       0.33014         0.0198653       0.330598        0.0615802       0.225084        -0.802181      
  5.9e+010        1.6456e-005     1.9722e-008     -0.114972       -0.810453       0.333923        0.0116799       0.335712        0.0541684       0.210746        -0.804205      
  6e+010          1.6456e-005     1.9722e-008     -0.130873       -0.805664       0.334117        0.00438307      0.338186        0.0450172       0.194299        -0.80629       
  6.1e+010        1.6456e-005     1.9722e-008     -0.145269       -0.803651       0.335424        -0.00223595     0.337098        0.04003         0.180703        -0.808933      
  6.2e+010        1.6456e-005     1.9722e-008     -0.159944       -0.797874       0.334987        -0.00924282     0.33945         0.0336718       0.169003        -0.811551      
  6.3e+010        1.6456e-005     1.9722e-008     -0.172206       -0.79738        0.335676        -0.0154103      0.342067        0.027216        0.151101        -0.808752      
  6.4e+010        1.6456e-005     1.9722e-008     -0.189714       -0.788611       0.337178        -0.0209329      0.342405        0.0177502       0.147885        -0.817505      
  6.5e+010        1.6456e-005     1.9722e-008     -0.205272       -0.786513       0.335624        -0.0297577      0.34109         0.0123863       0.125611        -0.81606       
END_DB

BEGIN_DB
 ICCAP_VAR vc         1.2            
 ICCAP_VAR ve         0              
 ICCAP_VAR vs         0              
 ICCAP_VAR vb         0.69           

 #freq            ic              ib              R:S(1,1)        I:S(1,1)        R:S(1,2)        I:S(1,2)        R:S(2,1)        I:S(2,1)        R:S(2,2)        I:S(2,2)       
  1e+008          2.4002e-005     2.9112e-008     0.999303        -0.00432024     7.57522e-006    0.00110981      -0.101017       8.2123e-005     0.999356        -0.00286515    
  2e+008          2.4002e-005     2.9112e-008     0.999827        -0.00844476     9.7833e-005     0.00217006      -0.0977246      0.0018199       1.00025         -0.00559892    
  3e+008          2.4002e-005     2.9112e-008     0.999649        -0.0122384      5.46966e-005    0.00329799      -0.0980827      0.00341979      0.999987        -0.00789366    
  4e+008          2.4002e-005     2.9112e-008     0.999274        -0.0155882      7.42077e-005    0.00434123      -0.0966499      0.00501573      1.00065         -0.0119667     
  5e+008          2.4002e-005     2.9112e-008     0.999328        -0.0196602      0.000105579     0.00548722      -0.0977254      0.00650961      1.00017         -0.0142243     
  6e+008          2.4002e-005     2.9112e-008     0.999213        -0.0243407      0.000154569     0.00653793      -0.0976912      0.00789617      0.999966        -0.017209      
  7e+008          2.4002e-005     2.9112e-008     0.998953        -0.0273319      0.00018458      0.00763278      -0.0976979      0.00948676      0.999983        -0.0200677     
  8e+008          2.4002e-005     2.9112e-008     0.998622        -0.0310152      0.000220009     0.00873134      -0.0980817      0.0111869       0.99986         -0.023013      
  9e+008          2.4002e-005     2.9112e-008     0.99855         -0.0351118      0.000323949     0.00982941      -0.0970967      0.01292         0.999638        -0.0259011     
  1e+009          2.4002e-005     2.9112e-008     0.998473        -0.0390239      0.000386813     0.0109194       -0.0981111      0.0143279       0.999821        -0.0287476     
  2e+009          2.4002e-005     2.9112e-008     0.995162        -0.0778633      0.00148866      0.0217592       -0.0943978      0.0288127       0.997668        -0.0572435     
  3e+009          2.4002e-005     2.9112e-008     0.990931        -0.116004       0.00330231      0.0324548       -0.0936093      0.0430335       0.994625        -0.0856323     
  4e+009          2.4002e-005     2.9112e-008     0.984324        -0.15389        0.00588087      0.0429885       -0.090859       0.057525        0.990742        -0.114006      
  5e+009          2.4002e-005     2.9112e-008     0.976153        -0.191612       0.00913305      0.0533582       -0.0858196      0.0714768       0.985212        -0.141942      
  6e+009          2.4002e-005     2.9112e-008     0.966701        -0.22817        0.0130186       0.0633938       -0.0803751      0.0848894       0.978676        -0.169634      
  7e+009          2.4002e-005     2.9112e-008     0.955186        -0.264588       0.0176839       0.073233        -0.0750928      0.0980397       0.971941        -0.195998      
  8e+009          2.4002e-005     2.9112e-008     0.942437        -0.299862       0.0227934       0.082561        -0.0685012      0.110698        0.963785        -0.222349      
  9e+009          2.4002e-005     2.9112e-008     0.928292        -0.335139       0.028662        0.0915557       -0.0612198      0.122731        0.955465        -0.248036      
  1e+010          2.4002e-005     2.9112e-008     0.912809        -0.36827        0.0350296       0.0999832       -0.0521865      0.134019        0.945963        -0.273395      
  1.1e+010        2.4002e-005     2.9112e-008     0.895959        -0.39985        0.0418704       0.108096        -0.0440204      0.145371        0.935636        -0.298427      
  1.2e+010        2.4002e-005     2.9112e-008     0.877377        -0.43144        0.0492744       0.115721        -0.0354374      0.155946        0.924283        -0.32285       
  1.3e+010        2.4002e-005     2.9112e-008     0.857773        -0.461792       0.0569317       0.122736        -0.0261813      0.165998        0.912668        -0.346407      
  1.4e+010        2.4002e-005     2.9112e-008     0.837424        -0.490709       0.0655363       0.129076        -0.0150894      0.174674        0.899656        -0.368578      
  1.5e+010        2.4002e-005     2.9112e-008     0.815359        -0.51852        0.0741908       0.13449         -0.00354345     0.181858        0.887059        -0.391073      
