! VERSION = 6.00
!Data measured by ggf on Tue Jan 23 12:06:34 2018 using model file NPN_MEAS_SCALE
BEGIN_HEADER
 ICCAP_INPUTS
  vc         V  C GROUND SMU_C 0.1 SYNC       1 0.25 vb
  ve         V  E GROUND SMU_E 0 CON        0
  vs         V  S GROUND SMU_S 0 CON        0
  freq       F  LIST       1 74 100000000 200000000 300000000 400000000 500000000 600000000 700000000 800000000 900000000 1000000000 2000000000 3000000000 4000000000 5000000000 6000000000 7000000000 8000000000 9000000000 10000000000 11000000000 12000000000 13000000000 14000000000 15000000000 16000000000 17000000000 18000000000 19000000000 20000000000 21000000000 22000000000 23000000000 24000000000 25000000000 26000000000 27000000000 28000000000 29000000000 30000000000 31000000000 32000000000 33000000000 34000000000 35000000000 36000000000 37000000000 38000000000 39000000000 40000000000 41000000000 42000000000 43000000000 44000000000 45000000000 46000000000 47000000000 48000000000 49000000000 50000000000 51000000000 52000000000 53000000000 54000000000 55000000000 56000000000 57000000000 58000000000 59000000000 60000000000 61000000000 62000000000 63000000000 64000000000 65000000000
  vb         V  B GROUND SMU_B 0.015 LIN        2    0.68       1.04       37   0.01      
 ICCAP_OUTPUTS
  ic         I  C GROUND SMU_C M
  ib         I  B GROUND SMU_B M
  S          S  B C GROUND NWA M
  S_deemb    S B C GROUND n/a B
 ICCAP_VALUES
  TNOM "27"
  TEMP "27"
  TECHNO "SG13G2"
  LOT "EDJ802"
  WAFER "02"
  CHIP "(3.3)"
  MODULE "S439S"
  DEV_NAME "D44"
  DEV_GEOM_L "0.9"
  DEV_GEOM_W "0.07"
  NUM_OF_TRANS_RF "1"
  REMARKS "Nx=8; Power -30/-20dBm, Slope: 0.1dB/GHz"
  TIMEDATE "Tue Jan 23 11:29:34     2018"
  OPERATOR "ggf"
END_HEADER

BEGIN_DB
 ICCAP_VAR vc         0.93           
 ICCAP_VAR ve         0              
 ICCAP_VAR vs         0              
 ICCAP_VAR vb         0.68           

 #freq            ic              ib              R:S(1,1)        I:S(1,1)        R:S(1,2)        I:S(1,2)        R:S(2,1)        I:S(2,1)        R:S(2,2)        I:S(2,2)        R:S_deemb(1,1)  I:S_deemb(1,1)  R:S_deemb(1,2)  I:S_deemb(1,2)  R:S_deemb(2,1)  I:S_deemb(2,1)  R:S_deemb(2,2)  I:S_deemb(2,2) 
  1e+008          1.6578e-005     2.1902e-008     0.9997          -0.00324099     3.87505e-005    0.00109765      -0.069669       0.000347541     1.00024         -0.00209114     1.00007         -0.0022683      5.63966e-005    0.000930796     -0.0694649      0.000155218     1.00032         -0.00059894    
  2e+008          1.6578e-005     2.1902e-008     1.00008         -0.00701983     5.1893e-006     0.00205624      -0.0676919      0.00178654      1.00019         -0.00493041     1.00008         -0.00460918     1.12832e-005    0.00179525      -0.0676943      0.00126394      1.00035         -0.00246667    
  3e+008          1.6578e-005     2.1902e-008     1.00009         -0.010622       8.81196e-005    0.00314755      -0.0681226      0.00302623      1.00025         -0.00743045     1.00028         -0.00775067     5.25153e-005    0.00271604      -0.068142       0.00237186      1.00034         -0.00362584    
  4e+008          1.6578e-005     2.1902e-008     1.00018         -0.014335       5.55374e-005    0.00418937      -0.0670165      0.00439182      1.00012         -0.0100553      0.999854        -0.00947216     6.07609e-005    0.00362076      -0.0670599      0.00344898      1.00039         -0.00490743    
  5e+008          1.6578e-005     2.1902e-008     1.00013         -0.0185797      9.30578e-005    0.00525832      -0.0677749      0.00585131      1.00012         -0.0127146      1.0001          -0.0125048      4.55815e-005    0.00454237      -0.0678131      0.00482155      1.00029         -0.00643189    
  6e+008          1.6578e-005     2.1902e-008     0.999868        -0.0223976      0.000120502     0.00630066      -0.0677911      0.00699724      1.0001          -0.015372       0.999649        -0.0149222      6.09694e-005    0.00544515      -0.0678798      0.00576077      1.00025         -0.00782067    
  7e+008          1.6578e-005     2.1902e-008     0.999802        -0.0251542      0.000161055     0.0073624       -0.0677362      0.00854666      1               -0.0179975      0.999747        -0.0164506      8.9485e-005     0.00636142      -0.0678276      0.00689991      1.00034         -0.00910698    
  8e+008          1.6578e-005     2.1902e-008     0.999614        -0.028827       0.000180528     0.00840133      -0.0678961      0.00978714      0.999863        -0.0205981      0.999547        -0.0186387      7.03099e-005    0.00727293      -0.0679596      0.00801788      1.00019         -0.0104974     
  9e+008          1.6578e-005     2.1902e-008     0.999664        -0.0323421      0.000274388     0.00944549      -0.0672774      0.0112746       0.999907        -0.0231705      0.999693        -0.0211824      0.000139336     0.00817631      -0.0674462      0.00920974      1.00035         -0.01174       
  1e+009          1.6578e-005     2.1902e-008     0.999289        -0.0360724      0.0003221       0.0104673       -0.0678775      0.0126858       0.999655        -0.0258833      0.999534        -0.023517       0.000158004     0.00908489      -0.0681983      0.0103772       1.00014         -0.013225      
  2e+009          1.6578e-005     2.1902e-008     0.996997        -0.0719015      0.00133817      0.020905        -0.0652018      0.0254202       0.998068        -0.0515244      0.998544        -0.0468707      0.000703673     0.018173        -0.0660292      0.0208991       0.999527        -0.0262586     
  3e+009          1.6578e-005     2.1902e-008     0.99302         -0.107809       0.00292606      0.0312756       -0.0643751      0.0377516       0.995508        -0.0770766      0.996686        -0.0701185      0.00149371      0.0271954       -0.0661525      0.0311089       0.998504        -0.0394512     
  4e+009          1.6578e-005     2.1902e-008     0.987628        -0.14331        0.0052102       0.0414482       -0.0620619      0.0507063       0.991955        -0.102128       0.994192        -0.0936128      0.00268704      0.0362011       -0.0651751      0.0420426       0.996905        -0.0522232     
  5e+009          1.6578e-005     2.1902e-008     0.980491        -0.178378       0.00809553      0.051581        -0.0579759      0.0630277       0.987738        -0.127081       0.990725        -0.116933       0.00416651      0.0452579       -0.0627148      0.0525338       0.995201        -0.064982      
  6e+009          1.6578e-005     2.1902e-008     0.972082        -0.21239        0.0116048       0.0613364       -0.0535785      0.0749357       0.982698        -0.151649       0.986648        -0.140185       0.00603408      0.0541025       -0.0602985      0.0626852       0.993099        -0.0773737     
  7e+009          1.6578e-005     2.1902e-008     0.961809        -0.246836       0.0157426       0.0710298       -0.0491011      0.0867871       0.976832        -0.175882       0.981882        -0.161653       0.008185        0.0630093       -0.0582951      0.0731013       0.990801        -0.0896918     
  8e+009          1.6578e-005     2.1902e-008     0.95067         -0.279485       0.0204657       0.0802096       -0.0437388      0.0982193       0.970352        -0.199672       0.976175        -0.184371       0.0107703       0.0716316       -0.0555816      0.0832592       0.988356        -0.102103      
  9e+009          1.6578e-005     2.1902e-008     0.938425        -0.312552       0.025743        0.0891686       -0.0374642      0.109091        0.963151        -0.223248       0.970788        -0.208025       0.0136718       0.0803183       -0.0520588      0.0932709       0.985761        -0.114196      
  1e+010          1.6578e-005     2.1902e-008     0.924461        -0.344312       0.0315169       0.0976108       -0.0301102      0.119726        0.955013        -0.246382       0.963656        -0.228315       0.0168084       0.088694        -0.0479208      0.103057        0.982724        -0.126285      
  1.1e+010        1.6578e-005     2.1902e-008     0.909265        -0.375338       0.0377045       0.105775        -0.0234254      0.129538        0.946576        -0.269248       0.956467        -0.25102        0.0201881       0.0970875       -0.0446932      0.112466        0.979552        -0.138375      
  1.2e+010        1.6578e-005     2.1902e-008     0.893016        -0.404644       0.0445557       0.113569        -0.0155214      0.139458        0.937006        -0.291454       0.948311        -0.271786       0.0240719       0.10536         -0.040642       0.122434        0.975942        -0.150254      
  1.3e+010        1.6578e-005     2.1902e-008     0.875583        -0.434099       0.0516401       0.120775        -0.0077634      0.148754        0.92676         -0.312913       0.939687        -0.29337        0.0280604       0.113463        -0.0367044      0.132021        0.972191        -0.162086      
  1.4e+010        1.6578e-005     2.1902e-008     0.856982        -0.46185        0.0594872       0.127457        0.00151714      0.157252        0.916014        -0.333961       0.930382        -0.314118       0.0327202       0.121471        -0.0313592      0.141386        0.968037        -0.173509      
  1.5e+010        1.6578e-005     2.1902e-008     0.838183        -0.488444       0.0674803       0.133372        0.0118553       0.163946        0.905485        -0.354329       0.920381        -0.334357       0.0376267       0.128957        -0.0247209      0.149645        0.964164        -0.184648      
  1.6e+010        1.6578e-005     2.1902e-008     0.81808         -0.513738       0.0755546       0.138936        0.0207428       0.171334        0.894121        -0.374329       0.909893        -0.354036       0.0426022       0.136321        -0.0196371      0.158366        0.959583        -0.195993      
  1.7e+010        1.6578e-005     2.1902e-008     0.797477        -0.538001       0.0842246       0.143834        0.0311676       0.176998        0.881289        -0.393529       0.898576        -0.372889       0.0481462       0.143434        -0.0130926      0.166087        0.954673        -0.2073        
  1.8e+010        1.6578e-005     2.1902e-008     0.776328        -0.561349       0.0925853       0.148102        0.0407617       0.183115        0.869082        -0.412847       0.887406        -0.391923       0.0534827       0.150245        -0.00728249     0.174552        0.950115        -0.218435      
  1.9e+010        1.6578e-005     2.1902e-008     0.754556        -0.583217       0.10099         0.152141        0.0512497       0.188508        0.856588        -0.431342       0.875664        -0.409578       0.0588679       0.157066        -0.00087783     0.182563        0.944992        -0.228593      
  2e+010          1.6578e-005     2.1902e-008     0.732627        -0.604082       0.109772        0.155429        0.0604501       0.192233        0.843471        -0.447796       0.863395        -0.427639       0.064985        0.163297        0.00519533      0.189035        0.939664        -0.239019      
  2.1e+010        1.6578e-005     2.1902e-008     0.710227        -0.623614       0.118373        0.158189        0.0709239       0.197299        0.828275        -0.463175       0.851094        -0.444793       0.0711753       0.169483        0.012184        0.197664        0.93363         -0.249623      
  2.2e+010        1.6578e-005     2.1902e-008     0.687593        -0.641945       0.127508        0.160708        0.0815668       0.199597        0.813803        -0.480005       0.837887        -0.461101       0.0777811       0.175681        0.0196508       0.203752        0.928846        -0.259431      
  2.3e+010        1.6578e-005     2.1902e-008     0.664937        -0.658937       0.136235        0.162063        0.0915629       0.20257         0.802413        -0.498629       0.825138        -0.476737       0.084094        0.180803        0.0264387       0.210315        0.923525        -0.269636      
  2.4e+010        1.6578e-005     2.1902e-008     0.642342        -0.676034       0.14401         0.163451        0.101505        0.204606        0.79536         -0.506999       0.811809        -0.492598       0.0899835       0.184945        0.0340305       0.215474        0.918276        -0.275118      
  2.5e+010        1.6578e-005     2.1902e-008     0.617847        -0.691766       0.152878        0.166515        0.111235        0.20805         0.794835        -0.514696       0.797708        -0.507786       0.0966555       0.190043        0.0415134       0.22096         0.912398        -0.284737      
  2.6e+010        1.6578e-005     2.1902e-008     0.595373        -0.706133       0.164234        0.16545         0.123913        0.208661        0.770913        -0.539732       0.784307        -0.522433       0.105335        0.194391        0.0503637       0.227282        0.901128        -0.295962      
  2.7e+010        1.6578e-005     2.1902e-008     0.571605        -0.719765       0.171797        0.164977        0.133543        0.20947         0.739111        -0.554438       0.769459        -0.53669        0.111947        0.200113        0.0575936       0.2345          0.895981        -0.308051      
  2.8e+010        1.6578e-005     2.1902e-008     0.548091        -0.73153        0.180583        0.164067        0.143762        0.207799        0.717291        -0.575437       0.754299        -0.549597       0.118973        0.205555        0.0655619       0.238846        0.890351        -0.319804      
  2.9e+010        1.6578e-005     2.1902e-008     0.525812        -0.743808       0.187213        0.163213        0.151438        0.20807         0.705945        -0.587361       0.741124        -0.563152       0.124593        0.209051        0.0712597       0.243941        0.885896        -0.32755       
  3e+010          1.6578e-005     2.1902e-008     0.502722        -0.753587       0.195041        0.163346        0.160955        0.208334        0.698325        -0.59608        0.726392        -0.575222       0.131513        0.212872        0.0796102       0.248378        0.880863        -0.334457      
  3.1e+010        1.6578e-005     2.1902e-008     0.479221        -0.764538       0.203138        0.161428        0.171605        0.207424        0.683683        -0.603544       0.710718        -0.588216       0.138986        0.215495        0.0883996       0.252721        0.873435        -0.340787      
  3.2e+010        1.6578e-005     2.1902e-008     0.45669         -0.7733         0.211671        0.159934        0.180899        0.204943        0.664889        -0.615057       0.696195        -0.599418       0.146862        0.219479        0.0972447       0.25645         0.865541        -0.35083       
  3.3e+010        1.6578e-005     2.1902e-008     0.433218        -0.781773       0.21953         0.158151        0.189527        0.204186        0.649686        -0.627828       0.68048         -0.610372       0.154156        0.223234        0.104428        0.260685        0.859229        -0.36004       
  3.4e+010        1.6578e-005     2.1902e-008     0.409212        -0.788746       0.227515        0.155515        0.19939         0.202183        0.637016        -0.637399       0.664728        -0.621123       0.162122        0.225745        0.113291        0.26471         0.853296        -0.367446      
  3.5e+010        1.6578e-005     2.1902e-008     0.387735        -0.795565       0.234588        0.152544        0.208552        0.199178        0.621664        -0.645818       0.649537        -0.631302       0.169486        0.227837        0.122682        0.267262        0.845212        -0.375393      
  3.6e+010        1.6578e-005     2.1902e-008     0.365334        -0.80132        0.241722        0.149423        0.216491        0.195651        0.604777        -0.653524       0.633686        -0.640456       0.177367        0.230097        0.130773        0.26996         0.838186        -0.38175       
  3.7e+010        1.6578e-005     2.1902e-008     0.344191        -0.805836       0.248676        0.145813        0.224097        0.192598        0.590279        -0.664768       0.618569        -0.649153       0.184972        0.231517        0.139239        0.272292        0.831005        -0.391317      
  3.8e+010        1.6578e-005     2.1902e-008     0.323198        -0.811274       0.255675        0.141977        0.233755        0.18916         0.576128        -0.672278       0.603531        -0.657342       0.192657        0.23299         0.148629        0.275007        0.824048        -0.397417      
  3.9e+010        1.6578e-005     2.1902e-008     0.299958        -0.815092       0.261263        0.138333        0.240706        0.184001        0.56246         -0.678382       0.586472        -0.66526        0.199653        0.234634        0.156798        0.275417        0.817916        -0.402221      
  4e+010          1.6578e-005     2.1902e-008     0.279508        -0.819345       0.267533        0.133929        0.24706         0.180137        0.544761        -0.686821       0.572438        -0.673813       0.207495        0.235379        0.164451        0.276944        0.807456        -0.410631      
  4.1e+010        1.6578e-005     2.1902e-008     0.258878        -0.8229         0.273374        0.129992        0.254873        0.177121        0.530802        -0.694975       0.556816        -0.682285       0.214452        0.236396        0.172348        0.279627        0.802483        -0.416797      
  4.2e+010        1.6578e-005     2.1902e-008     0.236807        -0.82348        0.279861        0.125105        0.262677        0.171404        0.516813        -0.701101       0.540922        -0.68788        0.222907        0.237652        0.182451        0.280719        0.798407        -0.423186      
  4.3e+010        1.6578e-005     2.1902e-008     0.217065        -0.826356       0.285089        0.11991         0.267992        0.166538        0.501407        -0.707232       0.52493         -0.694876       0.230749        0.237328        0.189751        0.280888        0.788849        -0.431439      
  4.4e+010        1.6578e-005     2.1902e-008     0.197684        -0.825957       0.289042        0.115396        0.274574        0.160989        0.486465        -0.713566       0.510651        -0.699627       0.237428        0.237332        0.198943        0.280701        0.781077        -0.43837       
  4.5e+010        1.6578e-005     2.1902e-008     0.176816        -0.827386       0.29482         0.111193        0.280664        0.1577          0.472752        -0.719044       0.494913        -0.705824       0.245066        0.238225        0.206421        0.283452        0.774257        -0.442196      
  4.6e+010        1.6578e-005     2.1902e-008     0.158817        -0.827142       0.299651        0.1054          0.2873          0.151695        0.458386        -0.724375       0.480789        -0.711285       0.252619        0.237083        0.216309        0.282573        0.766151        -0.449631      
  4.7e+010        1.6578e-005     2.1902e-008     0.139521        -0.82871        0.303601        0.100108        0.292583        0.146292        0.444249        -0.728563       0.465286        -0.718069       0.25979         0.236497        0.224394        0.28251         0.758355        -0.455412      
  4.8e+010        1.6578e-005     2.1902e-008     0.120452        -0.826699       0.307436        0.095827        0.296869        0.140258        0.431304        -0.734637       0.448957        -0.721392       0.266265        0.236684        0.231437        0.280953        0.752113        -0.459398      
