! VERSION = 6.00
BEGIN_HEADER
 ICCAP_INPUTS
  vd         V  D GROUND SMU1 0.1 LIN        1    -0         -3.6       37   -0.1      
  vg         V  G GROUND SMU2 0.001 LIN        2    -1.7       -3.6       5    -0.475    
  vb         V  B GROUND SMU4 0.1 CON        3.6
  vs         V  S GROUND SMU3 0.1 CON        -0
 ICCAP_OUTPUTS
  id         I  D GROUND SMU1 B
  ig         I  G GROUND SMU2 B
  ib         I  B GROUND SMU4 B
  is         I  S GROUND SMU3 B
 ICCAP_VALUES
  MASTER_SETUP_TYPE "~dc_idvd~"
  LINVT_VALUE "|idvg|100.0n|100.0m|1.000m|5|3.600|"
  LISTVT_VALUE ""
  TYPE "-1"
  TEMP "-40.0000 "
  IS_TNOM " 0.00000 "
  MAIN.W "300.0n"
  MAIN.L "350.0n"
  MAIN.AD "102.0f"
  MAIN.AS "102.0f"
  MAIN.PD "1.280u"
  MAIN.PS "1.280u"
  MAIN.NF "1.000"
  MAIN.M "1"
  MAIN.NRD "0.000"
  MAIN.NRS "0.000"
  MAIN.LDRIFT1 "1E-06"
  MAIN.LDRIFT2 "1E-06"
  MAIN.SA "0.000"
  MAIN.SB "0.000"
  MAIN.SD "0.000"
  MAIN.SCA "0.000"
  MAIN.SCB "0.000"
  MAIN.SCC "0.000"
  MAIN.SC "0.000"
  MODULE "S565"
  PIN_D "16"
  PIN_G "5"
  PIN_S "6"
  PIN_B "15"
  PIN_E ""
  PIN_6 ""
  XY_ID ""
  FUNC "Small"
  STI "SA ref"
  WPE "WPE ref"
  COMMENT ""
  DIS_MEAS ""
  TypeTCI "10"
END_HEADER

BEGIN_DB
 ICCAP_VAR vg         -1.7           
 ICCAP_VAR vb         3.6            
 ICCAP_VAR vs         -0             

 #vd                    id                    ig                    ib                    is                   
  -0                    7.318e-11             -3.4e-13              1.04e-12              -1.2086e-10          
  -0.1                  -1.574e-07            -6e-13                9.8e-13               1.5796e-07           
  -0.2                  -2.0412e-07           -1.8e-13              8.8e-13               2.0428e-07           
  -0.3                  -2.3412e-07           -2e-13                8.8e-13               2.3372e-07           
  -0.4                  -2.5948e-07           1.4e-13               8.2e-13               2.5976e-07           
  -0.5                  -2.8268e-07           -5.8e-13              8.2e-13               2.829e-07            
  -0.6                  -3.0478e-07           1.6e-13               7.8e-13               3.0534e-07           
  -0.7                  -3.2686e-07           2e-14                 8e-13                 3.2744e-07           
  -0.8                  -3.4812e-07           -5.2e-13              8.2e-13               3.4818e-07           
  -0.9                  -3.6956e-07           -8e-14                7.6e-13               3.6942e-07           
  -1                    -3.8988e-07           -2e-14                6.8e-13               3.9028e-07           
  -1.1                  -4.118e-07            -1.2e-13              6.6e-13               4.1194e-07           
  -1.2                  -4.3246e-07           -3.8e-13              6.4e-13               4.333e-07            
  -1.3                  -4.554e-07            0                     5.8e-13               4.5592e-07           
  -1.4                  -4.7778e-07           -2e-13                6.6e-13               4.7826e-07           
  -1.5                  -5.0098e-07           -1.6e-13              6.2e-13               5.0074e-07           
  -1.6                  -5.2352e-07           8e-14                 5.4e-13               5.236e-07            
  -1.7                  -5.4672e-07           -4.8e-13              5.4e-13               5.47e-07             
  -1.8                  -5.7034e-07           2.6e-13               5.4e-13               5.7046e-07           
  -1.9                  -5.9426e-07           -1.8e-13              4.8e-13               5.9436e-07           
  -2                    -6.197e-07            -6e-14                6.4e-13               6.204e-07            
  -2.1                  -6.4338e-07           -4e-13                7e-13                 6.432e-07            
  -2.2                  -6.6812e-07           3.2e-13               9.4e-13               6.6864e-07           
  -2.3                  -6.9398e-07           8e-14                 1.64e-12              6.949e-07            
  -2.4                  -7.2164e-07           -2.8e-13              2.94e-12              7.2152e-07           
  -2.5                  -7.484e-07            8e-14                 5.58e-12              7.5034e-07           
  -2.6                  -7.7822e-07           -8e-14                1.098e-11             7.7476e-07           
  -2.7                  -8.0488e-07           -8e-14                2.148e-11             8.0628e-07           
  -2.8                  -8.3492e-07           -1.4e-13              4.116e-11             8.3506e-07           
  -2.9                  -8.6466e-07           -1.4e-13              7.652e-11             8.646e-07            
  -3                    -8.9624e-07           -1.8e-13              1.3898e-10            8.95e-07             
  -3.1                  -9.2578e-07           2.2e-13               2.465e-10             9.2556e-07           
  -3.2                  -9.5614e-07           2e-14                 4.2658e-10            9.5498e-07           
  -3.3                  -9.9026e-07           -1.8e-13              7.231e-10             9.8754e-07           
  -3.4                  -1.02278e-06          -1.8e-13              1.2012e-09            1.0238e-06           
  -3.5                  -1.05784e-06          -6e-14                1.9528e-09            1.0578e-06           
  -3.6                  -1.09484e-06          -2.2e-13              3.1168e-09            1.0946e-06           
END_DB

BEGIN_DB
 ICCAP_VAR vg         -2.175         
 ICCAP_VAR vb         3.6            
 ICCAP_VAR vs         -0             

 #vd                    id                    ig                    ib                    is                   
  -0                    9.45e-10              -4.4e-13              1.6e-13               -9.0516e-10          
  -0.1                  -2.5326e-06           -2.8e-13              2e-13                 2.532e-06            
  -0.2                  -4.4436e-06           -8e-14                1.6e-13               4.4368e-06           
  -0.3                  -5.7958e-06           1.4e-13               6e-14                 5.8222e-06           
  -0.4                  -6.7258e-06           -3.2e-13              1e-13                 6.7384e-06           
  -0.5                  -7.333e-06            -2e-14                2.2e-13               7.359e-06            
  -0.6                  -7.7898e-06           -1e-13                3e-13                 7.7924e-06           
  -0.7                  -8.115e-06            1e-13                 2.8e-13               8.067e-06            
  -0.8                  -8.328e-06            0                     2.4e-13               8.3816e-06           
  -0.9                  -8.5626e-06           -2.8e-13              2.4e-13               8.5804e-06           
  -1                    -8.7402e-06           8e-14                 2.8e-13               8.7682e-06           
  -1.1                  -8.9748e-06           -1.8e-13              2.8e-13               8.9658e-06           
  -1.2                  -9.139e-06            1.8e-13               3e-13                 9.1042e-06           
  -1.3                  -9.3056e-06           -4.8e-13              2.8e-13               9.308e-06            
  -1.4                  -9.4468e-06           -6e-14                1.4e-13               9.4108e-06           
  -1.5                  -9.576e-06            2.2e-13               1.4e-13               9.6146e-06           
  -1.6                  -9.7012e-06           -3.2e-13              2.8e-13               9.6898e-06           
  -1.7                  -9.8424e-06           4e-14                 3.4e-13               9.9088e-06           
  -1.8                  -1.00404e-05          -3.2e-13              2.4e-13               1.00472e-05          
  -1.9                  -1.01818e-05          6e-14                 2.6e-13               1.01864e-05          
  -2                    -1.0285e-05           -1e-13                3e-13                 1.03218e-05          
  -2.1                  -1.04492e-05          -8e-14                4.6e-13               1.04328e-05          
  -2.2                  -1.0572e-05           2e-14                 6.2e-13               1.05782e-05          
  -2.3                  -1.065e-05            6e-14                 1.38e-12              1.07136e-05          
  -2.4                  -1.078e-05            1.2e-13               3.2e-12               1.08316e-05          
  -2.5                  -1.0954e-05           -6e-14                7.3e-12               1.09154e-05          
  -2.6                  -1.1086e-05           1.2e-13               1.654e-11             1.10988e-05          
  -2.7                  -1.1196e-05           -2e-14                3.516e-11             1.1217e-05           
  -2.8                  -1.131e-05            1.2e-13               7.344e-11             1.13312e-05          
  -2.9                  -1.1464e-05           1.4e-13               1.4652e-10            1.14658e-05          
  -3                    -1.158e-05            0                     2.8036e-10            1.1536e-05           
  -3.1                  -1.1728e-05           -6e-14                5.253e-10             1.1696e-05           
  -3.2                  -1.1826e-05           2e-14                 9.5756e-10            1.1802e-05           
  -3.3                  -1.1848e-05           2.8e-13               1.691e-09             1.1904e-05           
  -3.4                  -1.204e-05            1e-13                 2.9314e-09            1.2066e-05           
  -3.5                  -1.2176e-05           1.4e-13               4.9992e-09            1.214e-05            
  -3.6                  -1.2212e-05           -3e-13                8.4446e-09            1.2212e-05           
END_DB

BEGIN_DB
 ICCAP_VAR vg         -2.65          
 ICCAP_VAR vb         3.6            
 ICCAP_VAR vs         -0             

 #vd                    id                    ig                    ib                    is                   
  -0                    1.2002e-09            -1.2e-13              6e-14                 -1.1266e-09          
  -0.1                  -4.6054e-06           -4e-13                4e-14                 4.6104e-06           
  -0.2                  -8.6822e-06           -3.6e-13              1e-13                 8.682e-06            
  -0.3                  -1.2156e-05           -1.6e-13              4e-14                 1.2164e-05           
  -0.4                  -1.5012e-05           8e-14                 1.4e-13               1.5026e-05           
  -0.5                  -1.7336e-05           -2e-13                1.4e-13               1.7342e-05           
  -0.6                  -1.9158e-05           2e-14                 1.2e-13               1.917e-05            
  -0.7                  -2.0556e-05           -3.4e-13              4e-14                 2.0586e-05           
  -0.8                  -2.1658e-05           -1e-13                2e-13                 2.1668e-05           
  -0.9                  -2.2504e-05           0                     1e-13                 2.2526e-05           
  -1                    -2.3172e-05           2e-14                 6e-14                 2.3194e-05           
  -1.1                  -2.3736e-05           1e-13                 1.6e-13               2.3742e-05           
  -1.2                  -2.419e-05            -3.2e-13              2.2e-13               2.4214e-05           
  -1.3                  -2.46e-05             -4e-14                2e-13                 2.4618e-05           
  -1.4                  -2.4956e-05           6e-14                 1.6e-13               2.4972e-05           
  -1.5                  -2.5286e-05           3e-13                 1.2e-13               2.53e-05             
  -1.6                  -2.5596e-05           -3.2e-13              8e-14                 2.559e-05            
  -1.7                  -2.5864e-05           8e-14                 1.6e-13               2.5898e-05           
  -1.8                  -2.614e-05            1.6e-13               2.4e-13               2.6154e-05           
  -1.9                  -2.6406e-05           -1e-13                1.2e-13               2.6422e-05           
  -2                    -2.666e-05            -1.4e-13              1.6e-13               2.6672e-05           
  -2.1                  -2.69e-05             1.2e-13               2.2e-13               2.692e-05            
  -2.2                  -2.7138e-05           6e-14                 3.4e-13               2.7154e-05           
  -2.3                  -2.7366e-05           8e-14                 6.4e-13               2.739e-05            
  -2.4                  -2.7592e-05           -1.8e-13              1.16e-12              2.761e-05            
  -2.5                  -2.7812e-05           2e-14                 2.5e-12               2.7834e-05           
  -2.6                  -2.8024e-05           -3.6e-13              6.1e-12               2.805e-05            
  -2.7                  -2.8236e-05           -1.2e-13              1.382e-11             2.8256e-05           
  -2.8                  -2.8454e-05           2.2e-13               3.02e-11              2.8464e-05           
  -2.9                  -2.8662e-05           -2e-13                6.396e-11             2.8664e-05           
  -3                    -2.8856e-05           -2e-13                1.3042e-10            2.8878e-05           
  -3.1                  -2.9054e-05           2.8e-13               2.5634e-10            2.9068e-05           
  -3.2                  -2.9252e-05           0                     4.9112e-10            2.9298e-05           
  -3.3                  -2.947e-05            4.4e-13               9.1328e-10            2.9472e-05           
  -3.4                  -2.9632e-05           1e-13                 1.6448e-09            2.9614e-05           
  -3.5                  -2.9746e-05           -6e-14                2.9204e-09            2.9784e-05           
  -3.6                  -2.9988e-05           8e-14                 5.0882e-09            2.9954e-05           
END_DB

BEGIN_DB
 ICCAP_VAR vg         -3.125         
 ICCAP_VAR vb         3.6            
 ICCAP_VAR vs         -0             

 #vd                    id                    ig                    ib                    is                   
  -0                    1.5266e-09            -2.8e-13              6e-14                 -1.452e-09           
  -0.1                  -6.2276e-06           -2.2e-13              -8e-14                6.2332e-06           
  -0.2                  -1.199e-05            -1.6e-13              2e-14                 1.2008e-05           
  -0.3                  -1.7212e-05           -2e-14                8e-14                 1.7226e-05           
  -0.4                  -2.1824e-05           0                     8e-14                 2.1842e-05           
  -0.5                  -2.586e-05            -1.2e-13              1.4e-13               2.5874e-05           
  -0.6                  -2.9324e-05           -1.2e-13              6e-14                 2.934e-05            
  -0.7                  -3.2256e-05           -3.6e-13              1.2e-13               3.227e-05            
  -0.8                  -3.4726e-05           -2e-13                1.2e-13               3.473e-05            
  -0.9                  -3.6776e-05           -4e-14                1.6e-13               3.6788e-05           
  -1                    -3.8468e-05           -3.4e-13              1.4e-13               3.846e-05            
  -1.1                  -3.985e-05            -2.4e-13              1.2e-13               3.9872e-05           
  -1.2                  -4.1006e-05           -2.4e-13              8e-14                 4.1026e-05           
  -1.3                  -4.198e-05            -2e-14                6e-14                 4.1984e-05           
  -1.4                  -4.2788e-05           -2e-14                1.8e-13               4.2806e-05           
  -1.5                  -4.349e-05            -2e-13                2.2e-13               4.3508e-05           
  -1.6                  -4.4102e-05           -1e-13                1.8e-13               4.4118e-05           
  -1.7                  -4.4652e-05           -4.6e-13              1.6e-13               4.466e-05            
  -1.8                  -4.5148e-05           0                     8e-14                 4.5164e-05           
  -1.9                  -4.5604e-05           2.2e-13               2e-13                 4.5618e-05           
  -2                    -4.6022e-05           8e-14                 1.6e-13               4.604e-05            
  -2.1                  -4.6426e-05           2e-13                 1.6e-13               4.644e-05            
  -2.2                  -4.6804e-05           8e-14                 1.4e-13               4.682e-05            
  -2.3                  -4.7164e-05           0                     2e-13                 4.7182e-05           
  -2.4                  -4.7508e-05           -3.6e-13              2.8e-13               4.7532e-05           
  -2.5                  -4.784e-05            -1.8e-13              5.8e-13               4.7852e-05           
  -2.6                  -4.8158e-05           -2.8e-13              1.54e-12              4.8178e-05           
  -2.7                  -4.8472e-05           6e-14                 3.86e-12              4.8484e-05           
  -2.8                  -4.877e-05            3.2e-13               8.94e-12              4.8786e-05           
  -2.9                  -4.9058e-05           -4e-14                2.014e-11             4.9068e-05           
  -3                    -4.9344e-05           -4.4e-13              4.328e-11             4.9364e-05           
  -3.1                  -4.9622e-05           -2.8e-13              8.968e-11             4.9638e-05           
  -3.2                  -4.989e-05            6e-14                 1.7918e-10            4.9906e-05           
  -3.3                  -5.0162e-05           -6e-14                3.4802e-10            5.0176e-05           
  -3.4                  -5.0414e-05           -8e-14                6.6258e-10            5.0416e-05           
  -3.5                  -5.0638e-05           -6e-14                1.2326e-09            5.0672e-05           
  -3.6                  -5.0896e-05           -2e-14                2.2348e-09            5.0906e-05           
END_DB

BEGIN_DB
 ICCAP_VAR vg         -3.6           
 ICCAP_VAR vb         3.6            
 ICCAP_VAR vs         -0             

 #vd                    id                    ig                    ib                    is                   
  -0                    1.5358e-09            -3.2e-13              2e-14                 -1.4854e-09          
  -0.1                  -7.5514e-06           -3.4e-13              0                     7.5562e-06           
  -0.2                  -1.469e-05            -5e-13                0                     1.471e-05            
  -0.3                  -2.1322e-05           -5.4e-13              -6e-14                2.1338e-05           
  -0.4                  -2.7378e-05           -2.6e-13              1.4e-13               2.7402e-05           
  -0.5                  -3.2876e-05           0                     8e-14                 3.2882e-05           
  -0.6                  -3.7786e-05           -2.8e-13              6e-14                 3.78e-05             
  -0.7                  -4.214e-05            -4e-14                2e-14                 4.2146e-05           
  -0.8                  -4.5972e-05           -1.4e-13              1e-13                 4.599e-05            
