! VERSION = 6.00
BEGIN_HEADER
 ICCAP_INPUTS
  vd         V  D GROUND SMU1 0.1 LIN        1    -0         -3.6       37   -0.1      
  vg         V  G GROUND SMU2 0.001 LIN        2    -0.72      -3.6       5    -0.72     
  vb         V  B GROUND SMU4 0.1 CON        -0
  vs         V  S GROUND SMU3 0.1 CON        -0
 ICCAP_OUTPUTS
  id         I  D GROUND SMU1 B
  ig         I  G GROUND SMU2 B
  ib         I  B GROUND SMU4 B
  is         I  S GROUND SMU3 B
 ICCAP_VALUES
  MASTER_SETUP_TYPE "~dc_idvd~"
  LINVT_VALUE "|idvg|100.0n|100.0m|1.000m|5|3.600|"
  LISTVT_VALUE ""
  TYPE "-1"
  TEMP " 27.0000 "
  IS_TNOM " 1.00000 "
  MAIN.W "2.000u"
  MAIN.L "330.0n"
  MAIN.AD "680.0f"
  MAIN.AS "680.0f"
  MAIN.PD "4.680u"
  MAIN.PS "4.680u"
  MAIN.NF "1.000"
  MAIN.M "1"
  MAIN.NRD "0.000"
  MAIN.NRS "0.000"
  MAIN.LDRIFT1 "1E-06"
  MAIN.LDRIFT2 "1E-06"
  MAIN.SA "0.000"
  MAIN.SB "0.000"
  MAIN.SD "0.000"
  MAIN.SCA "0.000"
  MAIN.SCB "0.000"
  MAIN.SCC "0.000"
  MAIN.SC "0.000"
  MODULE "S563"
  PIN_D "18"
  PIN_G "3"
  PIN_S "4"
  PIN_B "17"
  PIN_E ""
  PIN_6 ""
  XY_ID ""
  FUNC "Additional"
  STI "SA ref"
  WPE "WPE ref"
  COMMENT ""
  DIS_MEAS ""
  TypeTCI "10"
END_HEADER

BEGIN_DB
 ICCAP_VAR vg         -0.72          
 ICCAP_VAR vb         -0             
 ICCAP_VAR vs         -0             

 #vd                    id                    ig                    ib                    is                   
  -0                    1.5176e-09            -1.4e-13              -9e-13                -1.6868e-09          
  -0.1                  -1.7582e-06           1.8e-13               -8.4e-13              1.7562e-06           
  -0.2                  -2.0872e-06           -4e-14                -8.8e-13              2.0898e-06           
  -0.3                  -2.2116e-06           4e-14                 -9.4e-13              2.216e-06            
  -0.4                  -2.2944e-06           6e-14                 -7e-13                2.2988e-06           
  -0.5                  -2.363e-06            1.2e-13               -6.8e-13              2.367e-06            
  -0.6                  -2.4232e-06           1e-13                 -7e-13                2.4272e-06           
  -0.7                  -2.4758e-06           2.6e-13               -7.4e-13              2.4812e-06           
  -0.8                  -2.529e-06            1.8e-13               -6e-13                2.5334e-06           
  -0.9                  -2.5768e-06           1.8e-13               -6.4e-13              2.5816e-06           
  -1                    -2.6224e-06           1e-13                 -5.4e-13              2.6258e-06           
  -1.1                  -2.6656e-06           1e-13                 -5.6e-13              2.669e-06            
  -1.2                  -2.7084e-06           1.2e-13               -6e-13                2.7124e-06           
  -1.3                  -2.7498e-06           1.4e-13               -5.6e-13              2.7534e-06           
  -1.4                  -2.7904e-06           8e-14                 -5.8e-13              2.791e-06            
  -1.5                  -2.8278e-06           1.6e-13               -4.4e-13              2.8348e-06           
  -1.6                  -2.8718e-06           1.2e-13               -3.2e-13              2.8748e-06           
  -1.7                  -2.911e-06            1.8e-13               -8e-14                2.9146e-06           
  -1.8                  -2.948e-06            1.6e-13               4.6e-13               2.9556e-06           
  -1.9                  -2.9906e-06           1.8e-13               2.06e-12              2.9938e-06           
  -2                    -3.0284e-06           1.4e-13               5.34e-12              3.0326e-06           
  -2.1                  -3.07e-06             1.2e-13               1.158e-11             3.073e-06            
  -2.2                  -3.1074e-06           1.4e-13               2.302e-11             3.116e-06            
  -2.3                  -3.151e-06            1.2e-13               4.444e-11             3.1558e-06           
  -2.4                  -3.1998e-06           8e-14                 8.158e-11             3.2038e-06           
  -2.5                  -3.2392e-06           2e-14                 1.4494e-10            3.243e-06            
  -2.6                  -3.2796e-06           1.8e-13               2.5002e-10            3.2834e-06           
  -2.7                  -3.3196e-06           1e-13                 4.206e-10             3.3234e-06           
  -2.8                  -3.3604e-06           1.2e-13               6.9016e-10            3.3594e-06           
  -2.9                  -3.3986e-06           1.2e-13               1.11056e-09           3.402e-06            
  -3                    -3.4608e-06           1.8e-13               1.7516e-09            3.4628e-06           
  -3.1                  -3.5026e-06           1e-13                 2.7052e-09            3.5042e-06           
  -3.2                  -3.55e-06             2e-13                 4.107e-09             3.551e-06            
  -3.3                  -3.5952e-06           1e-13                 6.1028e-09            3.5954e-06           
  -3.4                  -3.6452e-06           1e-13                 8.9274e-09            3.6488e-06           
  -3.5                  -3.7136e-06           1.4e-13               1.289e-08             3.7156e-06           
  -3.6                  -3.7838e-06           1.2e-13               1.8334e-08            3.7718e-06           
END_DB

BEGIN_DB
 ICCAP_VAR vg         -1.44          
 ICCAP_VAR vb         -0             
 ICCAP_VAR vs         -0             

 #vd                    id                    ig                    ib                    is                   
  -0                    1.425e-08             -3.4e-13              -4.4e-13              -1.355e-08           
  -0.1                  -2.2772e-05           -2.6e-13              -3.6e-13              2.2792e-05           
  -0.2                  -4.1646e-05           -1.2e-13              -2e-13                4.167e-05            
  -0.3                  -5.6454e-05           -2.6e-13              -1.6e-13              5.6474e-05           
  -0.4                  -6.7308e-05           -2.2e-13              -2.2e-13              6.7328e-05           
  -0.5                  -7.4752e-05           -4e-14                -1.2e-13              7.4768e-05           
  -0.6                  -7.9572e-05           -6e-14                -2e-13                7.9594e-05           
  -0.7                  -8.268e-05            0                     -2.6e-13              8.2694e-05           
  -0.8                  -8.479e-05            -2e-14                -1.2e-13              8.4808e-05           
  -0.9                  -8.635e-05            -1.4e-13              -1.4e-13              8.6368e-05           
  -1                    -8.7586e-05           -6e-14                -1.4e-13              8.7608e-05           
  -1.1                  -8.8626e-05           1e-13                 -1.2e-13              8.865e-05            
  -1.2                  -8.9538e-05           -6e-14                -3.2e-13              8.9556e-05           
  -1.3                  -9.0348e-05           -1e-13                -1.8e-13              9.037e-05            
  -1.4                  -9.1088e-05           -8e-14                -1.4e-13              9.1112e-05           
  -1.5                  -9.1766e-05           -2e-14                -2.2e-13              9.179e-05            
  -1.6                  -9.2406e-05           4e-14                 -2.6e-13              9.2426e-05           
  -1.7                  -9.3006e-05           -6e-14                -1.8e-13              9.303e-05            
  -1.8                  -9.357e-05            -4e-14                1e-13                 9.3592e-05           
  -1.9                  -9.4118e-05           -1e-13                7.6e-13               9.4146e-05           
  -2                    -9.4658e-05           0                     2.72e-12              9.4678e-05           
  -2.1                  -9.5172e-05           -4e-14                7.82e-12              9.519e-05            
  -2.2                  -9.567e-05            -1e-13                2.068e-11             9.569e-05            
  -2.3                  -9.6156e-05           -4e-14                4.992e-11             9.6184e-05           
  -2.4                  -9.6632e-05           -1.4e-13              1.119e-10             9.6666e-05           
  -2.5                  -9.7114e-05           -2e-14                2.3614e-10            9.714e-05            
  -2.6                  -9.7584e-05           0                     4.7364e-10            9.7634e-05           
  -2.7                  -9.808e-05            -2e-14                9.0814e-10            9.8098e-05           
  -2.8                  -9.8598e-05           -4e-14                1.6758e-09            9.8618e-05           
  -2.9                  -9.9048e-05           2e-14                 2.9978e-09            9.8996e-05           
  -3                    -9.9432e-05           1e-13                 5.2118e-09            9.9446e-05           
  -3.1                  -9.9886e-05           4e-14                 8.8204e-09            9.9946e-05           
  -3.2                  -0.000100408          -4e-14                1.4602e-08            0.00010058           
  -3.3                  -0.00010085           0                     2.3676e-08            0.00010102           
  -3.4                  -0.000101314          1e-13                 3.7472e-08            0.00010148           
  -3.5                  -0.0001018            4e-14                 5.8336e-08            0.00010196           
  -3.6                  -0.000102316          2e-14                 8.9172e-08            0.00010242           
END_DB

BEGIN_DB
 ICCAP_VAR vg         -2.16          
 ICCAP_VAR vb         -0             
 ICCAP_VAR vs         -0             

 #vd                    id                    ig                    ib                    is                   
  -0                    2.3062e-08            -4.8e-13              -6e-14                -2.2932e-08          
  -0.1                  -3.7384e-05           -3.2e-13              -2.2e-13              3.7408e-05           
  -0.2                  -7.176e-05            -1.6e-13              -1.4e-13              7.1762e-05           
  -0.3                  -0.000102724          0                     -1.6e-13              0.000102758          
  -0.4                  -0.00012996           -2.4e-13              0                     0.00013032           
  -0.5                  -0.00015382           -1.8e-13              -8e-14                0.00015422           
  -0.6                  -0.00017414           -2e-13                -6e-14                0.0001745            
  -0.7                  -0.000191             0                     -1e-13                0.00019138           
  -0.8                  -0.00020478           -2.4e-13              -1.6e-13              0.00020518           
  -0.9                  -0.00021586           -4e-14                -8e-14                0.00021622           
  -1                    -0.00022452           -1.4e-13              -2e-14                0.0002248            
  -1.1                  -0.00023122           -1e-13                6e-14                 0.0002316            
  -1.2                  -0.00023656           -1.8e-13              4e-14                 0.00023694           
  -1.3                  -0.00024076           4e-14                 8e-14                 0.00024106           
  -1.4                  -0.00024414           -1e-13                0                     0.00024442           
  -1.5                  -0.00024698           -2e-14                8e-14                 0.00024732           
  -1.6                  -0.00024948           0                     0                     0.00024986           
  -1.7                  -0.00025158           2e-14                 -1.2e-13              0.00025196           
  -1.8                  -0.00025342           0                     -4e-14                0.00025376           
  -1.9                  -0.00025516           -8e-14                -2e-14                0.00025556           
  -2                    -0.00025672           0                     2e-14                 0.0002571            
  -2.1                  -0.00025808           -6e-14                3.4e-13               0.0002585            
  -2.2                  -0.00025936           -2e-14                1.42e-12              0.00025982           
  -2.3                  -0.00026068           -1.4e-13              4.48e-12              0.00026096           
  -2.4                  -0.00026186           -4e-14                1.216e-11             0.00026212           
  -2.5                  -0.00026296           -2e-14                3.102e-11             0.00026334           
  -2.6                  -0.00026408           -2e-14                7.346e-11             0.00026436           
  -2.7                  -0.00026508           -6e-14                1.632e-10             0.00026546           
  -2.8                  -0.00026608           -8e-14                3.4486e-10            0.00026646           
  -2.9                  -0.00026704           -8e-14                6.957e-10             0.00026738           
  -3                    -0.00026802           0                     1.3462e-09            0.00026838           
  -3.1                  -0.00026894           -4e-14                2.5136e-09            0.00026928           
  -3.2                  -0.0002698            6e-14                 4.5542e-09            0.0002702            
  -3.3                  -0.00027074           -1e-13                8.0214e-09            0.0002711            
  -3.4                  -0.0002717            0                     1.376e-08             0.000272             
  -3.5                  -0.00027254           -1e-13                2.3084e-08            0.0002729            
  -3.6                  -0.00027346           -4e-14                3.7966e-08            0.00027372           
END_DB

BEGIN_DB
 ICCAP_VAR vg         -2.88          
 ICCAP_VAR vb         -0             
 ICCAP_VAR vs         -0             

 #vd                    id                    ig                    ib                    is                   
  -0                    2.9576e-08            -2.8e-13              -2.4e-13              -2.6688e-08          
  -0.1                  -4.7912e-05           -3.4e-13              -1.8e-13              4.7926e-05           
  -0.2                  -9.3354e-05           -3.2e-13              -4e-14                9.3382e-05           
  -0.3                  -0.00013576           -1.4e-13              -2.6e-13              0.00013612           
  -0.4                  -0.00017518           -3.2e-13              -6e-14                0.00017556           
  -0.5                  -0.00021148           -2e-13                -8e-14                0.00021186           
  -0.6                  -0.0002445            -2.4e-13              2e-14                 0.00024486           
  -0.7                  -0.0002743            -1.4e-13              -4e-14                0.00027462           
  -0.8                  -0.00030088           -2e-13                -1.2e-13              0.0003012            
  -0.9                  -0.00032436           -2.2e-13              -4e-14                0.00032474           
  -1                    -0.00034472           -2e-13                -6e-14                0.0003451            
  -1.1                  -0.00036252           -2e-13                -1.2e-13              0.000363             
  -1.2                  -0.00037798           -1.4e-13              1.4e-13               0.00037838           
  -1.3                  -0.00039106           -2e-13                1e-13                 0.00039136           
  -1.4                  -0.00040212           -8e-14                -1.6e-13              0.00040246           
  -1.5                  -0.00041146           0                     -2e-14                0.00041178           
  -1.6                  -0.0004193            -1.2e-13              6e-14                 0.0004197            
  -1.7                  -0.00042604           -1.6e-13              6e-14                 0.00042626           
  -1.8                  -0.0004316            -1e-13                -2e-14                0.0004319            
  -1.9                  -0.00043646           -1e-13                -1.2e-13              0.00043682           
  -2                    -0.00044058           -1.8e-13              4e-14                 0.00044092           
  -2.1                  -0.0004443            -1e-13                2e-14                 0.00044466           
  -2.2                  -0.00044752           -1.4e-13              -6e-14                0.00044804           
  -2.3                  -0.00045054           -6e-14                2.4e-13               0.00045094           
  -2.4                  -0.00045322           -8e-14                1.04e-12              0.00045358           
  -2.5                  -0.0004555            -1.6e-13              2.72e-12              0.00045586           
  -2.6                  -0.00045766           -1.2e-13              7.52e-12              0.00045804           
  -2.7                  -0.00045972           -1.2e-13              1.926e-11             0.00046014           
  -2.8                  -0.00046156           -2e-14                4.614e-11             0.0004621            
  -2.9                  -0.00046338           -2e-13                1.0376e-10            0.00046386           
  -3                    -0.00046518           -2e-13                2.2238e-10            0.00046562           
  -3.1                  -0.0004668            -1.6e-13              4.5466e-10            0.0004671            
  -3.2                  -0.0004682            -6e-14                8.95e-10              0.00046856           
  -3.3                  -0.00046972           -1.4e-13              1.6984e-09            0.0004701            
  -3.4                  -0.00047106           -4e-14                3.1312e-09            0.00047154           
  -3.5                  -0.00047248           -1.8e-13              5.6086e-09            0.00047296           
  -3.6                  -0.00047386           -1e-13                9.8052e-09            0.00047426           
END_DB

BEGIN_DB
 ICCAP_VAR vg         -3.6           
 ICCAP_VAR vb         -0             
 ICCAP_VAR vs         -0             

 #vd                    id                    ig                    ib                    is                   
  -0                    3.4616e-08            -4.4e-13              -3.4e-13              -3.3954e-08          
  -0.1                  -5.584e-05            -3.6e-13              6e-14                 5.586e-05            
  -0.2                  -0.000109622          -4.2e-13              -4e-14                0.000109648          
  -0.3                  -0.00016072           -2.8e-13              -6e-14                0.00016112           
  -0.4                  -0.0002092            -1.8e-13              -1e-13                0.00020958           
  -0.5                  -0.0002549            -1.8e-13              -1.4e-13              0.0002553            
  -0.6                  -0.00029772           -1.8e-13              -1e-13                0.00029812           
  -0.7                  -0.00033732           -2.2e-13              4e-14                 0.00033772           
  -0.8                  -0.00037404           -1.6e-13              6e-14                 0.00037442           
