! VERSION = 6.00
BEGIN_HEADER
 ICCAP_INPUTS
  vg         V  G GROUND SMU2 0.001 LIN        1    0.5        -3.6       83   -0.05     
  vb         V  B GROUND SMU4 0.1 LIN        2    0          3.6        5    0.9       
  vd         V  D GROUND SMU1 0.1 LIN        3    -0.1       -3.3       3    -1.6      
  vs         V  S GROUND SMU3 0.1 CON        -0
 ICCAP_OUTPUTS
  id         I  D GROUND SMU1 B
  ig         I  G GROUND SMU2 B
  ib         I  B GROUND SMU4 B
  is         I  S GROUND SMU3 B
 ICCAP_VALUES
  MASTER_SETUP_TYPE "~dc_idvg~"
  LINVT_VALUE ""
  LISTVT_VALUE ""
  TYPE "-1"
  TEMP " 27.0000 "
  IS_TNOM " 1.00000 "
  MAIN.W "10.00u"
  MAIN.L "330.0n"
  MAIN.AD "3.400p"
  MAIN.AS "3.400p"
  MAIN.PD "20.68u"
  MAIN.PS "20.68u"
  MAIN.NF "1.000"
  MAIN.M "1"
  MAIN.NRD "0.000"
  MAIN.NRS "0.000"
  MAIN.LDRIFT1 "1E-06"
  MAIN.LDRIFT2 "1E-06"
  MAIN.SA "0.000"
  MAIN.SB "0.000"
  MAIN.SD "0.000"
  MAIN.SCA "0.000"
  MAIN.SCB "0.000"
  MAIN.SCC "0.000"
  MAIN.SC "0.000"
  MODULE "S561"
  PIN_D "18"
  PIN_G "3"
  PIN_S "4"
  PIN_B "17"
  PIN_E ""
  PIN_6 ""
  XY_ID ""
  FUNC "Additional"
  STI "SA ref"
  WPE "WPE ref"
  COMMENT ""
  DIS_MEAS ""
  TypeTCI "10"
END_HEADER

BEGIN_DB
 ICCAP_VAR vb         0              
 ICCAP_VAR vd         -0.1           
 ICCAP_VAR vs         -0             

 #vg                    id                    ig                    ib                    is                   
  0.5                   2e-14                 1.884e-11             -5.82e-12             2e-14                
  0.45                  2e-14                 2.92e-12              -1.86e-12             1e-13                
  0.4                   6e-14                 5.8e-13               -1.14e-12             1e-13                
  0.35                  -6e-14                2.8e-13               -9.4e-13              4e-14                
  0.3                   0                     0                     -9.8e-13              0                    
  0.25                  -1e-13                -8e-14                -8.2e-13              8e-14                
  0.2                   0                     -2e-14                -9e-13                1.2e-13              
  0.15                  6e-14                 -1e-13                -8.8e-13              1.2e-13              
  0.1                   -2.2e-13              -6e-14                -8.8e-13              1.6e-13              
  0.05                  -1.8e-13              -2.4e-13              -9e-13                3.6e-13              
  0                     -8e-13                -1.8e-13              -8.8e-13              1.06e-12             
  -0.05                 -2.8e-12              -2.4e-13              -9.4e-13              2.9e-12              
  -0.1                  -9.32e-12             -3e-13                -8.2e-13              9.58e-12             
  -0.15                 -3.194e-11            -2.2e-13              -8.4e-13              3.206e-11            
  -0.2                  -1.0922e-10           -3e-13                -9e-13                1.0942e-10           
  -0.25                 -3.7604e-10           -3.8e-13              -8.2e-13              3.7586e-10           
  -0.3                  -1.3036e-09           -1.2e-13              -8.4e-13              1.3048e-09           
  -0.35                 -4.554e-09            -3.6e-13              -8.8e-13              4.5554e-09           
  -0.4                  -1.5826e-08           -3e-13                -6.4e-13              1.5854e-08           
  -0.45                 -5.4512e-08           -3e-13                -9e-13                5.4552e-08           
  -0.5                  -1.8236e-07           -3.4e-13              -8.2e-13              1.825e-07            
  -0.55                 -5.7408e-07           -3.8e-13              -7.6e-13              5.7436e-07           
  -0.6                  -1.6028e-06           -3e-13                -6.4e-13              1.6054e-06           
  -0.65                 -3.8224e-06           -2.8e-13              -8.6e-13              3.8262e-06           
  -0.7                  -7.6828e-06           -4.4e-13              -6.6e-13              7.6866e-06           
  -0.75                 -1.3222e-05           -3.4e-13              -6.6e-13              1.324e-05            
  -0.8                  -1.999e-05            -4e-13                -5.6e-13              2.0008e-05           
  -0.85                 -2.7502e-05           -4.4e-13              -6.2e-13              2.7518e-05           
  -0.9                  -3.5252e-05           -5e-13                -6.6e-13              3.5268e-05           
  -0.95                 -4.3026e-05           -3e-13                -5.6e-13              4.3056e-05           
  -1                    -5.0648e-05           -5e-13                -5.6e-13              5.0668e-05           
  -1.05                 -5.8072e-05           -5e-13                -6e-13                5.8096e-05           
  -1.1                  -6.5224e-05           -5.6e-13              -6.2e-13              6.5258e-05           
  -1.15                 -7.2194e-05           -4.2e-13              -6.6e-13              7.2208e-05           
  -1.2                  -7.889e-05            -5.4e-13              -6.6e-13              7.8908e-05           
  -1.25                 -8.5398e-05           -5.4e-13              -5.6e-13              8.542e-05            
  -1.3                  -9.1706e-05           -4.8e-13              -4.6e-13              9.1728e-05           
  -1.35                 -9.7796e-05           -5e-13                -6.2e-13              9.7814e-05           
  -1.4                  -0.000103724          -5e-13                -6.2e-13              0.00010374           
  -1.45                 -0.000109442          -5.6e-13              -6.2e-13              0.000109468          
  -1.5                  -0.00011486           -4.8e-13              -4.8e-13              0.00011522           
  -1.55                 -0.00012028           -5.6e-13              -5.4e-13              0.00012064           
  -1.6                  -0.00012558           -5.6e-13              -4.8e-13              0.00012594           
  -1.65                 -0.0001307            -6.8e-13              -6.2e-13              0.00013106           
  -1.7                  -0.0001357            -5.6e-13              -5.2e-13              0.00013608           
  -1.75                 -0.00014058           -5.6e-13              -5.8e-13              0.00014094           
  -1.8                  -0.00014532           -5.8e-13              -4e-13                0.00014568           
  -1.85                 -0.00014996           -6.2e-13              -5.8e-13              0.00015032           
  -1.9                  -0.00015448           -6e-13                -5e-13                0.00015484           
  -1.95                 -0.00015892           -4e-13                -4.8e-13              0.00015926           
  -2                    -0.00016322           -6.2e-13              -4e-13                0.00016358           
  -2.05                 -0.00016742           -5e-13                -5e-13                0.0001678            
  -2.1                  -0.00017156           -5.6e-13              -5e-13                0.00017192           
  -2.15                 -0.00017558           -6.2e-13              -4e-13                0.00017596           
  -2.2                  -0.00017952           -4.8e-13              -4e-13                0.00017986           
  -2.25                 -0.00018336           -4.8e-13              -4.2e-13              0.00018372           
  -2.3                  -0.00018716           -5.6e-13              -3.2e-13              0.00018752           
  -2.35                 -0.00019082           -7.4e-13              -4.8e-13              0.0001912            
  -2.4                  -0.00019444           -6.2e-13              -3.8e-13              0.00019482           
  -2.45                 -0.00019798           -6.2e-13              -5e-13                0.00019834           
  -2.5                  -0.00020144           -7e-13                -3.2e-13              0.0002018            
  -2.55                 -0.0002048            -5.4e-13              -4.6e-13              0.00020518           
  -2.6                  -0.00020814           -6.2e-13              -2.8e-13              0.0002085            
  -2.65                 -0.00021138           -7e-13                -4e-13                0.00021172           
  -2.7                  -0.00021454           -7e-13                -3.8e-13              0.00021492           
  -2.75                 -0.00021768           -6.6e-13              -4.6e-13              0.00021804           
  -2.8                  -0.00022074           -6.2e-13              -2.2e-13              0.0002211            
  -2.85                 -0.00022372           -6.2e-13              -5.2e-13              0.00022408           
  -2.9                  -0.00022666           -6.8e-13              -2.8e-13              0.00022704           
  -2.95                 -0.00022956           -6.6e-13              -3.6e-13              0.00022992           
  -3                    -0.00023236           -7.2e-13              -4.8e-13              0.00023274           
  -3.05                 -0.00023516           -6.2e-13              -2.6e-13              0.00023554           
  -3.1                  -0.00023788           -7.2e-13              -3.6e-13              0.00023822           
  -3.15                 -0.00024054           -6.8e-13              -3e-13                0.00024092           
  -3.2                  -0.00024318           -7e-13                -3.8e-13              0.00024354           
  -3.25                 -0.00024574           -6.6e-13              -3.2e-13              0.0002461            
  -3.3                  -0.00024824           -7.4e-13              -1.4e-13              0.0002486            
  -3.35                 -0.00025072           -6.4e-13              -3.8e-13              0.00025108           
  -3.4                  -0.00025316           -7.8e-13              -2.8e-13              0.00025352           
  -3.45                 -0.00025552           -6.6e-13              -2.4e-13              0.0002559            
  -3.5                  -0.00025788           -6.2e-13              -2.6e-13              0.00025824           
  -3.55                 -0.00026018           -6.2e-13              -2.2e-13              0.00026054           
  -3.6                  -0.00026242           -7e-13                -2e-13                0.0002628            
END_DB

BEGIN_DB
 ICCAP_VAR vb         0.9            
 ICCAP_VAR vd         -0.1           
 ICCAP_VAR vs         -0             

 #vg                    id                    ig                    ib                    is                   
  0.5                   -4e-14                6.4e-13               4.4e-13               8e-14                
  0.45                  8e-14                 3.4e-13               5e-13                 -1.2e-13             
  0.4                   1e-13                 2.6e-13               2.4e-13               1e-13                
  0.35                  0                     1.8e-13               2.4e-13               6e-14                
  0.3                   2e-14                 1.6e-13               3.8e-13               -4e-14               
  0.25                  8e-14                 1.4e-13               2e-13                 1.2e-13              
  0.2                   -4e-14                4e-14                 3.2e-13               1.4e-13              
  0.15                  2e-14                 -8e-14                2e-13                 1.4e-13              
  0.1                   8e-14                 8e-14                 3.2e-13               -8e-14               
  0.05                  -2e-14                -1.6e-13              1e-13                 2e-14                
  0                     2e-14                 -6e-14                1.2e-13               1e-13                
  -0.05                 1e-13                 -4e-14                2e-13                 -2e-14               
  -0.1                  0                     0                     2.8e-13               2e-14                
  -0.15                 2e-14                 -1.2e-13              1.6e-13               2.2e-13              
  -0.2                  -6e-14                -1.6e-13              2.4e-13               0                    
  -0.25                 1e-13                 -1.4e-13              1.8e-13               1.6e-13              
  -0.3                  6e-14                 -2.2e-13              2e-13                 6e-14                
  -0.35                 -2.2e-13              -2.2e-13              8e-14                 4.2e-13              
  -0.4                  -8.6e-13              -8e-14                1.8e-13               8.8e-13              
  -0.45                 -3.84e-12             -3.2e-13              8e-14                 3.98e-12             
  -0.5                  -1.534e-11            -3.6e-13              1e-13                 1.546e-11            
  -0.55                 -6.164e-11            -2.6e-13              1.8e-13               6.192e-11            
  -0.6                  -2.4584e-10           -3.2e-13              -2e-14                2.461e-10            
  -0.65                 -9.7724e-10           -2.6e-13              1.8e-13               9.7716e-10           
  -0.7                  -3.8566e-09           -2.8e-13              1.2e-13               3.8566e-09           
  -0.75                 -1.5086e-08           -3.4e-13              2.2e-13               1.5114e-08           
  -0.8                  -5.7282e-08           -2.4e-13              6e-14                 5.73e-08             
  -0.85                 -2.0708e-07           -3.6e-13              6e-14                 2.0726e-07           
  -0.9                  -6.758e-07            -3e-13                -8e-14                6.7608e-07           
  -0.95                 -1.8994e-06           -2.8e-13              0                     1.9022e-06           
  -1                    -4.4218e-06           -2.6e-13              1e-13                 4.4254e-06           
  -1.05                 -8.5962e-06           -3.2e-13              -4e-14                8.5992e-06           
  -1.1                  -1.4236e-05           -3e-13                1.4e-13               1.4256e-05           
  -1.15                 -2.0928e-05           -3.8e-13              2e-14                 2.0946e-05           
  -1.2                  -2.8082e-05           -2.6e-13              1.4e-13               2.8102e-05           
  -1.25                 -3.5372e-05           -5.4e-13              0                     3.5392e-05           
  -1.3                  -4.2606e-05           -5.2e-13              1.4e-13               4.2624e-05           
  -1.35                 -4.9628e-05           -4.8e-13              -6e-14                4.9648e-05           
  -1.4                  -5.6464e-05           -5.4e-13              4e-14                 5.648e-05            
  -1.45                 -6.3034e-05           -3.8e-13              1.2e-13               6.3056e-05           
  -1.5                  -6.9418e-05           -5e-13                0                     6.9434e-05           
  -1.55                 -7.554e-05            -5.4e-13              1.4e-13               7.556e-05            
  -1.6                  -8.1508e-05           -4.4e-13              6e-14                 8.1516e-05           
  -1.65                 -8.7248e-05           -5.8e-13              -2e-14                8.7268e-05           
  -1.7                  -9.283e-05            -5e-13                0                     9.2862e-05           
  -1.75                 -9.8282e-05           -5.4e-13              -2e-14                9.83e-05             
  -1.8                  -0.000103538          -5.2e-13              1.2e-13               0.000103568          
  -1.85                 -0.00010865           -5e-13                0                     0.000108666          
  -1.9                  -0.000113618          -5.6e-13              8e-14                 0.000113642          
  -1.95                 -0.0001183            -4.4e-13              -1e-13                0.00011866           
  -2                    -0.000123             -6e-13                2e-14                 0.00012338           
  -2.05                 -0.0001276            -5.2e-13              -8e-14                0.00012796           
  -2.1                  -0.0001321            -5.2e-13              1e-13                 0.00013248           
  -2.15                 -0.00013648           -5.6e-13              -6e-14                0.00013684           
  -2.2                  -0.00014074           -5.6e-13              8e-14                 0.0001411            
  -2.25                 -0.0001449            -6.4e-13              2e-14                 0.00014528           
  -2.3                  -0.000149             -5.2e-13              8e-14                 0.00014936           
  -2.35                 -0.00015296           -5.2e-13              8e-14                 0.00015334           
  -2.4                  -0.00015686           -6.2e-13              6e-14                 0.00015724           
  -2.45                 -0.00016068           -5.6e-13              4e-14                 0.00016104           
  -2.5                  -0.0001644            -6.2e-13              1.2e-13               0.00016476           
  -2.55                 -0.000168             -5.2e-13              0                     0.00016836           
  -2.6                  -0.00017158           -5.6e-13              1e-13                 0.00017194           
  -2.65                 -0.00017506           -6.6e-13              -4e-14                0.00017544           
  -2.7                  -0.00017848           -5.2e-13              2e-14                 0.00017888           
  -2.75                 -0.00018182           -6.6e-13              4e-14                 0.0001822            
  -2.8                  -0.0001851            -6.4e-13              1e-13                 0.00018546           
  -2.85                 -0.0001883            -6.4e-13              -1e-13                0.00018866           
  -2.9                  -0.00019148           -7.6e-13              1.2e-13               0.00019184           
  -2.95                 -0.00019456           -6e-13                -8e-14                0.00019492           
  -3                    -0.00019758           -6.8e-13              -4e-14                0.00019794           
  -3.05                 -0.00020054           -5.2e-13              6e-14                 0.0002009            
  -3.1                  -0.00020344           -6.8e-13              -1e-13                0.00020382           
  -3.15                 -0.00020632           -6.6e-13              1.2e-13               0.00020668           
  -3.2                  -0.00020908           -6.4e-13              6e-14                 0.00020946           
  -3.25                 -0.00021184           -6.6e-13              -2e-14                0.0002122            
  -3.3                  -0.00021452           -5.6e-13              0                     0.00021488           
  -3.35                 -0.00021716           -6.4e-13              6e-14                 0.00021754           
  -3.4                  -0.00021976           -5.8e-13              4e-14                 0.00022012           
  -3.45                 -0.0002223            -6.4e-13              0                     0.00022266           
