! VERSION = 6.00
BEGIN_HEADER
 ICCAP_INPUTS
  vd         V  D GROUND SMU1 0.1 LIN        1    -0         -3.6       37   -0.1      
  vg         V  G GROUND SMU2 0.001 LIN        2    -0.74      -3.6       5    -0.715    
  vb         V  B GROUND SMU4 0.1 CON        -0
  vs         V  S GROUND SMU3 0.1 CON        -0
 ICCAP_OUTPUTS
  id         I  D GROUND SMU1 B
  ig         I  G GROUND SMU2 B
  ib         I  B GROUND SMU4 B
  is         I  S GROUND SMU3 B
 ICCAP_VALUES
  MASTER_SETUP_TYPE "~dc_idvd~"
  LINVT_VALUE "|idvg|100.0n|100.0m|1.000m|5|3.600|"
  LISTVT_VALUE ""
  TYPE "-1"
  TEMP " 70.0000 "
  IS_TNOM " 0.00000 "
  MAIN.W "300.0n"
  MAIN.L "10.00u"
  MAIN.AD "102.0f"
  MAIN.AS "102.0f"
  MAIN.PD "1.280u"
  MAIN.PS "1.280u"
  MAIN.NF "1.000"
  MAIN.M "1"
  MAIN.NRD "0.000"
  MAIN.NRS "0.000"
  MAIN.LDRIFT1 "1E-06"
  MAIN.LDRIFT2 "1E-06"
  MAIN.SA "0.000"
  MAIN.SB "0.000"
  MAIN.SD "0.000"
  MAIN.SCA "0.000"
  MAIN.SCB "0.000"
  MAIN.SCC "0.000"
  MAIN.SC "0.000"
  MODULE "S555"
  PIN_D "14"
  PIN_G "7"
  PIN_S "8"
  PIN_B "13"
  PIN_E ""
  PIN_6 ""
  XY_ID ""
  FUNC "Narrow"
  STI "SA ref"
  WPE "WPE ref"
  COMMENT ""
  DIS_MEAS ""
  TypeTCI "10"
END_HEADER

BEGIN_DB
 ICCAP_VAR vg         -0.74          
 ICCAP_VAR vb         -0             
 ICCAP_VAR vs         -0             

 #vd                    id                    ig                    ib                    is                   
  -0                    3.94e-12              -8e-14                -5.342e-11            -4.4e-12             
  -0.1                  -9.0954e-09           4e-14                 -5.116e-11            9.0938e-09           
  -0.2                  -1.04856e-08          2.8e-13               -5e-11                1.04832e-08          
  -0.3                  -1.0558e-08           1.6e-13               -4.876e-11            1.0563e-08           
  -0.4                  -1.0562e-08           1e-13                 -4.768e-11            1.05672e-08          
  -0.5                  -1.0566e-08           1.8e-13               -4.646e-11            1.05686e-08          
  -0.6                  -1.0568e-08           2.4e-13               -4.538e-11            1.05692e-08          
  -0.7                  -1.0566e-08           1.4e-13               -4.398e-11            1.05698e-08          
  -0.8                  -1.057e-08            2e-13                 -4.262e-11            1.0571e-08           
  -0.9                  -1.057e-08            1e-13                 -4.116e-11            1.05724e-08          
  -1                    -1.0574e-08           1e-13                 -3.974e-11            1.05742e-08          
  -1.1                  -1.0578e-08           1.8e-13               -3.796e-11            1.05782e-08          
  -1.2                  -1.0578e-08           6e-14                 -3.642e-11            1.05792e-08          
  -1.3                  -1.0584e-08           2e-14                 -3.468e-11            1.0584e-08           
  -1.4                  -1.0582e-08           4e-14                 -3.304e-11            1.0585e-08           
  -1.5                  -1.0584e-08           -2e-14                -3.136e-11            1.05862e-08          
  -1.6                  -1.0586e-08           1.2e-13               -2.968e-11            1.05862e-08          
  -1.7                  -1.0584e-08           2.2e-13               -2.796e-11            1.05842e-08          
  -1.8                  -1.0582e-08           1e-13                 -2.634e-11            1.0584e-08           
  -1.9                  -1.0586e-08           1.2e-13               -2.476e-11            1.0585e-08           
  -2                    -1.0584e-08           8e-14                 -2.306e-11            1.05874e-08          
  -2.1                  -1.0586e-08           4e-14                 -2.156e-11            1.0587e-08           
  -2.2                  -1.0588e-08           6e-14                 -1.994e-11            1.05872e-08          
  -2.3                  -1.059e-08            0                     -1.842e-11            1.0591e-08           
  -2.4                  -1.0588e-08           6e-14                 -1.696e-11            1.05878e-08          
  -2.5                  -1.0588e-08           0                     -1.552e-11            1.059e-08            
  -2.6                  -1.0592e-08           6e-14                 -1.402e-11            1.05936e-08          
  -2.7                  -1.0592e-08           4e-14                 -1.246e-11            1.05918e-08          
  -2.8                  -1.0596e-08           4e-14                 -1.06e-11             1.05938e-08          
  -2.9                  -1.0596e-08           -4e-14                -8.62e-12             1.05926e-08          
  -3                    -1.0596e-08           0                     -5.98e-12             1.05932e-08          
  -3.1                  -1.06e-08             0                     -2.8e-12              1.0595e-08           
  -3.2                  -1.0606e-08           1e-13                 1.38e-12              1.05958e-08          
  -3.3                  -1.0612e-08           4e-14                 6.78e-12              1.05968e-08          
  -3.4                  -1.0618e-08           2e-13                 1.42e-11              1.05996e-08          
  -3.5                  -1.0628e-08           1.2e-13               2.406e-11             1.05986e-08          
  -3.6                  -1.0642e-08           1.4e-13               3.704e-11             1.05994e-08          
END_DB

BEGIN_DB
 ICCAP_VAR vg         -1.455         
 ICCAP_VAR vb         -0             
 ICCAP_VAR vs         -0             

 #vd                    id                    ig                    ib                    is                   
  -0                    3.494e-11             -4.6e-13              -1.812e-11            -3.474e-11           
  -0.1                  -9.15e-08             -3.6e-13              -1.718e-11            9.1534e-08           
  -0.2                  -1.6448e-07           -1.6e-13              -1.624e-11            1.6452e-07           
  -0.3                  -2.1928e-07           -2.2e-13              -1.54e-11             2.1936e-07           
  -0.4                  -2.5678e-07           -2.6e-13              -1.442e-11            2.5684e-07           
  -0.5                  -2.7854e-07           -2.2e-13              -1.336e-11            2.7862e-07           
  -0.6                  -2.8754e-07           -2.4e-13              -1.24e-11             2.8762e-07           
  -0.7                  -2.896e-07            -2.4e-13              -1.14e-11             2.8968e-07           
  -0.8                  -2.8998e-07           -2.6e-13              -1.052e-11            2.9008e-07           
  -0.9                  -2.901e-07            -2.4e-13              -9.58e-12             2.902e-07            
  -1                    -2.902e-07            -1.8e-13              -8.76e-12             2.9028e-07           
  -1.1                  -2.903e-07            -1e-13                -7.92e-12             2.9036e-07           
  -1.2                  -2.904e-07            -2.4e-13              -7.2e-12              2.905e-07            
  -1.3                  -2.9046e-07           -2.8e-13              -6.56e-12             2.9052e-07           
  -1.4                  -2.9052e-07           -2e-14                -5.8e-12              2.9058e-07           
  -1.5                  -2.9056e-07           -3.4e-13              -5.28e-12             2.9062e-07           
  -1.6                  -2.9058e-07           -1.2e-13              -4.62e-12             2.9066e-07           
  -1.7                  -2.906e-07            -1e-13                -4.02e-12             2.9068e-07           
  -1.8                  -2.9062e-07           -2.2e-13              -3.5e-12              2.9072e-07           
  -1.9                  -2.9068e-07           -1.8e-13              -3.08e-12             2.9074e-07           
  -2                    -2.9072e-07           -2.6e-13              -2.52e-12             2.9078e-07           
  -2.1                  -2.9074e-07           -2.4e-13              -2.16e-12             2.9084e-07           
  -2.2                  -2.908e-07            -2e-13                -1.7e-12              2.9092e-07           
  -2.3                  -2.9088e-07           -1.4e-13              -1.28e-12             2.9096e-07           
  -2.4                  -2.9092e-07           -6e-14                -9.2e-13              2.91e-07             
  -2.5                  -2.909e-07            -1e-13                -4e-13                2.9098e-07           
  -2.6                  -2.91e-07             -4e-14                2.2e-13               2.9106e-07           
  -2.7                  -2.9102e-07           -2.2e-13              1.12e-12              2.9102e-07           
  -2.8                  -2.9098e-07           -1.6e-13              2.54e-12              2.9104e-07           
  -2.9                  -2.91e-07             -6e-14                4.62e-12              2.9104e-07           
  -3                    -2.9104e-07           -1.8e-13              7.92e-12              2.911e-07            
  -3.1                  -2.9106e-07           -4e-14                1.34e-11              2.9108e-07           
  -3.2                  -2.9112e-07           -4e-14                2.218e-11             2.9116e-07           
  -3.3                  -2.9114e-07           -2.2e-13              3.6e-11               2.9118e-07           
  -3.4                  -2.9118e-07           -1e-13                5.746e-11             2.9118e-07           
  -3.5                  -2.912e-07            -4e-14                9.012e-11             2.9118e-07           
  -3.6                  -2.9128e-07           1e-13                 1.3908e-10            2.912e-07            
END_DB

BEGIN_DB
 ICCAP_VAR vg         -2.17          
 ICCAP_VAR vb         -0             
 ICCAP_VAR vs         -0             

 #vd                    id                    ig                    ib                    is                   
  -0                    5.594e-11             -6.2e-13              -7.46e-12             -6.31e-11            
  -0.1                  -1.6776e-07           -3.4e-13              -7.12e-12             1.6782e-07           
  -0.2                  -3.1868e-07           -2.8e-13              -6.86e-12             3.1876e-07           
  -0.3                  -4.5248e-07           -3.6e-13              -6.4e-12              4.5256e-07           
  -0.4                  -5.6912e-07           -2.4e-13              -5.98e-12             5.6922e-07           
  -0.5                  -6.6942e-07           -3.4e-13              -5.46e-12             6.6964e-07           
  -0.6                  -7.5338e-07           -3.8e-13              -4.92e-12             7.5356e-07           
  -0.7                  -8.212e-07            -3.6e-13              -4.4e-12              8.2128e-07           
  -0.8                  -8.735e-07            -5.4e-13              -3.94e-12             8.7364e-07           
  -0.9                  -9.1072e-07           -3.4e-13              -3.42e-12             9.1084e-07           
  -1                    -9.3406e-07           -1.8e-13              -2.92e-12             9.3422e-07           
  -1.1                  -9.4568e-07           -3.4e-13              -2.52e-12             9.4584e-07           
  -1.2                  -9.499e-07            -3.2e-13              -1.94e-12             9.5008e-07           
  -1.3                  -9.5118e-07           -3.2e-13              -1.56e-12             9.513e-07            
  -1.4                  -9.5158e-07           -3e-13                -1.16e-12             9.517e-07            
  -1.5                  -9.5198e-07           -1.6e-13              -7.8e-13              9.521e-07            
  -1.6                  -9.5212e-07           -1.8e-13              -5e-13                9.5228e-07           
  -1.7                  -9.523e-07            -2.6e-13              -1.8e-13              9.5268e-07           
  -1.8                  -9.5264e-07           -1.2e-13              1.4e-13               9.527e-07            
  -1.9                  -9.528e-07            -4e-14                5.2e-13               9.5282e-07           
  -2                    -9.529e-07            -1.2e-13              8.2e-13               9.5312e-07           
  -2.1                  -9.5314e-07           0                     1.16e-12              9.5326e-07           
  -2.2                  -9.5328e-07           -1.6e-13              1.34e-12              9.5344e-07           
  -2.3                  -9.5334e-07           -1.6e-13              1.48e-12              9.5348e-07           
  -2.4                  -9.535e-07            -1.2e-13              1.8e-12               9.5358e-07           
  -2.5                  -9.5358e-07           -2.2e-13              2.04e-12              9.5386e-07           
  -2.6                  -9.5382e-07           -3.4e-13              2.24e-12              9.54e-07             
  -2.7                  -9.5392e-07           -2.4e-13              2.54e-12              9.5396e-07           
  -2.8                  -9.54e-07             -3e-13                2.72e-12              9.5414e-07           
  -2.9                  -9.5412e-07           -2.8e-13              3.04e-12              9.5432e-07           
  -3                    -9.544e-07            -1.6e-13              3.52e-12              9.5438e-07           
  -3.1                  -9.544e-07            -1e-13                4.02e-12              9.5448e-07           
  -3.2                  -9.5446e-07           -1.2e-13              5.26e-12              9.5462e-07           
  -3.3                  -9.5452e-07           -4e-14                7.38e-12              9.5468e-07           
  -3.4                  -9.5462e-07           -8e-14                1.106e-11             9.5476e-07           
  -3.5                  -9.547e-07            -2.8e-13              1.758e-11             9.548e-07            
  -3.6                  -9.5482e-07           -1e-13                2.864e-11             9.5488e-07           
END_DB

BEGIN_DB
 ICCAP_VAR vg         -2.885         
 ICCAP_VAR vb         -0             
 ICCAP_VAR vs         -0             

 #vd                    id                    ig                    ib                    is                   
  -0                    8.258e-11             -5.6e-13              -4.16e-12             -8.884e-11           
  -0.1                  -2.315e-07            -6.6e-13              -3.96e-12             2.3156e-07           
  -0.2                  -4.4804e-07           -4.2e-13              -3.86e-12             4.4816e-07           
  -0.3                  -6.4922e-07           -6.2e-13              -3.62e-12             6.4934e-07           
  -0.4                  -8.3474e-07           -5.8e-13              -3.2e-12              8.3486e-07           
  -0.5                  -1.00536e-06          -5.2e-13              -2.84e-12             1.00546e-06          
  -0.6                  -1.1598e-06           -4.2e-13              -2.06e-12             1.1628e-06           
  -0.7                  -1.3002e-06           -3.6e-13              -1.8e-12              1.3032e-06           
  -0.8                  -1.4258e-06           -5.4e-13              -1.46e-12             1.4288e-06           
  -0.9                  -1.5366e-06           -3.6e-13              -1.08e-12             1.5396e-06           
  -1                    -1.6324e-06           -4e-13                -6.8e-13              1.6354e-06           
  -1.1                  -1.7138e-06           -3.4e-13              -3.8e-13              1.717e-06            
  -1.2                  -1.781e-06            -2.8e-13              -6e-14                1.784e-06            
  -1.3                  -1.834e-06            -3.8e-13              1.6e-13               1.837e-06            
  -1.4                  -1.8736e-06           -4e-13                5e-13                 1.877e-06            
  -1.5                  -1.9012e-06           -3.2e-13              8.6e-13               1.9038e-06           
  -1.6                  -1.9168e-06           -2.8e-13              1.1e-12               1.92e-06             
  -1.7                  -1.9246e-06           -4.6e-13              1.32e-12              1.928e-06            
  -1.8                  -1.9278e-06           -2.4e-13              1.5e-12               1.931e-06            
  -1.9                  -1.9294e-06           -3e-13                1.86e-12              1.9324e-06           
  -2                    -1.93e-06             -4.2e-13              2.02e-12              1.933e-06            
  -2.1                  -1.9306e-06           -3.6e-13              2.4e-12               1.9336e-06           
  -2.2                  -1.9308e-06           -2.2e-13              2.66e-12              1.9338e-06           
  -2.3                  -1.9314e-06           -2.4e-13              2.76e-12              1.9342e-06           
  -2.4                  -1.9316e-06           -1e-13                2.92e-12              1.9348e-06           
  -2.5                  -1.9322e-06           2e-14                 3.1e-12               1.935e-06            
  -2.6                  -1.9326e-06           -1.6e-13              3.24e-12              1.9356e-06           
  -2.7                  -1.9326e-06           -2.8e-13              3.5e-12               1.9358e-06           
  -2.8                  -1.933e-06            -1.6e-13              3.66e-12              1.936e-06            
  -2.9                  -1.9332e-06           -3.2e-13              3.78e-12              1.9362e-06           
  -3                    -1.9334e-06           -2.8e-13              3.92e-12              1.9366e-06           
  -3.1                  -1.9338e-06           -1e-13                4.2e-12               1.9366e-06           
  -3.2                  -1.934e-06            -2.6e-13              4.22e-12              1.9368e-06           
  -3.3                  -1.9342e-06           -3.4e-13              4.42e-12              1.9372e-06           
  -3.4                  -1.9342e-06           -1.8e-13              4.72e-12              1.9376e-06           
  -3.5                  -1.9348e-06           -1.4e-13              5e-12                 1.9378e-06           
  -3.6                  -1.935e-06            -1e-13                5.64e-12              1.938e-06            
END_DB

BEGIN_DB
 ICCAP_VAR vg         -3.6           
 ICCAP_VAR vb         -0             
 ICCAP_VAR vs         -0             

 #vd                    id                    ig                    ib                    is                   
  -0                    1.0912e-10            -5.4e-13              -2.54e-12             -1.0498e-10          
  -0.1                  -2.8402e-07           -6.4e-13              -2.5e-12              2.841e-07            
  -0.2                  -5.5478e-07           -3.8e-13              -2.26e-12             5.55e-07             
  -0.3                  -8.1196e-07           -4.8e-13              -2.1e-12              8.1214e-07           
  -0.4                  -1.0548e-06           -3.6e-13              -1.78e-12             1.05496e-06          
  -0.5                  -1.2838e-06           -5e-13                -1.14e-12             1.287e-06            
  -0.6                  -1.5004e-06           -2.8e-13              -9.4e-13              1.5032e-06           
  -0.7                  -1.7026e-06           -2.2e-13              -7.4e-13              1.7058e-06           
  -0.8                  -1.8922e-06           -3.6e-13              -4e-13                1.8954e-06           
