! VERSION = 6.00
BEGIN_HEADER
 ICCAP_INPUTS
  vd         V  D GROUND SMU1 0.1 LIN        1    -0         -3.6       37   -0.1      
  vg         V  G GROUND SMU2 0.001 LIN        2    -0.696     -3.6       5    -0.726    
  vb         V  B GROUND SMU4 0.1 CON        -0
  vs         V  S GROUND SMU3 0.1 CON        -0
 ICCAP_OUTPUTS
  id         I  D GROUND SMU1 B
  ig         I  G GROUND SMU2 B
  ib         I  B GROUND SMU4 B
  is         I  S GROUND SMU3 B
 ICCAP_VALUES
  MASTER_SETUP_TYPE "~dc_idvd~"
  LINVT_VALUE "|idvg|100.0n|100.0m|1.000m|5|3.600|"
  LISTVT_VALUE ""
  TYPE "-1"
  TEMP " 70.0000 "
  IS_TNOM " 0.00000 "
  MAIN.W "10.00u"
  MAIN.L "350.0n"
  MAIN.AD "3.400p"
  MAIN.AS "3.400p"
  MAIN.PD "20.68u"
  MAIN.PS "20.68u"
  MAIN.NF "1.000"
  MAIN.M "1"
  MAIN.NRD "0.000"
  MAIN.NRS "0.000"
  MAIN.LDRIFT1 "1E-06"
  MAIN.LDRIFT2 "1E-06"
  MAIN.SA "0.000"
  MAIN.SB "0.000"
  MAIN.SD "0.000"
  MAIN.SCA "0.000"
  MAIN.SCB "0.000"
  MAIN.SCC "0.000"
  MAIN.SC "0.000"
  MODULE "S561"
  PIN_D "16"
  PIN_G "5"
  PIN_S "6"
  PIN_B "15"
  PIN_E ""
  PIN_6 ""
  XY_ID ""
  FUNC "Short"
  STI "SA ref"
  WPE "WPE ref"
  COMMENT ""
  DIS_MEAS ""
  TypeTCI "10"
END_HEADER

BEGIN_DB
 ICCAP_VAR vg         -0.696         
 ICCAP_VAR vb         -0             
 ICCAP_VAR vs         -0             

 #vd                    id                    ig                    ib                    is                   
  -0                    1.8378e-09            -1.8e-13              8.68e-12              -3.1548e-09          
  -0.1                  -7.564e-06            -2e-14                8.84e-12              7.571e-06            
  -0.2                  -9.0664e-06           2e-14                 8.88e-12              9.0656e-06           
  -0.3                  -9.5228e-06           1e-13                 8.98e-12              9.538e-06            
  -0.4                  -9.8254e-06           2e-14                 8.98e-12              9.8276e-06           
  -0.5                  -1.0049e-05           -2e-14                9.06e-12              1.00516e-05          
  -0.6                  -1.02612e-05          4e-14                 9.12e-12              1.02654e-05          
  -0.7                  -1.04492e-05          4e-14                 9.26e-12              1.0447e-05           
  -0.8                  -1.062e-05            8e-14                 9.14e-12              1.06312e-05          
  -0.9                  -1.0768e-05           2e-13                 9.2e-12               1.07834e-05          
  -1                    -1.0924e-05           1.2e-13               9.18e-12              1.09358e-05          
  -1.1                  -1.1076e-05           6e-14                 9.24e-12              1.10764e-05          
  -1.2                  -1.1206e-05           6e-14                 9.3e-12               1.12096e-05          
  -1.3                  -1.1336e-05           1e-13                 9.32e-12              1.13434e-05          
  -1.4                  -1.1474e-05           0                     9.38e-12              1.1477e-05           
  -1.5                  -1.1598e-05           1.4e-13               9.58e-12              1.16e-05             
  -1.6                  -1.1728e-05           8e-14                 1.02e-11              1.1732e-05           
  -1.7                  -1.1844e-05           8e-14                 1.176e-11             1.1858e-05           
  -1.8                  -1.1978e-05           4e-14                 1.53e-11              1.197e-05            
  -1.9                  -1.2094e-05           1.6e-13               2.304e-11             1.2096e-05           
  -2                    -1.222e-05            8e-14                 3.864e-11             1.223e-05            
  -2.1                  -1.2342e-05           4e-14                 6.816e-11             1.2358e-05           
  -2.2                  -1.2468e-05           1.2e-13               1.222e-10             1.248e-05            
  -2.3                  -1.2592e-05           1e-13                 2.1722e-10            1.2602e-05           
  -2.4                  -1.2728e-05           4e-14                 3.787e-10             1.2714e-05           
  -2.5                  -1.2842e-05           1.2e-13               6.4688e-10            1.2842e-05           
  -2.6                  -1.2976e-05           -4e-14                1.08314e-09           1.2982e-05           
  -2.7                  -1.312e-05            1e-13                 1.7732e-09            1.3126e-05           
  -2.8                  -1.3236e-05           1.2e-13               2.845e-09             1.3236e-05           
  -2.9                  -1.3378e-05           1.4e-13               4.4752e-09            1.336e-05            
  -3                    -1.349e-05            1.2e-13               6.9134e-09            1.3488e-05           
  -3.1                  -1.3636e-05           1.2e-13               1.04842e-08           1.3632e-05           
  -3.2                  -1.3796e-05           -6e-14                1.5624e-08            1.3788e-05           
  -3.3                  -1.394e-05            0                     2.2906e-08            1.3912e-05           
  -3.4                  -1.4076e-05           4e-14                 3.3066e-08            1.405e-05            
  -3.5                  -1.4234e-05           1e-13                 4.702e-08             1.4212e-05           
  -3.6                  -1.4402e-05           -4e-14                6.602e-08             1.4368e-05           
END_DB

BEGIN_DB
 ICCAP_VAR vg         -1.422         
 ICCAP_VAR vb         -0             
 ICCAP_VAR vs         -0             

 #vd                    id                    ig                    ib                    is                   
  -0                    4.1346e-08            -4.8e-13              9.24e-12              -3.6954e-08          
  -0.1                  -8.7012e-05           -3.2e-13              9.38e-12              8.7016e-05           
  -0.2                  -0.00015894           -2.2e-13              9.48e-12              0.00015924           
  -0.3                  -0.00021578           -3e-13                9.48e-12              0.00021608           
  -0.4                  -0.00025796           -2.4e-13              9.48e-12              0.00025828           
  -0.5                  -0.00028734           -1.8e-13              9.58e-12              0.00028762           
  -0.6                  -0.00030654           -2e-13                9.72e-12              0.00030684           
  -0.7                  -0.00031886           -1.8e-13              9.72e-12              0.00031912           
  -0.8                  -0.00032714           -2e-13                9.78e-12              0.00032744           
  -0.9                  -0.00033312           -1.2e-13              9.7e-12               0.00033342           
  -1                    -0.00033796           -1.6e-13              9.68e-12              0.00033826           
  -1.1                  -0.00034182           -8e-14                9.62e-12              0.00034208           
  -1.2                  -0.0003452            -8e-14                9.76e-12              0.00034548           
  -1.3                  -0.00034814           -2.2e-13              9.72e-12              0.00034846           
  -1.4                  -0.00035096           -1.6e-13              9.7e-12               0.00035116           
  -1.5                  -0.0003533            -6e-14                9.88e-12              0.00035362           
  -1.6                  -0.00035564           -1e-13                9.8e-12               0.00035596           
  -1.7                  -0.00035786           -1.8e-13              1.016e-11             0.0003582            
  -1.8                  -0.00035992           -1.6e-13              1.116e-11             0.00036018           
  -1.9                  -0.00036186           -2e-14                1.436e-11             0.00036218           
  -2                    -0.00036376           -2e-13                2.37e-11              0.00036406           
  -2.1                  -0.00036564           0                     4.702e-11             0.00036594           
  -2.2                  -0.00036746           0                     1.0242e-10            0.00036776           
  -2.3                  -0.00036922           -2.4e-13              2.244e-10             0.00036956           
  -2.4                  -0.00037096           -1.2e-13              4.7606e-10            0.00037126           
  -2.5                  -0.00037262           6e-14                 9.7006e-10            0.00037284           
  -2.6                  -0.00037446           -1e-13                1.8942e-09            0.00037474           
  -2.7                  -0.0003761            -2e-14                3.5558e-09            0.00037646           
  -2.8                  -0.00037776           -4e-14                6.4452e-09            0.00037812           
  -2.9                  -0.00037942           0                     1.13352e-08           0.00037972           
  -3                    -0.00038112           -2.8e-13              1.9376e-08            0.00038138           
  -3.1                  -0.00038272           -1e-13                3.2326e-08            0.000383             
  -3.2                  -0.0003843            0                     5.2764e-08            0.00038462           
  -3.3                  -0.00038594           -4e-14                8.4308e-08            0.00038622           
  -3.4                  -0.00038764           -3.4e-13              1.32e-07              0.00038786           
  -3.5                  -0.00038932           -2e-13                2.03e-07              0.00038954           
  -3.6                  -0.00039116           -1.4e-13              3.0662e-07            0.00039126           
END_DB

BEGIN_DB
 ICCAP_VAR vg         -2.148         
 ICCAP_VAR vb         -0             
 ICCAP_VAR vs         -0             

 #vd                    id                    ig                    ib                    is                   
  -0                    6.4612e-08            -6.6e-13              9.4e-12               -5.424e-08           
  -0.1                  -0.00014522           -3e-13                9.58e-12              0.00014552           
  -0.2                  -0.00027878           -3.6e-13              9.7e-12               0.00027904           
  -0.3                  -0.00039968           -3.2e-13              9.72e-12              0.00039998           
  -0.4                  -0.00050748           -3.6e-13              9.66e-12              0.00050776           
  -0.5                  -0.00060248           -2.8e-13              9.76e-12              0.00060278           
  -0.6                  -0.0006846            -3e-13                9.72e-12              0.00068488           
  -0.7                  -0.00075388           -2.6e-13              9.76e-12              0.00075412           
  -0.8                  -0.0008113            -2.8e-13              9.82e-12              0.0008116            
  -0.9                  -0.00085782           -2.8e-13              9.92e-12              0.00085808           
  -1                    -0.00089474           -2.6e-13              9.84e-12              0.00089494           
  -1.1                  -0.00092354           -3.2e-13              9.8e-12               0.0009239            
  -1.2                  -0.00094608           -3.2e-13              9.82e-12              0.00094638           
  -1.3                  -0.00096378           -1e-13                9.72e-12              0.00096404           
  -1.4                  -0.0009779            -2.4e-13              9.74e-12              0.0009782            
  -1.5                  -0.00098958           -1.6e-13              9.84e-12              0.00098982           
  -1.6                  -0.00099942           -2.6e-13              9.86e-12              0.00099958           
  -1.7                  -0.0010079            -1e-13                9.94e-12              0.00100834           
  -1.8                  -0.00101538           -1e-13                9.96e-12              0.0010157            
  -1.9                  -0.001022             -1.2e-13              1e-11                 0.00102226           
  -2                    -0.00102812           -1e-13                1.048e-11             0.0010283            
  -2.1                  -0.00103346           -1.2e-13              1.206e-11             0.00103392           
  -2.2                  -0.00103884           -2.2e-13              1.622e-11             0.00103888           
  -2.3                  -0.00104362           -1.2e-13              2.784e-11             0.00104398           
  -2.4                  -0.00104826           -8e-14                5.696e-11             0.00104842           
  -2.5                  -0.00105252           -1.8e-13              1.249e-10             0.0010527            
  -2.6                  -0.00105652           -2e-13                2.7544e-10            0.00105692           
  -2.7                  -0.00106056           -2.2e-13              5.9064e-10            0.00106084           
  -2.8                  -0.00106454           -1.2e-13              1.2212e-09            0.0010646            
  -2.9                  -0.00106816           -1e-13                2.4264e-09            0.0010684            
  -3                    -0.00107184           -2.2e-13              4.6514e-09            0.0010722            
  -3.1                  -0.0010756            -1e-13                8.615e-09             0.0010758            
  -3.2                  -0.00107934           -1.2e-13              1.5462e-08            0.0010796            
  -3.3                  -0.00108282           -2.4e-13              2.7054e-08            0.0010832            
  -3.4                  -0.00108632           -1e-13                4.605e-08             0.0010864            
  -3.5                  -0.00108952           -4e-14                7.6744e-08            0.0010902            
  -3.6                  -0.0010931            0                     1.2526e-07            0.0010934            
END_DB

BEGIN_DB
 ICCAP_VAR vg         -2.874         
 ICCAP_VAR vb         -0             
 ICCAP_VAR vs         -0             

 #vd                    id                    ig                    ib                    is                   
  -0                    8.8164e-08            -5e-13                9.4e-12               -7.0976e-08          
  -0.1                  -0.00018848           -4e-13                9.54e-12              0.00018876           
  -0.2                  -0.0003673            -4.2e-13              9.56e-12              0.00036762           
  -0.3                  -0.00053542           -3.8e-13              9.6e-12               0.00053572           
  -0.4                  -0.00069204           -3.8e-13              9.7e-12               0.00069236           
  -0.5                  -0.00083754           -4.4e-13              9.7e-12               0.00083788           
  -0.6                  -0.0009715            -3.8e-13              9.7e-12               0.00097176           
  -0.7                  -0.00109316           -4.4e-13              9.84e-12              0.00109356           
  -0.8                  -0.0012034            -3.8e-13              9.58e-12              0.001204             
  -0.9                  -0.0013022            -3.4e-13              9.84e-12              0.0013026            
  -1                    -0.0013896            -4.2e-13              9.86e-12              0.0013902            
  -1.1                  -0.0014668            -2.8e-13              9.88e-12              0.0014672            
  -1.2                  -0.0015336            -1.6e-13              9.96e-12              0.0015344            
  -1.3                  -0.0015912            -1.8e-13              9.98e-12              0.0015918            
  -1.4                  -0.0016402            -2.6e-13              9.82e-12              0.0016408            
  -1.5                  -0.001682             -2.2e-13              9.9e-12               0.0016824            
  -1.6                  -0.001717             -2.8e-13              9.88e-12              0.0017176            
  -1.7                  -0.0017466            -2.6e-13              9.82e-12              0.0017476            
  -1.8                  -0.0017716            -2.2e-13              9.98e-12              0.0017724            
  -1.9                  -0.001793             -1.4e-13              1e-11                 0.0017936            
  -2                    -0.0018112            -2.8e-13              9.88e-12              0.0018116            
  -2.1                  -0.001827             -2.4e-13              9.9e-12               0.0018274            
  -2.2                  -0.0018404            -2.4e-13              1.028e-11             0.001841             
  -2.3                  -0.0018524            -2.2e-13              1.102e-11             0.001853             
  -2.4                  -0.0018634            -2e-13                1.316e-11             0.0018642            
  -2.5                  -0.0018734            -1.6e-13              1.908e-11             0.001874             
  -2.6                  -0.0018824            -2e-13                3.444e-11             0.0018828            
  -2.7                  -0.0018906            -1.2e-13              7.09e-11              0.0018912            
  -2.8                  -0.0018984            -1.6e-13              1.529e-10             0.0018988            
  -2.9                  -0.0019054            -4e-14                3.2804e-10            0.001906             
  -3                    -0.001912             -2e-13                6.8564e-10            0.0019126            
  -3.1                  -0.0019186            -1.4e-13              1.379e-09             0.001919             
  -3.2                  -0.0019244            -1.2e-13              2.6968e-09            0.0019252            
  -3.3                  -0.0019304            -2.8e-13              5.097e-09             0.001931             
  -3.4                  -0.001936             -1e-13                9.3534e-09            0.0019366            
  -3.5                  -0.0019416            -2.6e-13              1.675e-08             0.0019424            
  -3.6                  -0.001947             -2.2e-13              2.9218e-08            0.0019474            
END_DB

BEGIN_DB
 ICCAP_VAR vg         -3.6           
 ICCAP_VAR vb         -0             
 ICCAP_VAR vs         -0             

 #vd                    id                    ig                    ib                    is                   
  -0                    9.7944e-08            -5e-13                9.58e-12              -8.0344e-08          
  -0.1                  -0.00022188           -3.4e-13              9.52e-12              0.00022218           
  -0.2                  -0.0004356            -4.2e-13              9.66e-12              0.00043592           
  -0.3                  -0.00063994           -4.4e-13              9.76e-12              0.00064024           
  -0.4                  -0.00083404           -2.6e-13              9.76e-12              0.00083436           
  -0.5                  -0.00101838           -4e-13                9.72e-12              0.00101874           
  -0.6                  -0.0011922            -3.2e-13              9.8e-12               0.0011928            
  -0.7                  -0.001355             -3.2e-13              9.78e-12              0.0013558            
  -0.8                  -0.0015076            -2.8e-13              9.86e-12              0.0015082            
