! VERSION = 6.00
BEGIN_HEADER
 ICCAP_INPUTS
  vd         V  D GROUND SMU1 0.1 LIN        1    -0         -3.6       37   -0.1      
  vg         V  G GROUND SMU2 0.001 LIN        2    -0.752     -3.6       5    -0.712    
  vb         V  B GROUND SMU4 0.1 CON        -0
  vs         V  S GROUND SMU3 0.1 CON        -0
 ICCAP_OUTPUTS
  id         I  D GROUND SMU1 B
  ig         I  G GROUND SMU2 B
  ib         I  B GROUND SMU4 B
  is         I  S GROUND SMU3 B
 ICCAP_VALUES
  MASTER_SETUP_TYPE "~dc_idvd~"
  LINVT_VALUE "|idvg|100.0n|100.0m|1.000m|5|3.600|"
  LISTVT_VALUE ""
  TYPE "-1"
  TEMP " 70.0000 "
  IS_TNOM " 0.00000 "
  MAIN.W "10.00u"
  MAIN.L "10.00u"
  MAIN.AD "3.400p"
  MAIN.AS "3.400p"
  MAIN.PD "20.68u"
  MAIN.PS "20.68u"
  MAIN.NF "1.000"
  MAIN.M "1"
  MAIN.NRD "0.000"
  MAIN.NRS "0.000"
  MAIN.LDRIFT1 "1E-06"
  MAIN.LDRIFT2 "1E-06"
  MAIN.SA "0.000"
  MAIN.SB "0.000"
  MAIN.SD "0.000"
  MAIN.SCA "0.000"
  MAIN.SCB "0.000"
  MAIN.SCC "0.000"
  MAIN.SC "0.000"
  MODULE "S562"
  PIN_D "16"
  PIN_G "5"
  PIN_S "6"
  PIN_B "15"
  PIN_E ""
  PIN_6 ""
  XY_ID ""
  FUNC "Large"
  STI "SA ref"
  WPE "WPE ref"
  COMMENT ""
  DIS_MEAS ""
  TypeTCI "10"
END_HEADER

BEGIN_DB
 ICCAP_VAR vg         -0.752         
 ICCAP_VAR vb         -0             
 ICCAP_VAR vs         -0             

 #vd                    id                    ig                    ib                    is                   
  -0                    1.4904e-10            6e-14                 -5.026e-11            -1.8952e-10          
  -0.1                  -2.8882e-07           1e-13                 -4.892e-11            2.8888e-07           
  -0.2                  -3.34e-07             1.4e-13               -4.8e-11              3.341e-07            
  -0.3                  -3.3658e-07           6e-14                 -4.702e-11            3.3666e-07           
  -0.4                  -3.368e-07            6e-14                 -4.634e-11            3.369e-07            
  -0.5                  -3.3692e-07           8e-14                 -4.564e-11            3.3702e-07           
  -0.6                  -3.3702e-07           2.2e-13               -4.488e-11            3.371e-07            
  -0.7                  -3.3708e-07           1.8e-13               -4.44e-11             3.3718e-07           
  -0.8                  -3.3716e-07           2.6e-13               -4.378e-11            3.3724e-07           
  -0.9                  -3.372e-07            1.6e-13               -4.324e-11            3.373e-07            
  -1                    -3.3726e-07           1e-13                 -4.284e-11            3.3734e-07           
  -1.1                  -3.3732e-07           1e-13                 -4.202e-11            3.3736e-07           
  -1.2                  -3.3732e-07           8e-14                 -4.142e-11            3.3744e-07           
  -1.3                  -3.3738e-07           8e-14                 -4.07e-11             3.3746e-07           
  -1.4                  -3.3742e-07           2.4e-13               -4e-11                3.375e-07            
  -1.5                  -3.3744e-07           2.8e-13               -3.918e-11            3.3754e-07           
  -1.6                  -3.375e-07            2e-13                 -3.838e-11            3.3758e-07           
  -1.7                  -3.3752e-07           1e-13                 -3.73e-11             3.3762e-07           
  -1.8                  -3.3758e-07           1.6e-13               -3.616e-11            3.3768e-07           
  -1.9                  -3.3762e-07           1.6e-13               -3.47e-11             3.3772e-07           
  -2                    -3.3766e-07           1.6e-13               -3.318e-11            3.3774e-07           
  -2.1                  -3.377e-07            2.2e-13               -3.126e-11            3.3778e-07           
  -2.2                  -3.3772e-07           1.4e-13               -2.888e-11            3.3782e-07           
  -2.3                  -3.3774e-07           1.8e-13               -2.57e-11             3.3784e-07           
  -2.4                  -3.3776e-07           1.8e-13               -2.122e-11            3.3786e-07           
  -2.5                  -3.378e-07            2e-14                 -1.468e-11            3.3786e-07           
  -2.6                  -3.378e-07            1e-13                 -4.8e-12              3.3788e-07           
  -2.7                  -3.3788e-07           1.8e-13               9.84e-12              3.3792e-07           
  -2.8                  -3.3792e-07           1.6e-13               3.202e-11             3.3796e-07           
  -2.9                  -3.38e-07             1.6e-13               6.518e-11             3.38e-07             
  -3                    -3.3808e-07           1.2e-13               1.141e-10             3.3802e-07           
  -3.1                  -3.382e-07            1e-13                 1.853e-10             3.3808e-07           
  -3.2                  -3.3834e-07           1.2e-13               2.8802e-10            3.3808e-07           
  -3.3                  -3.385e-07            1.4e-13               4.3386e-10            3.3812e-07           
  -3.4                  -3.3872e-07           8e-14                 6.3662e-10            3.3812e-07           
  -3.5                  -3.39e-07             2e-14                 9.1628e-10            3.3814e-07           
  -3.6                  -3.3938e-07           1.4e-13               1.2992e-09            3.3816e-07           
END_DB

BEGIN_DB
 ICCAP_VAR vg         -1.464         
 ICCAP_VAR vb         -0             
 ICCAP_VAR vs         -0             

 #vd                    id                    ig                    ib                    is                   
  -0                    9.617e-10             -3.6e-13              -2.108e-11            -9.2274e-10          
  -0.1                  -2.6108e-06           -3e-13                -1.976e-11            2.614e-06            
  -0.2                  -4.7146e-06           -1e-13                -1.908e-11            4.7178e-06           
  -0.3                  -6.3122e-06           -2e-13                -1.816e-11            6.3152e-06           
  -0.4                  -7.415e-06            -3e-13                -1.718e-11            7.4182e-06           
  -0.5                  -8.0568e-06           -1.2e-13              -1.612e-11            8.06e-06             
  -0.6                  -8.3146e-06           -2.2e-13              -1.518e-11            8.3178e-06           
  -0.7                  -8.3696e-06           -1.6e-13              -1.412e-11            8.3728e-06           
  -0.8                  -8.3796e-06           -2.2e-13              -1.284e-11            8.3824e-06           
  -0.9                  -8.3834e-06           -8e-14                -1.188e-11            8.3862e-06           
  -1                    -8.3858e-06           -4e-14                -1.094e-11            8.3888e-06           
  -1.1                  -8.3878e-06           -8e-14                -9.94e-12             8.3906e-06           
  -1.2                  -8.3894e-06           -1.8e-13              -9.06e-12             8.3924e-06           
  -1.3                  -8.3908e-06           -2e-13                -8.18e-12             8.394e-06            
  -1.4                  -8.392e-06            -1.2e-13              -7.2e-12              8.395e-06            
  -1.5                  -8.3934e-06           -1.8e-13              -6.46e-12             8.3962e-06           
  -1.6                  -8.3944e-06           0                     -5.86e-12             8.3974e-06           
  -1.7                  -8.3956e-06           -1e-13                -5.16e-12             8.3984e-06           
  -1.8                  -8.3966e-06           -1e-13                -4.54e-12             8.3996e-06           
  -1.9                  -8.3974e-06           2e-14                 -3.94e-12             8.4004e-06           
  -2                    -8.3984e-06           -6e-14                -3.36e-12             8.4014e-06           
  -2.1                  -8.3994e-06           -1e-13                -2.74e-12             8.4024e-06           
  -2.2                  -8.4002e-06           -1e-13                -1.88e-12             8.4032e-06           
  -2.3                  -8.401e-06            -8e-14                -7.2e-13              8.4042e-06           
  -2.4                  -8.402e-06            -2e-14                1.56e-12              8.4048e-06           
  -2.5                  -8.4028e-06           6e-14                 5.62e-12              8.4058e-06           
  -2.6                  -8.4034e-06           2e-14                 1.374e-11             8.4062e-06           
  -2.7                  -8.404e-06            -1.4e-13              2.93e-11              8.407e-06            
  -2.8                  -8.4048e-06           -1.6e-13              5.8e-11               8.4078e-06           
  -2.9                  -8.4058e-06           0                     1.0872e-10            8.4086e-06           
  -3                    -8.4066e-06           0                     1.958e-10             8.4094e-06           
  -3.1                  -8.4076e-06           1.4e-13               3.4122e-10            8.41e-06             
  -3.2                  -8.4086e-06           6e-14                 5.7888e-10            8.4108e-06           
  -3.3                  -8.4092e-06           -1.2e-13              9.59e-10              8.4114e-06           
  -3.4                  -8.4106e-06           -8e-14                1.5524e-09            8.4118e-06           
  -3.5                  -8.4124e-06           -1.2e-13              2.4598e-09            8.4128e-06           
  -3.6                  -8.4142e-06           0                     3.8238e-09            8.4132e-06           
END_DB

BEGIN_DB
 ICCAP_VAR vg         -2.176         
 ICCAP_VAR vb         -0             
 ICCAP_VAR vs         -0             

 #vd                    id                    ig                    ib                    is                   
  -0                    1.519e-09             -5.2e-13              -7.14e-12             -1.2494e-09          
  -0.1                  -4.6334e-06           -2.8e-13              -7.12e-12             4.6366e-06           
  -0.2                  -8.8194e-06           -3.8e-13              -6.72e-12             8.8222e-06           
  -0.3                  -1.2548e-05           -2.6e-13              -6.22e-12             1.2554e-05           
  -0.4                  -1.582e-05            -1.6e-13              -5.78e-12             1.5826e-05           
  -0.5                  -1.8652e-05           -2.6e-13              -5.32e-12             1.8658e-05           
  -0.6                  -2.1038e-05           -3.2e-13              -4.86e-12             2.1044e-05           
  -0.7                  -2.2976e-05           -2.4e-13              -4.26e-12             2.2982e-05           
  -0.8                  -2.448e-05            -2.6e-13              -3.64e-12             2.4488e-05           
  -0.9                  -2.5556e-05           -1.6e-13              -3.2e-12              2.5562e-05           
  -1                    -2.6224e-05           -1.2e-13              -2.62e-12             2.623e-05            
  -1.1                  -2.6548e-05           -1.4e-13              -2.2e-12              2.6554e-05           
  -1.2                  -2.6656e-05           -3.4e-13              -1.8e-12              2.6662e-05           
  -1.3                  -2.6688e-05           -2.4e-13              -1.32e-12             2.6694e-05           
  -1.4                  -2.6702e-05           -2.8e-13              -7.8e-13              2.6708e-05           
  -1.5                  -2.671e-05            -1.4e-13              -3.2e-13              2.6718e-05           
  -1.6                  -2.6718e-05           -1e-13                0                     2.6724e-05           
  -1.7                  -2.6724e-05           -2e-13                3.2e-13               2.673e-05            
  -1.8                  -2.6728e-05           -1e-13                5.4e-13               2.6734e-05           
  -1.9                  -2.6734e-05           -3e-13                9.8e-13               2.6738e-05           
  -2                    -2.6736e-05           -2e-14                1.36e-12              2.6744e-05           
  -2.1                  -2.674e-05            -6e-14                1.64e-12              2.6746e-05           
  -2.2                  -2.6744e-05           -1.4e-13              1.82e-12              2.675e-05            
  -2.3                  -2.6746e-05           -1.6e-13              2.32e-12              2.6752e-05           
  -2.4                  -2.675e-05            -8e-14                2.46e-12              2.6756e-05           
  -2.5                  -2.6752e-05           -1e-13                2.74e-12              2.676e-05            
  -2.6                  -2.6756e-05           -1e-13                3.14e-12              2.6762e-05           
  -2.7                  -2.6758e-05           -1.6e-13              3.76e-12              2.6764e-05           
  -2.8                  -2.676e-05            -8e-14                4.9e-12               2.6766e-05           
  -2.9                  -2.6762e-05           -6e-14                7.84e-12              2.677e-05            
  -3                    -2.6766e-05           -1.4e-13              1.412e-11             2.6772e-05           
  -3.1                  -2.6768e-05           -1.4e-13              2.738e-11             2.6774e-05           
  -3.2                  -2.677e-05            -1.4e-13              5.452e-11             2.6776e-05           
  -3.3                  -2.6772e-05           1e-13                 1.0702e-10            2.6778e-05           
  -3.4                  -2.6774e-05           -4e-14                2.0394e-10            2.678e-05            
  -3.5                  -2.6776e-05           -1.2e-13              3.7712e-10            2.6782e-05           
  -3.6                  -2.678e-05            -1e-13                6.761e-10             2.6786e-05           
END_DB

BEGIN_DB
 ICCAP_VAR vg         -2.888         
 ICCAP_VAR vb         -0             
 ICCAP_VAR vs         -0             

 #vd                    id                    ig                    ib                    is                   
  -0                    1.6398e-09            -4.2e-13              -4.22e-12             -1.5502e-09          
  -0.1                  -6.2808e-06           -3.6e-13              -4.14e-12             6.284e-06            
  -0.2                  -1.2164e-05           -2.6e-13              -3.78e-12             1.2172e-05           
  -0.3                  -1.7644e-05           -3.6e-13              -3.5e-12              1.765e-05            
  -0.4                  -2.2712e-05           -1.8e-13              -3.08e-12             2.2718e-05           
  -0.5                  -2.7392e-05           -3.8e-13              -2.68e-12             2.7398e-05           
  -0.6                  -3.1674e-05           -2.6e-13              -2.4e-12              3.1682e-05           
  -0.7                  -3.5554e-05           -3.4e-13              -2.02e-12             3.556e-05            
  -0.8                  -3.9044e-05           -3.8e-13              -1.52e-12             3.905e-05            
  -0.9                  -4.2136e-05           -3.8e-13              -1.04e-12             4.2144e-05           
  -1                    -4.483e-05            -3.4e-13              -7e-13                4.4836e-05           
  -1.1                  -4.7132e-05           -2.2e-13              -2.8e-13              4.714e-05            
  -1.2                  -4.9036e-05           -2.2e-13              4e-14                 4.9044e-05           
  -1.3                  -5.0552e-05           -3.4e-13              4.6e-13               5.0558e-05           
  -1.4                  -5.168e-05            -2e-13                9.4e-13               5.1686e-05           
  -1.5                  -5.2442e-05           -2.6e-13              1.16e-12              5.245e-05            
  -1.6                  -5.2884e-05           -2.6e-13              1.48e-12              5.289e-05            
  -1.7                  -5.3088e-05           -2e-13                1.8e-12               5.3094e-05           
  -1.8                  -5.3166e-05           -1.6e-13              2.02e-12              5.3172e-05           
  -1.9                  -5.3202e-05           -2.8e-13              2.34e-12              5.3208e-05           
  -2                    -5.3224e-05           -3e-13                2.68e-12              5.323e-05            
  -2.1                  -5.3238e-05           -2.4e-13              2.88e-12              5.3244e-05           
  -2.2                  -5.3248e-05           -3e-13                3.16e-12              5.3256e-05           
  -2.3                  -5.3258e-05           -8e-14                3.46e-12              5.3264e-05           
  -2.4                  -5.3268e-05           -3.2e-13              3.56e-12              5.3274e-05           
  -2.5                  -5.3276e-05           -1e-13                3.74e-12              5.3282e-05           
  -2.6                  -5.3284e-05           -1e-13                4.1e-12               5.329e-05            
  -2.7                  -5.3292e-05           -1.4e-13              4.22e-12              5.3298e-05           
  -2.8                  -5.33e-05             -8e-14                4.28e-12              5.3306e-05           
  -2.9                  -5.3304e-05           -8e-14                4.64e-12              5.3312e-05           
  -3                    -5.331e-05            -1.2e-13              4.8e-12               5.3318e-05           
  -3.1                  -5.3316e-05           -8e-14                5.06e-12              5.3322e-05           
  -3.2                  -5.3322e-05           -1.4e-13              5.5e-12               5.3328e-05           
  -3.3                  -5.3326e-05           -1e-13                6.48e-12              5.3334e-05           
  -3.4                  -5.333e-05            -1.8e-13              8.84e-12              5.3338e-05           
  -3.5                  -5.3336e-05           0                     1.454e-11             5.334e-05            
  -3.6                  -5.334e-05            -1.4e-13              2.762e-11             5.3346e-05           
END_DB

BEGIN_DB
 ICCAP_VAR vg         -3.6           
 ICCAP_VAR vb         -0             
 ICCAP_VAR vs         -0             

 #vd                    id                    ig                    ib                    is                   
  -0                    1.884e-09             -6.2e-13              -2.9e-12              -1.8344e-09          
  -0.1                  -7.622e-06            -4.6e-13              -2.8e-12              7.6254e-06           
  -0.2                  -1.4894e-05           -3e-13                -2.64e-12             1.49e-05             
  -0.3                  -2.1802e-05           -4e-13                -2.38e-12             2.1808e-05           
  -0.4                  -2.834e-05            -3.4e-13              -2.04e-12             2.8346e-05           
  -0.5                  -3.4536e-05           -3.8e-13              -1.66e-12             3.4542e-05           
  -0.6                  -4.0378e-05           -3.2e-13              -1.32e-12             4.0386e-05           
  -0.7                  -4.5858e-05           -3.2e-13              -9.4e-13              4.5864e-05           
  -0.8                  -5.0996e-05           -3.6e-13              -4.6e-13              5.1004e-05           
