! VERSION = 6.00
BEGIN_HEADER
 ICCAP_INPUTS
  vd         V  D GROUND SMU1 0.1 LIN        1    -0         -3.6       37   -0.1      
  vg         V  G GROUND SMU2 0.001 LIN        2    -0.852     -3.6       5    -0.687    
  vb         V  B GROUND SMU4 0.1 CON        -0
  vs         V  S GROUND SMU3 0.1 CON        -0
 ICCAP_OUTPUTS
  id         I  D GROUND SMU1 B
  ig         I  G GROUND SMU2 B
  ib         I  B GROUND SMU4 B
  is         I  S GROUND SMU3 B
 ICCAP_VALUES
  MASTER_SETUP_TYPE "~dc_idvd~"
  LINVT_VALUE "|idvg|100.0n|100.0m|1.000m|5|3.600|"
  LISTVT_VALUE ""
  TYPE "-1"
  TEMP "-40.0000 "
  IS_TNOM " 0.00000 "
  MAIN.W "300.0n"
  MAIN.L "10.00u"
  MAIN.AD "102.0f"
  MAIN.AS "102.0f"
  MAIN.PD "1.280u"
  MAIN.PS "1.280u"
  MAIN.NF "1.000"
  MAIN.M "1"
  MAIN.NRD "0.000"
  MAIN.NRS "0.000"
  MAIN.LDRIFT1 "1E-06"
  MAIN.LDRIFT2 "1E-06"
  MAIN.SA "0.000"
  MAIN.SB "0.000"
  MAIN.SD "0.000"
  MAIN.SCA "0.000"
  MAIN.SCB "0.000"
  MAIN.SCC "0.000"
  MAIN.SC "0.000"
  MODULE "S555"
  PIN_D "14"
  PIN_G "7"
  PIN_S "8"
  PIN_B "13"
  PIN_E ""
  PIN_6 ""
  XY_ID ""
  FUNC "Narrow"
  STI "SA ref"
  WPE "WPE ref"
  COMMENT ""
  DIS_MEAS ""
  TypeTCI "10"
END_HEADER

BEGIN_DB
 ICCAP_VAR vg         -0.852         
 ICCAP_VAR vb         -0             
 ICCAP_VAR vs         -0             

 #vd                    id                    ig                    ib                    is                   
  -0                    1.164e-11             -1.6e-13              -4.4e-13              -1.24e-11            
  -0.1                  -1.3418e-08           1e-13                 -4.6e-13              1.344e-08            
  -0.2                  -1.4698e-08           0                     -4.8e-13              1.4722e-08           
  -0.3                  -1.4726e-08           -2e-14                -5e-13                1.475e-08            
  -0.4                  -1.473e-08            -2e-14                -4.8e-13              1.4754e-08           
  -0.5                  -1.4734e-08           2e-14                 -3.8e-13              1.4758e-08           
  -0.6                  -1.4738e-08           0                     -4.4e-13              1.476e-08            
  -0.7                  -1.474e-08            2e-14                 -4.6e-13              1.4762e-08           
  -0.8                  -1.474e-08            -2e-14                -4.2e-13              1.4762e-08           
  -0.9                  -1.4742e-08           1.2e-13               -4.8e-13              1.4768e-08           
  -1                    -1.4748e-08           4e-14                 -5.4e-13              1.477e-08            
  -1.1                  -1.4748e-08           6e-14                 -5e-13                1.476e-08            
  -1.2                  -1.4738e-08           1e-13                 -5e-13                1.4772e-08           
  -1.3                  -1.4752e-08           8e-14                 -4.4e-13              1.4772e-08           
  -1.4                  -1.4752e-08           0                     -4.8e-13              1.4778e-08           
  -1.5                  -1.4756e-08           6e-14                 -4.2e-13              1.4778e-08           
  -1.6                  -1.4756e-08           0                     -4.2e-13              1.478e-08            
  -1.7                  -1.4758e-08           0                     -3.8e-13              1.4782e-08           
  -1.8                  -1.476e-08            -2e-14                -4.6e-13              1.4784e-08           
  -1.9                  -1.4762e-08           -2e-14                -4.4e-13              1.4784e-08           
  -2                    -1.4764e-08           0                     -5.2e-13              1.4784e-08           
  -2.1                  -1.4766e-08           -2e-14                -4.8e-13              1.4786e-08           
  -2.2                  -1.4766e-08           -1.2e-13              -4.6e-13              1.479e-08            
  -2.3                  -1.4768e-08           1.2e-13               -3.8e-13              1.4788e-08           
  -2.4                  -1.477e-08            0                     -2.4e-13              1.4792e-08           
  -2.5                  -1.477e-08            1.6e-13               0                     1.4794e-08           
  -2.6                  -1.4774e-08           6e-14                 3e-13                 1.4796e-08           
  -2.7                  -1.4774e-08           2e-14                 7.6e-13               1.4796e-08           
  -2.8                  -1.4776e-08           1.2e-13               1.62e-12              1.4796e-08           
  -2.9                  -1.4782e-08           1.4e-13               2.96e-12              1.48e-08             
  -3                    -1.4786e-08           1e-13                 5.08e-12              1.48e-08             
  -3.1                  -1.4788e-08           2e-14                 8.4e-12               1.4802e-08           
  -3.2                  -1.4794e-08           1.4e-13               1.314e-11             1.48e-08             
  -3.3                  -1.48e-08             8e-14                 2.026e-11             1.4802e-08           
  -3.4                  -1.4814e-08           1e-13                 3.028e-11             1.4804e-08           
  -3.5                  -1.4826e-08           0                     4.438e-11             1.4806e-08           
  -3.6                  -1.4848e-08           1.2e-13               6.412e-11             1.4808e-08           
END_DB

BEGIN_DB
 ICCAP_VAR vg         -1.539         
 ICCAP_VAR vb         -0             
 ICCAP_VAR vs         -0             

 #vd                    id                    ig                    ib                    is                   
  -0                    8.002e-11             -2.6e-13              -2.4e-13              -8.252e-11           
  -0.1                  -1.4758e-07           -2.2e-13              -1.2e-13              1.4774e-07           
  -0.2                  -2.6472e-07           -2e-13                -2e-13                2.6494e-07           
  -0.3                  -3.5182e-07           -2e-13                -2.4e-13              3.5202e-07           
  -0.4                  -4.101e-07            -2.2e-13              -1.8e-13              4.1032e-07           
  -0.5                  -4.4236e-07           -2.4e-13              -2.4e-13              4.4256e-07           
  -0.6                  -4.5396e-07           -3.2e-13              -2.4e-13              4.5418e-07           
  -0.7                  -4.5598e-07           -1e-13                -2.4e-13              4.5622e-07           
  -0.8                  -4.5638e-07           -2e-13                -2.2e-13              4.5664e-07           
  -0.9                  -4.566e-07            -2e-13                -3e-13                4.5682e-07           
  -1                    -4.5676e-07           -4e-14                -1.4e-13              4.5698e-07           
  -1.1                  -4.5688e-07           -2e-14                -2.6e-13              4.5716e-07           
  -1.2                  -4.5702e-07           2e-14                 -2e-13                4.5724e-07           
  -1.3                  -4.571e-07            8e-14                 -2e-13                4.5734e-07           
  -1.4                  -4.572e-07            -6e-14                -3e-13                4.5742e-07           
  -1.5                  -4.5726e-07           2e-14                 -2.6e-13              4.5748e-07           
  -1.6                  -4.5734e-07           1e-13                 -2e-13                4.5752e-07           
  -1.7                  -4.5734e-07           -2e-14                -2.6e-13              4.5754e-07           
  -1.8                  -4.5738e-07           -2e-14                -2e-13                4.576e-07            
  -1.9                  -4.5746e-07           4e-14                 -3.6e-13              4.5766e-07           
  -2                    -4.5754e-07           -1e-13                -3.4e-13              4.5772e-07           
  -2.1                  -4.5756e-07           2e-14                 -2.6e-13              4.5778e-07           
  -2.2                  -4.5762e-07           2e-14                 -2.6e-13              4.579e-07            
  -2.3                  -4.5774e-07           -1e-13                -3e-13                4.5796e-07           
  -2.4                  -4.5778e-07           -1.2e-13              -2e-13                4.5802e-07           
  -2.5                  -4.5782e-07           -8e-14                -6e-14                4.5804e-07           
  -2.6                  -4.5784e-07           -1.8e-13              1.4e-13               4.5806e-07           
  -2.7                  -4.5786e-07           6e-14                 6.6e-13               4.5808e-07           
  -2.8                  -4.5788e-07           -2e-14                1.72e-12              4.5808e-07           
  -2.9                  -4.5792e-07           0                     3.86e-12              4.5812e-07           
  -3                    -4.5798e-07           -1e-13                7.74e-12              4.5818e-07           
  -3.1                  -4.5802e-07           4e-14                 1.456e-11             4.5822e-07           
  -3.2                  -4.5808e-07           0                     2.654e-11             4.5826e-07           
  -3.3                  -4.5814e-07           -2e-14                4.654e-11             4.5836e-07           
  -3.4                  -4.5826e-07           0                     7.9e-11               4.584e-07            
  -3.5                  -4.584e-07            1.2e-13               1.3106e-10            4.5846e-07           
  -3.6                  -4.5852e-07           6e-14                 2.1202e-10            4.585e-07            
END_DB

BEGIN_DB
 ICCAP_VAR vg         -2.226         
 ICCAP_VAR vb         -0             
 ICCAP_VAR vs         -0             

 #vd                    id                    ig                    ib                    is                   
  -0                    1.3826e-10            -2.8e-13              2e-14                 -1.3792e-10          
  -0.1                  -2.653e-07            -2.8e-13              0                     2.655e-07            
  -0.2                  -5.0368e-07           -3e-13                -8e-14                5.0392e-07           
  -0.3                  -7.1458e-07           -2.2e-13              -1.6e-13              7.1486e-07           
  -0.4                  -8.9784e-07           -2.4e-13              -2.4e-13              8.98e-07             
  -0.5                  -1.05416e-06          0                     -2e-13                1.05458e-06          
  -0.6                  -1.1828e-06           -1e-13                -8e-14                1.1864e-06           
  -0.7                  -1.286e-06            2e-14                 -1.6e-13              1.2896e-06           
  -0.8                  -1.3642e-06           -1e-13                -1.2e-13              1.3678e-06           
  -0.9                  -1.4178e-06           -1.4e-13              -2.6e-13              1.4214e-06           
  -1                    -1.4492e-06           -1e-13                -1.4e-13              1.4528e-06           
  -1.1                  -1.463e-06            -1.2e-13              -2e-13                1.4666e-06           
  -1.2                  -1.467e-06            -1.4e-13              -2.2e-13              1.4704e-06           
  -1.3                  -1.4682e-06           0                     -2.4e-13              1.4718e-06           
  -1.4                  -1.4688e-06           -1e-13                -2.2e-13              1.4722e-06           
  -1.5                  -1.4692e-06           -6e-14                -2.4e-13              1.473e-06            
  -1.6                  -1.4698e-06           -2.6e-13              -2.4e-13              1.4732e-06           
  -1.7                  -1.47e-06             -1.4e-13              -2.4e-13              1.4736e-06           
  -1.8                  -1.4704e-06           -2.2e-13              -3.2e-13              1.474e-06            
  -1.9                  -1.4706e-06           -4e-14                -2.2e-13              1.474e-06            
  -2                    -1.4706e-06           -1e-13                -3.2e-13              1.4742e-06           
  -2.1                  -1.471e-06            -8e-14                -3.6e-13              1.4746e-06           
  -2.2                  -1.4712e-06           -1.4e-13              -3e-13                1.4746e-06           
  -2.3                  -1.4712e-06           -8e-14                -2.2e-13              1.4748e-06           
  -2.4                  -1.4714e-06           -4e-14                -3.8e-13              1.475e-06            
  -2.5                  -1.4718e-06           0                     -3.8e-13              1.4754e-06           
  -2.6                  -1.472e-06            -1.6e-13              -2.4e-13              1.4756e-06           
  -2.7                  -1.4722e-06           -1e-13                -2.8e-13              1.4754e-06           
  -2.8                  -1.4722e-06           -1.8e-13              -2.2e-13              1.4756e-06           
  -2.9                  -1.4724e-06           -1.8e-13              -1.4e-13              1.4758e-06           
  -3                    -1.4724e-06           -1.2e-13              6e-14                 1.476e-06            
  -3.1                  -1.4726e-06           -6e-14                5.4e-13               1.476e-06            
  -3.2                  -1.4726e-06           8e-14                 1.62e-12              1.476e-06            
  -3.3                  -1.4726e-06           4e-14                 3.88e-12              1.4762e-06           
  -3.4                  -1.4728e-06           -1e-13                8.4e-12               1.4764e-06           
  -3.5                  -1.4732e-06           -4e-14                1.696e-11             1.4766e-06           
  -3.6                  -1.4734e-06           4e-14                 3.23e-11              1.4768e-06           
END_DB

BEGIN_DB
 ICCAP_VAR vg         -2.913         
 ICCAP_VAR vb         -0             
 ICCAP_VAR vs         -0             

 #vd                    id                    ig                    ib                    is                   
  -0                    1.8806e-10            -4e-13                -4e-14                -1.7984e-10          
  -0.1                  -3.5698e-07           -3e-13                -8e-14                3.5712e-07           
  -0.2                  -6.914e-07            -4.8e-13              -1.2e-13              6.916e-07            
  -0.3                  -1.00214e-06          -2e-13                -1e-13                1.00242e-06          
  -0.4                  -1.2874e-06           -4e-13                -1.4e-13              1.291e-06            
  -0.5                  -1.5508e-06           -1.6e-13              -2.4e-13              1.5544e-06           
  -0.6                  -1.7902e-06           -2.8e-13              -2e-13                1.7936e-06           
  -0.7                  -2.005e-06            -3.2e-13              -1.6e-13              2.0088e-06           
  -0.8                  -2.1964e-06           -2.4e-13              -2e-13                2.1998e-06           
  -0.9                  -2.3636e-06           -3.2e-13              -2.8e-13              2.3672e-06           
  -1                    -2.507e-06            -1.4e-13              -2.6e-13              2.5108e-06           
  -1.1                  -2.627e-06            -2.2e-13              -1.2e-13              2.6306e-06           
  -1.2                  -2.7244e-06           -2e-13                -1.4e-13              2.7284e-06           
  -1.3                  -2.7994e-06           -1.8e-13              -1.4e-13              2.8032e-06           
  -1.4                  -2.8528e-06           -2.4e-13              -2e-13                2.8562e-06           
  -1.5                  -2.8864e-06           -6e-14                -1.4e-13              2.89e-06             
  -1.6                  -2.904e-06            -8e-14                -1.8e-13              2.9074e-06           
  -1.7                  -2.911e-06            -2e-14                -2.6e-13              2.9144e-06           
  -1.8                  -2.914e-06            -2.4e-13              -2.2e-13              2.9174e-06           
  -1.9                  -2.9154e-06           -1.6e-13              -1.4e-13              2.9192e-06           
  -2                    -2.9164e-06           -6e-14                -2e-13                2.92e-06             
  -2.1                  -2.9172e-06           -2e-14                -2.4e-13              2.9206e-06           
  -2.2                  -2.9176e-06           -1e-13                -2.4e-13              2.9206e-06           
  -2.3                  -2.9178e-06           -6e-14                -2.6e-13              2.9216e-06           
  -2.4                  -2.9186e-06           -1e-13                -2.6e-13              2.922e-06            
  -2.5                  -2.9192e-06           -4e-14                -1.6e-13              2.9226e-06           
  -2.6                  -2.9198e-06           -1.6e-13              -2.6e-13              2.9236e-06           
  -2.7                  -2.9204e-06           -2e-13                -2.6e-13              2.9236e-06           
  -2.8                  -2.9204e-06           -4e-14                -2.8e-13              2.924e-06            
  -2.9                  -2.921e-06            -8e-14                -2.2e-13              2.9246e-06           
  -3                    -2.9212e-06           -1.6e-13              -2.6e-13              2.9246e-06           
  -3.1                  -2.9218e-06           0                     -2.4e-13              2.9252e-06           
  -3.2                  -2.9222e-06           -4e-14                -3.4e-13              2.9254e-06           
  -3.3                  -2.922e-06            0                     -3e-13                2.926e-06            
  -3.4                  -2.923e-06            -8e-14                -1.4e-13              2.9262e-06           
  -3.5                  -2.9234e-06           -1.4e-13              8e-14                 2.9262e-06           
  -3.6                  -2.9234e-06           -1.8e-13              6.2e-13               2.927e-06            
END_DB

BEGIN_DB
 ICCAP_VAR vg         -3.6           
 ICCAP_VAR vb         -0             
 ICCAP_VAR vs         -0             

 #vd                    id                    ig                    ib                    is                   
  -0                    2.1266e-10            -4.2e-13              0                     -2.1514e-10          
  -0.1                  -4.2622e-07           -3.6e-13              -1.2e-13              4.264e-07            
  -0.2                  -8.3364e-07           -2.6e-13              -6e-14                8.3386e-07           
  -0.3                  -1.22e-06             -3.8e-13              4e-14                 1.2236e-06           
  -0.4                  -1.5868e-06           -3e-13                -1e-13                1.5904e-06           
  -0.5                  -1.934e-06            -8e-14                -1e-13                1.9376e-06           
  -0.6                  -2.2616e-06           4e-14                 -8e-14                2.2654e-06           
  -0.7                  -2.568e-06            0                     -8e-14                2.5714e-06           
  -0.8                  -2.8532e-06           -3.8e-13              -1.2e-13              2.857e-06            
