! VERSION = 6.00
BEGIN_HEADER
 ICCAP_INPUTS
  vd         V  D GROUND SMU1 0.1 LIN        1    -0         -3.6       37   -0.1      
  vg         V  G GROUND SMU2 0.001 LIST       2 3 -0.563 -0.763 -0.963
  vb         V  B GROUND SMU4 0.1 CON        -0
  vs         V  S GROUND SMU3 0.1 CON        -0
 ICCAP_OUTPUTS
  id         I  D GROUND SMU1 B
  ig         I  G GROUND SMU2 B
  ib         I  B GROUND SMU4 B
  is         I  S GROUND SMU3 B
 ICCAP_VALUES
  MASTER_SETUP_TYPE "~dc_idvd~"
  LINVT_VALUE ""
  LISTVT_VALUE "|idvg|100.0n|-200.0m|1.000m|3|200.0m|200.0m|"
  TYPE "-1"
  TEMP "-40.0000 "
  IS_TNOM " 0.00000 "
  MAIN.W "2.000u"
  MAIN.L "1.200u"
  MAIN.AD "680.0f"
  MAIN.AS "680.0f"
  MAIN.PD "4.680u"
  MAIN.PS "4.680u"
  MAIN.NF "1.000"
  MAIN.M "1"
  MAIN.NRD "0.000"
  MAIN.NRS "0.000"
  MAIN.LDRIFT1 "1E-06"
  MAIN.LDRIFT2 "1E-06"
  MAIN.SA "0.000"
  MAIN.SB "0.000"
  MAIN.SD "0.000"
  MAIN.SCA "0.000"
  MAIN.SCB "0.000"
  MAIN.SCC "0.000"
  MAIN.SC "0.000"
  MODULE "S563"
  PIN_D "16"
  PIN_G "5"
  PIN_S "6"
  PIN_B "15"
  PIN_E ""
  PIN_6 ""
  XY_ID ""
  FUNC "LW Scale"
  STI "SA ref"
  WPE "WPE ref"
  COMMENT ""
  DIS_MEAS ""
  TypeTCI "10"
END_HEADER

BEGIN_DB
 ICCAP_VAR vg         -0.563         
 ICCAP_VAR vb         -0             
 ICCAP_VAR vs         -0             

 #vd                    id                    ig                    ib                    is                   
  -0                    3.6e-13               4.6e-13               -6e-14                -1.36e-12            
  -0.1                  -5.5002e-10           1.2e-13               -1.4e-13              5.4992e-10           
  -0.2                  -5.5498e-10           4e-13                 -1.4e-13              5.551e-10            
  -0.3                  -5.5612e-10           2.6e-13               -1.4e-13              5.5608e-10           
  -0.4                  -5.568e-10            3.6e-13               0                     5.5678e-10           
  -0.5                  -5.5758e-10           4e-13                 -1.2e-13              5.5744e-10           
  -0.6                  -5.588e-10            2.6e-13               -1e-13                5.582e-10            
  -0.7                  -5.588e-10            4.4e-13               -1.8e-13              5.5928e-10           
  -0.8                  -5.5934e-10           1.8e-13               -1.2e-13              5.5914e-10           
  -0.9                  -5.6004e-10           4.8e-13               -1.2e-13              5.5994e-10           
  -1                    -5.6066e-10           2.2e-13               6e-14                 5.5956e-10           
  -1.1                  -5.6124e-10           3e-13                 -6e-14                5.6074e-10           
  -1.2                  -5.6126e-10           1.8e-13               -1.2e-13              5.6076e-10           
  -1.3                  -5.6188e-10           1.6e-13               -6e-14                5.6152e-10           
  -1.4                  -5.6208e-10           2e-13                 0                     5.6182e-10           
  -1.5                  -5.627e-10            2.6e-13               0                     5.6204e-10           
  -1.6                  -5.6292e-10           3.2e-13               -1e-13                5.6242e-10           
  -1.7                  -5.633e-10            4e-14                 -8e-14                5.6264e-10           
  -1.8                  -5.6356e-10           1.6e-13               -1.2e-13              5.641e-10            
  -1.9                  -5.6402e-10           2.2e-13               -2e-14                5.6334e-10           
  -2                    -5.6434e-10           3.6e-13               -4e-14                5.6356e-10           
  -2.1                  -5.643e-10            6e-14                 -4e-14                5.6402e-10           
  -2.2                  -5.6458e-10           1.2e-13               0                     5.6428e-10           
  -2.3                  -5.6546e-10           1.4e-13               -1.4e-13              5.647e-10            
  -2.4                  -5.6618e-10           -8e-14                -1e-13                5.651e-10            
  -2.5                  -5.6624e-10           3.2e-13               1.4e-13               5.6514e-10           
  -2.6                  -5.664e-10            2e-14                 8e-14                 5.6596e-10           
  -2.7                  -5.6694e-10           5.2e-13               0                     5.664e-10            
  -2.8                  -5.6726e-10           1e-13                 3e-13                 5.6652e-10           
  -2.9                  -5.6792e-10           2.2e-13               3e-13                 5.6708e-10           
  -3                    -5.6826e-10           1.2e-13               5e-13                 5.6652e-10           
  -3.1                  -5.6878e-10           3.6e-13               7e-13                 5.6682e-10           
  -3.2                  -5.6954e-10           -4e-14                1.24e-12              5.6718e-10           
  -3.3                  -5.7048e-10           1.4e-13               1.68e-12              5.6792e-10           
  -3.4                  -5.7134e-10           4e-14                 2.54e-12              5.6784e-10           
  -3.5                  -5.7266e-10           1e-13                 3.78e-12              5.6782e-10           
  -3.6                  -5.743e-10            1.4e-13               4.92e-12              5.6866e-10           
END_DB

BEGIN_DB
 ICCAP_VAR vg         -0.763         
 ICCAP_VAR vb         -0             
 ICCAP_VAR vs         -0             

 #vd                    id                    ig                    ib                    is                   
  -0                    1.9022e-10            -8e-14                -1.2e-13              -2.0454e-10          
  -0.1                  -1.6372e-07           0                     -1.2e-13              1.639e-07            
  -0.2                  -1.6872e-07           2e-13                 -1.4e-13              1.6888e-07           
  -0.3                  -1.6926e-07           8e-14                 -4e-14                1.6944e-07           
  -0.4                  -1.6966e-07           6e-14                 -2e-14                1.6982e-07           
  -0.5                  -1.6996e-07           4.2e-13               -1.8e-13              1.7014e-07           
  -0.6                  -1.702e-07            -2e-14                -1.4e-13              1.704e-07            
  -0.7                  -1.7046e-07           3e-13                 -1e-13                1.706e-07            
  -0.8                  -1.7052e-07           -1e-13                0                     1.7076e-07           
  -0.9                  -1.7076e-07           2.8e-13               -2e-14                1.709e-07            
  -1                    -1.7094e-07           0                     -8e-14                1.7114e-07           
  -1.1                  -1.7108e-07           1.6e-13               -2e-14                1.7124e-07           
  -1.2                  -1.7124e-07           0                     2e-14                 1.7136e-07           
  -1.3                  -1.7132e-07           8e-14                 -2e-14                1.715e-07            
  -1.4                  -1.7146e-07           2.2e-13               4e-14                 1.7162e-07           
  -1.5                  -1.7158e-07           -1.2e-13              -4e-14                1.7176e-07           
  -1.6                  -1.7172e-07           2.8e-13               -6e-14                1.7198e-07           
  -1.7                  -1.719e-07            3.6e-13               1.4e-13               1.7202e-07           
  -1.8                  -1.7198e-07           -2e-13                4e-14                 1.7214e-07           
  -1.9                  -1.721e-07            5.6e-13               6e-14                 1.7224e-07           
  -2                    -1.7214e-07           1.6e-13               2e-13                 1.7232e-07           
  -2.1                  -1.7226e-07           -1.8e-13              5e-13                 1.7248e-07           
  -2.2                  -1.724e-07            1.4e-13               8.8e-13               1.7258e-07           
  -2.3                  -1.7252e-07           2.2e-13               1.86e-12              1.7272e-07           
  -2.4                  -1.7264e-07           -3e-13                3.66e-12              1.728e-07            
  -2.5                  -1.728e-07            -4e-14                6.68e-12              1.729e-07            
  -2.6                  -1.7278e-07           8e-13                 1.17e-11              1.7296e-07           
  -2.7                  -1.7288e-07           -4e-14                2.002e-11             1.7306e-07           
  -2.8                  -1.7302e-07           -4e-14                3.336e-11             1.7316e-07           
  -2.9                  -1.7312e-07           1.6e-13               5.452e-11             1.7326e-07           
  -3                    -1.7324e-07           6e-14                 8.704e-11             1.7338e-07           
  -3.1                  -1.734e-07            -2.2e-13              1.3552e-10            1.7346e-07           
  -3.2                  -1.7354e-07           -1.2e-13              2.0728e-10            1.7348e-07           
  -3.3                  -1.7372e-07           -8e-14                3.1078e-10            1.7362e-07           
  -3.4                  -1.7398e-07           -1.6e-13              4.5662e-10            1.7372e-07           
  -3.5                  -1.7424e-07           4.4e-13               6.5926e-10            1.7378e-07           
  -3.6                  -1.7462e-07           3.2e-13               9.35e-10              1.7382e-07           
END_DB

BEGIN_DB
 ICCAP_VAR vg         -0.963         
 ICCAP_VAR vb         -0             
 ICCAP_VAR vs         -0             

 #vd                    id                    ig                    ib                    is                   
  -0                    8.4802e-10            -1.2e-13              -1.6e-13              -8.6886e-10          
  -0.1                  -1.5774e-06           2e-13                 -1.2e-13              1.5808e-06           
  -0.2                  -2.0378e-06           8e-14                 -2.2e-13              2.0414e-06           
  -0.3                  -2.0934e-06           -2.2e-13              -6e-14                2.0972e-06           
  -0.4                  -2.1042e-06           -4e-14                -2e-14                2.108e-06            
  -0.5                  -2.1106e-06           1.4e-13               -1.2e-13              2.1142e-06           
  -0.6                  -2.1152e-06           2e-14                 -2e-14                2.1188e-06           
  -0.7                  -2.119e-06            1e-13                 -2e-14                2.1226e-06           
  -0.8                  -2.1216e-06           1.8e-13               -1e-13                2.126e-06            
  -0.9                  -2.125e-06            1.6e-13               4e-14                 2.1286e-06           
  -1                    -2.1278e-06           6e-14                 6e-14                 2.1314e-06           
  -1.1                  -2.1302e-06           1.6e-13               -4e-14                2.1338e-06           
  -1.2                  -2.1324e-06           4e-14                 -4e-14                2.136e-06            
  -1.3                  -2.1346e-06           0                     2e-14                 2.138e-06            
  -1.4                  -2.1364e-06           4e-14                 2e-14                 2.1398e-06           
  -1.5                  -2.1384e-06           2e-14                 -2e-14                2.1418e-06           
  -1.6                  -2.14e-06             -4e-14                1.2e-13               2.1438e-06           
  -1.7                  -2.142e-06            4e-13                 0                     2.1456e-06           
  -1.8                  -2.144e-06            4.2e-13               2e-14                 2.147e-06            
  -1.9                  -2.1452e-06           6e-14                 1.6e-13               2.1488e-06           
  -2                    -2.1468e-06           4.4e-13               6.4e-13               2.1504e-06           
  -2.1                  -2.1484e-06           -8e-14                1.62e-12              2.152e-06            
  -2.2                  -2.15e-06             2.2e-13               3.72e-12              2.1538e-06           
  -2.3                  -2.1516e-06           3e-13                 7.88e-12              2.1552e-06           
  -2.4                  -2.1532e-06           -8e-14                1.6e-11               2.1566e-06           
  -2.5                  -2.1548e-06           1.6e-13               3.118e-11             2.158e-06            
  -2.6                  -2.1564e-06           0                     5.816e-11             2.1598e-06           
  -2.7                  -2.1576e-06           1.4e-13               1.0466e-10            2.1608e-06           
  -2.8                  -2.159e-06            -2e-14                1.8316e-10            2.1624e-06           
  -2.9                  -2.1606e-06           -3e-13                3.1156e-10            2.1638e-06           
  -3                    -2.1624e-06           4.2e-13               5.1636e-10            2.1652e-06           
  -3.1                  -2.1638e-06           -8e-14                8.3574e-10            2.1668e-06           
  -3.2                  -2.166e-06            4.4e-13               1.325e-09             2.168e-06            
  -3.3                  -2.1682e-06           -2.8e-13              2.0522e-09            2.1696e-06           
  -3.4                  -2.1704e-06           3.8e-13               3.1148e-09            2.17e-06             
  -3.5                  -2.1734e-06           3.2e-13               4.6322e-09            2.1716e-06           
  -3.6                  -2.176e-06            0                     6.7692e-09            2.1732e-06           
END_DB

