! VERSION = 6.00
BEGIN_HEADER
 ICCAP_INPUTS
  vd         V  D GROUND SMU1 0.1 LIN        1    -0         -3.6       37   -0.1      
  vg         V  G GROUND SMU2 0.001 LIST       2 3 -1.689 -1.889 -2.089
  vb         V  B GROUND SMU4 0.1 CON        3.6
  vs         V  S GROUND SMU3 0.1 CON        -0
 ICCAP_OUTPUTS
  id         I  D GROUND SMU1 B
  ig         I  G GROUND SMU2 B
  ib         I  B GROUND SMU4 B
  is         I  S GROUND SMU3 B
 ICCAP_VALUES
  MASTER_SETUP_TYPE "~dc_idvd~"
  LINVT_VALUE ""
  LISTVT_VALUE "|idvg|100.0n|-200.0m|1.000m|3|200.0m|200.0m|"
  TYPE "-1"
  TEMP " 27.0000 "
  IS_TNOM " 1.00000 "
  MAIN.W "10.00u"
  MAIN.L "5.000u"
  MAIN.AD "3.400p"
  MAIN.AS "3.400p"
  MAIN.PD "20.68u"
  MAIN.PS "20.68u"
  MAIN.NF "1.000"
  MAIN.M "1"
  MAIN.NRD "0.000"
  MAIN.NRS "0.000"
  MAIN.LDRIFT1 "1E-06"
  MAIN.LDRIFT2 "1E-06"
  MAIN.SA "0.000"
  MAIN.SB "0.000"
  MAIN.SD "0.000"
  MAIN.SCA "0.000"
  MAIN.SCB "0.000"
  MAIN.SCC "0.000"
  MAIN.SC "0.000"
  MODULE "S562"
  PIN_D "18"
  PIN_G "3"
  PIN_S "4"
  PIN_B "17"
  PIN_E ""
  PIN_6 ""
  XY_ID ""
  FUNC "L Scale"
  STI "SA ref"
  WPE "WPE ref"
  COMMENT ""
  DIS_MEAS ""
  TypeTCI "10"
END_HEADER

BEGIN_DB
 ICCAP_VAR vg         -1.689         
 ICCAP_VAR vb         3.6            
 ICCAP_VAR vs         -0             

 #vd                    id                    ig                    ib                    is                   
  -0                    2.58e-12              -1.2e-13              7.8e-13               -4.64e-12            
  -0.1                  -2.054e-09            -6e-14                6.8e-13               2.0554e-09           
  -0.2                  -2.1012e-09           4e-14                 6.8e-13               2.1024e-09           
  -0.3                  -2.1042e-09           1.2e-13               4.4e-13               2.1052e-09           
  -0.4                  -2.1056e-09           1.2e-13               5.6e-13               2.1062e-09           
  -0.5                  -2.1066e-09           1e-13                 5.8e-13               2.1072e-09           
  -0.6                  -2.1074e-09           6e-14                 5.2e-13               2.108e-09            
  -0.7                  -2.1084e-09           6e-14                 3.6e-13               2.1086e-09           
  -0.8                  -2.1086e-09           2e-13                 3.8e-13               2.1092e-09           
  -0.9                  -2.1102e-09           8e-14                 3.4e-13               2.1104e-09           
  -1                    -2.111e-09            1.8e-13               3.4e-13               2.1108e-09           
  -1.1                  -2.1114e-09           1e-13                 3.2e-13               2.1118e-09           
  -1.2                  -2.112e-09            8e-14                 3.6e-13               2.112e-09            
  -1.3                  -2.1124e-09           1.6e-13               3.2e-13               2.1132e-09           
  -1.4                  -2.1134e-09           1.2e-13               3.4e-13               2.1134e-09           
  -1.5                  -2.1134e-09           8e-14                 2.2e-13               2.1138e-09           
  -1.6                  -2.1144e-09           1.6e-13               3.6e-13               2.1146e-09           
  -1.7                  -2.1148e-09           8e-14                 2.6e-13               2.115e-09            
  -1.8                  -2.1158e-09           1.6e-13               3.6e-13               2.1152e-09           
  -1.9                  -2.1166e-09           1e-13                 2.8e-13               2.1166e-09           
  -2                    -2.1172e-09           6e-14                 3.6e-13               2.1164e-09           
  -2.1                  -2.1172e-09           1.2e-13               2.6e-13               2.117e-09            
  -2.2                  -2.1178e-09           1.4e-13               2.6e-13               2.1178e-09           
  -2.3                  -2.1174e-09           8e-14                 2.6e-13               2.118e-09            
  -2.4                  -2.1184e-09           1.4e-13               2.4e-13               2.118e-09            
  -2.5                  -2.1186e-09           1.2e-13               2.2e-13               2.1186e-09           
  -2.6                  -2.1192e-09           1.8e-13               3.4e-13               2.1192e-09           
  -2.7                  -2.1204e-09           0                     2e-13                 2.12e-09             
  -2.8                  -2.121e-09            2.4e-13               2.8e-13               2.1208e-09           
  -2.9                  -2.1212e-09           1.2e-13               4.8e-13               2.1206e-09           
  -3                    -2.1214e-09           1e-13                 5e-13                 2.1214e-09           
  -3.1                  -2.1224e-09           2e-13                 8.6e-13               2.1212e-09           
  -3.2                  -2.1234e-09           6e-14                 1.04e-12              2.1216e-09           
  -3.3                  -2.1238e-09           1.6e-13               1.72e-12              2.1218e-09           
  -3.4                  -2.1252e-09           2e-13                 2.52e-12              2.1228e-09           
  -3.5                  -2.127e-09            1.4e-13               3.88e-12              2.1224e-09           
  -3.6                  -2.1298e-09           1.8e-13               5.92e-12              2.1234e-09           
END_DB

BEGIN_DB
 ICCAP_VAR vg         -1.889         
 ICCAP_VAR vb         3.6            
 ICCAP_VAR vs         -0             

 #vd                    id                    ig                    ib                    is                   
  -0                    2.1212e-10            -2e-14                1.2e-13               -1.9828e-10          
  -0.1                  -1.8954e-07           4e-14                 2.4e-13               1.8974e-07           
  -0.2                  -2.0736e-07           4e-14                 2.4e-13               2.0758e-07           
  -0.3                  -2.0814e-07           8e-14                 2.8e-13               2.0834e-07           
  -0.4                  -2.0832e-07           1.2e-13               2.8e-13               2.0854e-07           
  -0.5                  -2.0846e-07           1.4e-13               8e-14                 2.0866e-07           
  -0.6                  -2.0858e-07           0                     1.6e-13               2.088e-07            
  -0.7                  -2.0868e-07           0                     2.2e-13               2.0886e-07           
  -0.8                  -2.087e-07            -4e-14                1.2e-13               2.0892e-07           
  -0.9                  -2.0878e-07           2.4e-13               2.8e-13               2.0898e-07           
  -1                    -2.0884e-07           1.4e-13               2e-13                 2.0906e-07           
  -1.1                  -2.089e-07            8e-14                 1.2e-13               2.091e-07            
  -1.2                  -2.0896e-07           4e-14                 2.4e-13               2.0912e-07           
  -1.3                  -2.0904e-07           6e-14                 8e-14                 2.0924e-07           
  -1.4                  -2.091e-07            2e-14                 2.2e-13               2.0928e-07           
  -1.5                  -2.091e-07            1.4e-13               3.2e-13               2.0932e-07           
  -1.6                  -2.0916e-07           -2e-14                1.8e-13               2.0936e-07           
  -1.7                  -2.0924e-07           2e-14                 1e-13                 2.094e-07            
  -1.8                  -2.0924e-07           2e-13                 2.4e-13               2.0948e-07           
  -1.9                  -2.0932e-07           1.2e-13               2.8e-13               2.0954e-07           
  -2                    -2.0936e-07           2e-14                 1e-13                 2.0954e-07           
  -2.1                  -2.0942e-07           2.2e-13               2.2e-13               2.0962e-07           
  -2.2                  -2.0944e-07           8e-14                 2.2e-13               2.0966e-07           
  -2.3                  -2.0948e-07           6e-14                 3.2e-13               2.0968e-07           
  -2.4                  -2.095e-07            2.8e-13               4.4e-13               2.0972e-07           
  -2.5                  -2.0954e-07           2e-14                 6.6e-13               2.0976e-07           
  -2.6                  -2.096e-07            2e-13                 1.2e-12               2.098e-07            
  -2.7                  -2.0962e-07           8e-14                 2.22e-12              2.0984e-07           
  -2.8                  -2.0966e-07           4e-14                 4.04e-12              2.0984e-07           
  -2.9                  -2.0966e-07           4e-14                 7.48e-12              2.0992e-07           
  -3                    -2.0974e-07           1.4e-13               1.312e-11             2.0992e-07           
  -3.1                  -2.098e-07            6e-14                 2.286e-11             2.0998e-07           
  -3.2                  -2.0986e-07           6e-14                 3.912e-11             2.1004e-07           
  -3.3                  -2.0992e-07           8e-14                 6.506e-11             2.1004e-07           
  -3.4                  -2.0998e-07           1e-13                 1.0626e-10            2.1008e-07           
  -3.5                  -2.101e-07            1.6e-13               1.7046e-10            2.1014e-07           
  -3.6                  -2.1022e-07           1.6e-13               2.6882e-10            2.1016e-07           
END_DB

BEGIN_DB
 ICCAP_VAR vg         -2.089         
 ICCAP_VAR vb         3.6            
 ICCAP_VAR vs         -0             

 #vd                    id                    ig                    ib                    is                   
  -0                    6.8584e-10            -1.4e-13              2e-14                 -6.6878e-10          
  -0.1                  -1.01122e-06          1e-13                 1.4e-13               1.0115e-06           
  -0.2                  -1.4544e-06           -2e-14                2e-13                 1.4582e-06           
  -0.3                  -1.5522e-06           8e-14                 2e-14                 1.5562e-06           
  -0.4                  -1.562e-06            -4e-14                1e-13                 1.566e-06            
  -0.5                  -1.564e-06            2e-14                 1.2e-13               1.5678e-06           
  -0.6                  -1.565e-06            0                     1.8e-13               1.5688e-06           
  -0.7                  -1.566e-06            -1e-13                1.6e-13               1.5698e-06           
  -0.8                  -1.5666e-06           4e-14                 2e-14                 1.5704e-06           
  -0.9                  -1.5672e-06           -4e-14                2e-14                 1.571e-06            
  -1                    -1.5678e-06           -6e-14                1.4e-13               1.5716e-06           
  -1.1                  -1.568e-06            -2e-14                2.2e-13               1.572e-06            
  -1.2                  -1.5686e-06           -4e-14                1.2e-13               1.5724e-06           
  -1.3                  -1.5692e-06           -2e-14                8e-14                 1.573e-06            
  -1.4                  -1.5696e-06           0                     2.6e-13               1.5734e-06           
  -1.5                  -1.57e-06             1.2e-13               2.2e-13               1.5738e-06           
  -1.6                  -1.5702e-06           4e-14                 8e-14                 1.5742e-06           
  -1.7                  -1.5706e-06           1e-13                 1.8e-13               1.5746e-06           
  -1.8                  -1.571e-06            2e-14                 3.2e-13               1.5748e-06           
  -1.9                  -1.5714e-06           0                     4e-14                 1.5752e-06           
  -2                    -1.5716e-06           4e-14                 1e-13                 1.5756e-06           
  -2.1                  -1.572e-06            1.8e-13               2e-13                 1.5758e-06           
  -2.2                  -1.5722e-06           4e-14                 2e-13                 1.5762e-06           
  -2.3                  -1.5726e-06           0                     2.4e-13               1.5764e-06           
  -2.4                  -1.573e-06            1.2e-13               5.2e-13               1.5768e-06           
  -2.5                  -1.5734e-06           8e-14                 1.24e-12              1.577e-06            
  -2.6                  -1.5736e-06           0                     2.36e-12              1.5774e-06           
  -2.7                  -1.5736e-06           4e-14                 4.86e-12              1.5776e-06           
  -2.8                  -1.5742e-06           2e-14                 9.46e-12              1.5778e-06           
  -2.9                  -1.5744e-06           1.2e-13               1.848e-11             1.5782e-06           
  -3                    -1.5748e-06           -6e-14                3.52e-11              1.5786e-06           
  -3.1                  -1.575e-06            4e-14                 6.42e-11              1.5786e-06           
  -3.2                  -1.5752e-06           6e-14                 1.1436e-10            1.5788e-06           
  -3.3                  -1.5756e-06           4e-14                 1.9906e-10            1.5792e-06           
  -3.4                  -1.5758e-06           1.2e-13               3.3832e-10            1.5794e-06           
  -3.5                  -1.5766e-06           2e-14                 5.6346e-10            1.5798e-06           
  -3.6                  -1.577e-06            6e-14                 9.205e-10             1.58e-06             
END_DB

