! VERSION = 6.00
BEGIN_HEADER
 ICCAP_INPUTS
  vd         V  D GROUND SMU1 0.1 LIN        1    -0         -3.6       37   -0.1      
  vg         V  G GROUND SMU2 0.001 LIN        2    -0.704     -3.6       5    -0.724    
  vb         V  B GROUND SMU4 0.1 CON        -0
  vs         V  S GROUND SMU3 0.1 CON        -0
 ICCAP_OUTPUTS
  id         I  D GROUND SMU1 B
  ig         I  G GROUND SMU2 B
  ib         I  B GROUND SMU4 B
  is         I  S GROUND SMU3 B
 ICCAP_VALUES
  MASTER_SETUP_TYPE "~dc_idvd~"
  LINVT_VALUE "|idvg|100.0n|100.0m|1.000m|5|3.600|"
  LISTVT_VALUE ""
  TYPE "-1"
  TEMP " 27.0000 "
  IS_TNOM " 1.00000 "
  MAIN.W "5.000u"
  MAIN.L "330.0n"
  MAIN.AD "1.700p"
  MAIN.AS "1.700p"
  MAIN.PD "10.68u"
  MAIN.PS "10.68u"
  MAIN.NF "1.000"
  MAIN.M "1"
  MAIN.NRD "0.000"
  MAIN.NRS "0.000"
  MAIN.LDRIFT1 "1E-06"
  MAIN.LDRIFT2 "1E-06"
  MAIN.SA "0.000"
  MAIN.SB "0.000"
  MAIN.SD "0.000"
  MAIN.SCA "0.000"
  MAIN.SCB "0.000"
  MAIN.SCC "0.000"
  MAIN.SC "0.000"
  MODULE "S562"
  PIN_D "14"
  PIN_G "7"
  PIN_S "8"
  PIN_B "13"
  PIN_E ""
  PIN_6 ""
  XY_ID ""
  FUNC "Additional"
  STI "SA ref"
  WPE "WPE ref"
  COMMENT ""
  DIS_MEAS ""
  TypeTCI "10"
END_HEADER

BEGIN_DB
 ICCAP_VAR vg         -0.704         
 ICCAP_VAR vb         -0             
 ICCAP_VAR vs         -0             

 #vd                    id                    ig                    ib                    is                   
  -0                    2.0602e-09            -1.6e-13              -5e-13                -2.8322e-09          
  -0.1                  -4.3108e-06           -2e-13                -5.6e-13              4.3148e-06           
  -0.2                  -5.1294e-06           4e-13                 -5.6e-13              5.1328e-06           
  -0.3                  -5.4138e-06           1.8e-13               -4.8e-13              5.4142e-06           
  -0.4                  -5.6016e-06           -1.6e-13              -4.4e-13              5.6e-06              
  -0.5                  -5.7568e-06           0                     -5.2e-13              5.762e-06            
  -0.6                  -5.8974e-06           2.6e-13               -5.6e-13              5.9084e-06           
  -0.7                  -6.0264e-06           1.2e-13               -5.2e-13              6.0304e-06           
  -0.8                  -6.133e-06            -4e-14                -5.8e-13              6.1324e-06           
  -0.9                  -6.236e-06            -4e-14                -4.6e-13              6.2406e-06           
  -1                    -6.335e-06            1.2e-13               -5.2e-13              6.3502e-06           
  -1.1                  -6.4412e-06           -4e-14                -5.2e-13              6.4394e-06           
  -1.2                  -6.529e-06            8e-14                 -4.2e-13              6.5346e-06           
  -1.3                  -6.6214e-06           2e-13                 -5.8e-13              6.6246e-06           
  -1.4                  -6.7094e-06           -8e-14                -5.2e-13              6.7126e-06           
  -1.5                  -6.795e-06            2e-14                 -4e-13                6.7976e-06           
  -1.6                  -6.878e-06            2e-14                 -1.6e-13              6.8806e-06           
  -1.7                  -6.9632e-06           6e-14                 5.4e-13               6.9728e-06           
  -1.8                  -7.0488e-06           1.6e-13               2.24e-12              7.0518e-06           
  -1.9                  -7.1302e-06           2.8e-13               6.18e-12              7.1358e-06           
  -2                    -7.2118e-06           2e-13                 1.408e-11             7.2242e-06           
  -2.1                  -7.2982e-06           1.8e-13               2.978e-11             7.3016e-06           
  -2.2                  -7.3806e-06           1e-13                 5.94e-11              7.384e-06            
  -2.3                  -7.464e-06            -4e-14                1.1244e-10            7.4716e-06           
  -2.4                  -7.548e-06            -2e-14                2.0476e-10            7.5518e-06           
  -2.5                  -7.6284e-06           1.2e-13               3.6122e-10            7.6356e-06           
  -2.6                  -7.7134e-06           -1.4e-13              6.1928e-10            7.716e-06            
  -2.7                  -7.8072e-06           0                     1.03836e-09           7.816e-06            
  -2.8                  -7.8952e-06           8e-14                 1.6938e-09            7.8968e-06           
  -2.9                  -7.9728e-06           -1.4e-13              2.7128e-09            7.9736e-06           
  -3                    -8.0564e-06           -8e-14                4.2458e-09            8.0636e-06           
  -3.1                  -8.143e-06            4e-13                 6.5098e-09            8.1492e-06           
  -3.2                  -8.2404e-06           2.8e-13               9.8178e-09            8.2392e-06           
  -3.3                  -8.3454e-06           1.6e-13               1.4514e-08            8.3404e-06           
  -3.4                  -8.4406e-06           3.6e-13               2.1224e-08            8.4408e-06           
  -3.5                  -8.5814e-06           1.4e-13               3.0446e-08            8.5724e-06           
  -3.6                  -8.7072e-06           1.6e-13               4.3208e-08            8.6746e-06           
END_DB

BEGIN_DB
 ICCAP_VAR vg         -1.428         
 ICCAP_VAR vb         -0             
 ICCAP_VAR vs         -0             

 #vd                    id                    ig                    ib                    is                   
  -0                    3.3532e-08            -4.2e-13              -6e-14                -3.2748e-08          
  -0.1                  -5.455e-05            -1.4e-13              -1e-13                5.4574e-05           
  -0.2                  -9.9882e-05           -2.6e-13              -1.8e-13              9.9898e-05           
  -0.3                  -0.0001354            -5e-13                -1.8e-13              0.0001358            
  -0.4                  -0.00016182           -2.2e-13              -2.8e-13              0.00016218           
  -0.5                  -0.00018012           -1.6e-13              -2.4e-13              0.00018048           
  -0.6                  -0.00019208           -1e-13                -1.8e-13              0.00019244           
  -0.7                  -0.00019986           -1.8e-13              -2.4e-13              0.0002002            
  -0.8                  -0.00020516           -2.8e-13              -2e-13                0.00020556           
  -0.9                  -0.00020912           -2.4e-13              -2.2e-13              0.00020946           
  -1                    -0.00021226           8e-14                 -3e-13                0.00021254           
  -1.1                  -0.00021482           -1.4e-13              -3e-13                0.0002152            
  -1.2                  -0.00021708           -1.6e-13              -3.6e-13              0.00021746           
  -1.3                  -0.00021904           -6e-14                -2.4e-13              0.00021946           
  -1.4                  -0.0002209            6e-14                 -2.4e-13              0.00022126           
  -1.5                  -0.00022252           -1e-13                -2.8e-13              0.00022292           
  -1.6                  -0.00022408           -1e-13                -1.2e-13              0.00022448           
  -1.7                  -0.00022556           0                     -8e-14                0.0002259            
  -1.8                  -0.00022692           2e-14                 3.4e-13               0.00022728           
  -1.9                  -0.00022828           -2e-14                1.88e-12              0.0002286            
  -2                    -0.0002295            -2.8e-13              6.56e-12              0.00022992           
  -2.1                  -0.00023074           0                     1.934e-11             0.00023114           
  -2.2                  -0.000232             -2e-14                5.11e-11              0.00023234           
  -2.3                  -0.00023316           -8e-14                1.2346e-10            0.00023352           
  -2.4                  -0.0002343            -2.4e-13              2.7648e-10            0.00023468           
  -2.5                  -0.00023542           0                     5.8468e-10            0.00023594           
  -2.6                  -0.00023664           1.6e-13               1.1716e-09            0.00023702           
  -2.7                  -0.00023776           4e-14                 2.2428e-09            0.00023812           
  -2.8                  -0.00023884           4e-14                 4.1356e-09            0.00023916           
  -2.9                  -0.00023992           -2e-13                7.3842e-09            0.00024024           
  -3                    -0.00024106           -2.6e-13              1.2816e-08            0.00024136           
  -3.1                  -0.00024212           -1.8e-13              2.1658e-08            0.00024236           
  -3.2                  -0.0002432            -2.4e-13              3.5802e-08            0.00024352           
  -3.3                  -0.00024424           0                     5.7862e-08            0.00024464           
  -3.4                  -0.0002454            -2.6e-13              9.1548e-08            0.00024572           
  -3.5                  -0.0002466            -4e-13                1.4216e-07            0.00024696           
  -3.6                  -0.00024786           -2.4e-13              2.1626e-07            0.00024796           
END_DB

BEGIN_DB
 ICCAP_VAR vg         -2.152         
 ICCAP_VAR vb         -0             
 ICCAP_VAR vs         -0             

 #vd                    id                    ig                    ib                    is                   
  -0                    5.3312e-08            -7.4e-13              -8e-14                -4.9876e-08          
  -0.1                  -8.9542e-05           -2e-13                -4e-14                8.9562e-05           
  -0.2                  -0.00017176           -4.2e-13              -6e-14                0.00017216           
  -0.3                  -0.00024626           -1.8e-13              -2e-13                0.00024662           
  -0.4                  -0.0003123            -2.4e-13              -1.4e-13              0.0003127            
  -0.5                  -0.00037012           -4.4e-13              -8e-14                0.00037052           
  -0.6                  -0.0004196            -2.2e-13              -6e-14                0.00042002           
  -0.7                  -0.00046098           -2.2e-13              -1.8e-13              0.0004613            
  -0.8                  -0.00049504           -4e-13                -2.2e-13              0.00049542           
  -0.9                  -0.00052228           -3e-13                -2.8e-13              0.00052262           
  -1                    -0.00054378           -8e-14                -2.8e-13              0.00054416           
  -1.1                  -0.00056056           -2.6e-13              -1.4e-13              0.00056094           
  -1.2                  -0.00057386           -2.4e-13              -1.6e-13              0.00057426           
  -1.3                  -0.00058442           -1.4e-13              -2.6e-13              0.00058474           
  -1.4                  -0.00059294           -1.8e-13              -3.2e-13              0.00059336           
  -1.5                  -0.00060012           -2e-13                -1.8e-13              0.00060036           
  -1.6                  -0.0006061            -3e-13                -8e-14                0.00060648           
  -1.7                  -0.00061136           -1.4e-13              -2e-13                0.0006117            
  -1.8                  -0.00061604           -1.2e-13              -2.8e-13              0.00061636           
  -1.9                  -0.0006202            -2.4e-13              -1e-13                0.00062068           
  -2                    -0.00062408           -3.6e-13              2e-14                 0.00062444           
  -2.1                  -0.00062758           -6e-14                7e-13                 0.00062806           
  -2.2                  -0.00063096           6e-14                 3.18e-12              0.00063128           
  -2.3                  -0.00063394           -2.4e-13              1.014e-11             0.00063416           
  -2.4                  -0.00063662           -3.2e-13              2.812e-11             0.000637             
  -2.5                  -0.00063946           0                     7.2e-11               0.00063986           
  -2.6                  -0.00064204           -1.4e-13              1.7178e-10            0.00064254           
  -2.7                  -0.00064464           -8e-14                3.8444e-10            0.00064508           
  -2.8                  -0.00064712           -8e-14                8.1474e-10            0.00064752           
  -2.9                  -0.00064964           -1e-13                1.6508e-09            0.00065004           
  -3                    -0.00065178           -1.4e-13              3.2026e-09            0.00065224           
  -3.1                  -0.0006543            4e-14                 5.9864e-09            0.00065456           
  -3.2                  -0.0006565            -2.6e-13              1.08524e-08           0.00065674           
  -3.3                  -0.0006588            -1.2e-13              1.912e-08             0.00065922           
  -3.4                  -0.00066092           -2.2e-13              3.2814e-08            0.00066122           
  -3.5                  -0.00066298           -2e-13                5.5096e-08            0.00066336           
  -3.6                  -0.00066514           -4e-14                9.0516e-08            0.0006655            
END_DB

BEGIN_DB
 ICCAP_VAR vg         -2.876         
 ICCAP_VAR vb         -0             
 ICCAP_VAR vs         -0             

 #vd                    id                    ig                    ib                    is                   
  -0                    6.307e-08             -5.4e-13              0                     -5.8214e-08          
  -0.1                  -0.00011458           -4.4e-13              -1.2e-13              0.00011494           
  -0.2                  -0.00022348           -2.6e-13              -6e-14                0.00022382           
  -0.3                  -0.00032568           -3.8e-13              -1e-13                0.00032602           
  -0.4                  -0.0004205            -4.6e-13              -6e-14                0.00042088           
  -0.5                  -0.00050812           -1.8e-13              -1.8e-13              0.00050848           
  -0.6                  -0.0005881            -3.6e-13              -1.6e-13              0.00058842           
  -0.7                  -0.00066034           -3.6e-13              -2e-13                0.00066068           
  -0.8                  -0.0007252            -2.8e-13              -2e-13                0.00072552           
  -0.9                  -0.00078262           -4.8e-13              -1.2e-13              0.000783             
  -1                    -0.0008331            -3.6e-13              -2e-13                0.00083352           
  -1.1                  -0.0008771            -1e-13                -2.4e-13              0.00087748           
  -1.2                  -0.00091508           -2e-13                -1.6e-13              0.00091546           
  -1.3                  -0.0009476            -4.2e-13              -2.2e-13              0.000948             
  -1.4                  -0.00097508           -1.6e-13              -2.4e-13              0.00097538           
  -1.5                  -0.00099842           -2.2e-13              -2.2e-13              0.00099894           
  -1.6                  -0.00101824           -3e-13                -1.8e-13              0.00101872           
  -1.7                  -0.00103504           -2.2e-13              -2.2e-13              0.00103542           
  -1.8                  -0.00104934           -1.4e-13              -2.2e-13              0.00104966           
  -1.9                  -0.00106144           -2.2e-13              -3.6e-13              0.00106198           
  -2                    -0.00107218           -8e-14                -2.2e-13              0.00107244           
  -2.1                  -0.00108152           -2.2e-13              -8e-14                0.00108184           
  -2.2                  -0.00108968           -2.2e-13              0                     0.00108984           
  -2.3                  -0.00109682           0                     3.2e-13               0.00109714           
  -2.4                  -0.0011033            6e-14                 1.78e-12              0.00110356           
  -2.5                  -0.00110908           -1.6e-13              5.72e-12              0.00110936           
  -2.6                  -0.00111434           -2e-13                1.598e-11             0.0011148            
  -2.7                  -0.00111938           -6e-14                4.178e-11             0.00111958           
  -2.8                  -0.00112402           -1.2e-13              1.0086e-10            0.00112442           
  -2.9                  -0.00112836           -4e-14                2.2996e-10            0.00112864           
  -3                    -0.00113242           -2.6e-13              4.9632e-10            0.00113276           
  -3.1                  -0.00113618           -2.2e-13              1.0212e-09            0.00113662           
  -3.2                  -0.001139             -8e-14                2.0168e-09            0.001141             
  -3.3                  -0.0011428            -6e-14                3.849e-09             0.0011448            
  -3.4                  -0.0011464            -3e-13                7.1234e-09            0.0011482            
  -3.5                  -0.0011496            1.2e-13               1.283e-08             0.0011514            
  -3.6                  -0.0011528            -2e-13                2.2504e-08            0.0011548            
END_DB

BEGIN_DB
 ICCAP_VAR vg         -3.6           
 ICCAP_VAR vb         -0             
 ICCAP_VAR vs         -0             

 #vd                    id                    ig                    ib                    is                   
  -0                    7.5844e-08            -6.4e-13              1e-13                 -6.611e-08           
  -0.1                  -0.00013354           -2.4e-13              -4e-14                0.0001339            
  -0.2                  -0.00026234           -5.2e-13              -1.6e-13              0.00026268           
  -0.3                  -0.00038532           -5e-13                -2e-14                0.00038572           
  -0.4                  -0.00050184           -4.2e-13              -8e-14                0.0005022            
  -0.5                  -0.00061198           -4.4e-13              -1.6e-13              0.00061242           
  -0.6                  -0.00071536           -2.2e-13              -1.6e-13              0.00071568           
  -0.7                  -0.00081148           -3.4e-13              -1.8e-13              0.00081178           
  -0.8                  -0.0009007            -3.8e-13              -1e-13                0.0009011            
