! VERSION = 6.00
BEGIN_HEADER
 ICCAP_INPUTS
  vd         V  D GROUND SMU1 0.1 LIN        1    -0         -3.6       37   -0.1      
  vg         V  G GROUND SMU2 0.001 LIN        2    -0.688     -3.6       5    -0.728    
  vb         V  B GROUND SMU4 0.1 CON        -0
  vs         V  S GROUND SMU3 0.1 CON        -0
 ICCAP_OUTPUTS
  id         I  D GROUND SMU1 B
  ig         I  G GROUND SMU2 B
  ib         I  B GROUND SMU4 B
  is         I  S GROUND SMU3 B
 ICCAP_VALUES
  MASTER_SETUP_TYPE "~dc_idvd~"
  LINVT_VALUE "|idvg|100.0n|100.0m|1.000m|5|3.600|"
  LISTVT_VALUE ""
  TYPE "-1"
  TEMP " 70.0000 "
  IS_TNOM " 0.00000 "
  MAIN.W "300.0n"
  MAIN.L "350.0n"
  MAIN.AD "102.0f"
  MAIN.AS "102.0f"
  MAIN.PD "1.280u"
  MAIN.PS "1.280u"
  MAIN.NF "1.000"
  MAIN.M "1"
  MAIN.NRD "0.000"
  MAIN.NRS "0.000"
  MAIN.LDRIFT1 "1E-06"
  MAIN.LDRIFT2 "1E-06"
  MAIN.SA "0.000"
  MAIN.SB "0.000"
  MAIN.SD "0.000"
  MAIN.SCA "0.000"
  MAIN.SCB "0.000"
  MAIN.SCC "0.000"
  MAIN.SC "0.000"
  MODULE "S565"
  PIN_D "16"
  PIN_G "5"
  PIN_S "6"
  PIN_B "15"
  PIN_E ""
  PIN_6 ""
  XY_ID ""
  FUNC "Small"
  STI "SA ref"
  WPE "WPE ref"
  COMMENT ""
  DIS_MEAS ""
  TypeTCI "10"
END_HEADER

BEGIN_DB
 ICCAP_VAR vg         -0.688         
 ICCAP_VAR vb         -0             
 ICCAP_VAR vs         -0             

 #vd                    id                    ig                    ib                    is                   
  -0                    1.1302e-10            -6e-14                -4.598e-11            -1.7382e-10          
  -0.1                  -2.4496e-07           4e-14                 -4.43e-11             2.4482e-07           
  -0.2                  -2.9204e-07           1e-13                 -4.346e-11            2.9144e-07           
  -0.3                  -3.0424e-07           1e-13                 -4.236e-11            3.05e-07             
  -0.4                  -3.1188e-07           2e-13                 -4.152e-11            3.1194e-07           
  -0.5                  -3.1764e-07           1.4e-13               -4.07e-11             3.1778e-07           
  -0.6                  -3.2302e-07           2.2e-13               -4.01e-11             3.2304e-07           
  -0.7                  -3.2812e-07           2.6e-13               -3.934e-11            3.2758e-07           
  -0.8                  -3.3236e-07           8e-14                 -3.874e-11            3.3248e-07           
  -0.9                  -3.369e-07            1.8e-13               -3.812e-11            3.3652e-07           
  -1                    -3.4052e-07           1.4e-13               -3.74e-11             3.4138e-07           
  -1.1                  -3.4508e-07           1.8e-13               -3.666e-11            3.4498e-07           
  -1.2                  -3.4906e-07           2.2e-13               -3.594e-11            3.4874e-07           
  -1.3                  -3.522e-07            1.6e-13               -3.51e-11             3.5236e-07           
  -1.4                  -3.563e-07            1.6e-13               -3.456e-11            3.5626e-07           
  -1.5                  -3.5962e-07           2.4e-13               -3.362e-11            3.6008e-07           
  -1.6                  -3.6384e-07           2e-13                 -3.262e-11            3.6338e-07           
  -1.7                  -3.6698e-07           2.2e-13               -3.174e-11            3.6696e-07           
  -1.8                  -3.7084e-07           1.2e-13               -3.058e-11            3.7046e-07           
  -1.9                  -3.73e-07             1.8e-13               -2.932e-11            3.7436e-07           
  -2                    -3.7788e-07           1.6e-13               -2.768e-11            3.7748e-07           
  -2.1                  -3.8104e-07           1.8e-13               -2.554e-11            3.8144e-07           
  -2.2                  -3.8518e-07           4e-14                 -2.258e-11            3.8496e-07           
  -2.3                  -3.8868e-07           1.4e-13               -1.808e-11            3.881e-07            
  -2.4                  -3.92e-07             1.4e-13               -1.146e-11            3.9254e-07           
  -2.5                  -3.953e-07            8e-14                 -1.48e-12             3.9604e-07           
  -2.6                  -3.988e-07            1.6e-13               1.412e-11             3.9972e-07           
  -2.7                  -4.025e-07            1.8e-13               3.772e-11             4.0216e-07           
  -2.8                  -4.0544e-07           1.6e-13               7.34e-11              4.0614e-07           
  -2.9                  -4.091e-07            4e-14                 1.2728e-10            4.0906e-07           
  -3                    -4.1308e-07           1.4e-13               2.066e-10             4.1378e-07           
  -3.1                  -4.1688e-07           0                     3.216e-10             4.1658e-07           
  -3.2                  -4.212e-07            1.2e-13               4.8666e-10            4.2036e-07           
  -3.3                  -4.2466e-07           4e-14                 7.2208e-10            4.2332e-07           
  -3.4                  -4.2874e-07           1.2e-13               1.04556e-09           4.278e-07            
  -3.5                  -4.3302e-07           6e-14                 1.4894e-09            4.3258e-07           
  -3.6                  -4.3814e-07           6e-14                 2.101e-09             4.3884e-07           
END_DB

BEGIN_DB
 ICCAP_VAR vg         -1.416         
 ICCAP_VAR vb         -0             
 ICCAP_VAR vs         -0             

 #vd                    id                    ig                    ib                    is                   
  -0                    1.027e-09             -3e-13                -1.524e-11            -1.01152e-09         
  -0.1                  -3.0622e-06           -3.4e-13              -1.492e-11            3.0654e-06           
  -0.2                  -5.574e-06            -2.6e-13              -1.46e-11             5.5772e-06           
  -0.3                  -7.5254e-06           -2.4e-13              -1.424e-11            7.5288e-06           
  -0.4                  -8.9432e-06           -1.8e-13              -1.366e-11            8.9482e-06           
  -0.5                  -9.9092e-06           -3.2e-13              -1.288e-11            9.9144e-06           
  -0.6                  -1.0529e-05           -1.4e-13              -1.228e-11            1.0532e-05           
  -0.7                  -1.0916e-05           -1.4e-13              -1.136e-11            1.09218e-05          
  -0.8                  -1.1178e-05           -1.2e-13              -1.068e-11            1.11842e-05          
  -0.9                  -1.1368e-05           -1.6e-13              -9.98e-12             1.1375e-05           
  -1                    -1.1522e-05           -4e-14                -8.76e-12             1.1528e-05           
  -1.1                  -1.1652e-05           -2e-13                -8.12e-12             1.1658e-05           
  -1.2                  -1.1764e-05           8e-14                 -7.58e-12             1.1772e-05           
  -1.3                  -1.1868e-05           -1e-13                -6.96e-12             1.1872e-05           
  -1.4                  -1.1958e-05           -1.2e-13              -6.28e-12             1.1966e-05           
  -1.5                  -1.2046e-05           -1.2e-13              -5.74e-12             1.2054e-05           
  -1.6                  -1.213e-05            -2e-14                -5.22e-12             1.2134e-05           
  -1.7                  -1.2202e-05           -1e-13                -4.72e-12             1.221e-05            
  -1.8                  -1.2274e-05           -4e-14                -4.1e-12              1.2282e-05           
  -1.9                  -1.2342e-05           -1.8e-13              -3.52e-12             1.235e-05            
  -2                    -1.2406e-05           -1.2e-13              -2.66e-12             1.2416e-05           
  -2.1                  -1.2472e-05           4e-14                 -1.16e-12             1.248e-05            
  -2.2                  -1.2538e-05           -1e-13                1.56e-12              1.2542e-05           
  -2.3                  -1.2596e-05           -2e-14                6.96e-12              1.2604e-05           
  -2.4                  -1.2654e-05           -2e-14                1.768e-11             1.2664e-05           
  -2.5                  -1.2716e-05           -1.6e-13              3.82e-11              1.272e-05            
  -2.6                  -1.2774e-05           -6e-14                7.542e-11             1.2776e-05           
  -2.7                  -1.2828e-05           -1.4e-13              1.3858e-10            1.2838e-05           
  -2.8                  -1.29e-05             -4e-14                2.4982e-10            1.2904e-05           
  -2.9                  -1.2954e-05           -2e-14                4.3612e-10            1.2962e-05           
  -3                    -1.3012e-05           2e-14                 7.4044e-10            1.3016e-05           
  -3.1                  -1.3066e-05           -4e-14                1.227e-09             1.307e-05            
  -3.2                  -1.312e-05            0                     1.9888e-09            1.3124e-05           
  -3.3                  -1.3178e-05           2e-14                 3.1586e-09            1.3174e-05           
  -3.4                  -1.323e-05            2e-14                 4.919e-09             1.3232e-05           
  -3.5                  -1.3288e-05           -4e-14                7.5288e-09            1.3286e-05           
  -3.6                  -1.3342e-05           -1.6e-13              1.13062e-08           1.334e-05            
END_DB

BEGIN_DB
 ICCAP_VAR vg         -2.144         
 ICCAP_VAR vb         -0             
 ICCAP_VAR vs         -0             

 #vd                    id                    ig                    ib                    is                   
  -0                    1.5094e-09            -4e-13                -5.96e-12             -1.3226e-09          
  -0.1                  -5.2298e-06           -3.4e-13              -5.98e-12             5.2332e-06           
  -0.2                  -1.00136e-05          -3.2e-13              -5.88e-12             1.00174e-05          
  -0.3                  -1.4308e-05           -2.6e-13              -5.46e-12             1.4314e-05           
  -0.4                  -1.81e-05             -2.8e-13              -5.22e-12             1.8102e-05           
  -0.5                  -2.139e-05            -2.6e-13              -4.82e-12             2.14e-05             
  -0.6                  -2.4188e-05           -2.2e-13              -4.42e-12             2.4196e-05           
  -0.7                  -2.6508e-05           -1.4e-13              -4.26e-12             2.6518e-05           
  -0.8                  -2.8402e-05           -2e-13                -3.78e-12             2.8408e-05           
  -0.9                  -2.9904e-05           -2e-13                -3.42e-12             2.9908e-05           
  -1                    -3.1072e-05           -1.2e-13              -2.98e-12             3.1078e-05           
  -1.1                  -3.1976e-05           -6e-14                -2.58e-12             3.1986e-05           
  -1.2                  -3.2682e-05           -2.8e-13              -2.08e-12             3.2686e-05           
  -1.3                  -3.3236e-05           -1.2e-13              -1.78e-12             3.3244e-05           
  -1.4                  -3.3686e-05           -1e-13                -1.42e-12             3.3688e-05           
  -1.5                  -3.406e-05            -2.2e-13              -1.08e-12             3.4068e-05           
  -1.6                  -3.4382e-05           -1e-13                -9e-13                3.4388e-05           
  -1.7                  -3.4664e-05           -8e-14                -5.6e-13              3.467e-05            
  -1.8                  -3.4916e-05           -2.2e-13              -2.6e-13              3.4924e-05           
  -1.9                  -3.5148e-05           -1e-13                1e-13                 3.5154e-05           
  -2                    -3.5358e-05           -1.4e-13              3.6e-13               3.5362e-05           
  -2.1                  -3.5548e-05           -1e-13                8e-13                 3.5556e-05           
  -2.2                  -3.5728e-05           -6e-14                1.16e-12              3.5736e-05           
  -2.3                  -3.5896e-05           -6e-14                1.94e-12              3.5904e-05           
  -2.4                  -3.6054e-05           -2.2e-13              3.68e-12              3.6062e-05           
  -2.5                  -3.6206e-05           -1e-13                7.2e-12               3.6212e-05           
  -2.6                  -3.635e-05            -1.2e-13              1.45e-11              3.6356e-05           
  -2.7                  -3.6488e-05           -1.2e-13              2.928e-11             3.6498e-05           
  -2.8                  -3.6628e-05           -8e-14                5.786e-11             3.6632e-05           
  -2.9                  -3.6756e-05           -8e-14                1.1152e-10            3.6764e-05           
  -3                    -3.6882e-05           -1e-13                2.0834e-10            3.689e-05            
  -3.1                  -3.7008e-05           -1.6e-13              3.7568e-10            3.7034e-05           
  -3.2                  -3.714e-05            -2.2e-13              6.666e-10             3.7142e-05           
  -3.3                  -3.7278e-05           -8e-14                1.14526e-09           3.7268e-05           
  -3.4                  -3.7388e-05           0                     1.917e-09             3.739e-05            
  -3.5                  -3.7522e-05           -1.4e-13              3.164e-09             3.7518e-05           
  -3.6                  -3.7638e-05           -1.4e-13              5.0864e-09            3.7642e-05           
END_DB

BEGIN_DB
 ICCAP_VAR vg         -2.872         
 ICCAP_VAR vb         -0             
 ICCAP_VAR vs         -0             

 #vd                    id                    ig                    ib                    is                   
  -0                    1.6418e-09            -6e-13                -1.92e-12             -1.595e-09           
  -0.1                  -6.8854e-06           -3.6e-13              -2.12e-12             6.8886e-06           
  -0.2                  -1.3388e-05           -3.6e-13              -2e-12                1.3394e-05           
  -0.3                  -1.946e-05            -2.2e-13              -1.78e-12             1.9474e-05           
  -0.4                  -2.509e-05            -2.4e-13              -1.58e-12             2.5096e-05           
  -0.5                  -3.026e-05            -3.6e-13              -1.38e-12             3.0266e-05           
  -0.6                  -3.4952e-05           -2.6e-13              -1.16e-12             3.4964e-05           
  -0.7                  -3.9178e-05           -2.8e-13              -8.8e-13              3.9182e-05           
  -0.8                  -4.2928e-05           -2.2e-13              -5.2e-13              4.2932e-05           
  -0.9                  -4.6246e-05           -2.4e-13              -3.4e-13              4.6256e-05           
  -1                    -4.9146e-05           -1.8e-13              -1.4e-13              4.9148e-05           
  -1.1                  -5.1642e-05           -3e-13                2.6e-13               5.166e-05            
  -1.2                  -5.3798e-05           -2e-13                4.4e-13               5.3798e-05           
  -1.3                  -5.5626e-05           -3.6e-13              6.8e-13               5.563e-05            
  -1.4                  -5.7164e-05           -2e-13                1.02e-12              5.717e-05            
  -1.5                  -5.847e-05            -1.2e-13              1.16e-12              5.8474e-05           
  -1.6                  -5.956e-05            -2.2e-13              1.28e-12              5.9568e-05           
  -1.7                  -6.0476e-05           -3e-13                1.54e-12              6.0482e-05           
  -1.8                  -6.1248e-05           -2.6e-13              1.94e-12              6.1256e-05           
  -1.9                  -6.1914e-05           -1.2e-13              2.1e-12               6.192e-05            
  -2                    -6.249e-05            -1.8e-13              2.34e-12              6.2496e-05           
  -2.1                  -6.2988e-05           0                     2.46e-12              6.3002e-05           
  -2.2                  -6.344e-05            -1.2e-13              2.58e-12              6.3452e-05           
  -2.3                  -6.3848e-05           -1.6e-13              2.78e-12              6.3848e-05           
  -2.4                  -6.4204e-05           -1.6e-13              3.18e-12              6.421e-05            
  -2.5                  -6.4538e-05           -1.6e-13              3.6e-12               6.4544e-05           
  -2.6                  -6.4838e-05           -1.6e-13              4.66e-12              6.4852e-05           
  -2.7                  -6.5134e-05           -1.2e-13              6.82e-12              6.5126e-05           
  -2.8                  -6.5392e-05           -2.4e-13              1.142e-11             6.5402e-05           
  -2.9                  -6.5634e-05           -2e-13                2.076e-11             6.5648e-05           
  -3                    -6.588e-05            -1e-13                3.916e-11             6.588e-05            
  -3.1                  -6.61e-05             -1.2e-13              7.358e-11             6.6128e-05           
  -3.2                  -6.6334e-05           -1.4e-13              1.377e-10             6.6344e-05           
  -3.3                  -6.6546e-05           -8e-14                2.5248e-10            6.654e-05            
  -3.4                  -6.6738e-05           -8e-14                4.509e-10             6.6746e-05           
  -3.5                  -6.694e-05            -2.2e-13              7.9132e-10            6.6944e-05           
  -3.6                  -6.7094e-05           -1.4e-13              1.3584e-09            6.7098e-05           
END_DB

BEGIN_DB
 ICCAP_VAR vg         -3.6           
 ICCAP_VAR vb         -0             
 ICCAP_VAR vs         -0             

 #vd                    id                    ig                    ib                    is                   
  -0                    1.8294e-09            -5.6e-13              -2e-13                -1.8852e-09          
  -0.1                  -8.198e-06            -4.6e-13              -3.8e-13              8.205e-06            
  -0.2                  -1.6064e-05           -4.8e-13              -3.6e-13              1.607e-05            
  -0.3                  -2.3556e-05           -3.8e-13              -3.2e-13              2.3562e-05           
  -0.4                  -3.0626e-05           -3.4e-13              0                     3.063e-05            
  -0.5                  -3.7278e-05           -3.2e-13              1e-13                 3.7274e-05           
  -0.6                  -4.3484e-05           -3.2e-13              2.4e-13               4.3496e-05           
  -0.7                  -4.9242e-05           -3.2e-13              4.8e-13               4.9258e-05           
  -0.8                  -5.457e-05            -2.6e-13              7e-13                 5.4592e-05           
