! VERSION = 6.00
BEGIN_HEADER
 ICCAP_INPUTS
  vg         V  G GROUND SMU2 0.001 LIN        1    0.5        -3.6       83   -0.05     
  vb         V  B GROUND SMU4 0.1 LIN        2    0          3.6        5    0.9       
  vd         V  D GROUND SMU1 0.1 LIN        3    -0.1       -3.3       3    -1.6      
  vs         V  S GROUND SMU3 0.1 CON        -0
 ICCAP_OUTPUTS
  id         I  D GROUND SMU1 B
  ig         I  G GROUND SMU2 B
  ib         I  B GROUND SMU4 B
  is         I  S GROUND SMU3 B
 ICCAP_VALUES
  MASTER_SETUP_TYPE "~dc_idvg~"
  LINVT_VALUE ""
  LISTVT_VALUE ""
  TYPE "-1"
  TEMP " 27.0000 "
  IS_TNOM " 1.00000 "
  MAIN.W "600.0n"
  MAIN.L "1.200u"
  MAIN.AD "204.0f"
  MAIN.AS "204.0f"
  MAIN.PD "1.880u"
  MAIN.PS "1.880u"
  MAIN.NF "1.000"
  MAIN.M "1"
  MAIN.NRD "0.000"
  MAIN.NRS "0.000"
  MAIN.LDRIFT1 "1E-06"
  MAIN.LDRIFT2 "1E-06"
  MAIN.SA "0.000"
  MAIN.SB "0.000"
  MAIN.SD "0.000"
  MAIN.SCA "0.000"
  MAIN.SCB "0.000"
  MAIN.SCC "0.000"
  MAIN.SC "0.000"
  MODULE "S564"
  PIN_D "14"
  PIN_G "7"
  PIN_S "8"
  PIN_B "13"
  PIN_E ""
  PIN_6 ""
  XY_ID ""
  FUNC "LW Scale"
  STI "SA ref"
  WPE "WPE ref"
  COMMENT ""
  DIS_MEAS ""
  TypeTCI "10"
END_HEADER

BEGIN_DB
 ICCAP_VAR vb         0              
 ICCAP_VAR vd         -0.1           
 ICCAP_VAR vs         -0             

 #vg                    id                    ig                    ib                    is                   
  0.5                   -2e-14                2.018e-11             -5.74e-12             6e-14                
  0.45                  4e-14                 3.26e-12              -1.08e-12             1e-13                
  0.4                   6e-14                 5e-13                 -3.4e-13              -2e-14               
  0.35                  4e-14                 2e-13                 -1.6e-13              -4e-14               
  0.3                   -2e-14                -1.6e-13              -6e-14                2e-13                
  0.25                  -6e-14                -2.4e-13              -6e-14                1.4e-13              
  0.2                   4e-14                 -2.4e-13              2e-14                 1.4e-13              
  0.15                  -6e-14                -8e-14                -1.8e-13              1e-13                
  0.1                   2e-14                 -4.6e-13              -2e-14                1.6e-13              
  0.05                  -2e-14                -3.6e-13              -1.6e-13              1e-13                
  0                     -2e-14                -4.8e-13              -1e-13                1.6e-13              
  -0.05                 0                     -2.2e-13              -1e-13                2e-14                
  -0.1                  -2e-14                -5e-13                -1.2e-13              2.8e-13              
  -0.15                 -8e-14                -3.2e-13              -6e-14                2e-14                
  -0.2                  -3.6e-13              -5.2e-13              -1.2e-13              6.2e-13              
  -0.25                 -1.44e-12             -4.6e-13              -2e-14                1.42e-12             
  -0.3                  -4.74e-12             -2.6e-13              -4e-14                4.86e-12             
  -0.35                 -1.66e-11             -6.4e-13              2e-14                 1.654e-11            
  -0.4                  -5.766e-11            -3.8e-13              -6e-14                5.786e-11            
  -0.45                 -2.0226e-10           -8.8e-13              -8e-14                2.0224e-10           
  -0.5                  -7.0836e-10           -2.6e-13              -2e-14                7.0824e-10           
  -0.55                 -2.4466e-09           -2.6e-13              -6e-14                2.447e-09            
  -0.6                  -7.8964e-09           -4.8e-13              -6e-14                7.896e-09            
  -0.65                 -2.25e-08             -4.4e-13              -6e-14                2.252e-08            
  -0.7                  -5.4054e-08           -6e-13                -1e-13                5.4054e-08           
  -0.75                 -1.09028e-07          -4.6e-13              0                     1.09086e-07          
  -0.8                  -1.8768e-07           -7.6e-13              -1e-13                1.8788e-07           
  -0.85                 -2.8546e-07           -6.6e-13              -2e-14                2.8568e-07           
  -0.9                  -3.9512e-07           -7.6e-13              -4e-14                3.953e-07            
  -0.95                 -5.1174e-07           -5e-13                -8e-14                5.1202e-07           
  -1                    -6.3076e-07           -7.2e-13              -1.2e-13              6.3112e-07           
  -1.05                 -7.516e-07            -7.4e-13              -1.6e-13              7.5154e-07           
  -1.1                  -8.7148e-07           -7.2e-13              -1.8e-13              8.7196e-07           
  -1.15                 -9.91e-07             -6e-13                -1.6e-13              9.9146e-07           
  -1.2                  -1.10884e-06          -6.6e-13              -1e-13                1.10922e-06          
  -1.25                 -1.2238e-06           -6e-13                -1.4e-13              1.2278e-06           
  -1.3                  -1.3388e-06           -6e-13                -1.6e-13              1.3428e-06           
  -1.35                 -1.4514e-06           -7.8e-13              -1e-13                1.4548e-06           
  -1.4                  -1.5624e-06           -8.4e-13              -1e-13                1.5662e-06           
  -1.45                 -1.6714e-06           -6.8e-13              -1.2e-13              1.6754e-06           
  -1.5                  -1.7792e-06           -8.4e-13              -6e-14                1.7826e-06           
  -1.55                 -1.8846e-06           -7.2e-13              -1.8e-13              1.8888e-06           
  -1.6                  -1.989e-06            -7.2e-13              -2e-14                1.9928e-06           
  -1.65                 -2.0912e-06           -7.2e-13              -4e-14                2.095e-06            
  -1.7                  -2.1918e-06           -8.8e-13              -8e-14                2.1956e-06           
  -1.75                 -2.2906e-06           -6.8e-13              0                     2.2944e-06           
  -1.8                  -2.3878e-06           -9.2e-13              -8e-14                2.3918e-06           
  -1.85                 -2.4838e-06           -8.8e-13              -6e-14                2.4868e-06           
  -1.9                  -2.5774e-06           -9.6e-13              -4e-14                2.581e-06            
  -1.95                 -2.67e-06             -7.8e-13              -1.4e-13              2.6742e-06           
  -2                    -2.7612e-06           -7.8e-13              -8e-14                2.7648e-06           
  -2.05                 -2.8502e-06           -9.4e-13              -6e-14                2.8536e-06           
  -2.1                  -2.9382e-06           -8.8e-13              -1.4e-13              2.9418e-06           
  -2.15                 -3.0246e-06           -9.8e-13              -6e-14                3.0284e-06           
  -2.2                  -3.1096e-06           -8.8e-13              -1.6e-13              3.1134e-06           
  -2.25                 -3.193e-06            -1.18e-12             -1.8e-13              3.197e-06            
  -2.3                  -3.2756e-06           -8e-13                -1.8e-13              3.2796e-06           
  -2.35                 -3.3556e-06           -1.06e-12             -6e-14                3.3596e-06           
  -2.4                  -3.4352e-06           -1e-12                -1.4e-13              3.4384e-06           
  -2.45                 -3.5134e-06           -8.6e-13              -1e-13                3.5172e-06           
  -2.5                  -3.591e-06            -8e-13                -1.2e-13              3.5948e-06           
  -2.55                 -3.6668e-06           -9.4e-13              0                     3.6704e-06           
  -2.6                  -3.7406e-06           -7.6e-13              -8e-14                3.744e-06            
  -2.65                 -3.8134e-06           -1.06e-12             -1.4e-13              3.8172e-06           
  -2.7                  -3.8852e-06           -7e-13                2e-14                 3.8894e-06           
  -2.75                 -3.9556e-06           -9.2e-13              -1e-13                3.9594e-06           
  -2.8                  -4.0258e-06           -8e-13                -4e-14                4.0298e-06           
  -2.85                 -4.0942e-06           -8.4e-13              -8e-14                4.0974e-06           
  -2.9                  -4.1606e-06           -8.4e-13              -1.4e-13              4.165e-06            
  -2.95                 -4.2274e-06           -8.4e-13              6e-14                 4.2312e-06           
  -3                    -4.2924e-06           -9e-13                -1.4e-13              4.2962e-06           
  -3.05                 -4.357e-06            -1.16e-12             -4e-14                4.3608e-06           
  -3.1                  -4.4202e-06           -7.8e-13              -1.4e-13              4.4234e-06           
  -3.15                 -4.4818e-06           -1.08e-12             -1e-13                4.4856e-06           
  -3.2                  -4.5426e-06           -8.8e-13              -2e-14                4.5458e-06           
  -3.25                 -4.6024e-06           -1.04e-12             -8e-14                4.6056e-06           
  -3.3                  -4.6614e-06           -8.6e-13              -1.4e-13              4.6654e-06           
  -3.35                 -4.7186e-06           -9.8e-13              -6e-14                4.7226e-06           
  -3.4                  -4.7762e-06           -1e-12                -2e-13                4.78e-06             
  -3.45                 -4.8324e-06           -9.4e-13              -1.2e-13              4.836e-06            
  -3.5                  -4.8874e-06           -8.6e-13              -1e-13                4.8916e-06           
  -3.55                 -4.9416e-06           -1.06e-12             -6e-14                4.9452e-06           
  -3.6                  -4.9948e-06           -9.6e-13              -1.6e-13              4.999e-06            
END_DB

BEGIN_DB
 ICCAP_VAR vb         0.9            
 ICCAP_VAR vd         -0.1           
 ICCAP_VAR vs         -0             

 #vg                    id                    ig                    ib                    is                   
  0.5                   8e-14                 9.2e-13               3e-13                 2.8e-13              
  0.45                  1e-13                 6.4e-13               3.2e-13               6e-14                
  0.4                   4e-14                 1.2e-13               3.8e-13               2.8e-13              
  0.35                  4e-14                 4.8e-13               2.2e-13               1.2e-13              
  0.3                   4e-14                 4e-14                 1.6e-13               2e-13                
  0.25                  8e-14                 -2e-14                1.4e-13               1.8e-13              
  0.2                   2e-14                 1.6e-13               3.2e-13               1e-13                
  0.15                  1.2e-13               -1.8e-13              1.2e-13               8e-14                
  0.1                   2e-14                 0                     1e-13                 2.4e-13              
  0.05                  2e-14                 -8e-14                1.8e-13               -6e-14               
  0                     1e-13                 -1.6e-13              1.8e-13               2e-13                
  -0.05                 4e-14                 8e-14                 6e-14                 -6e-14               
  -0.1                  6e-14                 -1.6e-13              1.8e-13               -2e-14               
  -0.15                 6e-14                 -2.4e-13              4e-14                 1.8e-13              
  -0.2                  2e-14                 -2.6e-13              1e-13                 -1e-13               
  -0.25                 8e-14                 -4.6e-13              1.8e-13               2.2e-13              
  -0.3                  -2e-14                -3e-13                6e-14                 2e-14                
  -0.35                 1.2e-13               -5.2e-13              4e-14                 1.6e-13              
  -0.4                  1e-13                 -2.8e-13              -2e-14                1.4e-13              
  -0.45                 0                     -5.6e-13              2e-14                 3.4e-13              
  -0.5                  0                     -4e-13                1.4e-13               8e-14                
  -0.55                 2e-14                 -6.4e-13              4e-14                 2.2e-13              
  -0.6                  -1.2e-13              -6e-13                2e-14                 3.6e-13              
  -0.65                 -9.4e-13              -3.4e-13              6e-14                 1.02e-12             
  -0.7                  -3.7e-12              -3.4e-13              2e-14                 3.72e-12             
  -0.75                 -1.494e-11            -5.6e-13              1e-13                 1.504e-11            
  -0.8                  -5.99e-11             -6e-13                8e-14                 6.01e-11             
  -0.85                 -2.4134e-10           -3.6e-13              -4e-14                2.4128e-10           
  -0.9                  -9.5346e-10           -5.2e-13              6e-14                 9.5254e-10           
  -0.95                 -3.5912e-09           -4.2e-13              -6e-14                3.5902e-09           
  -1                    -1.191e-08            -4.2e-13              8e-14                 1.194e-08            
  -1.05                 -3.2834e-08           -6e-13                -6e-14                3.2876e-08           
  -1.1                  -7.317e-08            -6.2e-13              0                     7.3082e-08           
  -1.15                 -1.3534e-07           -5.4e-13              8e-14                 1.3556e-07           
  -1.2                  -2.1586e-07           -5.4e-13              0                     2.1612e-07           
  -1.25                 -3.0908e-07           -5.6e-13              4e-14                 3.093e-07            
  -1.3                  -4.094e-07            -5.8e-13              6e-14                 4.096e-07            
  -1.35                 -5.1284e-07           -5.4e-13              4e-14                 5.1318e-07           
  -1.4                  -6.184e-07            -8.4e-13              8e-14                 6.187e-07            
  -1.45                 -7.2368e-07           -5.2e-13              -8e-14                7.2386e-07           
  -1.5                  -8.2888e-07           -7.6e-13              2e-14                 8.2898e-07           
  -1.55                 -9.3252e-07           -8.8e-13              4e-14                 9.3328e-07           
  -1.6                  -1.03638e-06          -8.2e-13              0                     1.03662e-06          
  -1.65                 -1.13826e-06          -6.6e-13              0                     1.13854e-06          
  -1.7                  -1.2374e-06           -4.4e-13              -8e-14                1.241e-06            
  -1.75                 -1.337e-06            -6.8e-13              2e-14                 1.3408e-06           
  -1.8                  -1.4346e-06           -7.2e-13              -1.4e-13              1.4386e-06           
  -1.85                 -1.5316e-06           -7.6e-13              0                     1.5352e-06           
  -1.9                  -1.6262e-06           -9e-13                -1.4e-13              1.6304e-06           
  -1.95                 -1.7204e-06           -7.4e-13              0                     1.7244e-06           
  -2                    -1.8128e-06           -7.6e-13              -2e-14                1.8166e-06           
  -2.05                 -1.904e-06            -7.4e-13              -1.6e-13              1.9078e-06           
  -2.1                  -1.9936e-06           -1e-12                0                     1.9976e-06           
  -2.15                 -2.082e-06            -8.8e-13              -8e-14                2.0858e-06           
  -2.2                  -2.169e-06            -8.2e-13              -2e-14                2.1722e-06           
  -2.25                 -2.2542e-06           -9.6e-13              -1.2e-13              2.2576e-06           
  -2.3                  -2.3382e-06           -9.4e-13              -1e-13                2.3416e-06           
  -2.35                 -2.4208e-06           -5.8e-13              -8e-14                2.4242e-06           
  -2.4                  -2.502e-06            -9.8e-13              -6e-14                2.5062e-06           
  -2.45                 -2.5828e-06           -7.4e-13              -6e-14                2.5862e-06           
  -2.5                  -2.662e-06            -8.2e-13              6e-14                 2.666e-06            
  -2.55                 -2.74e-06             -6.8e-13              -1e-13                2.7438e-06           
  -2.6                  -2.8168e-06           -9.8e-13              -6e-14                2.8208e-06           
  -2.65                 -2.8922e-06           -8.6e-13              -6e-14                2.8958e-06           
  -2.7                  -2.9666e-06           -8e-13                0                     2.97e-06             
  -2.75                 -3.0396e-06           -9e-13                -2e-14                3.0434e-06           
  -2.8                  -3.1124e-06           -9.8e-13              -2e-14                3.1158e-06           
  -2.85                 -3.1828e-06           -8.8e-13              -2e-14                3.1868e-06           
  -2.9                  -3.2538e-06           -1.1e-12              -2e-14                3.2574e-06           
  -2.95                 -3.323e-06            -6.6e-13              -1.2e-13              3.326e-06            
  -3                    -3.3904e-06           -1.16e-12             -4e-14                3.3948e-06           
  -3.05                 -3.4578e-06           -8.2e-13              -6e-14                3.462e-06            
  -3.1                  -3.5238e-06           -9.8e-13              -8e-14                3.528e-06            
  -3.15                 -3.5884e-06           -8.8e-13              -6e-14                3.5928e-06           
  -3.2                  -3.653e-06            -1e-12                -1e-13                3.6566e-06           
  -3.25                 -3.7156e-06           -6.8e-13              0                     3.7194e-06           
  -3.3                  -3.7774e-06           -1.06e-12             -4e-14                3.7804e-06           
  -3.35                 -3.838e-06            -8.6e-13              -1.2e-13              3.8404e-06           
  -3.4                  -3.897e-06            -8.6e-13              0                     3.9014e-06           
  -3.45                 -3.9562e-06           -9.4e-13              0                     3.96e-06             
