! VERSION = 6.00
BEGIN_HEADER
 ICCAP_INPUTS
  vd         V  D GROUND SMU1 0.1 LIN        1    -0         -3.6       37   -0.1      
  vg         V  G GROUND SMU2 0.001 LIST       2 3 -0.493 -0.693 -0.893
  vb         V  B GROUND SMU4 0.1 CON        -0
  vs         V  S GROUND SMU3 0.1 CON        -0
 ICCAP_OUTPUTS
  id         I  D GROUND SMU1 B
  ig         I  G GROUND SMU2 B
  ib         I  B GROUND SMU4 B
  is         I  S GROUND SMU3 B
 ICCAP_VALUES
  MASTER_SETUP_TYPE "~dc_idvd~"
  LINVT_VALUE ""
  LISTVT_VALUE "|idvg|100.0n|-200.0m|1.000m|3|200.0m|200.0m|"
  TYPE "-1"
  TEMP " 27.0000 "
  IS_TNOM " 1.00000 "
  MAIN.W "2.000u"
  MAIN.L "10.00u"
  MAIN.AD "680.0f"
  MAIN.AS "680.0f"
  MAIN.PD "4.680u"
  MAIN.PS "4.680u"
  MAIN.NF "1.000"
  MAIN.M "1"
  MAIN.NRD "0.000"
  MAIN.NRS "0.000"
  MAIN.LDRIFT1 "1E-06"
  MAIN.LDRIFT2 "1E-06"
  MAIN.SA "0.000"
  MAIN.SB "0.000"
  MAIN.SD "0.000"
  MAIN.SCA "0.000"
  MAIN.SCB "0.000"
  MAIN.SCC "0.000"
  MAIN.SC "0.000"
  MODULE "S563"
  PIN_D "12"
  PIN_G "9"
  PIN_S "10"
  PIN_B "11"
  PIN_E ""
  PIN_6 ""
  XY_ID ""
  FUNC "W Scale"
  STI "SA ref"
  WPE "WPE ref"
  COMMENT ""
  DIS_MEAS ""
  TypeTCI "10"
END_HEADER

BEGIN_DB
 ICCAP_VAR vg         -0.493         
 ICCAP_VAR vb         -0             
 ICCAP_VAR vs         -0             

 #vd                    id                    ig                    ib                    is                   
  -0                    7.2e-13               5e-13                 -2.4e-13              -4.4e-13             
  -0.1                  -2.5354e-10           4.6e-13               -2.8e-13              2.537e-10            
  -0.2                  -2.5916e-10           3.6e-13               -2.8e-13              2.5934e-10           
  -0.3                  -2.5948e-10           4.8e-13               -2.2e-13              2.594e-10            
  -0.4                  -2.5966e-10           5e-13                 -2.4e-13              2.595e-10            
  -0.5                  -2.5984e-10           3.4e-13               -1.6e-13              2.598e-10            
  -0.6                  -2.5992e-10           3.2e-13               -1.6e-13              2.5986e-10           
  -0.7                  -2.5988e-10           3.8e-13               -6e-14                2.5976e-10           
  -0.8                  -2.5996e-10           3.6e-13               -1e-13                2.5968e-10           
  -0.9                  -2.6e-10              3.6e-13               -8e-14                2.5976e-10           
  -1                    -2.6004e-10           1.8e-13               -1.6e-13              2.5976e-10           
  -1.1                  -2.6034e-10           3e-13                 -2e-13                2.5982e-10           
  -1.2                  -2.605e-10            3.2e-13               -1.6e-13              2.5986e-10           
  -1.3                  -2.6052e-10           2.6e-13               -2.6e-13              2.5984e-10           
  -1.4                  -2.605e-10            2.8e-13               -2.4e-13              2.601e-10            
  -1.5                  -2.6054e-10           2.6e-13               -2e-13                2.6014e-10           
  -1.6                  -2.6048e-10           1.8e-13               -1.8e-13              2.6e-10              
  -1.7                  -2.6046e-10           2.2e-13               -1.2e-13              2.6026e-10           
  -1.8                  -2.606e-10            1.6e-13               -4e-14                2.5996e-10           
  -1.9                  -2.6054e-10           1.8e-13               -1.6e-13              2.6012e-10           
  -2                    -2.6062e-10           2.8e-13               -1.2e-13              2.6002e-10           
  -2.1                  -2.6076e-10           6e-14                 -4e-14                2.603e-10            
  -2.2                  -2.6088e-10           1.4e-13               -6e-14                2.6004e-10           
  -2.3                  -2.6086e-10           2.6e-13               -1.4e-13              2.6e-10              
  -2.4                  -2.609e-10            1.8e-13               -1.4e-13              2.6034e-10           
  -2.5                  -2.6108e-10           1e-13                 -1.2e-13              2.604e-10            
  -2.6                  -2.611e-10            8e-14                 -1.4e-13              2.603e-10            
  -2.7                  -2.6112e-10           8e-14                 -2.4e-13              2.6044e-10           
  -2.8                  -2.6108e-10           2e-13                 -2e-14                2.6042e-10           
  -2.9                  -2.6132e-10           1.6e-13               1e-13                 2.6032e-10           
  -3                    -2.6156e-10           0                     1.8e-13               2.6046e-10           
  -3.1                  -2.6174e-10           2e-14                 3.4e-13               2.6054e-10           
  -3.2                  -2.6186e-10           2.2e-13               4.8e-13               2.604e-10            
  -3.3                  -2.6228e-10           1.6e-13               8.4e-13               2.6036e-10           
  -3.4                  -2.6258e-10           4e-14                 1.08e-12              2.6056e-10           
  -3.5                  -2.631e-10            1.8e-13               1.68e-12              2.6056e-10           
  -3.6                  -2.6384e-10           8e-14                 2.26e-12              2.6056e-10           
END_DB

BEGIN_DB
 ICCAP_VAR vg         -0.693         
 ICCAP_VAR vb         -0             
 ICCAP_VAR vs         -0             

 #vd                    id                    ig                    ib                    is                   
  -0                    2.988e-11             0                     -1.8e-13              -2.926e-11           
  -0.1                  -1.9312e-08           4e-14                 -1e-13                1.934e-08            
  -0.2                  -2.0224e-08           -4e-14                -1.6e-13              2.025e-08            
  -0.3                  -2.0252e-08           4e-14                 -1.6e-13              2.0278e-08           
  -0.4                  -2.0258e-08           8e-14                 -2.6e-13              2.0282e-08           
  -0.5                  -2.0262e-08           2e-14                 -1e-13                2.029e-08            
  -0.6                  -2.0268e-08           2.6e-13               -1.8e-13              2.0294e-08           
  -0.7                  -2.0274e-08           1.4e-13               -1.6e-13              2.0298e-08           
  -0.8                  -2.0276e-08           0                     -8e-14                2.03e-08             
  -0.9                  -2.0278e-08           2e-14                 -8e-14                2.0302e-08           
  -1                    -2.028e-08            1.8e-13               -1.2e-13              2.0306e-08           
  -1.1                  -2.0284e-08           8e-14                 0                     2.031e-08            
  -1.2                  -2.0292e-08           4e-14                 -6e-14                2.0314e-08           
  -1.3                  -2.0294e-08           4e-14                 -8e-14                2.0316e-08           
  -1.4                  -2.0294e-08           2e-14                 -1e-13                2.0318e-08           
  -1.5                  -2.0296e-08           1.2e-13               2e-14                 2.032e-08            
  -1.6                  -2.0296e-08           1.6e-13               0                     2.0322e-08           
  -1.7                  -2.03e-08             1e-13                 -4e-14                2.0324e-08           
  -1.8                  -2.0304e-08           -4e-14                -1.2e-13              2.0324e-08           
  -1.9                  -2.0304e-08           -4e-14                0                     2.0328e-08           
  -2                    -2.0304e-08           1e-13                 -1.2e-13              2.0332e-08           
  -2.1                  -2.031e-08            1.8e-13               0                     2.0332e-08           
  -2.2                  -2.0312e-08           0                     2.6e-13               2.0334e-08           
  -2.3                  -2.0314e-08           6e-14                 4.4e-13               2.0338e-08           
  -2.4                  -2.032e-08            2e-14                 6.4e-13               2.034e-08            
  -2.5                  -2.032e-08            2e-14                 1.06e-12              2.034e-08            
  -2.6                  -2.0324e-08           0                     1.64e-12              2.0342e-08           
  -2.7                  -2.0326e-08           0                     2.92e-12              2.0346e-08           
  -2.8                  -2.0334e-08           1.4e-13               4.72e-12              2.0354e-08           
  -2.9                  -2.034e-08            1e-13                 7.44e-12              2.0356e-08           
  -3                    -2.0344e-08           4e-14                 1.164e-11             2.0356e-08           
  -3.1                  -2.035e-08            4e-14                 1.79e-11              2.0358e-08           
  -3.2                  -2.0362e-08           -2e-14                2.67e-11              2.036e-08            
  -3.3                  -2.0378e-08           8e-14                 3.928e-11             2.036e-08            
  -3.4                  -2.0396e-08           8e-14                 5.68e-11              2.0362e-08           
  -3.5                  -2.0424e-08           8e-14                 8.08e-11              2.0364e-08           
  -3.6                  -2.0456e-08           4e-14                 1.1312e-10            2.0364e-08           
END_DB

BEGIN_DB
 ICCAP_VAR vg         -0.893         
 ICCAP_VAR vb         -0             
 ICCAP_VAR vs         -0             

 #vd                    id                    ig                    ib                    is                   
  -0                    1.1336e-10            6e-14                 -2.6e-13              -1.1998e-10          
  -0.1                  -1.3942e-07           -4e-14                -1.4e-13              1.3962e-07           
  -0.2                  -1.7906e-07           8e-14                 -1.8e-13              1.7926e-07           
  -0.3                  -1.8246e-07           -6e-14                -8e-14                1.8268e-07           
  -0.4                  -1.8266e-07           -6e-14                -1.4e-13              1.8286e-07           
  -0.5                  -1.8274e-07           2e-14                 -2e-13                1.8296e-07           
  -0.6                  -1.828e-07            -2e-14                -1.2e-13              1.8302e-07           
  -0.7                  -1.8286e-07           2e-14                 -4e-14                1.8306e-07           
  -0.8                  -1.829e-07            1e-13                 -1.2e-13              1.831e-07            
  -0.9                  -1.8294e-07           -1.8e-13              -6e-14                1.8314e-07           
  -1                    -1.8296e-07           0                     0                     1.8318e-07           
  -1.1                  -1.83e-07             -2e-14                -8e-14                1.8318e-07           
  -1.2                  -1.83e-07             -2e-14                -8e-14                1.832e-07            
  -1.3                  -1.8302e-07           6e-14                 -1.2e-13              1.8324e-07           
  -1.4                  -1.8304e-07           -4e-14                -8e-14                1.8326e-07           
  -1.5                  -1.8308e-07           -2e-14                -1e-13                1.8328e-07           
  -1.6                  -1.8312e-07           6e-14                 -8e-14                1.833e-07            
  -1.7                  -1.8312e-07           1.4e-13               -4e-14                1.8332e-07           
  -1.8                  -1.8312e-07           -1.6e-13              6e-14                 1.8336e-07           
  -1.9                  -1.8314e-07           -8e-14                -1e-13                1.8336e-07           
  -2                    -1.8318e-07           0                     -4e-14                1.834e-07            
  -2.1                  -1.8318e-07           0                     8e-14                 1.8338e-07           
  -2.2                  -1.8318e-07           -8e-14                4.6e-13               1.8338e-07           
  -2.3                  -1.8318e-07           0                     1.02e-12              1.834e-07            
  -2.4                  -1.8322e-07           -1.2e-13              2.06e-12              1.8344e-07           
  -2.5                  -1.8326e-07           1.6e-13               3.88e-12              1.8348e-07           
  -2.6                  -1.8328e-07           -1e-13                6.86e-12              1.835e-07            
  -2.7                  -1.8332e-07           -1.2e-13              1.176e-11             1.8352e-07           
  -2.8                  -1.8334e-07           2e-14                 1.976e-11             1.8354e-07           
  -2.9                  -1.8338e-07           2e-14                 3.246e-11             1.8354e-07           
  -3                    -1.8342e-07           4e-14                 5.226e-11             1.8356e-07           
  -3.1                  -1.8346e-07           4e-14                 8.22e-11              1.836e-07            
  -3.2                  -1.835e-07            -8e-14                1.2712e-10            1.836e-07            
  -3.3                  -1.836e-07            -2e-14                1.9264e-10            1.8362e-07           
  -3.4                  -1.8372e-07           1.8e-13               2.8628e-10            1.8364e-07           
  -3.5                  -1.8386e-07           1e-13                 4.1858e-10            1.8364e-07           
  -3.6                  -1.8406e-07           0                     6.0154e-10            1.8368e-07           
END_DB

