! VERSION = 6.00
BEGIN_HEADER
 ICCAP_INPUTS
  vd         V  D GROUND SMU1 0.1 LIN        1    -0         -3.6       37   -0.1      
  vg         V  G GROUND SMU2 0.001 LIN        2    -0.7       -3.6       5    -0.725    
  vb         V  B GROUND SMU4 0.1 CON        -0
  vs         V  S GROUND SMU3 0.1 CON        -0
 ICCAP_OUTPUTS
  id         I  D GROUND SMU1 B
  ig         I  G GROUND SMU2 B
  ib         I  B GROUND SMU4 B
  is         I  S GROUND SMU3 B
 ICCAP_VALUES
  MASTER_SETUP_TYPE "~dc_idvd~"
  LINVT_VALUE "|idvg|100.0n|100.0m|1.000m|5|3.600|"
  LISTVT_VALUE ""
  TYPE "-1"
  TEMP " 27.0000 "
  IS_TNOM " 1.00000 "
  MAIN.W "300.0n"
  MAIN.L "300.0n"
  MAIN.AD "102.0f"
  MAIN.AS "102.0f"
  MAIN.PD "1.280u"
  MAIN.PS "1.280u"
  MAIN.NF "1.000"
  MAIN.M "1"
  MAIN.NRD "0.000"
  MAIN.NRS "0.000"
  MAIN.LDRIFT1 "1E-06"
  MAIN.LDRIFT2 "1E-06"
  MAIN.SA "0.000"
  MAIN.SB "0.000"
  MAIN.SD "0.000"
  MAIN.SCA "0.000"
  MAIN.SCB "0.000"
  MAIN.SCC "0.000"
  MAIN.SC "0.000"
  MODULE "S565"
  PIN_D "20"
  PIN_G "1"
  PIN_S "2"
  PIN_B "19"
  PIN_E ""
  PIN_6 ""
  XY_ID ""
  FUNC "Additional"
  STI "SA ref"
  WPE "WPE ref"
  COMMENT ""
  DIS_MEAS ""
  TypeTCI "10"
END_HEADER

BEGIN_DB
 ICCAP_VAR vg         -0.7           
 ICCAP_VAR vb         -0             
 ICCAP_VAR vs         -0             

 #vd                    id                    ig                    ib                    is                   
  -0                    2.4416e-10            2e-14                 -8.4e-13              -3.139e-10           
  -0.1                  -2.8486e-07           6e-14                 -9e-13                2.8522e-07           
  -0.2                  -3.4374e-07           8e-14                 -8.4e-13              3.4394e-07           
  -0.3                  -3.6418e-07           -6e-14                -7.8e-13              3.6446e-07           
  -0.4                  -3.781e-07            2e-14                 -8e-13                3.7834e-07           
  -0.5                  -3.9052e-07           0                     -7.8e-13              3.9024e-07           
  -0.6                  -4.0012e-07           0                     -8.2e-13              4.007e-07            
  -0.7                  -4.1032e-07           6e-14                 -6.6e-13              4.103e-07            
  -0.8                  -4.1892e-07           -2e-14                -6.8e-13              4.1926e-07           
  -0.9                  -4.2768e-07           4e-14                 -7.4e-13              4.2838e-07           
  -1                    -4.3682e-07           -6e-14                -5.4e-13              4.3688e-07           
  -1.1                  -4.4468e-07           0                     -4.8e-13              4.4488e-07           
  -1.2                  -4.5344e-07           -6e-14                -6e-13                4.5314e-07           
  -1.3                  -4.6084e-07           0                     -5.6e-13              4.6164e-07           
  -1.4                  -4.6888e-07           -8e-14                -5.6e-13              4.6886e-07           
  -1.5                  -4.766e-07            -6e-14                -5.6e-13              4.7678e-07           
  -1.6                  -4.8428e-07           -2e-14                -5.6e-13              4.8474e-07           
  -1.7                  -4.9208e-07           -1e-13                -5.8e-13              4.923e-07            
  -1.8                  -5.0004e-07           0                     -3e-13                4.9998e-07           
  -1.9                  -5.075e-07            -8e-14                1.4e-13               5.0794e-07           
  -2                    -5.1534e-07           0                     6e-13                 5.1574e-07           
  -2.1                  -5.2336e-07           -4e-14                1.72e-12              5.2362e-07           
  -2.2                  -5.3108e-07           -1e-13                3.94e-12              5.3112e-07           
  -2.3                  -5.389e-07            -2e-14                7.8e-12               5.3924e-07           
  -2.4                  -5.4692e-07           4e-14                 1.454e-11             5.476e-07            
  -2.5                  -5.5496e-07           -2e-14                2.576e-11             5.5548e-07           
  -2.6                  -5.632e-07            -2e-14                4.414e-11             5.6404e-07           
  -2.7                  -5.7098e-07           -8e-14                7.386e-11             5.7154e-07           
  -2.8                  -5.7966e-07           0                     1.2046e-10            5.7976e-07           
  -2.9                  -5.8814e-07           -1e-13                1.9232e-10            5.882e-07            
  -3                    -5.9698e-07           -1.2e-13              3.0136e-10            5.9666e-07           
  -3.1                  -6.0536e-07           -6e-14                4.6344e-10            6.0518e-07           
  -3.2                  -6.1414e-07           -1.4e-13              6.996e-10             6.1418e-07           
  -3.3                  -6.2352e-07           -1.6e-13              1.04102e-09           6.2252e-07           
  -3.4                  -6.3414e-07           0                     1.544e-09             6.3312e-07           
  -3.5                  -6.5914e-07           2e-14                 2.2568e-09            6.662e-07            
  -3.6                  -6.7932e-07           -1e-13                3.2092e-09            6.7788e-07           
END_DB

BEGIN_DB
 ICCAP_VAR vg         -1.425         
 ICCAP_VAR vb         -0             
 ICCAP_VAR vs         -0             

 #vd                    id                    ig                    ib                    is                   
  -0                    2.2874e-09            -3e-13                -3e-13                -2.0512e-09          
  -0.1                  -4.1916e-06           -2.2e-13              -3.8e-13              4.1996e-06           
  -0.2                  -7.6168e-06           -1.8e-13              -4.2e-13              7.6244e-06           
  -0.3                  -1.02518e-05          -2.2e-13              -4.4e-13              1.02392e-05          
  -0.4                  -1.2112e-05           -1.8e-13              -3.6e-13              1.2148e-05           
  -0.5                  -1.3418e-05           -8e-14                -3.6e-13              1.3428e-05           
  -0.6                  -1.4256e-05           -1.6e-13              -2e-13                1.4282e-05           
  -0.7                  -1.4832e-05           -1.2e-13              -1.6e-13              1.4856e-05           
  -0.8                  -1.5234e-05           -2e-13                -1.6e-13              1.5264e-05           
  -0.9                  -1.5564e-05           -1.6e-13              -2.8e-13              1.5578e-05           
  -1                    -1.5824e-05           -1.4e-13              -2.2e-13              1.5844e-05           
  -1.1                  -1.6058e-05           -1e-13                -2.6e-13              1.6058e-05           
  -1.2                  -1.6258e-05           -1.4e-13              -2.6e-13              1.6276e-05           
  -1.3                  -1.6438e-05           -1.6e-13              -1e-13                1.6452e-05           
  -1.4                  -1.6606e-05           -2.2e-13              -2.4e-13              1.6616e-05           
  -1.5                  -1.676e-05            -1.2e-13              -3.2e-13              1.678e-05            
  -1.6                  -1.691e-05            -1.8e-13              -2.4e-13              1.693e-05            
  -1.7                  -1.7048e-05           -8e-14                -8e-14                1.7072e-05           
  -1.8                  -1.7186e-05           -2.2e-13              -8e-14                1.7212e-05           
  -1.9                  -1.731e-05            -1.8e-13              1.2e-13               1.733e-05            
  -2                    -1.7444e-05           -1.2e-13              8.6e-13               1.746e-05            
  -2.1                  -1.7566e-05           -1.8e-13              2.84e-12              1.7584e-05           
  -2.2                  -1.7682e-05           -8e-14                7.18e-12              1.77e-05             
  -2.3                  -1.78e-05             -2.4e-13              1.648e-11             1.7816e-05           
  -2.4                  -1.7906e-05           -1.2e-13              3.502e-11             1.793e-05            
  -2.5                  -1.8018e-05           -2.4e-13              7.002e-11             1.804e-05            
  -2.6                  -1.8134e-05           -1.8e-13              1.3392e-10            1.8148e-05           
  -2.7                  -1.8238e-05           -1.4e-13              2.4502e-10            1.825e-05            
  -2.8                  -1.834e-05            -1e-13                4.3484e-10            1.8352e-05           
  -2.9                  -1.8442e-05           -1.4e-13              7.4978e-10            1.8462e-05           
  -3                    -1.8592e-05           -1.2e-13              1.2622e-09            1.8572e-05           
  -3.1                  -1.8652e-05           -4e-14                2.0744e-09            1.8674e-05           
  -3.2                  -1.8754e-05           -1.4e-13              3.3494e-09            1.8774e-05           
  -3.3                  -1.8862e-05           -1e-13                5.3038e-09            1.8874e-05           
  -3.4                  -1.8964e-05           -1.4e-13              8.2354e-09            1.8976e-05           
  -3.5                  -1.9078e-05           -1.2e-13              1.2518e-08            1.909e-05            
  -3.6                  -1.918e-05            -1e-13                1.8782e-08            1.9182e-05           
END_DB

BEGIN_DB
 ICCAP_VAR vg         -2.15          
 ICCAP_VAR vb         -0             
 ICCAP_VAR vs         -0             

 #vd                    id                    ig                    ib                    is                   
  -0                    2.7158e-09            -2.6e-13              -6e-14                -2.8272e-09          
  -0.1                  -7.1018e-06           -6e-14                -8e-14                7.1014e-06           
  -0.2                  -1.3588e-05           -2.6e-13              -1.6e-13              1.3608e-05           
  -0.3                  -1.9358e-05           -2.2e-13              -8e-14                1.9376e-05           
  -0.4                  -2.4352e-05           -2.6e-13              -2.4e-13              2.4386e-05           
  -0.5                  -2.859e-05            -3.2e-13              -1.6e-13              2.8656e-05           
  -0.6                  -3.2194e-05           -2.2e-13              -4e-14                3.217e-05            
  -0.7                  -3.5086e-05           -2.2e-13              -1.4e-13              3.5116e-05           
  -0.8                  -3.7426e-05           -2e-13                -2.4e-13              3.7464e-05           
  -0.9                  -3.9244e-05           -3.6e-13              -2e-13                3.9282e-05           
  -1                    -4.074e-05            -2.4e-13              -1e-13                4.0716e-05           
  -1.1                  -4.1852e-05           -2.6e-13              -2.4e-13              4.1928e-05           
  -1.2                  -4.2852e-05           -2.4e-13              -1.2e-13              4.2826e-05           
  -1.3                  -4.358e-05            -2.8e-13              -1e-13                4.3616e-05           
  -1.4                  -4.4204e-05           -2.4e-13              -1e-13                4.4258e-05           
  -1.5                  -4.4784e-05           -2.2e-13              -1.2e-13              4.481e-05            
  -1.6                  -4.525e-05            -1.8e-13              -2e-14                4.5292e-05           
  -1.7                  -4.5632e-05           -1.4e-13              -1.8e-13              4.5722e-05           
  -1.8                  -4.6108e-05           -1.6e-13              2e-14                 4.6112e-05           
  -1.9                  -4.6452e-05           -2.4e-13              -8e-14                4.6464e-05           
  -2                    -4.676e-05            -3.2e-13              0                     4.6732e-05           
  -2.1                  -4.7026e-05           -1.8e-13              2.2e-13               4.7046e-05           
  -2.2                  -4.732e-05            -2.2e-13              1.06e-12              4.7322e-05           
  -2.3                  -4.7592e-05           -3e-13                2.66e-12              4.7622e-05           
  -2.4                  -4.786e-05            -1.8e-13              6.84e-12              4.7862e-05           
  -2.5                  -4.8178e-05           -2e-13                1.572e-11             4.8188e-05           
  -2.6                  -4.8422e-05           -2.4e-13              3.444e-11             4.8544e-05           
  -2.7                  -4.8774e-05           -1.8e-13              6.996e-11             4.8796e-05           
  -2.8                  -4.9002e-05           -2e-13                1.3716e-10            4.902e-05            
  -2.9                  -4.9222e-05           -2.6e-13              2.574e-10             4.9244e-05           
  -3                    -4.9432e-05           -3.6e-13              4.6904e-10            4.9452e-05           
  -3.1                  -4.965e-05            -2.4e-13              8.2662e-10            4.9668e-05           
  -3.2                  -4.9846e-05           -1.2e-13              1.4266e-09            4.9884e-05           
  -3.3                  -5.0066e-05           -2.2e-13              2.3954e-09            5.0086e-05           
  -3.4                  -5.0258e-05           -2e-13                3.9414e-09            5.0256e-05           
  -3.5                  -5.0468e-05           -2.2e-13              6.3776e-09            5.0484e-05           
  -3.6                  -5.0672e-05           -1e-13                1.00944e-08           5.068e-05            
END_DB

BEGIN_DB
 ICCAP_VAR vg         -2.875         
 ICCAP_VAR vb         -0             
 ICCAP_VAR vs         -0             

 #vd                    id                    ig                    ib                    is                   
  -0                    3.0572e-09            -2.6e-13              -1.8e-13              -3.6008e-09          
  -0.1                  -9.2412e-06           -3.4e-13              -8e-14                9.2438e-06           
  -0.2                  -1.7952e-05           -2.2e-13              -6e-14                1.797e-05            
  -0.3                  -2.604e-05            -3.6e-13              -1e-13                2.6058e-05           
  -0.4                  -3.3428e-05           -2e-13                -1.4e-13              3.3448e-05           
  -0.5                  -4.012e-05            -2.8e-13              -2e-13                4.014e-05            
  -0.6                  -4.6104e-05           -2.8e-13              4e-14                 4.6122e-05           
  -0.7                  -5.1392e-05           -4e-13                -1.2e-13              5.1412e-05           
  -0.8                  -5.601e-05            -3.6e-13              -2.2e-13              5.6022e-05           
  -0.9                  -6.0044e-05           -2e-13                -4e-14                6.0108e-05           
  -1                    -6.3548e-05           -2.4e-13              -2e-14                6.3556e-05           
  -1.1                  -6.652e-05            -2.2e-13              -2e-14                6.6544e-05           
  -1.2                  -6.9058e-05           -2e-13                -6e-14                6.9092e-05           
  -1.3                  -7.123e-05            -3.4e-13              -1e-13                7.1258e-05           
  -1.4                  -7.3088e-05           -1.8e-13              -2e-14                7.3108e-05           
  -1.5                  -7.4652e-05           -2.8e-13              -8e-14                7.466e-05            
  -1.6                  -7.5988e-05           -3e-13                -1.2e-13              7.6012e-05           
  -1.7                  -7.7154e-05           -3.2e-13              0                     7.7236e-05           
  -1.8                  -7.8222e-05           -2.8e-13              0                     7.8262e-05           
  -1.9                  -7.9092e-05           -2.6e-13              -1.6e-13              7.9092e-05           
  -2                    -7.985e-05            -2.8e-13              -6e-14                7.9868e-05           
  -2.1                  -8.052e-05            -2e-13                2e-14                 8.0566e-05           
  -2.2                  -8.1172e-05           -3.2e-13              4e-14                 8.1194e-05           
  -2.3                  -8.176e-05            -2.4e-13              1.2e-13               8.1786e-05           
  -2.4                  -8.2294e-05           -2.8e-13              8.2e-13               8.231e-05            
  -2.5                  -8.2768e-05           -2.6e-13              2.32e-12              8.2792e-05           
  -2.6                  -8.3216e-05           -2.4e-13              5.76e-12              8.3258e-05           
  -2.7                  -8.3658e-05           -2.2e-13              1.336e-11             8.3668e-05           
  -2.8                  -8.4064e-05           -2.2e-13              2.954e-11             8.4094e-05           
  -2.9                  -8.4444e-05           -2.4e-13              6.052e-11             8.4458e-05           
  -3                    -8.4856e-05           -2.6e-13              1.1946e-10            8.4836e-05           
  -3.1                  -8.5226e-05           -2e-13                2.2506e-10            8.524e-05            
  -3.2                  -8.5602e-05           -2.4e-13              4.1058e-10            8.5652e-05           
  -3.3                  -8.5924e-05           -8e-14                7.2592e-10            8.592e-05            
  -3.4                  -8.6164e-05           -2.8e-13              1.2436e-09            8.6194e-05           
  -3.5                  -8.6388e-05           -1.4e-13              2.1046e-09            8.6386e-05           
  -3.6                  -8.6688e-05           -2.8e-13              3.4832e-09            8.6704e-05           
END_DB

BEGIN_DB
 ICCAP_VAR vg         -3.6           
 ICCAP_VAR vb         -0             
 ICCAP_VAR vs         -0             

 #vd                    id                    ig                    ib                    is                   
  -0                    2.6986e-09            -3.8e-13              -2.2e-13              -4.0076e-09          
  -0.1                  -1.0888e-05           -3e-13                -1e-13                1.0906e-05           
  -0.2                  -2.1338e-05           -2.8e-13              -4e-14                2.136e-05            
  -0.3                  -3.1222e-05           -3.6e-13              -1.6e-13              3.1242e-05           
  -0.4                  -4.0388e-05           -3e-13                0                     4.0412e-05           
  -0.5                  -4.897e-05            -2.6e-13              6e-14                 4.898e-05            
  -0.6                  -5.6864e-05           -3.4e-13              -8e-14                5.6878e-05           
  -0.7                  -6.4092e-05           -3.2e-13              -1.6e-13              6.4098e-05           
  -0.8                  -7.0642e-05           -1.8e-13              0                     7.0678e-05           
