! VERSION = 6.00
BEGIN_HEADER
 ICCAP_INPUTS
  vd         V  D GROUND SMU1 0.1 LIN        1    -0         -3.6       37   -0.1      
  vg         V  G GROUND SMU2 0.001 LIST       2 3 -1.162 -1.362 -1.562
  vb         V  B GROUND SMU4 0.1 CON        3.6
  vs         V  S GROUND SMU3 0.1 CON        -0
 ICCAP_OUTPUTS
  id         I  D GROUND SMU1 B
  ig         I  G GROUND SMU2 B
  ib         I  B GROUND SMU4 B
  is         I  S GROUND SMU3 B
 ICCAP_VALUES
  MASTER_SETUP_TYPE "~dc_idvd~"
  LINVT_VALUE ""
  LISTVT_VALUE "|idvg|100.0n|-200.0m|1.000m|3|200.0m|200.0m|"
  TYPE "-1"
  TEMP " 27.0000 "
  IS_TNOM " 1.00000 "
  MAIN.W "300.0n"
  MAIN.L "300.0n"
  MAIN.AD "102.0f"
  MAIN.AS "102.0f"
  MAIN.PD "1.280u"
  MAIN.PS "1.280u"
  MAIN.NF "1.000"
  MAIN.M "1"
  MAIN.NRD "0.000"
  MAIN.NRS "0.000"
  MAIN.LDRIFT1 "1E-06"
  MAIN.LDRIFT2 "1E-06"
  MAIN.SA "0.000"
  MAIN.SB "0.000"
  MAIN.SD "0.000"
  MAIN.SCA "0.000"
  MAIN.SCB "0.000"
  MAIN.SCC "0.000"
  MAIN.SC "0.000"
  MODULE "S565"
  PIN_D "20"
  PIN_G "1"
  PIN_S "2"
  PIN_B "19"
  PIN_E ""
  PIN_6 ""
  XY_ID ""
  FUNC "Additional"
  STI "SA ref"
  WPE "WPE ref"
  COMMENT ""
  DIS_MEAS ""
  TypeTCI "10"
END_HEADER

BEGIN_DB
 ICCAP_VAR vg         -1.162         
 ICCAP_VAR vb         3.6            
 ICCAP_VAR vs         -0             

 #vd                    id                    ig                    ib                    is                   
  -0                    7e-13                 1.2e-13               6.6e-13               2e-14                
  -0.1                  -6.03e-11             2.2e-13               5e-13                 6.004e-11            
  -0.2                  -7.762e-11            1.6e-13               5.4e-13               7.716e-11            
  -0.3                  -9.642e-11            2.2e-13               5e-13                 9.564e-11            
  -0.4                  -1.1712e-10           1.6e-13               4.4e-13               1.1732e-10           
  -0.5                  -1.4286e-10           1.4e-13               3e-13                 1.4234e-10           
  -0.6                  -1.7012e-10           2.6e-13               2.6e-13               1.7188e-10           
  -0.7                  -2.0174e-10           2e-13                 3.8e-13               2.0058e-10           
  -0.8                  -2.3834e-10           1.8e-13               2.6e-13               2.3736e-10           
  -0.9                  -2.824e-10            1.2e-13               2.2e-13               2.832e-10            
  -1                    -3.2904e-10           1.2e-13               2.6e-13               3.3056e-10           
  -1.1                  -3.8234e-10           1.2e-13               1.2e-13               3.8288e-10           
  -1.2                  -4.4686e-10           6e-14                 2e-13                 4.461e-10            
  -1.3                  -5.176e-10            1.6e-13               3e-13                 5.178e-10            
  -1.4                  -6.0294e-10           1e-13                 8e-14                 6.0104e-10           
  -1.5                  -6.9454e-10           1.6e-13               2e-13                 6.9198e-10           
  -1.6                  -8.0942e-10           8e-14                 1e-13                 8.0564e-10           
  -1.7                  -9.1678e-10           4e-14                 2e-14                 9.3146e-10           
  -1.8                  -1.051e-09            1.6e-13               2e-13                 1.06368e-09          
  -1.9                  -1.2066e-09           1e-13                 2.2e-13               1.2066e-09           
  -2                    -1.3818e-09           -2e-14                1.4e-13               1.3958e-09           
  -2.1                  -1.586e-09            2e-14                 2e-13                 1.5874e-09           
  -2.2                  -1.8082e-09           0                     1.4e-13               1.8258e-09           
  -2.3                  -2.077e-09            -2e-14                1.4e-13               2.0952e-09           
  -2.4                  -2.3684e-09           6e-14                 3.6e-13               2.365e-09            
  -2.5                  -2.7214e-09           -6e-14                2.8e-13               2.6956e-09           
  -2.6                  -3.092e-09            8e-14                 5.4e-13               3.0986e-09           
  -2.7                  -3.5486e-09           4e-14                 8.8e-13               3.5056e-09           
  -2.8                  -4.0042e-09           -8e-14                1.38e-12              4.0002e-09           
  -2.9                  -4.6012e-09           0                     2.46e-12              4.557e-09            
  -3                    -5.1786e-09           2e-14                 4.12e-12              5.17e-09             
  -3.1                  -5.8786e-09           -2e-14                7.18e-12              5.916e-09            
  -3.2                  -6.6746e-09           0                     1.222e-11             6.7094e-09           
  -3.3                  -7.5946e-09           -4e-14                2.048e-11             7.5486e-09           
  -3.4                  -8.6254e-09           -4e-14                3.388e-11             8.5368e-09           
  -3.5                  -9.8288e-09           -2e-14                5.418e-11             9.656e-09            
  -3.6                  -1.10592e-08          2e-14                 8.65e-11              1.09932e-08          
END_DB

BEGIN_DB
 ICCAP_VAR vg         -1.362         
 ICCAP_VAR vb         3.6            
 ICCAP_VAR vs         -0             

 #vd                    id                    ig                    ib                    is                   
  -0                    2.278e-11             4e-14                 1e-13                 -2.1e-11             
  -0.1                  -1.3726e-08           -4e-14                1.2e-13               1.383e-08            
  -0.2                  -1.832e-08            2e-14                 1.2e-13               1.824e-08            
  -0.3                  -2.2298e-08           -6e-14                8e-14                 2.244e-08            
  -0.4                  -2.679e-08            -2e-14                0                     2.6708e-08           
  -0.5                  -3.125e-08            -2e-14                6e-14                 3.1112e-08           
  -0.6                  -3.6084e-08           -6e-14                1.6e-13               3.6362e-08           
  -0.7                  -4.0984e-08           -1.4e-13              8e-14                 4.1074e-08           
  -0.8                  -4.6808e-08           -6e-14                1.2e-13               4.6758e-08           
  -0.9                  -5.258e-08            -6e-14                1.6e-13               5.3172e-08           
  -1                    -5.9464e-08           -2e-14                1e-13                 5.965e-08            
  -1.1                  -6.6426e-08           -1.4e-13              2.2e-13               6.603e-08            
  -1.2                  -7.3964e-08           -6e-14                1e-13                 7.3646e-08           
  -1.3                  -8.2342e-08           -4e-14                0                     8.1658e-08           
  -1.4                  -9.0136e-08           2e-14                 1.6e-13               8.9876e-08           
  -1.5                  -9.8842e-08           -6e-14                2.6e-13               9.949e-08            
  -1.6                  -1.0928e-07           -2e-14                6e-14                 1.0891e-07           
  -1.7                  -1.2044e-07           -2e-14                4e-14                 1.1984e-07           
  -1.8                  -1.3076e-07           -8e-14                1.4e-13               1.3054e-07           
  -1.9                  -1.4254e-07           -1.4e-13              1.4e-13               1.4318e-07           
  -2                    -1.5544e-07           -1.8e-13              1.6e-13               1.5484e-07           
  -2.1                  -1.6924e-07           -1e-13                3.2e-13               1.687e-07            
  -2.2                  -1.8256e-07           -1e-13                8e-13                 1.8234e-07           
  -2.3                  -1.9926e-07           -4e-14                1.82e-12              1.9794e-07           
  -2.4                  -2.16e-07             -8e-14                3.56e-12              2.1498e-07           
  -2.5                  -2.3264e-07           -2e-14                6.8e-12               2.316e-07            
  -2.6                  -2.5114e-07           -1e-13                1.258e-11             2.5086e-07           
  -2.7                  -2.7044e-07           -1.2e-13              2.302e-11             2.7034e-07           
  -2.8                  -2.9024e-07           -1.2e-13              4.162e-11             2.9038e-07           
  -2.9                  -3.1174e-07           -8e-14                7.342e-11             3.117e-07            
  -3                    -3.3916e-07           0                     1.2726e-10            3.3574e-07           
  -3.1                  -3.5938e-07           -6e-14                2.1452e-10            3.5936e-07           
  -3.2                  -3.8622e-07           -1.2e-13              3.5748e-10            3.8576e-07           
  -3.3                  -4.1288e-07           -1.4e-13              5.82e-10              4.1308e-07           
  -3.4                  -4.4046e-07           -1.4e-13              9.3164e-10            4.425e-07            
  -3.5                  -4.7108e-07           -1e-13                1.4696e-09            4.8214e-07           
  -3.6                  -5.066e-07            -1e-13                2.2808e-09            5.0786e-07           
END_DB

BEGIN_DB
 ICCAP_VAR vg         -1.562         
 ICCAP_VAR vb         3.6            
 ICCAP_VAR vs         -0             

 #vd                    id                    ig                    ib                    is                   
  -0                    3.1586e-10            0                     2e-14                 -3.3254e-10          
  -0.1                  -3.532e-07            -8e-14                2e-14                 3.5382e-07           
  -0.2                  -4.964e-07            -6e-14                0                     4.9674e-07           
  -0.3                  -5.8526e-07           -1e-13                0                     5.8562e-07           
  -0.4                  -6.5516e-07           -2e-14                1.8e-13               6.572e-07            
  -0.5                  -7.22e-07             -1.2e-13              1e-13                 7.237e-07            
  -0.6                  -7.8646e-07           -6e-14                0                     7.8286e-07           
  -0.7                  -8.4716e-07           -6e-14                1.4e-13               8.477e-07            
  -0.8                  -9.0656e-07           -1.2e-13              1.8e-13               9.0528e-07           
  -0.9                  -9.6586e-07           -4e-14                1.2e-13               9.6822e-07           
  -1                    -1.03484e-06          -6e-14                6e-14                 1.0286e-06           
  -1.1                  -1.09272e-06          -8e-14                6e-14                 1.08776e-06          
  -1.2                  -1.156e-06            -4e-14                4e-14                 1.1582e-06           
  -1.3                  -1.2164e-06           -8e-14                4e-14                 1.2164e-06           
  -1.4                  -1.2832e-06           -1.4e-13              1.2e-13               1.2788e-06           
  -1.5                  -1.3464e-06           -8e-14                -2e-14                1.3496e-06           
  -1.6                  -1.4168e-06           -4e-14                1e-13                 1.4206e-06           
  -1.7                  -1.4826e-06           -1.8e-13              1.6e-13               1.4836e-06           
  -1.8                  -1.553e-06            -1.8e-13              1.2e-13               1.5554e-06           
  -1.9                  -1.621e-06            -1e-13                3.2e-13               1.6228e-06           
  -2                    -1.6894e-06           -2e-14                6.4e-13               1.693e-06            
  -2.1                  -1.7666e-06           -1.6e-13              1.42e-12              1.7746e-06           
  -2.2                  -1.8432e-06           -1.4e-13              3.22e-12              1.8486e-06           
  -2.3                  -1.9196e-06           -1.2e-13              6.74e-12              1.927e-06            
  -2.4                  -2.0012e-06           -1.8e-13              1.37e-11              2.0062e-06           
  -2.5                  -2.084e-06            -2e-13                2.696e-11             2.0856e-06           
  -2.6                  -2.1616e-06           -1e-13                5.092e-11             2.1666e-06           
  -2.7                  -2.2358e-06           -1.6e-13              9.316e-11             2.2396e-06           
  -2.8                  -2.3234e-06           -1.2e-13              1.6744e-10            2.3342e-06           
  -2.9                  -2.4246e-06           -1.6e-13              2.9162e-10            2.4136e-06           
  -3                    -2.5008e-06           -1e-13                4.9882e-10            2.5074e-06           
  -3.1                  -2.5916e-06           -1.4e-13              8.3394e-10            2.6012e-06           
  -3.2                  -2.6916e-06           -8e-14                1.3686e-09            2.6862e-06           
  -3.3                  -2.7778e-06           -1.4e-13              2.203e-09             2.777e-06            
  -3.4                  -2.8742e-06           -8e-14                3.4924e-09            2.884e-06            
  -3.5                  -2.976e-06            -2e-13                5.4312e-09            2.9746e-06           
  -3.6                  -3.0752e-06           -1e-13                8.3176e-09            3.073e-06            
END_DB

