! VERSION = 6.00
BEGIN_HEADER
 ICCAP_INPUTS
  vd         V  D GROUND SMU1 0.1 LIN        1    -0         -3.6       37   -0.1      
  vg         V  G GROUND SMU2 0.001 LIN        2    -1.712     -3.6       5    -0.472    
  vb         V  B GROUND SMU4 0.1 CON        3.6
  vs         V  S GROUND SMU3 0.1 CON        -0
 ICCAP_OUTPUTS
  id         I  D GROUND SMU1 B
  ig         I  G GROUND SMU2 B
  ib         I  B GROUND SMU4 B
  is         I  S GROUND SMU3 B
 ICCAP_VALUES
  MASTER_SETUP_TYPE "~dc_idvd~"
  LINVT_VALUE "|idvg|100.0n|100.0m|1.000m|5|3.600|"
  LISTVT_VALUE ""
  TYPE "-1"
  TEMP " 27.0000 "
  IS_TNOM " 1.00000 "
  MAIN.W "10.00u"
  MAIN.L "350.0n"
  MAIN.AD "3.400p"
  MAIN.AS "3.400p"
  MAIN.PD "20.68u"
  MAIN.PS "20.68u"
  MAIN.NF "1.000"
  MAIN.M "1"
  MAIN.NRD "0.000"
  MAIN.NRS "0.000"
  MAIN.LDRIFT1 "1E-06"
  MAIN.LDRIFT2 "1E-06"
  MAIN.SA "0.000"
  MAIN.SB "0.000"
  MAIN.SD "0.000"
  MAIN.SCA "0.000"
  MAIN.SCB "0.000"
  MAIN.SCC "0.000"
  MAIN.SC "0.000"
  MODULE "S561"
  PIN_D "16"
  PIN_G "5"
  PIN_S "6"
  PIN_B "15"
  PIN_E ""
  PIN_6 ""
  XY_ID ""
  FUNC "Short"
  STI "SA ref"
  WPE "WPE ref"
  COMMENT ""
  DIS_MEAS ""
  TypeTCI "10"
END_HEADER

BEGIN_DB
 ICCAP_VAR vg         -1.712         
 ICCAP_VAR vb         3.6            
 ICCAP_VAR vs         -0             

 #vd                    id                    ig                    ib                    is                   
  -0                    2.2708e-09            -5.8e-13              1.42e-12              -3.2624e-09          
  -0.1                  -4.9956e-06           -3.8e-13              1.22e-12              4.993e-06            
  -0.2                  -6.5786e-06           -3.4e-13              1.24e-12              6.5848e-06           
  -0.3                  -7.5348e-06           -3.8e-13              1.2e-12               7.538e-06            
  -0.4                  -8.2988e-06           -3e-13                1.12e-12              8.3094e-06           
  -0.5                  -8.9824e-06           -2.6e-13              1.1e-12               8.9882e-06           
  -0.6                  -9.6078e-06           -2e-13                9.8e-13               9.6086e-06           
  -0.7                  -1.02092e-05          -1.6e-13              8.8e-13               1.02066e-05          
  -0.8                  -1.0758e-05           -1e-13                9.4e-13               1.07772e-05          
  -0.9                  -1.1314e-05           -2e-13                7.6e-13               1.13324e-05          
  -1                    -1.1866e-05           -2.4e-13              8.8e-13               1.1888e-05           
  -1.1                  -1.2402e-05           -8e-14                8.4e-13               1.2424e-05           
  -1.2                  -1.2932e-05           -2.2e-13              6.4e-13               1.2948e-05           
  -1.3                  -1.3444e-05           -6e-14                7.4e-13               1.3462e-05           
  -1.4                  -1.396e-05            -1.2e-13              8.8e-13               1.3978e-05           
  -1.5                  -1.448e-05            -1.4e-13              8.2e-13               1.45e-05             
  -1.6                  -1.4984e-05           -1.6e-13              8e-13                 1.5006e-05           
  -1.7                  -1.5514e-05           -6e-14                8e-13                 1.5534e-05           
  -1.8                  -1.6018e-05           -8e-14                1.08e-12              1.6044e-05           
  -1.9                  -1.6532e-05           -1.2e-13              1.72e-12              1.6558e-05           
  -2                    -1.705e-05            -1.4e-13              3.5e-12               1.7086e-05           
  -2.1                  -1.7582e-05           -2e-14                7.36e-12              1.7594e-05           
  -2.2                  -1.8128e-05           0                     1.658e-11             1.8136e-05           
  -2.3                  -1.8642e-05           -8e-14                3.62e-11              1.8664e-05           
  -2.4                  -1.9204e-05           -1.2e-13              7.626e-11             1.9208e-05           
  -2.5                  -1.9718e-05           2e-14                 1.5526e-10            1.9738e-05           
  -2.6                  -2.0264e-05           8e-14                 3.0518e-10            2.0294e-05           
  -2.7                  -2.0838e-05           -1.2e-13              5.8112e-10            2.0856e-05           
  -2.8                  -2.1388e-05           2e-14                 1.07548e-09           2.143e-05            
  -2.9                  -2.1966e-05           -6e-14                1.9362e-09            2.1978e-05           
  -3                    -2.2536e-05           -6e-14                3.402e-09             2.2548e-05           
  -3.1                  -2.3142e-05           -8e-14                5.8388e-09            2.3112e-05           
  -3.2                  -2.374e-05            1e-13                 9.8534e-09            2.3748e-05           
  -3.3                  -2.435e-05            -1.2e-13              1.6272e-08            2.4348e-05           
  -3.4                  -2.4946e-05           -4e-14                2.6312e-08            2.4936e-05           
  -3.5                  -2.559e-05            -1.2e-13              4.1794e-08            2.5552e-05           
  -3.6                  -2.6244e-05           0                     6.5266e-08            2.6192e-05           
END_DB

BEGIN_DB
 ICCAP_VAR vg         -2.184         
 ICCAP_VAR vb         3.6            
 ICCAP_VAR vs         -0             

 #vd                    id                    ig                    ib                    is                   
  -0                    3.3292e-08            -3.6e-13              3.6e-13               -2.9514e-08          
  -0.1                  -5.5904e-05           -3e-13                3.2e-13               5.592e-05            
  -0.2                  -9.9742e-05           -1.6e-13              5e-13                 9.9782e-05           
  -0.3                  -0.00013186           -2.6e-13              3.6e-13               0.00013222           
  -0.4                  -0.00015434           -1.8e-13              3.2e-13               0.00015474           
  -0.5                  -0.0001697            -1e-13                4.6e-13               0.00017008           
  -0.6                  -0.00018046           -4e-14                4.2e-13               0.0001808            
  -0.7                  -0.00018842           -2.2e-13              2.4e-13               0.00018884           
  -0.8                  -0.00019476           -2.4e-13              3.4e-13               0.00019506           
  -0.9                  -0.00019996           -2e-14                3.4e-13               0.00020036           
  -1                    -0.0002046            -1e-13                3.6e-13               0.00020494           
  -1.1                  -0.00020876           -1.4e-13              3.2e-13               0.00020912           
  -1.2                  -0.00021254           -1.4e-13              3.8e-13               0.00021292           
  -1.3                  -0.00021612           -6e-14                2.8e-13               0.00021648           
  -1.4                  -0.00021946           -1.2e-13              3.2e-13               0.00021986           
  -1.5                  -0.00022274           -4e-14                3.4e-13               0.00022304           
  -1.6                  -0.00022588           -6e-14                4e-13                 0.00022622           
  -1.7                  -0.00022886           -2e-14                4.4e-13               0.00022922           
  -1.8                  -0.00023172           -1.2e-13              4.8e-13               0.00023202           
  -1.9                  -0.00023452           0                     9.2e-13               0.0002349            
  -2                    -0.00023728           0                     2e-12                 0.00023758           
  -2.1                  -0.00023996           2e-14                 5.22e-12              0.00024038           
  -2.2                  -0.00024266           0                     1.36e-11              0.00024306           
  -2.3                  -0.00024524           0                     3.382e-11             0.0002456            
  -2.4                  -0.0002479            -1.2e-13              8.03e-11              0.00024828           
  -2.5                  -0.0002504            -4e-14                1.8186e-10            0.00025072           
  -2.6                  -0.0002529            0                     3.931e-10             0.00025338           
  -2.7                  -0.00025542           -2e-14                8.1528e-10            0.00025574           
  -2.8                  -0.00025776           -2e-14                1.6326e-09            0.0002581            
  -2.9                  -0.00026014           -2e-14                3.1574e-09            0.00026058           
  -3                    -0.0002627            -8e-14                5.9346e-09            0.00026304           
  -3.1                  -0.00026538           0                     1.0838e-08            0.00026574           
  -3.2                  -0.0002679            -1.6e-13              1.931e-08             0.0002682            
  -3.3                  -0.00027026           -6e-14                3.3634e-08            0.00027038           
  -3.4                  -0.00027252           4e-14                 5.7268e-08            0.00027282           
  -3.5                  -0.00027506           -4e-14                9.5686e-08            0.0002752            
  -3.6                  -0.00027726           2e-14                 1.5668e-07            0.00027688           
END_DB

BEGIN_DB
 ICCAP_VAR vg         -2.656         
 ICCAP_VAR vb         3.6            
 ICCAP_VAR vs         -0             

 #vd                    id                    ig                    ib                    is                   
  -0                    5.782e-08             -2.8e-13              1.4e-13               -5.3308e-08          
  -0.1                  -9.7884e-05           -2.6e-13              8e-14                 9.7912e-05           
  -0.2                  -0.00018588           -3e-13                1.4e-13               0.00018628           
  -0.3                  -0.00026358           0                     3.4e-13               0.000264             
  -0.4                  -0.00033054           -1.6e-13              1.8e-13               0.00033084           
  -0.5                  -0.00038718           -2.4e-13              1.2e-13               0.00038758           
  -0.6                  -0.00043374           -6e-14                3e-13                 0.0004341            
  -0.7                  -0.000471             -1.4e-13              2.8e-13               0.00047136           
  -0.8                  -0.00050056           -2e-14                1.8e-13               0.00050098           
  -0.9                  -0.00052384           -8e-14                2.4e-13               0.00052422           
  -1                    -0.00054214           -1.6e-13              3.2e-13               0.00054246           
  -1.1                  -0.00055674           -1e-13                2.6e-13               0.00055718           
  -1.2                  -0.000569             -4e-14                2e-13                 0.00056932           
  -1.3                  -0.00057932           -4e-14                3.4e-13               0.0005797            
  -1.4                  -0.0005883            -1e-13                2.8e-13               0.00058864           
  -1.5                  -0.00059624           -2e-13                2.4e-13               0.00059658           
  -1.6                  -0.00060354           -1e-13                3.2e-13               0.00060388           
  -1.7                  -0.0006104            -2e-14                2.4e-13               0.00061074           
  -1.8                  -0.00061682           -6e-14                2.8e-13               0.00061726           
  -1.9                  -0.00062276           -1.4e-13              3.6e-13               0.00062322           
  -2                    -0.0006285            2e-14                 5.2e-13               0.0006289            
  -2.1                  -0.00063396           -2e-14                1e-12                 0.00063434           
  -2.2                  -0.00063928           -8e-14                2.68e-12              0.00063962           
  -2.3                  -0.00064444           0                     7.5e-12               0.0006446            
  -2.4                  -0.000649             0                     2.008e-11             0.0006494            
  -2.5                  -0.00065378           -2e-14                5.05e-11              0.0006544            
  -2.6                  -0.0006586            -2e-14                1.2038e-10            0.000659             
  -2.7                  -0.00066318           -1.4e-13              2.724e-10             0.00066362           
  -2.8                  -0.00066776           -8e-14                5.8934e-10            0.00066808           
  -2.9                  -0.00067204           0                     1.2222e-09            0.00067242           
  -3                    -0.0006764            0                     2.4512e-09            0.0006767            
  -3.1                  -0.00068062           -4e-14                4.7434e-09            0.00068092           
  -3.2                  -0.00068464           -6e-14                8.9526e-09            0.00068516           
  -3.3                  -0.0006891            -2e-14                1.6496e-08            0.00068914           
  -3.4                  -0.0006929            -2e-14                2.9596e-08            0.00069314           
  -3.5                  -0.0006971            0                     5.2112e-08            0.00069708           
  -3.6                  -0.00070094           -2e-14                8.9774e-08            0.00070062           
END_DB

BEGIN_DB
 ICCAP_VAR vg         -3.128         
 ICCAP_VAR vb         3.6            
 ICCAP_VAR vs         -0             

 #vd                    id                    ig                    ib                    is                   
  -0                    7.2618e-08            -4e-13                1.6e-13               -6.3158e-08          
  -0.1                  -0.00013046           -1.6e-13              1.4e-13               0.00013082           
  -0.2                  -0.00025306           -8e-14                3.6e-13               0.00025342           
  -0.3                  -0.00036668           -8e-14                2.2e-13               0.00036708           
  -0.4                  -0.00047066           -6e-14                1.4e-13               0.00047104           
  -0.5                  -0.00056532           -1e-13                1.2e-13               0.0005656            
  -0.6                  -0.00064988           -8e-14                1.8e-13               0.00065028           
  -0.7                  -0.00072456           -2e-13                1.4e-13               0.00072502           
  -0.8                  -0.00078988           -1.2e-13              2.2e-13               0.00079018           
  -0.9                  -0.00084602           -1e-13                1.8e-13               0.00084634           
  -1                    -0.00089388           -4e-14                1.2e-13               0.00089422           
  -1.1                  -0.00093406           -2.4e-13              1e-13                 0.0009345            
  -1.2                  -0.00096756           -1e-13                1.6e-13               0.00096782           
  -1.3                  -0.00099562           -1.8e-13              2.2e-13               0.0009959            
  -1.4                  -0.00101872           -1.2e-13              2.4e-13               0.00101898           
  -1.5                  -0.00103866           4e-14                 2.2e-13               0.0010389            
  -1.6                  -0.0010554            2e-14                 2.2e-13               0.0010557            
  -1.7                  -0.0010703            -6e-14                1e-13                 0.00107048           
  -1.8                  -0.00108318           -1.6e-13              1.6e-13               0.0010837            
  -1.9                  -0.00109478           -8e-14                2.2e-13               0.00109526           
  -2                    -0.00110552           -4e-14                2.8e-13               0.0011059            
  -2.1                  -0.00111534           -4e-14                2.6e-13               0.00111562           
  -2.2                  -0.00112468           -1.2e-13              5.2e-13               0.0011251            
  -2.3                  -0.00113314           6e-14                 1.34e-12              0.0011333            
  -2.4                  -0.00114096           -2e-14                3.66e-12              0.00114132           
  -2.5                  -0.001148             -6e-14                9.78e-12              0.00114892           
  -2.6                  -0.0011552            -1.4e-13              2.626e-11             0.001157             
  -2.7                  -0.0011624            -8e-14                6.584e-11             0.0011644            
  -2.8                  -0.0011692            -2e-13                1.5592e-10            0.0011712            
  -2.9                  -0.001176             -1.4e-13              3.495e-10             0.001178             
  -3                    -0.0011828            2e-14                 7.4896e-10            0.0011844            
  -3.1                  -0.0011888            -2e-14                1.5356e-09            0.0011904            
  -3.2                  -0.0011948            -8e-14                3.0526e-09            0.0011966            
  -3.3                  -0.0012008            -8e-14                5.8756e-09            0.0012028            
  -3.4                  -0.0012068            -1.8e-13              1.10026e-08           0.0012084            
  -3.5                  -0.001212             6e-14                 2.0178e-08            0.0012134            
  -3.6                  -0.001217             -8e-14                3.614e-08             0.0012186            
END_DB

BEGIN_DB
 ICCAP_VAR vg         -3.6           
 ICCAP_VAR vb         3.6            
 ICCAP_VAR vs         -0             

 #vd                    id                    ig                    ib                    is                   
  -0                    8.4368e-08            -1.4e-13              0                     -7.3302e-08          
  -0.1                  -0.00015722           -1.6e-13              0                     0.00015758           
  -0.2                  -0.00030778           -2.2e-13              2.2e-13               0.00030814           
  -0.3                  -0.00045044           -2e-13                2.4e-13               0.00045084           
  -0.4                  -0.00058454           -2.2e-13              6e-14                 0.000585             
  -0.5                  -0.00071014           -3.2e-13              1e-13                 0.00071058           
  -0.6                  -0.00082666           -1.8e-13              1e-13                 0.00082698           
  -0.7                  -0.00093378           -2.8e-13              1.8e-13               0.00093414           
  -0.8                  -0.0010316            -2.2e-13              1.2e-13               0.00103196           
