! VERSION = 6.00
BEGIN_HEADER
 ICCAP_INPUTS
  vd         V  D GROUND SMU1 0.1 LIN        1    -0         -3.6       37   -0.1      
  vg         V  G GROUND SMU2 0.001 LIN        2    -1.852     -3.6       5    -0.437    
  vb         V  B GROUND SMU4 0.1 CON        3.6
  vs         V  S GROUND SMU3 0.1 CON        -0
 ICCAP_OUTPUTS
  id         I  D GROUND SMU1 B
  ig         I  G GROUND SMU2 B
  ib         I  B GROUND SMU4 B
  is         I  S GROUND SMU3 B
 ICCAP_VALUES
  MASTER_SETUP_TYPE "~dc_idvd~"
  LINVT_VALUE "|idvg|100.0n|100.0m|1.000m|5|3.600|"
  LISTVT_VALUE ""
  TYPE "-1"
  TEMP " 70.0000 "
  IS_TNOM " 0.00000 "
  MAIN.W "600.0n"
  MAIN.L "500.0n"
  MAIN.AD "204.0f"
  MAIN.AS "204.0f"
  MAIN.PD "1.880u"
  MAIN.PS "1.880u"
  MAIN.NF "1.000"
  MAIN.M "1"
  MAIN.NRD "0.000"
  MAIN.NRS "0.000"
  MAIN.LDRIFT1 "1E-06"
  MAIN.LDRIFT2 "1E-06"
  MAIN.SA "0.000"
  MAIN.SB "0.000"
  MAIN.SD "0.000"
  MAIN.SCA "0.000"
  MAIN.SCB "0.000"
  MAIN.SCC "0.000"
  MAIN.SC "0.000"
  MODULE "S564"
  PIN_D "16"
  PIN_G "5"
  PIN_S "6"
  PIN_B "15"
  PIN_E ""
  PIN_6 ""
  XY_ID ""
  FUNC "LW Scale"
  STI "SA ref"
  WPE "WPE ref"
  COMMENT ""
  DIS_MEAS ""
  TypeTCI "10"
END_HEADER

BEGIN_DB
 ICCAP_VAR vg         -1.852         
 ICCAP_VAR vb         3.6            
 ICCAP_VAR vs         -0             

 #vd                    id                    ig                    ib                    is                   
  -0                    1.5682e-10            -8.4e-13              1.15e-11              -1.9842e-10          
  -0.1                  -3.3946e-07           -6.4e-13              1.15e-11              3.3962e-07           
  -0.2                  -4.3156e-07           -5.6e-13              1.148e-11             4.315e-07            
  -0.3                  -4.573e-07            -6.2e-13              1.146e-11             4.5748e-07           
  -0.4                  -4.7096e-07           -4.8e-13              1.15e-11              4.714e-07            
  -0.5                  -4.8116e-07           -3.2e-13              1.142e-11             4.817e-07            
  -0.6                  -4.8962e-07           -4.8e-13              1.132e-11             4.8956e-07           
  -0.7                  -4.9696e-07           -4e-13                1.138e-11             4.9722e-07           
  -0.8                  -5.0382e-07           -3.8e-13              1.134e-11             5.0388e-07           
  -0.9                  -5.0952e-07           -4e-13                1.146e-11             5.0942e-07           
  -1                    -5.1544e-07           -3.8e-13              1.144e-11             5.1556e-07           
  -1.1                  -5.2112e-07           -3.2e-13              1.146e-11             5.2108e-07           
  -1.2                  -5.2644e-07           -2.6e-13              1.136e-11             5.2664e-07           
  -1.3                  -5.3166e-07           -3.4e-13              1.136e-11             5.3162e-07           
  -1.4                  -5.3608e-07           -3.6e-13              1.114e-11             5.3658e-07           
  -1.5                  -5.4148e-07           -4.2e-13              1.122e-11             5.4138e-07           
  -1.6                  -5.4622e-07           -4e-13                1.138e-11             5.4626e-07           
  -1.7                  -5.5082e-07           -3e-13                1.12e-11              5.5084e-07           
  -1.8                  -5.5522e-07           -2.2e-13              1.124e-11             5.5504e-07           
  -1.9                  -5.5976e-07           -1e-13                1.126e-11             5.6004e-07           
  -2                    -5.641e-07            -8e-14                1.116e-11             5.64e-07             
  -2.1                  -5.6862e-07           -2.4e-13              1.118e-11             5.685e-07            
  -2.2                  -5.7296e-07           -2e-13                1.14e-11              5.7312e-07           
  -2.3                  -5.7686e-07           -2.2e-13              1.172e-11             5.771e-07            
  -2.4                  -5.8142e-07           -2e-13                1.228e-11             5.8116e-07           
  -2.5                  -5.8532e-07           -1e-13                1.334e-11             5.8608e-07           
  -2.6                  -5.8996e-07           -2.6e-13              1.544e-11             5.9018e-07           
  -2.7                  -5.9362e-07           -1.6e-13              1.95e-11              5.9422e-07           
  -2.8                  -5.9824e-07           -4e-14                2.624e-11             5.982e-07            
  -2.9                  -6.0264e-07           -1e-13                3.786e-11             6.0252e-07           
  -3                    -6.0654e-07           -1.8e-13              5.76e-11              6.0632e-07           
  -3.1                  -6.109e-07            -1.8e-13              8.984e-11             6.109e-07            
  -3.2                  -6.1474e-07           -2.4e-13              1.4168e-10            6.1466e-07           
  -3.3                  -6.1898e-07           -1e-13                2.2394e-10            6.1908e-07           
  -3.4                  -6.2346e-07           -4e-14                3.5118e-10            6.2294e-07           
  -3.5                  -6.2776e-07           -4e-14                5.4618e-10            6.274e-07            
  -3.6                  -6.319e-07            -4e-14                8.3924e-10            6.3084e-07           
END_DB

BEGIN_DB
 ICCAP_VAR vg         -2.289         
 ICCAP_VAR vb         3.6            
 ICCAP_VAR vs         -0             

 #vd                    id                    ig                    ib                    is                   
  -0                    7.8758e-10            -4.4e-13              1.046e-11             -7.7564e-10          
  -0.1                  -2.139e-06            -2.8e-13              1.042e-11             2.1422e-06           
  -0.2                  -3.7964e-06           -3.8e-13              1.06e-11              3.7942e-06           
  -0.3                  -4.9866e-06           -3.4e-13              1.06e-11              4.9934e-06           
  -0.4                  -5.7738e-06           -2.4e-13              1.072e-11             5.7718e-06           
  -0.5                  -6.2454e-06           -1.4e-13              1.078e-11             6.242e-06            
  -0.6                  -6.525e-06            -1.6e-13              1.072e-11             6.523e-06            
  -0.7                  -6.6998e-06           -3.6e-13              1.074e-11             6.7016e-06           
  -0.8                  -6.8176e-06           -3.8e-13              1.08e-11              6.8182e-06           
  -0.9                  -6.9072e-06           -1.8e-13              1.084e-11             6.9118e-06           
  -1                    -6.9864e-06           -1.6e-13              1.072e-11             6.9806e-06           
  -1.1                  -7.0438e-06           -1.4e-13              1.082e-11             7.0424e-06           
  -1.2                  -7.098e-06            -1.8e-13              1.082e-11             7.1e-06              
  -1.3                  -7.153e-06            -2.4e-13              1.074e-11             7.1514e-06           
  -1.4                  -7.1984e-06           -2e-13                1.076e-11             7.1966e-06           
  -1.5                  -7.2398e-06           -1.4e-13              1.094e-11             7.2476e-06           
  -1.6                  -7.282e-06            -1.2e-13              1.078e-11             7.2882e-06           
  -1.7                  -7.3272e-06           -2e-13                1.074e-11             7.3274e-06           
  -1.8                  -7.362e-06            -2.6e-13              1.074e-11             7.3656e-06           
  -1.9                  -7.4066e-06           -3.2e-13              1.07e-11              7.4084e-06           
  -2                    -7.4406e-06           -2e-13                1.076e-11             7.4438e-06           
  -2.1                  -7.473e-06            -1.8e-13              1.086e-11             7.4708e-06           
  -2.2                  -7.5062e-06           -1.8e-13              1.088e-11             7.515e-06            
  -2.3                  -7.5284e-06           -1.2e-13              1.114e-11             7.5386e-06           
  -2.4                  -7.5778e-06           -1.8e-13              1.164e-11             7.5738e-06           
  -2.5                  -7.5846e-06           -1.2e-13              1.304e-11             7.6126e-06           
  -2.6                  -7.6452e-06           -1.4e-13              1.586e-11             7.6496e-06           
  -2.7                  -7.6772e-06           -2.2e-13              2.174e-11             7.676e-06            
  -2.8                  -7.7018e-06           -8e-14                3.304e-11             7.7058e-06           
  -2.9                  -7.7404e-06           -1.4e-13              5.446e-11             7.7412e-06           
  -3                    -7.7694e-06           -1.8e-13              9.346e-11             7.7758e-06           
  -3.1                  -7.8e-06              -1.8e-13              1.6276e-10            7.8004e-06           
  -3.2                  -7.8328e-06           -8e-14                2.8242e-10            7.835e-06            
  -3.3                  -7.8638e-06           -1.6e-13              4.8386e-10            7.8634e-06           
  -3.4                  -7.894e-06            -6e-14                8.1562e-10            7.8972e-06           
  -3.5                  -7.9226e-06           -6e-14                1.3558e-09            7.9222e-06           
  -3.6                  -7.9564e-06           -1.4e-13              2.2242e-09            7.9598e-06           
END_DB

BEGIN_DB
 ICCAP_VAR vg         -2.726         
 ICCAP_VAR vb         3.6            
 ICCAP_VAR vs         -0             

 #vd                    id                    ig                    ib                    is                   
  -0                    1.2418e-09            -4.4e-13              1.02e-11              -1.13244e-09         
  -0.1                  -3.7506e-06           -3.8e-13              1.034e-11             3.755e-06            
  -0.2                  -7.08e-06             -2.8e-13              1.024e-11             7.0852e-06           
  -0.3                  -9.967e-06            -2.4e-13              1.044e-11             9.9726e-06           
  -0.4                  -1.2408e-05           -3.4e-13              1.046e-11             1.2414e-05           
  -0.5                  -1.4422e-05           -4e-13                1.05e-11              1.443e-05            
  -0.6                  -1.6048e-05           -3e-13                1.05e-11              1.604e-05            
  -0.7                  -1.7264e-05           -3.8e-13              1.048e-11             1.7272e-05           
  -0.8                  -1.8172e-05           -1.6e-13              1.052e-11             1.8144e-05           
  -0.9                  -1.879e-05            -2.4e-13              1.066e-11             1.8788e-05           
  -1                    -1.9274e-05           -1e-13                1.072e-11             1.9286e-05           
  -1.1                  -1.9614e-05           -2e-13                1.068e-11             1.9634e-05           
  -1.2                  -1.9886e-05           -2.4e-13              1.068e-11             1.9886e-05           
  -1.3                  -2.0098e-05           -1.6e-13              1.064e-11             2.008e-05            
  -1.4                  -2.0262e-05           -1.8e-13              1.058e-11             2.0236e-05           
  -1.5                  -2.0376e-05           -2.4e-13              1.064e-11             2.039e-05            
  -1.6                  -2.0512e-05           -2.6e-13              1.07e-11              2.0512e-05           
  -1.7                  -2.0632e-05           -2.2e-13              1.078e-11             2.0632e-05           
  -1.8                  -2.0736e-05           -8e-14                1.062e-11             2.0734e-05           
  -1.9                  -2.0842e-05           -1.2e-13              1.072e-11             2.0884e-05           
  -2                    -2.0962e-05           -2.2e-13              1.056e-11             2.0972e-05           
  -2.1                  -2.1062e-05           -1e-13                1.052e-11             2.105e-05            
  -2.2                  -2.1158e-05           -2.4e-13              1.066e-11             2.1146e-05           
  -2.3                  -2.1204e-05           -8e-14                1.074e-11             2.123e-05            
  -2.4                  -2.1318e-05           -2e-13                1.08e-11              2.1338e-05           
  -2.5                  -2.1406e-05           -4e-14                1.108e-11             2.1384e-05           
  -2.6                  -2.1442e-05           -1.4e-13              1.188e-11             2.146e-05            
  -2.7                  -2.1554e-05           -1.4e-13              1.35e-11              2.1564e-05           
  -2.8                  -2.1648e-05           -1.2e-13              1.722e-11             2.1648e-05           
  -2.9                  -2.1722e-05           -1e-13                2.518e-11             2.1718e-05           
  -3                    -2.1782e-05           -1.4e-13              4.112e-11             2.179e-05            
  -3.1                  -2.1854e-05           0                     7.16e-11              2.184e-05            
  -3.2                  -2.1892e-05           -1e-13                1.293e-10             2.1892e-05           
  -3.3                  -2.1984e-05           -2.2e-13              2.3276e-10            2.1936e-05           
  -3.4                  -2.2014e-05           -1.6e-13              4.1574e-10            2.2014e-05           
  -3.5                  -2.208e-05            -1.4e-13              7.2992e-10            2.2088e-05           
  -3.6                  -2.2194e-05           -1.2e-13              1.2634e-09            2.2186e-05           
END_DB

BEGIN_DB
 ICCAP_VAR vg         -3.163         
 ICCAP_VAR vb         3.6            
 ICCAP_VAR vs         -0             

 #vd                    id                    ig                    ib                    is                   
  -0                    1.5084e-09            -3.2e-13              1.014e-11             -1.2696e-09          
  -0.1                  -5.1246e-06           -2.8e-13              1.024e-11             5.1274e-06           
  -0.2                  -9.8738e-06           -3e-13                1.026e-11             9.8838e-06           
  -0.3                  -1.4224e-05           -2.4e-13              1.022e-11             1.4238e-05           
  -0.4                  -1.8164e-05           -3.6e-13              1.04e-11              1.817e-05            
  -0.5                  -2.1706e-05           -2.6e-13              1.04e-11              2.1708e-05           
  -0.6                  -2.482e-05            -2.2e-13              1.048e-11             2.4848e-05           
  -0.7                  -2.7544e-05           -2.4e-13              1.05e-11              2.7554e-05           
  -0.8                  -2.987e-05            -2.4e-13              1.058e-11             2.9858e-05           
  -0.9                  -3.179e-05            -2.4e-13              1.072e-11             3.1814e-05           
  -1                    -3.3356e-05           -2.2e-13              1.058e-11             3.3368e-05           
  -1.1                  -3.4618e-05           -2.8e-13              1.062e-11             3.4626e-05           
  -1.2                  -3.564e-05            -1.8e-13              1.052e-11             3.5642e-05           
  -1.3                  -3.639e-05            -2.4e-13              1.058e-11             3.6394e-05           
  -1.4                  -3.6984e-05           -2.6e-13              1.05e-11              3.7002e-05           
  -1.5                  -3.7508e-05           -3e-13                1.058e-11             3.7528e-05           
  -1.6                  -3.79e-05             -3e-13                1.058e-11             3.788e-05            
  -1.7                  -3.8188e-05           -6e-14                1.062e-11             3.8192e-05           
  -1.8                  -3.8472e-05           -2.4e-13              1.06e-11              3.8472e-05           
  -1.9                  -3.871e-05            -2e-13                1.06e-11              3.871e-05            
  -2                    -3.8948e-05           -1.8e-13              1.05e-11              3.8984e-05           
  -2.1                  -3.9168e-05           -2.8e-13              1.056e-11             3.9102e-05           
  -2.2                  -3.931e-05            -2.4e-13              1.062e-11             3.9302e-05           
  -2.3                  -3.9494e-05           -1.8e-13              1.062e-11             3.9512e-05           
  -2.4                  -3.9646e-05           -1.6e-13              1.062e-11             3.9634e-05           
  -2.5                  -3.9774e-05           -2.4e-13              1.066e-11             3.977e-05            
  -2.6                  -3.9942e-05           -2.4e-13              1.082e-11             3.994e-05            
  -2.7                  -4.0072e-05           -1.8e-13              1.106e-11             4.0096e-05           
  -2.8                  -4.0208e-05           -1.6e-13              1.174e-11             4.0204e-05           
  -2.9                  -4.0346e-05           -1.2e-13              1.348e-11             4.0346e-05           
  -3                    -4.0474e-05           -2e-13                1.74e-11              4.0462e-05           
  -3.1                  -4.0554e-05           -1.6e-13              2.548e-11             4.0604e-05           
  -3.2                  -4.0694e-05           -1e-13                4.23e-11              4.0708e-05           
  -3.3                  -4.0816e-05           -1.4e-13              7.516e-11             4.0796e-05           
  -3.4                  -4.0912e-05           -8e-14                1.379e-10             4.0994e-05           
  -3.5                  -4.1064e-05           -4e-14                2.5366e-10            4.1052e-05           
  -3.6                  -4.123e-05            -1.6e-13              4.5914e-10            4.1154e-05           
END_DB

BEGIN_DB
 ICCAP_VAR vg         -3.6           
 ICCAP_VAR vb         3.6            
 ICCAP_VAR vs         -0             

 #vd                    id                    ig                    ib                    is                   
  -0                    1.5878e-09            -5.2e-13              1.016e-11             -1.451e-09           
  -0.1                  -6.3178e-06           -3.8e-13              1.006e-11             6.3216e-06           
  -0.2                  -1.2306e-05           -1.6e-13              1.02e-11              1.2308e-05           
  -0.3                  -1.7924e-05           -3.6e-13              1.034e-11             1.7936e-05           
  -0.4                  -2.317e-05            -2.4e-13              1.038e-11             2.3176e-05           
  -0.5                  -2.8042e-05           -4.8e-13              1.042e-11             2.8048e-05           
  -0.6                  -3.2534e-05           -3.8e-13              1.05e-11              3.2556e-05           
  -0.7                  -3.6606e-05           -3e-13                1.04e-11              3.6624e-05           
  -0.8                  -4.0306e-05           -2e-13                1.048e-11             4.03e-05             
