! VERSION = 6.00
BEGIN_HEADER
 ICCAP_INPUTS
  vg         V  G GROUND SMU2 0.001 LIN        1    0.5        -3.6       83   -0.05     
  vb         V  B GROUND SMU4 0.1 LIN        2    0          3.6        5    0.9       
  vd         V  D GROUND SMU1 0.1 LIN        3    -0.1       -3.3       3    -1.6      
  vs         V  S GROUND SMU3 0.1 CON        -0
 ICCAP_OUTPUTS
  id         I  D GROUND SMU1 B
  ig         I  G GROUND SMU2 B
  ib         I  B GROUND SMU4 B
  is         I  S GROUND SMU3 B
 ICCAP_VALUES
  MASTER_SETUP_TYPE "~dc_idvg~"
  LINVT_VALUE ""
  LISTVT_VALUE ""
  TYPE "-1"
  TEMP " 70.0000 "
  IS_TNOM " 0.00000 "
  MAIN.W "600.0n"
  MAIN.L "500.0n"
  MAIN.AD "204.0f"
  MAIN.AS "204.0f"
  MAIN.PD "1.880u"
  MAIN.PS "1.880u"
  MAIN.NF "1.000"
  MAIN.M "1"
  MAIN.NRD "0.000"
  MAIN.NRS "0.000"
  MAIN.LDRIFT1 "1E-06"
  MAIN.LDRIFT2 "1E-06"
  MAIN.SA "0.000"
  MAIN.SB "0.000"
  MAIN.SD "0.000"
  MAIN.SCA "0.000"
  MAIN.SCB "0.000"
  MAIN.SCC "0.000"
  MAIN.SC "0.000"
  MODULE "S564"
  PIN_D "16"
  PIN_G "5"
  PIN_S "6"
  PIN_B "15"
  PIN_E ""
  PIN_6 ""
  XY_ID ""
  FUNC "LW Scale"
  STI "SA ref"
  WPE "WPE ref"
  COMMENT ""
  DIS_MEAS ""
  TypeTCI "10"
END_HEADER

BEGIN_DB
 ICCAP_VAR vb         0              
 ICCAP_VAR vd         -0.1           
 ICCAP_VAR vs         -0             

 #vg                    id                    ig                    ib                    is                   
  0.5                   -4e-13                6.2764e-10            -5.2346e-10           -1.4e-13             
  0.45                  0                     1.1696e-10            -2.4186e-10           1.4e-13              
  0.4                   6e-14                 2.192e-11             -1.3962e-10           2e-13                
  0.35                  1e-13                 4.14e-12              -9.72e-11             1.2e-13              
  0.3                   1e-13                 8.4e-13               -7.518e-11            4e-14                
  0.25                  1.2e-13               3.4e-13               -6.194e-11            2.2e-13              
  0.2                   1.2e-13               0                     -5.288e-11            1.8e-13              
  0.15                  8e-14                 -2e-14                -4.628e-11            2e-13                
  0.1                   1.6e-13               -2.6e-13              -4.138e-11            5.4e-13              
  0.05                  -2e-14                -1.4e-13              -3.72e-11             4.4e-13              
  0                     -3e-13                -2.4e-13              -3.392e-11            6.2e-13              
  -0.05                 -9e-13                -2.4e-13              -3.114e-11            1.2e-12              
  -0.1                  -2.64e-12             -1.8e-13              -2.872e-11            3.14e-12             
  -0.15                 -7.72e-12             -2.2e-13              -2.674e-11            8.22e-12             
  -0.2                  -2.246e-11            -1.6e-13              -2.474e-11            2.26e-11             
  -0.25                 -6.424e-11            -3.4e-13              -2.306e-11            6.46e-11             
  -0.3                  -1.8618e-10           -3.6e-13              -2.162e-11            1.8642e-10           
  -0.35                 -5.4404e-10           -2e-13                -2.022e-11            5.4436e-10           
  -0.4                  -1.5892e-09           -3.2e-13              -1.798e-11            1.5888e-09           
  -0.45                 -4.6188e-09           -3.6e-13              -1.7e-11              4.6196e-09           
  -0.5                  -1.3102e-08           -4e-13                -1.596e-11            1.3122e-08           
  -0.55                 -3.5146e-08           -2.6e-13              -1.49e-11             3.5186e-08           
  -0.6                  -8.4774e-08           -3.8e-13              -1.41e-11             8.4822e-08           
  -0.65                 -1.7836e-07           -3.6e-13              -1.334e-11            1.7846e-07           
  -0.7                  -3.25e-07             -4.2e-13              -1.254e-11            3.2528e-07           
  -0.75                 -5.2178e-07           -4.2e-13              -1.184e-11            5.2186e-07           
  -0.8                  -7.5336e-07           -6e-13                -1.112e-11            7.5354e-07           
  -0.85                 -1.00706e-06          -5.2e-13              -1.05e-11             1.00742e-06          
  -0.9                  -1.27e-06             -4.6e-13              -9.66e-12             1.2732e-06           
  -0.95                 -1.5388e-06           -4e-13                -9.18e-12             1.5418e-06           
  -1                    -1.8062e-06           -4e-13                -8.6e-12              1.8096e-06           
  -1.05                 -2.072e-06            -4.2e-13              -8.22e-12             2.0752e-06           
  -1.1                  -2.3334e-06           -4.4e-13              -7.88e-12             2.3364e-06           
  -1.15                 -2.5908e-06           -5.6e-13              -7.28e-12             2.594e-06            
  -1.2                  -2.8428e-06           -6.2e-13              -7e-12                2.8456e-06           
  -1.25                 -3.0904e-06           -5.8e-13              -6.52e-12             3.0934e-06           
  -1.3                  -3.3334e-06           -5.4e-13              -6.14e-12             3.3366e-06           
  -1.35                 -3.5704e-06           -6.4e-13              -5.94e-12             3.5734e-06           
  -1.4                  -3.8038e-06           -5.8e-13              -5.62e-12             3.8068e-06           
  -1.45                 -4.0316e-06           -6.8e-13              -5.18e-12             4.0348e-06           
  -1.5                  -4.2558e-06           -6.8e-13              -4.96e-12             4.258e-06            
  -1.55                 -4.4748e-06           -6.2e-13              -4.62e-12             4.4778e-06           
  -1.6                  -4.6906e-06           -6e-13                -4.48e-12             4.6936e-06           
  -1.65                 -4.9012e-06           -6.4e-13              -4.1e-12              4.9042e-06           
  -1.7                  -5.108e-06            -6.8e-13              -3.94e-12             5.1114e-06           
  -1.75                 -5.3118e-06           -6.2e-13              -3.7e-12              5.3148e-06           
  -1.8                  -5.511e-06            -5.6e-13              -3.38e-12             5.514e-06            
  -1.85                 -5.707e-06            -6e-13                -3.26e-12             5.7104e-06           
  -1.9                  -5.8984e-06           -7e-13                -2.96e-12             5.9024e-06           
  -1.95                 -6.087e-06            -8.2e-13              -2.74e-12             6.0898e-06           
  -2                    -6.2718e-06           -6e-13                -2.46e-12             6.2748e-06           
  -2.05                 -6.4544e-06           -6.6e-13              -2.38e-12             6.4576e-06           
  -2.1                  -6.632e-06            -6.2e-13              -2.16e-12             6.6342e-06           
  -2.15                 -6.8076e-06           -7e-13                -1.94e-12             6.8084e-06           
  -2.2                  -6.9782e-06           -7.6e-13              -1.82e-12             6.9806e-06           
  -2.25                 -7.1474e-06           -8e-13                -1.58e-12             7.153e-06            
  -2.3                  -7.3164e-06           -7.4e-13              -1.38e-12             7.3188e-06           
  -2.35                 -7.4786e-06           -7.4e-13              -1.36e-12             7.4806e-06           
  -2.4                  -7.641e-06            -8.4e-13              -1.26e-12             7.644e-06            
  -2.45                 -7.8008e-06           -7.6e-13              -1.06e-12             7.8014e-06           
  -2.5                  -7.9528e-06           -8.6e-13              -9.8e-13              7.9564e-06           
  -2.55                 -8.108e-06            -9e-13                -7e-13                8.109e-06            
  -2.6                  -8.259e-06            -9.6e-13              -7.4e-13              8.2618e-06           
  -2.65                 -8.4068e-06           -8.6e-13              -4.4e-13              8.4096e-06           
  -2.7                  -8.5522e-06           -8.4e-13              -4.4e-13              8.5566e-06           
  -2.75                 -8.6958e-06           -8.4e-13              -3.8e-13              8.6986e-06           
  -2.8                  -8.8386e-06           -8.4e-13              -1e-13                8.8408e-06           
  -2.85                 -8.9752e-06           -7.4e-13              -8e-14                8.9762e-06           
  -2.9                  -9.1142e-06           -8.6e-13              2.2e-13               9.1174e-06           
  -2.95                 -9.2478e-06           -8.6e-13              2.2e-13               9.2506e-06           
  -3                    -9.3806e-06           -7.8e-13              2.4e-13               9.3826e-06           
  -3.05                 -9.5098e-06           -9.4e-13              5.4e-13               9.5144e-06           
  -3.1                  -9.6406e-06           -8.4e-13              4.8e-13               9.642e-06            
  -3.15                 -9.7636e-06           -8.8e-13              6e-13                 9.7682e-06           
  -3.2                  -9.8894e-06           -7.8e-13              7e-13                 9.8908e-06           
  -3.25                 -1.00116e-05          -7.6e-13              8e-13                 1.0015e-05           
  -3.3                  -1.01322e-05          -8.2e-13              8.4e-13               1.01354e-05          
  -3.35                 -1.02526e-05          -8.6e-13              1e-12                 1.02552e-05          
  -3.4                  -1.03662e-05          -8.8e-13              1.04e-12              1.03682e-05          
  -3.45                 -1.04828e-05          -9.6e-13              1.04e-12              1.04832e-05          
  -3.5                  -1.05942e-05          -8.4e-13              1.18e-12              1.05954e-05          
  -3.55                 -1.07034e-05          -9.8e-13              1.32e-12              1.07066e-05          
  -3.6                  -1.08134e-05          -8.6e-13              1.3e-12               1.08172e-05          
END_DB

BEGIN_DB
 ICCAP_VAR vb         0.9            
 ICCAP_VAR vd         -0.1           
 ICCAP_VAR vs         -0             

 #vg                    id                    ig                    ib                    is                   
  0.5                   -1.4e-13              7.8e-13               9.14e-12              3.6e-13              
  0.45                  -4e-14                5.4e-13               9.02e-12              1.8e-13              
  0.4                   -8e-14                3.2e-13               9.16e-12              8e-14                
  0.35                  -4e-14                2e-13                 9e-12                 3e-13                
  0.3                   0                     1.6e-13               9e-12                 6e-14                
  0.25                  -8e-14                8e-14                 9.06e-12              2.2e-13              
  0.2                   2e-14                 0                     8.96e-12              1e-13                
  0.15                  0                     -2e-14                9.02e-12              8e-14                
  0.1                   -6e-14                -8e-14                8.82e-12              4e-13                
  0.05                  2e-14                 -1.4e-13              9e-12                 1.2e-13              
  0                     -6e-14                0                     8.84e-12              1.4e-13              
  -0.05                 6e-14                 -1.8e-13              8.88e-12              1e-13                
  -0.1                  2e-14                 -1.6e-13              8.96e-12              1.2e-13              
  -0.15                 0                     -2e-13                8.84e-12              8e-14                
  -0.2                  -4e-14                -1.8e-13              8.92e-12              -2e-14               
  -0.25                 2e-14                 -1.8e-13              8.92e-12              1.2e-13              
  -0.3                  -2e-14                -3.8e-13              8.96e-12              -2e-14               
  -0.35                 2e-14                 -3.4e-13              8.86e-12              2e-13                
  -0.4                  -1.2e-13              -2.6e-13              8.88e-12              1.4e-13              
  -0.45                 -2.8e-13              -3.4e-13              8.86e-12              3.8e-13              
  -0.5                  -1.36e-12             -3.2e-13              8.84e-12              1.52e-12             
  -0.55                 -4.28e-12             -3.6e-13              8.84e-12              4.44e-12             
  -0.6                  -1.444e-11            -3.2e-13              8.8e-12               1.46e-11             
  -0.65                 -4.788e-11            -4.6e-13              8.8e-12               4.812e-11            
  -0.7                  -1.5964e-10           -5.2e-13              8.86e-12              1.5968e-10           
  -0.75                 -5.325e-10            -5e-13                8.82e-12              5.3248e-10           
  -0.8                  -1.7582e-09           -3.4e-13              8.88e-12              1.7588e-09           
  -0.85                 -5.7086e-09           -4e-13                8.76e-12              5.7062e-09           
  -0.9                  -1.7498e-08           -3.2e-13              8.76e-12              1.7518e-08           
  -0.95                 -4.867e-08            -3.6e-13              8.74e-12              4.8724e-08           
  -1                    -1.1606e-07           -4.8e-13              8.7e-12               1.1606e-07           
  -1.05                 -2.3354e-07           -5.8e-13              8.76e-12              2.3354e-07           
  -1.1                  -4.0016e-07           -5.2e-13              8.9e-12               4.0044e-07           
  -1.15                 -6.0612e-07           -5.6e-13              8.64e-12              6.061e-07            
  -1.2                  -8.345e-07            -4.8e-13              8.82e-12              8.347e-07            
  -1.25                 -1.07636e-06          -5e-13                8.8e-12               1.07632e-06          
  -1.3                  -1.3212e-06           -5.8e-13              8.8e-12               1.3244e-06           
  -1.35                 -1.5662e-06           -4.6e-13              8.7e-12               1.5694e-06           
  -1.4                  -1.8104e-06           -4.2e-13              8.94e-12              1.8136e-06           
  -1.45                 -2.0502e-06           -5.6e-13              8.8e-12               2.0536e-06           
  -1.5                  -2.2874e-06           -5e-13                8.76e-12              2.2906e-06           
  -1.55                 -2.5194e-06           -5.6e-13              8.86e-12              2.5226e-06           
  -1.6                  -2.748e-06            -6.8e-13              8.8e-12               2.7512e-06           
  -1.65                 -2.971e-06            -5.2e-13              8.86e-12              2.9744e-06           
  -1.7                  -3.1872e-06           -5.4e-13              8.76e-12              3.1938e-06           
  -1.75                 -3.4064e-06           -6.2e-13              8.72e-12              3.4088e-06           
  -1.8                  -3.6164e-06           -5.6e-13              8.9e-12               3.6196e-06           
  -1.85                 -3.8234e-06           -6.6e-13              8.86e-12              3.8258e-06           
  -1.9                  -4.0256e-06           -6e-13                8.86e-12              4.0296e-06           
  -1.95                 -4.226e-06            -6.6e-13              8.78e-12              4.2294e-06           
  -2                    -4.4224e-06           -6.2e-13              8.82e-12              4.4238e-06           
  -2.05                 -4.615e-06            -6.4e-13              8.76e-12              4.6174e-06           
  -2.1                  -4.8054e-06           -6.6e-13              8.74e-12              4.8068e-06           
  -2.15                 -4.9876e-06           -6.8e-13              8.8e-12               4.99e-06             
  -2.2                  -5.17e-06             -6.6e-13              8.62e-12              5.1738e-06           
  -2.25                 -5.3486e-06           -6.8e-13              8.72e-12              5.3516e-06           
  -2.3                  -5.525e-06            -7e-13                8.92e-12              5.5314e-06           
  -2.35                 -5.6982e-06           -6.8e-13              8.7e-12               5.7022e-06           
  -2.4                  -5.8686e-06           -7.6e-13              8.72e-12              5.8712e-06           
  -2.45                 -6.036e-06            -6.4e-13              8.88e-12              6.0382e-06           
  -2.5                  -6.2004e-06           -7.4e-13              8.68e-12              6.2022e-06           
  -2.55                 -6.3616e-06           -7.6e-13              8.82e-12              6.3644e-06           
  -2.6                  -6.5196e-06           -7.6e-13              8.74e-12              6.5206e-06           
  -2.65                 -6.674e-06            -7.6e-13              8.86e-12              6.6818e-06           
  -2.7                  -6.8288e-06           -8e-13                8.86e-12              6.8328e-06           
  -2.75                 -6.9828e-06           -8.4e-13              8.64e-12              6.9836e-06           
  -2.8                  -7.1312e-06           -8e-13                8.86e-12              7.1344e-06           
  -2.85                 -7.2788e-06           -8.4e-13              8.78e-12              7.2796e-06           
  -2.9                  -7.4236e-06           -8e-13                8.8e-12               7.4238e-06           
  -2.95                 -7.5614e-06           -8.2e-13              8.76e-12              7.5628e-06           
  -3                    -7.6988e-06           -9e-13                8.68e-12              7.7044e-06           
  -3.05                 -7.8376e-06           -7.4e-13              8.84e-12              7.8416e-06           
  -3.1                  -7.9738e-06           -8.2e-13              8.72e-12              7.9774e-06           
  -3.15                 -8.1064e-06           -7.6e-13              8.8e-12               8.1094e-06           
  -3.2                  -8.2382e-06           -8e-13                8.68e-12              8.2406e-06           
  -3.25                 -8.365e-06            -8e-13                8.76e-12              8.37e-06             
  -3.3                  -8.4944e-06           -8.2e-13              8.68e-12              8.499e-06            
  -3.35                 -8.6202e-06           -7.6e-13              8.72e-12              8.6218e-06           
  -3.4                  -8.7414e-06           -9.2e-13              8.8e-12               8.7458e-06           
  -3.45                 -8.8632e-06           -8.4e-13              8.76e-12              8.8666e-06           
