! VERSION = 6.00
BEGIN_HEADER
 ICCAP_INPUTS
  vd         V  D GROUND SMU1 0.1 LIN        1    -0         -3.6       37   -0.1      
  vg         V  G GROUND SMU2 0.001 LIN        2    -0.748     -3.6       5    -0.713    
  vb         V  B GROUND SMU4 0.1 CON        -0
  vs         V  S GROUND SMU3 0.1 CON        -0
 ICCAP_OUTPUTS
  id         I  D GROUND SMU1 B
  ig         I  G GROUND SMU2 B
  ib         I  B GROUND SMU4 B
  is         I  S GROUND SMU3 B
 ICCAP_VALUES
  MASTER_SETUP_TYPE "~dc_idvd~"
  LINVT_VALUE "|idvg|100.0n|100.0m|1.000m|5|3.600|"
  LISTVT_VALUE ""
  TYPE "-1"
  TEMP " 27.0000 "
  IS_TNOM " 1.00000 "
  MAIN.W "150.0n"
  MAIN.L "330.0n"
  MAIN.AD "100.5f"
  MAIN.AS "100.5f"
  MAIN.PD "1.340u"
  MAIN.PS "1.340u"
  MAIN.NF "1.000"
  MAIN.M "1"
  MAIN.NRD "0.000"
  MAIN.NRS "0.000"
  MAIN.LDRIFT1 "1E-06"
  MAIN.LDRIFT2 "1E-06"
  MAIN.SA "0.000"
  MAIN.SB "0.000"
  MAIN.SD "0.000"
  MAIN.SCA "0.000"
  MAIN.SCB "0.000"
  MAIN.SCC "0.000"
  MAIN.SC "0.000"
  MODULE "S555"
  PIN_D "12"
  PIN_G "9"
  PIN_S "10"
  PIN_B "11"
  PIN_E ""
  PIN_6 ""
  XY_ID ""
  FUNC "Additional"
  STI "SA ref"
  WPE "WPE ref"
  COMMENT ""
  DIS_MEAS ""
  TypeTCI "10"
END_HEADER

BEGIN_DB
 ICCAP_VAR vg         -0.748         
 ICCAP_VAR vb         -0             
 ICCAP_VAR vs         -0             

 #vd                    id                    ig                    ib                    is                   
  -0                    1.2928e-10            0                     -8.6e-13              -1.7314e-10          
  -0.1                  -1.5658e-07           6e-14                 -8.6e-13              1.5686e-07           
  -0.2                  -1.8174e-07           2e-13                 -8.2e-13              1.8204e-07           
  -0.3                  -1.9036e-07           2e-13                 -6.4e-13              1.9056e-07           
  -0.4                  -1.9588e-07           1.4e-13               -6.8e-13              1.959e-07            
  -0.5                  -2.0068e-07           0                     -6e-13                2.0088e-07           
  -0.6                  -2.0494e-07           1e-13                 -5.6e-13              2.0528e-07           
  -0.7                  -2.094e-07            8e-14                 -6.4e-13              2.0968e-07           
  -0.8                  -2.1316e-07           -2e-14                -5.2e-13              2.1344e-07           
  -0.9                  -2.1704e-07           2.2e-13               -4.4e-13              2.1732e-07           
  -1                    -2.2082e-07           1.2e-13               -5.6e-13              2.2074e-07           
  -1.1                  -2.2426e-07           1.4e-13               -7.2e-13              2.2442e-07           
  -1.2                  -2.2804e-07           2e-13                 -6.4e-13              2.2776e-07           
  -1.3                  -2.3086e-07           1e-13                 -5e-13                2.3114e-07           
  -1.4                  -2.3432e-07           6e-14                 -3.4e-13              2.3452e-07           
  -1.5                  -2.3794e-07           1.2e-13               -4.2e-13              2.381e-07            
  -1.6                  -2.4146e-07           1.6e-13               -4.8e-13              2.4162e-07           
  -1.7                  -2.4484e-07           1.6e-13               -4.2e-13              2.454e-07            
  -1.8                  -2.4862e-07           2e-14                 -3.2e-13              2.4872e-07           
  -1.9                  -2.5204e-07           6e-14                 -2.4e-13              2.5206e-07           
  -2                    -2.5544e-07           1e-13                 1e-13                 2.5574e-07           
  -2.1                  -2.5912e-07           1e-13                 6.6e-13               2.5926e-07           
  -2.2                  -2.626e-07            -4e-14                1.4e-12               2.6288e-07           
  -2.3                  -2.663e-07            1.4e-13               3.02e-12              2.664e-07            
  -2.4                  -2.7008e-07           1e-13                 5.78e-12              2.7054e-07           
  -2.5                  -2.7388e-07           0                     1.038e-11             2.7414e-07           
  -2.6                  -2.7742e-07           -2e-14                1.788e-11             2.7824e-07           
  -2.7                  -2.8172e-07           4e-14                 2.996e-11             2.8212e-07           
  -2.8                  -2.8596e-07           1e-13                 4.888e-11             2.8604e-07           
  -2.9                  -2.8986e-07           1.6e-13               7.81e-11              2.8978e-07           
  -3                    -2.9388e-07           1.2e-13               1.2244e-10            2.938e-07            
  -3.1                  -2.9856e-07           0                     1.881e-10             2.9832e-07           
  -3.2                  -3.0212e-07           1.4e-13               2.8316e-10            3.0254e-07           
  -3.3                  -3.069e-07            1.8e-13               4.203e-10             3.0678e-07           
  -3.4                  -3.1154e-07           1.2e-13               6.1258e-10            3.1102e-07           
  -3.5                  -3.1552e-07           1.2e-13               8.8188e-10            3.1514e-07           
  -3.6                  -3.205e-07            8e-14                 1.2442e-09            3.1998e-07           
END_DB

BEGIN_DB
 ICCAP_VAR vg         -1.461         
 ICCAP_VAR vb         -0             
 ICCAP_VAR vs         -0             

 #vd                    id                    ig                    ib                    is                   
  -0                    1.162e-09             -3.4e-13              -8e-14                -1.12018e-09         
  -0.1                  -2.1262e-06           -1.2e-13              -3e-13                2.13e-06             
  -0.2                  -3.8396e-06           -1.6e-13              -1e-13                3.8436e-06           
  -0.3                  -5.131e-06            -2.8e-13              -1.8e-13              5.1352e-06           
  -0.4                  -6.037e-06            -1.6e-13              -2.6e-13              6.0406e-06           
  -0.5                  -6.6318e-06           -4e-14                -8e-14                6.634e-06            
  -0.6                  -7.0084e-06           -6e-14                -1.2e-13              7.0122e-06           
  -0.7                  -7.2536e-06           -1.2e-13              -1.2e-13              7.2574e-06           
  -0.8                  -7.4286e-06           -2e-14                -6e-14                7.4328e-06           
  -0.9                  -7.5642e-06           -6e-14                -1e-13                7.5674e-06           
  -1                    -7.6756e-06           -2.4e-13              -1e-13                7.6794e-06           
  -1.1                  -7.772e-06            0                     -8e-14                7.776e-06            
  -1.2                  -7.8578e-06           0                     -6e-14                7.8616e-06           
  -1.3                  -7.9366e-06           -6e-14                -4e-14                7.94e-06             
  -1.4                  -8.0084e-06           -1e-13                -1e-13                8.0124e-06           
  -1.5                  -8.077e-06            -1.2e-13              -1.4e-13              8.0804e-06           
  -1.6                  -8.1404e-06           -2.2e-13              -1.8e-13              8.1432e-06           
  -1.7                  -8.2016e-06           -1.8e-13              -8e-14                8.2052e-06           
  -1.8                  -8.2592e-06           0                     -1e-13                8.2638e-06           
  -1.9                  -8.3166e-06           -4e-14                4e-14                 8.3202e-06           
  -2                    -8.3716e-06           -1.6e-13              2.6e-13               8.3742e-06           
  -2.1                  -8.4238e-06           -8e-14                9e-13                 8.4278e-06           
  -2.2                  -8.4766e-06           -2e-14                2.26e-12              8.4798e-06           
  -2.3                  -8.5272e-06           -6e-14                5.14e-12              8.5312e-06           
  -2.4                  -8.5764e-06           -8e-14                1.128e-11             8.5808e-06           
  -2.5                  -8.6266e-06           -1e-13                2.302e-11             8.6298e-06           
  -2.6                  -8.6742e-06           -1.6e-13              4.436e-11             8.6786e-06           
  -2.7                  -8.7262e-06           -6e-14                8.124e-11             8.7286e-06           
  -2.8                  -8.7702e-06           -1.2e-13              1.4542e-10            8.7828e-06           
  -2.9                  -8.8288e-06           -1e-13                2.5326e-10            8.833e-06            
  -3                    -8.8736e-06           2e-14                 4.29e-10              8.8806e-06           
  -3.1                  -8.9236e-06           4e-14                 7.0466e-10            8.9264e-06           
  -3.2                  -8.9722e-06           0                     1.1468e-09            8.9762e-06           
  -3.3                  -9.0178e-06           -8e-14                1.8318e-09            9.0202e-06           
  -3.4                  -9.0632e-06           -8e-14                2.8614e-09            9.0646e-06           
  -3.5                  -9.1094e-06           4e-14                 4.4112e-09            9.1078e-06           
  -3.6                  -9.156e-06            4e-14                 6.6712e-09            9.155e-06            
END_DB

BEGIN_DB
 ICCAP_VAR vg         -2.174         
 ICCAP_VAR vb         -0             
 ICCAP_VAR vs         -0             

 #vd                    id                    ig                    ib                    is                   
  -0                    1.8902e-09            -5e-13                -8e-14                -1.6312e-09          
  -0.1                  -3.7444e-06           -2.8e-13              -1.4e-13              3.7488e-06           
  -0.2                  -7.1278e-06           -2.4e-13              -1.8e-13              7.1284e-06           
  -0.3                  -1.0098e-05           -3.4e-13              -1.8e-13              1.01008e-05          
  -0.4                  -1.2628e-05           -2.8e-13              -8e-14                1.2646e-05           
  -0.5                  -1.4754e-05           -2e-13                -8e-14                1.4776e-05           
  -0.6                  -1.6494e-05           -1.8e-13              0                     1.6516e-05           
  -0.7                  -1.7888e-05           -1.8e-13              -1.8e-13              1.7908e-05           
  -0.8                  -1.8984e-05           -2e-13                -4e-14                1.9004e-05           
  -0.9                  -1.9836e-05           -2e-13                -4e-14                1.9854e-05           
  -1                    -2.0496e-05           -1.8e-13              -1.4e-13              2.0516e-05           
  -1.1                  -2.1008e-05           -1.8e-13              -8e-14                2.103e-05            
  -1.2                  -2.1424e-05           -1.8e-13              -4e-14                2.144e-05            
  -1.3                  -2.1764e-05           -1.8e-13              0                     2.1782e-05           
  -1.4                  -2.2042e-05           -1e-13                -2e-14                2.2064e-05           
  -1.5                  -2.2294e-05           -1.4e-13              0                     2.2316e-05           
  -1.6                  -2.2514e-05           -1.8e-13              4e-14                 2.2532e-05           
  -1.7                  -2.2714e-05           -6e-14                8e-14                 2.273e-05            
  -1.8                  -2.2888e-05           -1e-13                -8e-14                2.2906e-05           
  -1.9                  -2.3054e-05           -1.8e-13              -1.4e-13              2.3074e-05           
  -2                    -2.321e-05            -1.6e-13              0                     2.3228e-05           
  -2.1                  -2.3342e-05           -4e-14                8e-14                 2.3362e-05           
  -2.2                  -2.3468e-05           -2.6e-13              3e-13                 2.3496e-05           
  -2.3                  -2.3606e-05           -1.2e-13              7.2e-13               2.3624e-05           
  -2.4                  -2.374e-05            -4e-14                2.02e-12              2.3762e-05           
  -2.5                  -2.3864e-05           -1.2e-13              4.7e-12               2.3884e-05           
  -2.6                  -2.398e-05            -1.6e-13              1.076e-11             2.3998e-05           
  -2.7                  -2.4092e-05           -1.4e-13              2.234e-11             2.4112e-05           
  -2.8                  -2.4198e-05           -1.8e-13              4.45e-11              2.4222e-05           
  -2.9                  -2.4304e-05           -2.2e-13              8.484e-11             2.432e-05            
  -3                    -2.441e-05            -1e-13                1.5644e-10            2.4346e-05           
  -3.1                  -2.4426e-05           -1.8e-13              2.7882e-10            2.4448e-05           
  -3.2                  -2.4528e-05           -1.2e-13              4.8386e-10            2.455e-05            
  -3.3                  -2.4626e-05           -1e-13                8.2018e-10            2.473e-05            
  -3.4                  -2.4808e-05           0                     1.3494e-09            2.4846e-05           
  -3.5                  -2.4918e-05           -8e-14                2.1908e-09            2.4946e-05           
  -3.6                  -2.5006e-05           -1.4e-13              3.501e-09             2.5002e-05           
END_DB

BEGIN_DB
 ICCAP_VAR vg         -2.887         
 ICCAP_VAR vb         -0             
 ICCAP_VAR vs         -0             

 #vd                    id                    ig                    ib                    is                   
  -0                    2.166e-09             -5e-13                -1.8e-13              -1.9186e-09          
  -0.1                  -4.9774e-06           -3.2e-13              0                     4.9916e-06           
  -0.2                  -9.6446e-06           -3.2e-13              -2e-14                9.663e-06            
  -0.3                  -1.3916e-05           -4e-13                -1e-13                1.395e-05            
  -0.4                  -1.779e-05            -2.4e-13              0                     1.7842e-05           
  -0.5                  -2.127e-05            -2e-13                -8e-14                2.1234e-05           
  -0.6                  -2.4318e-05           -2.8e-13              -1.4e-13              2.4338e-05           
  -0.7                  -2.6968e-05           -1.6e-13              -1.4e-13              2.6938e-05           
  -0.8                  -2.9254e-05           -2.8e-13              -2e-14                2.9276e-05           
  -0.9                  -3.1174e-05           -3e-13                2e-14                 3.125e-05            
  -1                    -3.2874e-05           -1.8e-13              0                     3.2904e-05           
  -1.1                  -3.425e-05            -2e-14                -8e-14                3.4272e-05           
  -1.2                  -3.5452e-05           -2.4e-13              -2e-14                3.5442e-05           
  -1.3                  -3.6456e-05           -2.2e-13              -2e-14                3.6476e-05           
  -1.4                  -3.7272e-05           -1.4e-13              -4e-14                3.7314e-05           
  -1.5                  -3.8024e-05           -3e-13                8e-14                 3.8044e-05           
  -1.6                  -3.8604e-05           -2.8e-13              4e-14                 3.8634e-05           
  -1.7                  -3.9146e-05           -2.6e-13              -6e-14                3.9158e-05           
  -1.8                  -3.9586e-05           -2e-13                0                     3.958e-05            
  -1.9                  -3.9878e-05           -2.8e-13              2e-14                 3.9908e-05           
  -2                    -4.0262e-05           -1.6e-13              6e-14                 4.027e-05            
  -2.1                  -4.0582e-05           -2.2e-13              -6e-14                4.0558e-05           
  -2.2                  -4.0858e-05           -1e-13                4e-14                 4.0858e-05           
  -2.3                  -4.1156e-05           -8e-14                1.6e-13               4.1156e-05           
  -2.4                  -4.1244e-05           -1.2e-13              3.6e-13               4.1404e-05           
  -2.5                  -4.1592e-05           -1.6e-13              5.8e-13               4.1614e-05           
  -2.6                  -4.1794e-05           -2.2e-13              1.72e-12              4.1764e-05           
  -2.7                  -4.1928e-05           -2.2e-13              4.02e-12              4.1938e-05           
  -2.8                  -4.2112e-05           -6e-14                9.22e-12              4.224e-05            
  -2.9                  -4.2414e-05           -1.6e-13              1.932e-11             4.2398e-05           
  -3                    -4.256e-05            4e-14                 3.98e-11              4.2604e-05           
  -3.1                  -4.275e-05            -1e-13                7.464e-11             4.278e-05            
  -3.2                  -4.2888e-05           -1.6e-13              1.3888e-10            4.2936e-05           
  -3.3                  -4.3074e-05           -1e-13                2.4812e-10            4.3098e-05           
  -3.4                  -4.3228e-05           -1.2e-13              4.339e-10             4.333e-05            
  -3.5                  -4.3468e-05           -2.2e-13              7.4134e-10            4.3464e-05           
  -3.6                  -4.3624e-05           -1.8e-13              1.2322e-09            4.3622e-05           
END_DB

BEGIN_DB
 ICCAP_VAR vg         -3.6           
 ICCAP_VAR vb         -0             
 ICCAP_VAR vs         -0             

 #vd                    id                    ig                    ib                    is                   
  -0                    2.3502e-09            -3.6e-13              -6e-14                -2.369e-09           
  -0.1                  -5.9312e-06           -3e-13                4e-14                 5.93e-06             
  -0.2                  -1.1566e-05           -3.2e-13              -1e-13                1.1588e-05           
  -0.3                  -1.6864e-05           -4.4e-13              -8e-14                1.6888e-05           
  -0.4                  -2.176e-05            -3.6e-13              -6e-14                2.1788e-05           
  -0.5                  -2.6276e-05           -2.8e-13              -2e-14                2.63e-05             
  -0.6                  -3.0418e-05           -2.6e-13              -6e-14                3.047e-05            
  -0.7                  -3.4132e-05           -3.6e-13              -2e-14                3.4176e-05           
  -0.8                  -3.7498e-05           -3.2e-13              -6e-14                3.7502e-05           
