! VERSION = 6.00
BEGIN_HEADER
 ICCAP_INPUTS
  vd         V  D GROUND SMU1 0.1 LIN        1    -0         -3.6       37   -0.1      
  vg         V  G GROUND SMU2 0.001 LIST       2 3 -1.676 -1.876 -2.076
  vb         V  B GROUND SMU4 0.1 CON        3.6
  vs         V  S GROUND SMU3 0.1 CON        -0
 ICCAP_OUTPUTS
  id         I  D GROUND SMU1 B
  ig         I  G GROUND SMU2 B
  ib         I  B GROUND SMU4 B
  is         I  S GROUND SMU3 B
 ICCAP_VALUES
  MASTER_SETUP_TYPE "~dc_idvd~"
  LINVT_VALUE ""
  LISTVT_VALUE "|idvg|100.0n|-200.0m|1.000m|3|200.0m|200.0m|"
  TYPE "-1"
  TEMP " 27.0000 "
  IS_TNOM " 1.00000 "
  MAIN.W "600.0n"
  MAIN.L "10.00u"
  MAIN.AD "204.0f"
  MAIN.AS "204.0f"
  MAIN.PD "1.880u"
  MAIN.PS "1.880u"
  MAIN.NF "1.000"
  MAIN.M "1"
  MAIN.NRD "0.000"
  MAIN.NRS "0.000"
  MAIN.LDRIFT1 "1E-06"
  MAIN.LDRIFT2 "1E-06"
  MAIN.SA "0.000"
  MAIN.SB "0.000"
  MAIN.SD "0.000"
  MAIN.SCA "0.000"
  MAIN.SCB "0.000"
  MAIN.SCC "0.000"
  MAIN.SC "0.000"
  MODULE "S564"
  PIN_D "12"
  PIN_G "9"
  PIN_S "10"
  PIN_B "11"
  PIN_E ""
  PIN_6 ""
  XY_ID ""
  FUNC "W Scale"
  STI "SA ref"
  WPE "WPE ref"
  COMMENT ""
  DIS_MEAS ""
  TypeTCI "10"
END_HEADER

BEGIN_DB
 ICCAP_VAR vg         -1.676         
 ICCAP_VAR vb         3.6            
 ICCAP_VAR vs         -0             

 #vd                    id                    ig                    ib                    is                   
  -0                    5e-13                 2e-14                 4.8e-13               -1.6e-13             
  -0.1                  -5.966e-11            0                     5e-13                 5.95e-11             
  -0.2                  -6.084e-11            2e-14                 4.6e-13               6.1e-11              
  -0.3                  -6.108e-11            1.2e-13               2.8e-13               6.096e-11            
  -0.4                  -6.102e-11            2e-14                 3.2e-13               6.096e-11            
  -0.5                  -6.124e-11            1e-13                 3.8e-13               6.102e-11            
  -0.6                  -6.106e-11            -2e-14                1.8e-13               6.104e-11            
  -0.7                  -6.116e-11            1.2e-13               1.6e-13               6.11e-11             
  -0.8                  -6.106e-11            1e-13                 2.4e-13               6.114e-11            
  -0.9                  -6.13e-11             1e-13                 3e-13                 6.106e-11            
  -1                    -6.132e-11            6e-14                 8e-14                 6.096e-11            
  -1.1                  -6.124e-11            2e-13                 2e-13                 6.092e-11            
  -1.2                  -6.13e-11             1.8e-13               2.4e-13               6.084e-11            
  -1.3                  -6.148e-11            2.4e-13               1.4e-13               6.108e-11            
  -1.4                  -6.136e-11            1.2e-13               2e-13                 6.106e-11            
  -1.5                  -6.15e-11             8e-14                 1.6e-13               6.128e-11            
  -1.6                  -6.17e-11             1.6e-13               2.4e-13               6.11e-11             
  -1.7                  -6.17e-11             4e-14                 1.2e-13               6.118e-11            
  -1.8                  -6.162e-11            0                     1.6e-13               6.126e-11            
  -1.9                  -6.164e-11            2e-14                 2.2e-13               6.114e-11            
  -2                    -6.172e-11            -2e-14                1e-13                 6.13e-11             
  -2.1                  -6.162e-11            4e-14                 2.2e-13               6.112e-11            
  -2.2                  -6.17e-11             2e-13                 2.4e-13               6.096e-11            
  -2.3                  -6.192e-11            1.4e-13               1.6e-13               6.108e-11            
  -2.4                  -6.19e-11             1.8e-13               1.4e-13               6.116e-11            
  -2.5                  -6.188e-11            0                     1.4e-13               6.118e-11            
  -2.6                  -6.196e-11            -2e-14                1.2e-13               6.12e-11             
  -2.7                  -6.194e-11            0                     -2e-14                6.12e-11             
  -2.8                  -6.188e-11            0                     1e-13                 6.102e-11            
  -2.9                  -6.178e-11            4e-14                 0                     6.122e-11            
  -3                    -6.182e-11            -4e-14                6e-14                 6.134e-11            
  -3.1                  -6.178e-11            1.2e-13               1.8e-13               6.092e-11            
  -3.2                  -6.196e-11            8e-14                 1.2e-13               6.124e-11            
  -3.3                  -6.202e-11            2e-14                 2e-13                 6.116e-11            
  -3.4                  -6.206e-11            1.6e-13               2e-13                 6.114e-11            
  -3.5                  -6.22e-11             6e-14                 1.8e-13               6.136e-11            
  -3.6                  -6.228e-11            1.6e-13               3e-13                 6.124e-11            
END_DB

BEGIN_DB
 ICCAP_VAR vg         -1.876         
 ICCAP_VAR vb         3.6            
 ICCAP_VAR vs         -0             

 #vd                    id                    ig                    ib                    is                   
  -0                    7.98e-12              -4e-14                8e-14                 -8.06e-12            
  -0.1                  -5.7728e-09           0                     6e-14                 5.774e-09            
  -0.2                  -6.2402e-09           -2e-14                4e-14                 6.2402e-09           
  -0.3                  -6.2584e-09           -4e-14                4e-14                 6.26e-09             
  -0.4                  -6.2612e-09           -4e-14                1e-13                 6.262e-09            
  -0.5                  -6.262e-09            -1e-13                0                     6.268e-09            
  -0.6                  -6.2636e-09           4e-14                 1e-13                 6.2632e-09           
  -0.7                  -6.2656e-09           -4e-14                1.4e-13               6.2666e-09           
  -0.8                  -6.2718e-09           8e-14                 6e-14                 6.2726e-09           
  -0.9                  -6.2724e-09           4e-14                 8e-14                 6.266e-09            
  -1                    -6.2732e-09           1.4e-13               1e-13                 6.27e-09             
  -1.1                  -6.271e-09            1e-13                 8e-14                 6.2766e-09           
  -1.2                  -6.2754e-09           6e-14                 4e-14                 6.2762e-09           
  -1.3                  -6.275e-09            -8e-14                8e-14                 6.2712e-09           
  -1.4                  -6.2776e-09           4e-14                 1e-13                 6.276e-09            
  -1.5                  -6.279e-09            4e-14                 6e-14                 6.275e-09            
  -1.6                  -6.2806e-09           -6e-14                2e-13                 6.2744e-09           
  -1.7                  -6.2768e-09           2e-14                 1e-13                 6.278e-09            
  -1.8                  -6.2738e-09           -6e-14                6e-14                 6.2814e-09           
  -1.9                  -6.2762e-09           6e-14                 8e-14                 6.28e-09             
  -2                    -6.2774e-09           4e-14                 1.4e-13               6.2774e-09           
  -2.1                  -6.2784e-09           -2e-14                1.2e-13               6.2784e-09           
  -2.2                  -6.2792e-09           -8e-14                1.2e-13               6.2764e-09           
  -2.3                  -6.2752e-09           2e-14                 -6e-14                6.2778e-09           
  -2.4                  -6.2798e-09           -4e-14                1.6e-13               6.2782e-09           
  -2.5                  -6.2798e-09           1.2e-13               6e-14                 6.2778e-09           
  -2.6                  -6.283e-09            -4e-14                1.6e-13               6.2794e-09           
  -2.7                  -6.2822e-09           1.6e-13               2.4e-13               6.2784e-09           
  -2.8                  -6.2812e-09           0                     2.6e-13               6.2816e-09           
  -2.9                  -6.2834e-09           1e-13                 4e-13                 6.2802e-09           
  -3                    -6.2862e-09           -4e-14                6e-13                 6.2852e-09           
  -3.1                  -6.2876e-09           0                     7.8e-13               6.283e-09            
  -3.2                  -6.2836e-09           0                     1.44e-12              6.2848e-09           
  -3.3                  -6.2868e-09           -2e-14                2.04e-12              6.2846e-09           
  -3.4                  -6.2906e-09           0                     3.22e-12              6.2834e-09           
  -3.5                  -6.2962e-09           2e-14                 5.26e-12              6.2868e-09           
  -3.6                  -6.2936e-09           -8e-14                8e-12                 6.2912e-09           
END_DB

BEGIN_DB
 ICCAP_VAR vg         -2.076         
 ICCAP_VAR vb         3.6            
 ICCAP_VAR vs         -0             

 #vd                    id                    ig                    ib                    is                   
  -0                    2.932e-11             -1.8e-13              0                     -2.944e-11           
  -0.1                  -3.2568e-08           6e-14                 2e-14                 3.2604e-08           
  -0.2                  -4.621e-08            0                     8e-14                 4.6236e-08           
  -0.3                  -4.8762e-08           0                     1.2e-13               4.8806e-08           
  -0.4                  -4.895e-08            -8e-14                1.6e-13               4.8978e-08           
  -0.5                  -4.8978e-08           -2e-14                8e-14                 4.8994e-08           
  -0.6                  -4.8996e-08           -1.4e-13              1e-13                 4.9022e-08           
  -0.7                  -4.9008e-08           -8e-14                1e-13                 4.9036e-08           
  -0.8                  -4.9014e-08           -8e-14                1.6e-13               4.9048e-08           
  -0.9                  -4.9036e-08           4e-14                 1.6e-13               4.9054e-08           
  -1                    -4.9032e-08           6e-14                 1e-13                 4.9056e-08           
  -1.1                  -4.9048e-08           -6e-14                2e-14                 4.9074e-08           
  -1.2                  -4.9048e-08           0                     8e-14                 4.9082e-08           
  -1.3                  -4.906e-08            -2e-14                8e-14                 4.908e-08            
  -1.4                  -4.9062e-08           2e-14                 1.4e-13               4.9078e-08           
  -1.5                  -4.9058e-08           -4e-14                1e-13                 4.91e-08             
  -1.6                  -4.9072e-08           0                     1.8e-13               4.9112e-08           
  -1.7                  -4.9084e-08           0                     1.4e-13               4.9098e-08           
  -1.8                  -4.9088e-08           -2e-13                4e-14                 4.9114e-08           
  -1.9                  -4.9088e-08           -2e-14                0                     4.9114e-08           
  -2                    -4.908e-08            -8e-14                1e-13                 4.9108e-08           
  -2.1                  -4.9092e-08           2e-14                 1.6e-13               4.9118e-08           
  -2.2                  -4.9102e-08           4e-14                 2.2e-13               4.9122e-08           
  -2.3                  -4.911e-08            -1e-13                2.2e-13               4.9134e-08           
  -2.4                  -4.9106e-08           -1.8e-13              1.4e-13               4.9138e-08           
  -2.5                  -4.9118e-08           4e-14                 1.2e-13               4.9144e-08           
  -2.6                  -4.9118e-08           6e-14                 1.8e-13               4.9146e-08           
  -2.7                  -4.9124e-08           0                     3e-13                 4.9146e-08           
  -2.8                  -4.913e-08            -1.2e-13              4.6e-13               4.9152e-08           
  -2.9                  -4.9134e-08           -1.4e-13              6.8e-13               4.9154e-08           
  -3                    -4.9128e-08           6e-14                 1.3e-12               4.9158e-08           
  -3.1                  -4.914e-08            6e-14                 2.1e-12               4.9166e-08           
  -3.2                  -4.914e-08            -8e-14                3.82e-12              4.9176e-08           
  -3.3                  -4.9166e-08           -8e-14                6.42e-12              4.9184e-08           
  -3.4                  -4.917e-08            -2e-14                1.074e-11             4.9184e-08           
  -3.5                  -4.9184e-08           -8e-14                1.766e-11             4.918e-08            
  -3.6                  -4.9196e-08           -1.6e-13              2.88e-11              4.9188e-08           
END_DB

