! VERSION = 6.00
BEGIN_HEADER
 ICCAP_INPUTS
  vd         V  D GROUND SMU1 0.1 LIN        1    -0         -3.6       37   -0.1      
  vg         V  G GROUND SMU2 0.001 LIN        2    -0.868     -3.6       5    -0.683    
  vb         V  B GROUND SMU4 0.1 CON        -0
  vs         V  S GROUND SMU3 0.1 CON        -0
 ICCAP_OUTPUTS
  id         I  D GROUND SMU1 B
  ig         I  G GROUND SMU2 B
  ib         I  B GROUND SMU4 B
  is         I  S GROUND SMU3 B
 ICCAP_VALUES
  MASTER_SETUP_TYPE "~dc_idvd~"
  LINVT_VALUE "|idvg|100.0n|100.0m|1.000m|5|3.600|"
  LISTVT_VALUE ""
  TYPE "-1"
  TEMP "-40.0000 "
  IS_TNOM " 0.00000 "
  MAIN.W "10.00u"
  MAIN.L "10.00u"
  MAIN.AD "3.400p"
  MAIN.AS "3.400p"
  MAIN.PD "20.68u"
  MAIN.PS "20.68u"
  MAIN.NF "1.000"
  MAIN.M "1"
  MAIN.NRD "0.000"
  MAIN.NRS "0.000"
  MAIN.LDRIFT1 "1E-06"
  MAIN.LDRIFT2 "1E-06"
  MAIN.SA "0.000"
  MAIN.SB "0.000"
  MAIN.SD "0.000"
  MAIN.SCA "0.000"
  MAIN.SCB "0.000"
  MAIN.SCC "0.000"
  MAIN.SC "0.000"
  MODULE "S562"
  PIN_D "16"
  PIN_G "5"
  PIN_S "6"
  PIN_B "15"
  PIN_E ""
  PIN_6 ""
  XY_ID ""
  FUNC "Large"
  STI "SA ref"
  WPE "WPE ref"
  COMMENT ""
  DIS_MEAS ""
  TypeTCI "10"
END_HEADER

BEGIN_DB
 ICCAP_VAR vg         -0.868         
 ICCAP_VAR vb         -0             
 ICCAP_VAR vs         -0             

 #vd                    id                    ig                    ib                    is                   
  -0                    1.8982e-10            -3.8e-13              -7.6e-13              -2.8182e-10          
  -0.1                  -4.0922e-07           2.8e-13               -7.2e-13              4.0942e-07           
  -0.2                  -4.5016e-07           -2.6e-13              -6e-13                4.504e-07            
  -0.3                  -4.5114e-07           1.2e-13               -5.6e-13              4.5134e-07           
  -0.4                  -4.5136e-07           1.8e-13               -5.2e-13              4.5156e-07           
  -0.5                  -4.5146e-07           1.2e-13               -4.6e-13              4.517e-07            
  -0.6                  -4.5158e-07           -6e-14                -4.4e-13              4.5178e-07           
  -0.7                  -4.5168e-07           2.2e-13               -5.6e-13              4.519e-07            
  -0.8                  -4.5176e-07           -1.8e-13              -5.2e-13              4.5196e-07           
  -0.9                  -4.5184e-07           0                     -3.6e-13              4.5206e-07           
  -1                    -4.5192e-07           1.2e-13               -4.4e-13              4.5212e-07           
  -1.1                  -4.5198e-07           2e-14                 -4.2e-13              4.522e-07            
  -1.2                  -4.5204e-07           5.8e-13               -2.8e-13              4.5224e-07           
  -1.3                  -4.521e-07            2.2e-13               -3.4e-13              4.523e-07            
  -1.4                  -4.5216e-07           4e-14                 -4.6e-13              4.5238e-07           
  -1.5                  -4.5222e-07           2.4e-13               -4.8e-13              4.5242e-07           
  -1.6                  -4.5226e-07           1.8e-13               -4.4e-13              4.525e-07            
  -1.7                  -4.5232e-07           1.8e-13               -3.2e-13              4.5254e-07           
  -1.8                  -4.5236e-07           1.6e-13               -2.8e-13              4.5258e-07           
  -1.9                  -4.524e-07            5.2e-13               -3e-13                4.5262e-07           
  -2                    -4.5244e-07           -1.6e-13              -2e-14                4.5266e-07           
  -2.1                  -4.5244e-07           3e-13                 3.2e-13               4.527e-07            
  -2.2                  -4.5252e-07           2.4e-13               1.08e-12              4.5274e-07           
  -2.3                  -4.5254e-07           0                     2.6e-12               4.5278e-07           
  -2.4                  -4.526e-07            2.4e-13               5.4e-12               4.5282e-07           
  -2.5                  -4.5266e-07           1e-13                 1.052e-11             4.5288e-07           
  -2.6                  -4.527e-07            -1.2e-13              1.934e-11             4.529e-07            
  -2.7                  -4.5276e-07           1.4e-13               3.414e-11             4.5294e-07           
  -2.8                  -4.5284e-07           2.4e-13               5.862e-11             4.5298e-07           
  -2.9                  -4.529e-07            -4e-14                9.79e-11              4.5302e-07           
  -3                    -4.5298e-07           2.4e-13               1.5952e-10            4.5304e-07           
  -3.1                  -4.531e-07            6e-14                 2.5376e-10            4.5308e-07           
  -3.2                  -4.5332e-07           -2.6e-13              3.9524e-10            4.5312e-07           
  -3.3                  -4.5354e-07           3.4e-13               6.0262e-10            4.5314e-07           
  -3.4                  -4.5388e-07           -6e-14                9.0094e-10            4.532e-07            
  -3.5                  -4.5438e-07           6e-14                 1.3212e-09            4.532e-07            
  -3.6                  -4.5494e-07           1.6e-13               1.9026e-09            4.5324e-07           
END_DB

BEGIN_DB
 ICCAP_VAR vg         -1.551         
 ICCAP_VAR vb         -0             
 ICCAP_VAR vs         -0             

 #vd                    id                    ig                    ib                    is                   
  -0                    1.3254e-09            -2.8e-13              -3.2e-13              -1.1462e-09          
  -0.1                  -3.8634e-06           3e-13                 -1.6e-13              3.867e-06            
  -0.2                  -6.9692e-06           -2.8e-13              -2.6e-13              6.9728e-06           
  -0.3                  -9.3116e-06           -1e-13                -2.6e-13              9.3152e-06           
  -0.4                  -1.09008e-05          -3e-13                -3e-13                1.09044e-05          
  -0.5                  -1.1774e-05           -2e-13                -2e-13                1.179e-05            
  -0.6                  -1.2078e-05           -3.4e-13              -2.2e-13              1.2096e-05           
  -0.7                  -1.2128e-05           -4e-14                -3.2e-13              1.2144e-05           
  -0.8                  -1.2138e-05           1.4e-13               -2.4e-13              1.2154e-05           
  -0.9                  -1.2142e-05           3.4e-13               -2.2e-13              1.216e-05            
  -1                    -1.2146e-05           -2.6e-13              -1.8e-13              1.2164e-05           
  -1.1                  -1.215e-05            -6e-14                -1e-13                1.2166e-05           
  -1.2                  -1.2152e-05           -1.8e-13              -2e-13                1.2168e-05           
  -1.3                  -1.2154e-05           0                     -2.2e-13              1.2172e-05           
  -1.4                  -1.2156e-05           -2.6e-13              -2.2e-13              1.2174e-05           
  -1.5                  -1.2158e-05           2e-14                 -2.6e-13              1.2176e-05           
  -1.6                  -1.216e-05            -2.6e-13              -1.2e-13              1.2178e-05           
  -1.7                  -1.2162e-05           5.6e-13               -1.6e-13              1.2178e-05           
  -1.8                  -1.2162e-05           -1.4e-13              -2.2e-13              1.218e-05            
  -1.9                  -1.2164e-05           -2.2e-13              -2.8e-13              1.2182e-05           
  -2                    -1.2166e-05           -8e-14                -1.4e-13              1.2182e-05           
  -2.1                  -1.2168e-05           -6e-14                -1.4e-13              1.2184e-05           
  -2.2                  -1.2168e-05           1.4e-13               4e-14                 1.2186e-05           
  -2.3                  -1.217e-05            -1.6e-13              5e-13                 1.2186e-05           
  -2.4                  -1.217e-05            6e-14                 1.46e-12              1.2188e-05           
  -2.5                  -1.2172e-05           2.8e-13               4.18e-12              1.2188e-05           
  -2.6                  -1.2174e-05           3.6e-13               1.072e-11             1.219e-05            
  -2.7                  -1.2174e-05           2.4e-13               2.464e-11             1.219e-05            
  -2.8                  -1.2176e-05           -2.2e-13              5.274e-11             1.2192e-05           
  -2.9                  -1.2176e-05           1.4e-13               1.0684e-10            1.2194e-05           
  -3                    -1.2178e-05           0                     2.0662e-10            1.2194e-05           
  -3.1                  -1.2178e-05           -1.6e-13              3.8422e-10            1.2194e-05           
  -3.2                  -1.218e-05            6e-14                 6.9242e-10            1.2196e-05           
  -3.3                  -1.2182e-05           -1e-13                1.2116e-09            1.2198e-05           
  -3.4                  -1.2184e-05           -4e-14                2.0594e-09            1.2198e-05           
  -3.5                  -1.2186e-05           0                     3.4164e-09            1.22e-05             
  -3.6                  -1.219e-05            -8e-14                5.5324e-09            1.22e-05             
END_DB

BEGIN_DB
 ICCAP_VAR vg         -2.234         
 ICCAP_VAR vb         -0             
 ICCAP_VAR vs         -0             

 #vd                    id                    ig                    ib                    is                   
  -0                    1.7562e-09            -1.8e-13              -1.2e-13              -1.685e-09           
  -0.1                  -6.6292e-06           -2e-13                -1.4e-13              6.6328e-06           
  -0.2                  -1.2614e-05           -2e-13                -2e-13                1.2632e-05           
  -0.3                  -1.7954e-05           -1.6e-13              -1.2e-13              1.797e-05            
  -0.4                  -2.2628e-05           -2e-14                -1.6e-13              2.2646e-05           
  -0.5                  -2.6662e-05           -8e-14                -1.4e-13              2.6678e-05           
  -0.6                  -3.0038e-05           -3e-13                -1.6e-13              3.0054e-05           
  -0.7                  -3.275e-05            0                     -1.4e-13              3.2768e-05           
  -0.8                  -3.4816e-05           0                     -1.2e-13              3.4834e-05           
  -0.9                  -3.6238e-05           -2.8e-13              -1.8e-13              3.6256e-05           
  -1                    -3.706e-05            -1.4e-13              -2e-14                3.7076e-05           
  -1.1                  -3.74e-05             1e-13                 -2e-13                3.7418e-05           
  -1.2                  -3.7496e-05           8e-14                 -1.2e-13              3.7514e-05           
  -1.3                  -3.7528e-05           1.4e-13               -1e-13                3.7546e-05           
  -1.4                  -3.7544e-05           0                     -1e-13                3.7562e-05           
  -1.5                  -3.7556e-05           -1.6e-13              -8e-14                3.7572e-05           
  -1.6                  -3.7564e-05           -4e-13                0                     3.7582e-05           
  -1.7                  -3.7572e-05           2.4e-13               0                     3.759e-05            
  -1.8                  -3.7578e-05           2e-14                 -1e-13                3.7596e-05           
  -1.9                  -3.7584e-05           -1.2e-13              -1.6e-13              3.7602e-05           
  -2                    -3.759e-05            2e-13                 -2e-13                3.7608e-05           
  -2.1                  -3.7596e-05           2e-14                 -1.4e-13              3.7612e-05           
  -2.2                  -3.76e-05             3e-13                 -4e-14                3.7618e-05           
  -2.3                  -3.7604e-05           4e-14                 -8e-14                3.7622e-05           
  -2.4                  -3.761e-05            -4e-14                -1.2e-13              3.7626e-05           
  -2.5                  -3.7612e-05           -2e-13                -6e-14                3.763e-05            
  -2.6                  -3.7616e-05           -4e-14                4e-14                 3.7634e-05           
  -2.7                  -3.762e-05            -2e-13                1.4e-13               3.7638e-05           
  -2.8                  -3.7624e-05           -1.4e-13              7.4e-13               3.7642e-05           
  -2.9                  -3.7628e-05           1.6e-13               2.5e-12               3.7644e-05           
  -3                    -3.763e-05            2e-14                 7.12e-12              3.7648e-05           
  -3.1                  -3.7634e-05           -1.8e-13              1.898e-11             3.7652e-05           
  -3.2                  -3.7638e-05           1.2e-13               4.548e-11             3.7654e-05           
  -3.3                  -3.7642e-05           -2e-13                1.0122e-10            3.7658e-05           
  -3.4                  -3.7644e-05           2e-14                 2.1204e-10            3.7662e-05           
  -3.5                  -3.7648e-05           3e-13                 4.2358e-10            3.7664e-05           
  -3.6                  -3.765e-05            -2e-13                8.1162e-10            3.7668e-05           
END_DB

BEGIN_DB
 ICCAP_VAR vg         -2.917         
 ICCAP_VAR vb         -0             
 ICCAP_VAR vs         -0             

 #vd                    id                    ig                    ib                    is                   
  -0                    1.9626e-09            4e-14                 -1.6e-13              -2.0854e-09          
  -0.1                  -8.7216e-06           -3.8e-13              -8e-14                8.7252e-06           
  -0.2                  -1.69e-05             -2e-14                -1.4e-13              1.6918e-05           
  -0.3                  -2.453e-05            -3e-13                -1.2e-13              2.4546e-05           
  -0.4                  -3.1586e-05           -2.4e-13              -2.2e-13              3.1604e-05           
  -0.5                  -3.8104e-05           2e-14                 -1.6e-13              3.8122e-05           
  -0.6                  -4.4062e-05           2e-14                 -2e-14                4.4078e-05           
  -0.7                  -4.9446e-05           -3.2e-13              -1.2e-13              4.9464e-05           
  -0.8                  -5.4274e-05           -6e-14                -1.2e-13              5.4292e-05           
  -0.9                  -5.8532e-05           -1.2e-13              0                     5.855e-05            
  -1                    -6.2208e-05           2.2e-13               0                     6.2226e-05           
  -1.1                  -6.5314e-05           -2e-14                -2e-14                6.5332e-05           
  -1.2                  -6.7842e-05           -3e-13                -6e-14                6.786e-05            
  -1.3                  -6.9794e-05           -8e-14                -2e-14                6.9812e-05           
  -1.4                  -7.1182e-05           -8e-14                0                     7.1202e-05           
  -1.5                  -7.2048e-05           -1.8e-13              -8e-14                7.2066e-05           
  -1.6                  -7.2482e-05           -2.2e-13              0                     7.2498e-05           
  -1.7                  -7.2652e-05           -2e-14                -1e-13                7.267e-05            
  -1.8                  -7.2722e-05           4.2e-13               0                     7.274e-05            
  -1.9                  -7.2758e-05           -1.6e-13              -4e-14                7.2776e-05           
  -2                    -7.2782e-05           -2e-14                -4e-14                7.28e-05             
  -2.1                  -7.28e-05             -2.2e-13              -1.2e-13              7.2818e-05           
  -2.2                  -7.2816e-05           -1e-13                -8e-14                7.2834e-05           
  -2.3                  -7.283e-05            6e-14                 -1e-13                7.2848e-05           
  -2.4                  -7.2842e-05           0                     -1e-13                7.2858e-05           
  -2.5                  -7.285e-05            -1.4e-13              -8e-14                7.287e-05            
  -2.6                  -7.2862e-05           -4.2e-13              -1e-13                7.288e-05            
  -2.7                  -7.2872e-05           8e-14                 -2e-14                7.2888e-05           
  -2.8                  -7.2878e-05           -2e-14                2e-14                 7.2896e-05           
  -2.9                  -7.2886e-05           -4e-14                -2e-14                7.2904e-05           
  -3                    -7.2894e-05           0                     -6e-14                7.2912e-05           
  -3.1                  -7.29e-05             -4e-14                0                     7.2918e-05           
  -3.2                  -7.2908e-05           8e-14                 1e-13                 7.2924e-05           
  -3.3                  -7.2914e-05           2.4e-13               7.2e-13               7.293e-05            
  -3.4                  -7.292e-05            -2.2e-13              2.48e-12              7.2936e-05           
  -3.5                  -7.2926e-05           -1.8e-13              7.2e-12               7.2944e-05           
  -3.6                  -7.2932e-05           8e-14                 1.978e-11             7.295e-05            
END_DB

BEGIN_DB
 ICCAP_VAR vg         -3.6           
 ICCAP_VAR vb         -0             
 ICCAP_VAR vs         -0             

 #vd                    id                    ig                    ib                    is                   
  -0                    2.2526e-09            -5.2e-13              -1.6e-13              -2.4266e-09          
  -0.1                  -1.0302e-05           -4.4e-13              -1.2e-13              1.0318e-05           
  -0.2                  -2.0158e-05           -2e-14                -6e-14                2.0174e-05           
  -0.3                  -2.9534e-05           -6.6e-13              0                     2.9552e-05           
  -0.4                  -3.8414e-05           -2.4e-13              -1e-13                3.8432e-05           
  -0.5                  -4.6838e-05           -2.4e-13              0                     4.6856e-05           
  -0.6                  -5.4784e-05           -6e-14                -2e-14                5.4804e-05           
  -0.7                  -6.2236e-05           -3.2e-13              -8e-14                6.2254e-05           
  -0.8                  -6.9218e-05           -1.2e-13              -8e-14                6.9238e-05           
