! VERSION = 6.00
BEGIN_HEADER
 ICCAP_INPUTS
  vd         V  D GROUND SMU1 0.1 LIN        1    -0         -3.6       37   -0.1      
  vg         V  G GROUND SMU2 0.001 LIST       2 3 -1.739 -1.939 -2.139
  vb         V  B GROUND SMU4 0.1 CON        3.6
  vs         V  S GROUND SMU3 0.1 CON        -0
 ICCAP_OUTPUTS
  id         I  D GROUND SMU1 B
  ig         I  G GROUND SMU2 B
  ib         I  B GROUND SMU4 B
  is         I  S GROUND SMU3 B
 ICCAP_VALUES
  MASTER_SETUP_TYPE "~dc_idvd~"
  LINVT_VALUE ""
  LISTVT_VALUE "|idvg|100.0n|-200.0m|1.000m|3|200.0m|200.0m|"
  TYPE "-1"
  TEMP "-40.0000 "
  IS_TNOM " 0.00000 "
  MAIN.W "10.00u"
  MAIN.L "10.00u"
  MAIN.AD "3.400p"
  MAIN.AS "3.400p"
  MAIN.PD "20.68u"
  MAIN.PS "20.68u"
  MAIN.NF "1.000"
  MAIN.M "1"
  MAIN.NRD "0.000"
  MAIN.NRS "0.000"
  MAIN.LDRIFT1 "1E-06"
  MAIN.LDRIFT2 "1E-06"
  MAIN.SA "0.000"
  MAIN.SB "0.000"
  MAIN.SD "0.000"
  MAIN.SCA "0.000"
  MAIN.SCB "0.000"
  MAIN.SCC "0.000"
  MAIN.SC "0.000"
  MODULE "S562"
  PIN_D "16"
  PIN_G "5"
  PIN_S "6"
  PIN_B "15"
  PIN_E ""
  PIN_6 ""
  XY_ID ""
  FUNC "Large"
  STI "SA ref"
  WPE "WPE ref"
  COMMENT ""
  DIS_MEAS ""
  TypeTCI "10"
END_HEADER

BEGIN_DB
 ICCAP_VAR vg         -1.739         
 ICCAP_VAR vb         3.6            
 ICCAP_VAR vs         -0             

 #vd                    id                    ig                    ib                    is                   
  -0                    5e-13                 1.8e-13               5.2e-13               -9.6e-13             
  -0.1                  -3.6596e-10           4.8e-13               4.6e-13               3.6612e-10           
  -0.2                  -3.6902e-10           -6e-14                4.2e-13               3.6894e-10           
  -0.3                  -3.6912e-10           2.4e-13               3.8e-13               3.6916e-10           
  -0.4                  -3.6926e-10           1.4e-13               2.8e-13               3.6932e-10           
  -0.5                  -3.6934e-10           0                     1.6e-13               3.6942e-10           
  -0.6                  -3.697e-10            3.6e-13               3.8e-13               3.6916e-10           
  -0.7                  -3.698e-10            1.8e-13               4e-14                 3.6972e-10           
  -0.8                  -3.6978e-10           1.8e-13               1.8e-13               3.695e-10            
  -0.9                  -3.6982e-10           6e-14                 1.4e-13               3.697e-10            
  -1                    -3.6998e-10           0                     1.6e-13               3.6952e-10           
  -1.1                  -3.7004e-10           1.4e-13               2e-13                 3.6974e-10           
  -1.2                  -3.7038e-10           -6e-14                4e-14                 3.7e-10              
  -1.3                  -3.705e-10            3e-13                 1.4e-13               3.7014e-10           
  -1.4                  -3.7038e-10           -1.6e-13              8e-14                 3.6996e-10           
  -1.5                  -3.7052e-10           3.6e-13               1.2e-13               3.6992e-10           
  -1.6                  -3.705e-10            1.6e-13               1.4e-13               3.6998e-10           
  -1.7                  -3.7072e-10           1.2e-13               8e-14                 3.702e-10            
  -1.8                  -3.7074e-10           -2.2e-13              2e-14                 3.7014e-10           
  -1.9                  -3.7086e-10           1.4e-13               1e-13                 3.7012e-10           
  -2                    -3.7084e-10           6e-14                 1e-13                 3.7034e-10           
  -2.1                  -3.709e-10            -2e-14                1.2e-13               3.7016e-10           
  -2.2                  -3.7082e-10           0                     2e-14                 3.7036e-10           
  -2.3                  -3.7092e-10           1e-13                 1e-13                 3.705e-10            
  -2.4                  -3.7112e-10           -8e-14                1.2e-13               3.7062e-10           
  -2.5                  -3.7124e-10           4.2e-13               1.4e-13               3.7026e-10           
  -2.6                  -3.7112e-10           -2e-13                4e-14                 3.7068e-10           
  -2.7                  -3.7134e-10           1.6e-13               1e-13                 3.7052e-10           
  -2.8                  -3.7126e-10           1.6e-13               1.4e-13               3.7078e-10           
  -2.9                  -3.7126e-10           1.6e-13               6e-14                 3.7066e-10           
  -3                    -3.715e-10            -6e-14                1.8e-13               3.7058e-10           
  -3.1                  -3.7152e-10           2e-14                 1.8e-13               3.7056e-10           
  -3.2                  -3.7146e-10           -2.6e-13              1.8e-13               3.707e-10            
  -3.3                  -3.7172e-10           2.6e-13               3.6e-13               3.7062e-10           
  -3.4                  -3.7192e-10           2.8e-13               5.4e-13               3.7064e-10           
  -3.5                  -3.7216e-10           2.4e-13               7.6e-13               3.7078e-10           
  -3.6                  -3.7272e-10           4.2e-13               1.14e-12              3.7086e-10           
END_DB

BEGIN_DB
 ICCAP_VAR vg         -1.939         
 ICCAP_VAR vb         3.6            
 ICCAP_VAR vs         -0             

 #vd                    id                    ig                    ib                    is                   
  -0                    7.904e-11             -2e-14                -2e-14                -8.26e-11            
  -0.1                  -9.6738e-08           -4e-14                -4e-14                9.6764e-08           
  -0.2                  -1.0244e-07           4e-14                 2e-14                 1.02542e-07          
  -0.3                  -1.0256e-07           5e-13                 -4e-14                1.02666e-07          
  -0.4                  -1.026e-07            -1.6e-13              2e-14                 1.0271e-07           
  -0.5                  -1.0262e-07           -1e-13                0                     1.02734e-07          
  -0.6                  -1.0264e-07           -8e-14                0                     1.02752e-07          
  -0.7                  -1.0266e-07           2e-13                 8e-14                 1.02776e-07          
  -0.8                  -1.027e-07            4.2e-13               0                     1.02794e-07          
  -0.9                  -1.027e-07            -1.2e-13              1.6e-13               1.02816e-07          
  -1                    -1.0272e-07           3e-13                 1.4e-13               1.02832e-07          
  -1.1                  -1.0272e-07           1e-13                 6e-14                 1.02828e-07          
  -1.2                  -1.0274e-07           1.4e-13               1.4e-13               1.02846e-07          
  -1.3                  -1.0274e-07           -1.8e-13              1e-13                 1.02862e-07          
  -1.4                  -1.0276e-07           1.2e-13               4e-14                 1.02864e-07          
  -1.5                  -1.0276e-07           4.4e-13               1e-13                 1.02892e-07          
  -1.6                  -1.028e-07            -1e-13                6e-14                 1.02902e-07          
  -1.7                  -1.028e-07            5.4e-13               0                     1.02888e-07          
  -1.8                  -1.0278e-07           -1e-13                1.4e-13               1.02908e-07          
  -1.9                  -1.0282e-07           1e-13                 6e-14                 1.02918e-07          
  -2                    -1.0282e-07           0                     0                     1.02922e-07          
  -2.1                  -1.0282e-07           -1.4e-13              1.2e-13               1.02928e-07          
  -2.2                  -1.0282e-07           1.8e-13               1.6e-13               1.02934e-07          
  -2.3                  -1.0284e-07           -2e-14                1.2e-13               1.02942e-07          
  -2.4                  -1.0284e-07           2.8e-13               2.2e-13               1.02948e-07          
  -2.5                  -1.0286e-07           -4e-14                2.8e-13               1.02956e-07          
  -2.6                  -1.0286e-07           1.8e-13               4.8e-13               1.02956e-07          
  -2.7                  -1.0286e-07           2e-14                 9.4e-13               1.0297e-07           
  -2.8                  -1.0288e-07           8e-14                 1.72e-12              1.02976e-07          
  -2.9                  -1.0288e-07           1.8e-13               3.1e-12               1.02986e-07          
  -3                    -1.0288e-07           2e-14                 5.68e-12              1.03006e-07          
  -3.1                  -1.029e-07            0                     1.024e-11             1.02992e-07          
  -3.2                  -1.0292e-07           -8e-14                1.832e-11             1.02998e-07          
  -3.3                  -1.0292e-07           1.4e-13               3.148e-11             1.03004e-07          
  -3.4                  -1.0296e-07           -2.4e-13              5.318e-11             1.03024e-07          
  -3.5                  -1.03e-07             4.2e-13               8.784e-11             1.03028e-07          
  -3.6                  -1.0308e-07           1.6e-13               1.4198e-10            1.03044e-07          
END_DB

BEGIN_DB
 ICCAP_VAR vg         -2.139         
 ICCAP_VAR vb         3.6            
 ICCAP_VAR vs         -0             

 #vd                    id                    ig                    ib                    is                   
  -0                    3.0058e-10            -4.4e-13              0                     -3.0494e-10          
  -0.1                  -5.919e-07            1.2e-13               0                     5.9212e-07           
  -0.2                  -8.3856e-07           -3.4e-13              -4e-14                8.3882e-07           
  -0.3                  -8.826e-07            0                     2e-14                 8.8294e-07           
  -0.4                  -8.8532e-07           -8e-14                4e-14                 8.8558e-07           
  -0.5                  -8.8584e-07           -3.4e-13              0                     8.861e-07            
  -0.6                  -8.8608e-07           1.4e-13               -1e-13                8.8644e-07           
  -0.7                  -8.8638e-07           -1.6e-13              -4e-14                8.8668e-07           
  -0.8                  -8.866e-07            6e-14                 0                     8.8682e-07           
  -0.9                  -8.8676e-07           -1.4e-13              1.4e-13               8.8704e-07           
  -1                    -8.8694e-07           -4e-14                1e-13                 8.872e-07            
  -1.1                  -8.8706e-07           -2e-14                1e-13                 8.873e-07            
  -1.2                  -8.8714e-07           -2e-14                1.2e-13               8.8742e-07           
  -1.3                  -8.8724e-07           4.2e-13               8e-14                 8.875e-07            
  -1.4                  -8.8736e-07           1.8e-13               1.6e-13               8.8766e-07           
  -1.5                  -8.8746e-07           4e-14                 2e-13                 8.8774e-07           
  -1.6                  -8.8756e-07           2.2e-13               1e-13                 8.878e-07            
  -1.7                  -8.8766e-07           1.8e-13               8e-14                 8.879e-07            
  -1.8                  -8.8772e-07           -6e-14                2e-14                 8.8802e-07           
  -1.9                  -8.878e-07            -4e-14                0                     8.8808e-07           
  -2                    -8.8792e-07           2.4e-13               1.2e-13               8.882e-07            
  -2.1                  -8.88e-07             -1.4e-13              0                     8.8826e-07           
  -2.2                  -8.8804e-07           1.4e-13               0                     8.8836e-07           
  -2.3                  -8.8814e-07           -6e-14                8e-14                 8.8832e-07           
  -2.4                  -8.882e-07            6e-14                 1.4e-13               8.8846e-07           
  -2.5                  -8.8826e-07           0                     4e-13                 8.885e-07            
  -2.6                  -8.8826e-07           1.8e-13               9e-13                 8.8854e-07           
  -2.7                  -8.8834e-07           -2e-14                1.96e-12              8.886e-07            
  -2.8                  -8.8848e-07           2.2e-13               4.08e-12              8.8872e-07           
  -2.9                  -8.8852e-07           2e-13                 8.18e-12              8.8874e-07           
  -3                    -8.8852e-07           -2.8e-13              1.618e-11             8.8878e-07           
  -3.1                  -8.8864e-07           2.4e-13               3.114e-11             8.8884e-07           
  -3.2                  -8.8876e-07           1e-13                 5.798e-11             8.8898e-07           
  -3.3                  -8.8886e-07           8e-14                 1.0474e-10            8.89e-07             
  -3.4                  -8.89e-07             1.4e-13               1.8454e-10            8.8912e-07           
  -3.5                  -8.8918e-07           -1.8e-13              3.176e-10             8.892e-07            
  -3.6                  -8.8946e-07           -1e-13                5.351e-10             8.8918e-07           
END_DB

