! VERSION = 6.00
BEGIN_HEADER
 ICCAP_INPUTS
  vd         V  D GROUND SMU1 0.1 LIN        1    -0         -3.6       37   -0.1      
  vg         V  G GROUND SMU2 0.001 LIST       2 3 -0.47 -0.67 -0.87
  vb         V  B GROUND SMU4 0.1 CON        -0
  vs         V  S GROUND SMU3 0.1 CON        -0
 ICCAP_OUTPUTS
  id         I  D GROUND SMU1 B
  ig         I  G GROUND SMU2 B
  ib         I  B GROUND SMU4 B
  is         I  S GROUND SMU3 B
 ICCAP_VALUES
  MASTER_SETUP_TYPE "~dc_idvd~"
  LINVT_VALUE ""
  LISTVT_VALUE "|idvg|100.0n|-200.0m|1.000m|3|200.0m|200.0m|"
  TYPE "-1"
  TEMP " 27.0000 "
  IS_TNOM " 1.00000 "
  MAIN.W "10.00u"
  MAIN.L "500.0n"
  MAIN.AD "3.400p"
  MAIN.AS "3.400p"
  MAIN.PD "20.68u"
  MAIN.PS "20.68u"
  MAIN.NF "1.000"
  MAIN.M "1"
  MAIN.NRD "0.000"
  MAIN.NRS "0.000"
  MAIN.LDRIFT1 "1E-06"
  MAIN.LDRIFT2 "1E-06"
  MAIN.SA "0.000"
  MAIN.SB "0.000"
  MAIN.SD "0.000"
  MAIN.SCA "0.000"
  MAIN.SCB "0.000"
  MAIN.SCC "0.000"
  MAIN.SC "0.000"
  MODULE "S561"
  PIN_D "14"
  PIN_G "7"
  PIN_S "8"
  PIN_B "13"
  PIN_E ""
  PIN_6 ""
  XY_ID ""
  FUNC "L Scale"
  STI "SA ref"
  WPE "WPE ref"
  COMMENT ""
  DIS_MEAS ""
  TypeTCI "10"
END_HEADER

BEGIN_DB
 ICCAP_VAR vg         -0.47          
 ICCAP_VAR vb         -0             
 ICCAP_VAR vs         -0             

 #vd                    id                    ig                    ib                    is                   
  -0                    1.058e-11             5.2e-13               1e-13                 -4.116e-11           
  -0.1                  -1.9948e-08           6.6e-13               0                     1.9976e-08           
  -0.2                  -2.065e-08            4e-13                 -1e-13                2.0676e-08           
  -0.3                  -2.087e-08            2.6e-13               -1.2e-13              2.0908e-08           
  -0.4                  -2.1056e-08           3.4e-13               -1.2e-13              2.1076e-08           
  -0.5                  -2.1214e-08           5.4e-13               -1e-13                2.1242e-08           
  -0.6                  -2.1344e-08           6.6e-13               -1.2e-13              2.1366e-08           
  -0.7                  -2.147e-08            6.8e-13               -4e-14                2.1502e-08           
  -0.8                  -2.1598e-08           3e-13                 -1.4e-13              2.1622e-08           
  -0.9                  -2.1716e-08           3.4e-13               -1e-13                2.174e-08            
  -1                    -2.1836e-08           4.2e-13               -1.8e-13              2.1858e-08           
  -1.1                  -2.194e-08            5.6e-13               -2.6e-13              2.1966e-08           
  -1.2                  -2.2048e-08           4.8e-13               -1.8e-13              2.2076e-08           
  -1.3                  -2.2146e-08           3.6e-13               -2.2e-13              2.2164e-08           
  -1.4                  -2.2242e-08           2.6e-13               -1.2e-13              2.227e-08            
  -1.5                  -2.2342e-08           4e-13                 -1.2e-13              2.2362e-08           
  -1.6                  -2.2432e-08           4.4e-13               -1.6e-13              2.2466e-08           
  -1.7                  -2.2526e-08           4.6e-13               -1.2e-13              2.256e-08            
  -1.8                  -2.2632e-08           2.6e-13               -1e-13                2.2654e-08           
  -1.9                  -2.2724e-08           3e-13                 -6e-14                2.2748e-08           
  -2                    -2.2812e-08           2.6e-13               -6e-14                2.2836e-08           
  -2.1                  -2.2914e-08           1.4e-13               6e-14                 2.2946e-08           
  -2.2                  -2.301e-08            1.4e-13               2.8e-13               2.3034e-08           
  -2.3                  -2.3098e-08           8e-14                 9.2e-13               2.3112e-08           
  -2.4                  -2.318e-08            2e-14                 1.54e-12              2.3202e-08           
  -2.5                  -2.3284e-08           6e-14                 2.72e-12              2.3298e-08           
  -2.6                  -2.3362e-08           2.4e-13               4.44e-12              2.3378e-08           
  -2.7                  -2.3458e-08           3e-13                 7.3e-12               2.3478e-08           
  -2.8                  -2.3544e-08           2.4e-13               1.158e-11             2.3558e-08           
  -2.9                  -2.3644e-08           4.6e-13               1.782e-11             2.3652e-08           
  -3                    -2.3732e-08           3.8e-13               2.68e-11              2.3738e-08           
  -3.1                  -2.3846e-08           2e-13                 3.96e-11              2.3828e-08           
  -3.2                  -2.3952e-08           3e-13                 5.78e-11              2.3918e-08           
  -3.3                  -2.4066e-08           2.2e-13               8.258e-11             2.3992e-08           
  -3.4                  -2.4166e-08           3e-13                 1.1626e-10            2.4078e-08           
  -3.5                  -2.4298e-08           3.4e-13               1.613e-10             2.4164e-08           
  -3.6                  -2.4442e-08           3.2e-13               2.2072e-10            2.4258e-08           
END_DB

BEGIN_DB
 ICCAP_VAR vg         -0.67          
 ICCAP_VAR vb         -0             
 ICCAP_VAR vs         -0             

 #vd                    id                    ig                    ib                    is                   
  -0                    2.0044e-09            6e-14                 0                     -1.7678e-09          
  -0.1                  -1.7596e-06           2.2e-13               6e-14                 1.7626e-06           
  -0.2                  -1.8832e-06           -8e-14                -1e-13                1.888e-06            
  -0.3                  -1.914e-06            -1e-13                -1.4e-13              1.9172e-06           
  -0.4                  -1.9322e-06           0                     -8e-14                1.9362e-06           
  -0.5                  -1.9474e-06           1e-13                 -1.8e-13              1.9514e-06           
  -0.6                  -1.961e-06            2.2e-13               -2.6e-13              1.9654e-06           
  -0.7                  -1.974e-06            6e-14                 -6e-14                1.9772e-06           
  -0.8                  -1.9854e-06           -1.4e-13              -8e-14                1.9886e-06           
  -0.9                  -1.9952e-06           -2e-14                -1.4e-13              1.999e-06            
  -1                    -2.0052e-06           2.6e-13               -1.6e-13              2.0078e-06           
  -1.1                  -2.0124e-06           2.4e-13               -2e-13                2.0162e-06           
  -1.2                  -2.0212e-06           -6e-14                -2.2e-13              2.0252e-06           
  -1.3                  -2.029e-06            1.2e-13               -1.4e-13              2.0328e-06           
  -1.4                  -2.0378e-06           1.2e-13               -1e-13                2.042e-06            
  -1.5                  -2.0472e-06           -4e-14                -1.6e-13              2.0496e-06           
  -1.6                  -2.0534e-06           2.6e-13               4e-14                 2.0578e-06           
  -1.7                  -2.0612e-06           2.4e-13               1.6e-13               2.0654e-06           
  -1.8                  -2.069e-06            6e-14                 7e-13                 2.0732e-06           
  -1.9                  -2.0778e-06           -2.4e-13              2.12e-12              2.0818e-06           
  -2                    -2.0856e-06           -6e-14                4.86e-12              2.0896e-06           
  -2.1                  -2.0934e-06           6e-14                 9.84e-12              2.096e-06            
  -2.2                  -2.0998e-06           8e-14                 1.938e-11             2.1036e-06           
  -2.3                  -2.1074e-06           1.4e-13               3.654e-11             2.1108e-06           
  -2.4                  -2.1142e-06           0                     6.588e-11             2.1182e-06           
  -2.5                  -2.1214e-06           1.2e-13               1.1532e-10            2.1268e-06           
  -2.6                  -2.131e-06            6e-14                 1.961e-10             2.1338e-06           
  -2.7                  -2.138e-06            -2e-14                3.2496e-10            2.1426e-06           
  -2.8                  -2.1462e-06           4e-14                 5.259e-10             2.1498e-06           
  -2.9                  -2.1538e-06           3e-13                 8.3292e-10            2.1558e-06           
  -3                    -2.161e-06            6e-14                 1.296e-09             2.1642e-06           
  -3.1                  -2.1696e-06           -2e-14                1.9726e-09            2.1726e-06           
  -3.2                  -2.1786e-06           2.6e-13               2.9484e-09            2.178e-06            
  -3.3                  -2.1858e-06           1.6e-13               4.3324e-09            2.185e-06            
  -3.4                  -2.1944e-06           6e-14                 6.2514e-09            2.1918e-06           
  -3.5                  -2.2042e-06           1.4e-13               8.8892e-09            2.1994e-06           
  -3.6                  -2.2182e-06           6e-14                 1.244e-08             2.2098e-06           
END_DB

BEGIN_DB
 ICCAP_VAR vg         -0.87          
 ICCAP_VAR vb         -0             
 ICCAP_VAR vs         -0             

 #vd                    id                    ig                    ib                    is                   
  -0                    1.2152e-08            -2e-14                4e-14                 -1.1764e-08          
  -0.1                  -1.4882e-05           1.6e-13               4e-14                 1.49e-05             
  -0.2                  -1.9658e-05           -2e-13                0                     1.9676e-05           
  -0.3                  -2.0698e-05           -4e-14                -2e-14                2.072e-05            
  -0.4                  -2.1054e-05           1.8e-13               -1.2e-13              2.1072e-05           
  -0.5                  -2.1274e-05           -2e-14                -2e-13                2.1292e-05           
  -0.6                  -2.1438e-05           -1.8e-13              -6e-14                2.146e-05            
  -0.7                  -2.158e-05            0                     -8e-14                2.16e-05             
  -0.8                  -2.17e-05             4e-14                 -1e-13                2.1722e-05           
  -0.9                  -2.1814e-05           -4e-14                -1.4e-13              2.1832e-05           
  -1                    -2.191e-05            -1e-13                -1e-13                2.1936e-05           
  -1.1                  -2.2006e-05           8e-14                 -2.4e-13              2.2026e-05           
  -1.2                  -2.2094e-05           8e-14                 -3.4e-13              2.2114e-05           
  -1.3                  -2.218e-05            -1e-13                -8e-14                2.2202e-05           
  -1.4                  -2.2262e-05           -8e-14                -1e-13                2.2284e-05           
  -1.5                  -2.234e-05            6e-14                 -1.4e-13              2.2362e-05           
  -1.6                  -2.2416e-05           3e-13                 4e-14                 2.2438e-05           
  -1.7                  -2.2492e-05           1.4e-13               6e-13                 2.2508e-05           
  -1.8                  -2.256e-05            6e-14                 2.12e-12              2.258e-05            
  -1.9                  -2.2634e-05           -2e-13                6.12e-12              2.2656e-05           
  -2                    -2.2708e-05           -1.6e-13              1.556e-11             2.2728e-05           
  -2.1                  -2.2776e-05           0                     3.53e-11              2.2796e-05           
  -2.2                  -2.2842e-05           2e-13                 7.498e-11             2.2868e-05           
  -2.3                  -2.2918e-05           4e-14                 1.5e-10               2.294e-05            
  -2.4                  -2.2982e-05           -2e-14                2.8658e-10            2.3008e-05           
  -2.5                  -2.3052e-05           4e-14                 5.263e-10             2.3068e-05           
  -2.6                  -2.3114e-05           1e-13                 9.35e-10              2.3136e-05           
  -2.7                  -2.32e-05             2e-14                 1.6144e-09            2.3222e-05           
  -2.8                  -2.3268e-05           4e-14                 2.7104e-09            2.3286e-05           
  -2.9                  -2.3332e-05           -1.2e-13              4.4436e-09            2.3348e-05           
  -3                    -2.34e-05             1e-13                 7.1268e-09            2.341e-05            
  -3.1                  -2.3468e-05           6e-14                 1.1183e-08            2.3472e-05           
  -3.2                  -2.3534e-05           2e-14                 1.7224e-08            2.3534e-05           
  -3.3                  -2.3602e-05           -4e-14                2.6018e-08            2.3594e-05           
  -3.4                  -2.3672e-05           -6e-14                3.8594e-08            2.3662e-05           
  -3.5                  -2.376e-05            0                     5.6236e-08            2.3726e-05           
  -3.6                  -2.3852e-05           -1.2e-13              8.063e-08             2.3802e-05           
END_DB

