! VERSION = 6.00
BEGIN_HEADER
 ICCAP_INPUTS
  vd         V  D GROUND SMU1 0.1 LIN        1    -0         -3.6       37   -0.1      
  vg         V  G GROUND SMU2 0.001 LIST       2 3 -1.59 -1.79 -1.99
  vb         V  B GROUND SMU4 0.1 CON        3.6
  vs         V  S GROUND SMU3 0.1 CON        -0
 ICCAP_OUTPUTS
  id         I  D GROUND SMU1 B
  ig         I  G GROUND SMU2 B
  ib         I  B GROUND SMU4 B
  is         I  S GROUND SMU3 B
 ICCAP_VALUES
  MASTER_SETUP_TYPE "~dc_idvd~"
  LINVT_VALUE ""
  LISTVT_VALUE "|idvg|100.0n|-200.0m|1.000m|3|200.0m|200.0m|"
  TYPE "-1"
  TEMP " 27.0000 "
  IS_TNOM " 1.00000 "
  MAIN.W "10.00u"
  MAIN.L "500.0n"
  MAIN.AD "3.400p"
  MAIN.AS "3.400p"
  MAIN.PD "20.68u"
  MAIN.PS "20.68u"
  MAIN.NF "1.000"
  MAIN.M "1"
  MAIN.NRD "0.000"
  MAIN.NRS "0.000"
  MAIN.LDRIFT1 "1E-06"
  MAIN.LDRIFT2 "1E-06"
  MAIN.SA "0.000"
  MAIN.SB "0.000"
  MAIN.SD "0.000"
  MAIN.SCA "0.000"
  MAIN.SCB "0.000"
  MAIN.SCC "0.000"
  MAIN.SC "0.000"
  MODULE "S561"
  PIN_D "14"
  PIN_G "7"
  PIN_S "8"
  PIN_B "13"
  PIN_E ""
  PIN_6 ""
  XY_ID ""
  FUNC "L Scale"
  STI "SA ref"
  WPE "WPE ref"
  COMMENT ""
  DIS_MEAS ""
  TypeTCI "10"
END_HEADER

BEGIN_DB
 ICCAP_VAR vg         -1.59          
 ICCAP_VAR vb         3.6            
 ICCAP_VAR vs         -0             

 #vd                    id                    ig                    ib                    is                   
  -0                    3.6e-12               -1.8e-13              6.2e-13               -1.432e-11           
  -0.1                  -8.4636e-09           3.2e-13               4.8e-13               8.4688e-09           
  -0.2                  -9.093e-09            1.4e-13               4.4e-13               9.0972e-09           
  -0.3                  -9.4726e-09           0                     3.8e-13               9.4658e-09           
  -0.4                  -9.7828e-09           2.2e-13               2.2e-13               9.788e-09            
  -0.5                  -1.00818e-08          6e-14                 3.6e-13               1.00736e-08          
  -0.6                  -1.0346e-08           3.8e-13               1.4e-13               1.03558e-08          
  -0.7                  -1.0602e-08           8e-14                 2e-13                 1.0608e-08           
  -0.8                  -1.0848e-08           2e-14                 1.4e-13               1.08622e-08          
  -0.9                  -1.109e-08            -2e-14                1.4e-13               1.11086e-08          
  -1                    -1.1324e-08           1.8e-13               6e-14                 1.13386e-08          
  -1.1                  -1.1564e-08           1.4e-13               2.2e-13               1.1588e-08           
  -1.2                  -1.1798e-08           1.4e-13               1.6e-13               1.1818e-08           
  -1.3                  -1.2022e-08           1.6e-13               1e-13                 1.205e-08            
  -1.4                  -1.222e-08            1.2e-13               2e-14                 1.2246e-08           
  -1.5                  -1.2454e-08           2.2e-13               2e-14                 1.2482e-08           
  -1.6                  -1.2684e-08           0                     -2e-14                1.2704e-08           
  -1.7                  -1.2892e-08           2e-13                 4e-14                 1.292e-08            
  -1.8                  -1.3118e-08           1.8e-13               0                     1.314e-08            
  -1.9                  -1.334e-08            1.2e-13               -4e-14                1.3362e-08           
  -2                    -1.355e-08            3.4e-13               -4e-14                1.3578e-08           
  -2.1                  -1.3774e-08           2e-14                 -2e-14                1.3798e-08           
  -2.2                  -1.3988e-08           -2e-14                2e-14                 1.402e-08            
  -2.3                  -1.4216e-08           2.8e-13               4e-14                 1.4228e-08           
  -2.4                  -1.444e-08            2.6e-13               2e-14                 1.446e-08            
  -2.5                  -1.4666e-08           1.2e-13               1.4e-13               1.4686e-08           
  -2.6                  -1.4892e-08           8e-14                 4e-13                 1.4914e-08           
  -2.7                  -1.5116e-08           -6e-14                7.8e-13               1.5138e-08           
  -2.8                  -1.5354e-08           1.6e-13               1.34e-12              1.5382e-08           
  -2.9                  -1.5586e-08           2.8e-13               2.34e-12              1.5606e-08           
  -3                    -1.5822e-08           1.4e-13               4.08e-12              1.584e-08            
  -3.1                  -1.6058e-08           1.6e-13               6.92e-12              1.6072e-08           
  -3.2                  -1.631e-08            1.2e-13               1.122e-11             1.6314e-08           
  -3.3                  -1.6554e-08           1.8e-13               1.806e-11             1.6564e-08           
  -3.4                  -1.6814e-08           2.6e-13               2.848e-11             1.6804e-08           
  -3.5                  -1.7082e-08           -2e-14                4.416e-11             1.7056e-08           
  -3.6                  -1.7354e-08           6e-14                 6.728e-11             1.7314e-08           
END_DB

BEGIN_DB
 ICCAP_VAR vg         -1.79          
 ICCAP_VAR vb         3.6            
 ICCAP_VAR vs         -0             

 #vd                    id                    ig                    ib                    is                   
  -0                    1.4938e-09            4e-14                 8e-14                 -1.382e-09           
  -0.1                  -1.4286e-06           -6e-14                6e-14                 1.4324e-06           
  -0.2                  -1.6224e-06           6e-14                 6e-14                 1.626e-06            
  -0.3                  -1.6976e-06           1.2e-13               6e-14                 1.7016e-06           
  -0.4                  -1.7524e-06           -4e-14                0                     1.7564e-06           
  -0.5                  -1.7978e-06           -2e-14                -2e-14                1.8014e-06           
  -0.6                  -1.8394e-06           2e-13                 -2e-14                1.8418e-06           
  -0.7                  -1.8762e-06           2e-14                 -6e-14                1.8792e-06           
  -0.8                  -1.9096e-06           4e-14                 -8e-14                1.9142e-06           
  -0.9                  -1.943e-06            1e-13                 2e-14                 1.9458e-06           
  -1                    -1.9718e-06           -8e-14                -6e-14                1.9762e-06           
  -1.1                  -2.003e-06            -1.8e-13              -4e-14                2.006e-06            
  -1.2                  -2.0294e-06           8e-14                 -8e-14                2.0332e-06           
  -1.3                  -2.0568e-06           2.4e-13               -1e-13                2.0608e-06           
  -1.4                  -2.0848e-06           2.8e-13               -1.2e-13              2.0908e-06           
  -1.5                  -2.1122e-06           2e-14                 -4e-14                2.1152e-06           
  -1.6                  -2.1368e-06           4e-14                 -4e-14                2.1416e-06           
  -1.7                  -2.1628e-06           -4e-14                -1e-13                2.1668e-06           
  -1.8                  -2.1896e-06           -2e-14                -1.4e-13              2.1938e-06           
  -1.9                  -2.2154e-06           1.4e-13               -4e-14                2.2188e-06           
  -2                    -2.2398e-06           8e-14                 0                     2.2438e-06           
  -2.1                  -2.2652e-06           2e-14                 2.4e-13               2.2688e-06           
  -2.2                  -2.2896e-06           -2e-13                9.6e-13               2.291e-06            
  -2.3                  -2.3142e-06           -1.6e-13              2.4e-12               2.3182e-06           
  -2.4                  -2.3386e-06           1.2e-13               5.3e-12               2.3414e-06           
  -2.5                  -2.3616e-06           2e-13                 1.118e-11             2.3666e-06           
  -2.6                  -2.3868e-06           1e-13                 2.246e-11             2.3898e-06           
  -2.7                  -2.4094e-06           1.4e-13               4.352e-11             2.4146e-06           
  -2.8                  -2.4326e-06           6e-14                 8.158e-11             2.4368e-06           
  -2.9                  -2.46e-06             -8e-14                1.4814e-10            2.4628e-06           
  -3                    -2.4846e-06           -2.2e-13              2.6216e-10            2.4882e-06           
  -3.1                  -2.5094e-06           1.6e-13               4.5308e-10            2.5138e-06           
  -3.2                  -2.5354e-06           2e-13                 7.6578e-10            2.538e-06            
  -3.3                  -2.5602e-06           -2.8e-13              1.269e-09             2.5624e-06           
  -3.4                  -2.5862e-06           -8e-14                2.0572e-09            2.587e-06            
  -3.5                  -2.6122e-06           2e-13                 3.2774e-09            2.6132e-06           
  -3.6                  -2.6382e-06           2e-14                 5.1242e-09            2.6366e-06           
END_DB

BEGIN_DB
 ICCAP_VAR vg         -1.99          
 ICCAP_VAR vb         3.6            
 ICCAP_VAR vs         -0             

 #vd                    id                    ig                    ib                    is                   
  -0                    9.172e-09             -6e-14                2e-13                 -2.2866e-09          
  -0.1                  -1.223e-05            -1e-13                0                     1.225e-05            
  -0.2                  -1.7562e-05           -3.4e-13              6e-14                 1.7584e-05           
  -0.3                  -1.9458e-05           -2.6e-13              0                     1.9484e-05           
  -0.4                  -2.0288e-05           6e-14                 0                     2.0302e-05           
  -0.5                  -2.0788e-05           2e-13                 -1e-13                2.0802e-05           
  -0.6                  -2.1162e-05           -1.4e-13              4e-14                 2.1184e-05           
  -0.7                  -2.1478e-05           -8e-14                2e-14                 2.1498e-05           
  -0.8                  -2.1748e-05           0                     -1e-13                2.177e-05            
  -0.9                  -2.2008e-05           2e-14                 -8e-14                2.203e-05            
  -1                    -2.2226e-05           -2e-13                -1e-13                2.2252e-05           
  -1.1                  -2.2452e-05           -1e-13                0                     2.247e-05            
  -1.2                  -2.2654e-05           -8e-14                -1.2e-13              2.2676e-05           
  -1.3                  -2.2848e-05           4e-14                 -1e-13                2.2866e-05           
  -1.4                  -2.3036e-05           1e-13                 0                     2.3054e-05           
  -1.5                  -2.3218e-05           2e-14                 -6e-14                2.3232e-05           
  -1.6                  -2.338e-05            -1e-13                -8e-14                2.3402e-05           
  -1.7                  -2.3548e-05           -1e-13                -8e-14                2.3576e-05           
  -1.8                  -2.3722e-05           -2.6e-13              2e-14                 2.3736e-05           
  -1.9                  -2.3872e-05           4e-14                 2e-14                 2.3896e-05           
  -2                    -2.4034e-05           4e-13                 2.2e-13               2.4054e-05           
  -2.1                  -2.4204e-05           0                     9e-13                 2.422e-05            
  -2.2                  -2.436e-05            -1.4e-13              2.64e-12              2.4386e-05           
  -2.3                  -2.4508e-05           0                     6.62e-12              2.4524e-05           
  -2.4                  -2.4656e-05           8e-14                 1.548e-11             2.4682e-05           
  -2.5                  -2.4812e-05           0                     3.466e-11             2.482e-05            
  -2.6                  -2.495e-05            1e-13                 7.414e-11             2.4982e-05           
  -2.7                  -2.5104e-05           2.2e-13               1.5164e-10            2.5122e-05           
  -2.8                  -2.525e-05            0                     2.989e-10             2.528e-05            
  -2.9                  -2.5404e-05           -2.2e-13              5.685e-10             2.5414e-05           
  -3                    -2.5546e-05           -2e-13                1.04896e-09           2.557e-05            
  -3.1                  -2.5702e-05           6e-14                 1.8808e-09            2.5722e-05           
  -3.2                  -2.5838e-05           -4e-14                3.2954e-09            2.5866e-05           
  -3.3                  -2.601e-05            1.8e-13               5.6352e-09            2.6012e-05           
  -3.4                  -2.6144e-05           1.6e-13               9.432e-09             2.6156e-05           
  -3.5                  -2.6302e-05           2e-14                 1.5478e-08            2.6292e-05           
  -3.6                  -2.6444e-05           0                     2.494e-08             2.645e-05            
END_DB

