! VERSION = 6.00
BEGIN_HEADER
 ICCAP_INPUTS
  vg         V  G GROUND SMU2 0.001 LIN        1    0.5        -3.6       83   -0.05     
  vb         V  B GROUND SMU4 0.1 LIN        2    0          3.6        5    0.9       
  vd         V  D GROUND SMU1 0.1 LIN        3    -0.1       -3.3       3    -1.6      
  vs         V  S GROUND SMU3 0.1 CON        -0
 ICCAP_OUTPUTS
  id         I  D GROUND SMU1 B
  ig         I  G GROUND SMU2 B
  ib         I  B GROUND SMU4 B
  is         I  S GROUND SMU3 B
 ICCAP_VALUES
  MASTER_SETUP_TYPE "~dc_idvg~"
  LINVT_VALUE ""
  LISTVT_VALUE ""
  TYPE "-1"
  TEMP "-40.0000 "
  IS_TNOM " 0.00000 "
  MAIN.W "300.0n"
  MAIN.L "10.00u"
  MAIN.AD "102.0f"
  MAIN.AS "102.0f"
  MAIN.PD "1.280u"
  MAIN.PS "1.280u"
  MAIN.NF "1.000"
  MAIN.M "1"
  MAIN.NRD "0.000"
  MAIN.NRS "0.000"
  MAIN.LDRIFT1 "1E-06"
  MAIN.LDRIFT2 "1E-06"
  MAIN.SA "0.000"
  MAIN.SB "0.000"
  MAIN.SD "0.000"
  MAIN.SCA "0.000"
  MAIN.SCB "0.000"
  MAIN.SCC "0.000"
  MAIN.SC "0.000"
  MODULE "S555"
  PIN_D "14"
  PIN_G "7"
  PIN_S "8"
  PIN_B "13"
  PIN_E ""
  PIN_6 ""
  XY_ID ""
  FUNC "Narrow"
  STI "SA ref"
  WPE "WPE ref"
  COMMENT ""
  DIS_MEAS ""
  TypeTCI "10"
END_HEADER

BEGIN_DB
 ICCAP_VAR vb         0              
 ICCAP_VAR vd         -0.1           
 ICCAP_VAR vs         -0             

 #vg                    id                    ig                    ib                    is                   
  0.5                   2.4e-13               9.6e-13               2e-14                 2.6e-13              
  0.45                  1.8e-13               4.6e-13               1.4e-13               2.8e-13              
  0.4                   2e-13                 1.8e-13               1.2e-13               3.2e-13              
  0.35                  2e-13                 2e-14                 6e-14                 0                    
  0.3                   1.8e-13               -4e-14                6e-14                 1.8e-13              
  0.25                  2e-13                 0                     1.4e-13               3e-13                
  0.2                   1.8e-13               0                     1.6e-13               1.4e-13              
  0.15                  2e-13                 -2.8e-13              1.8e-13               1.6e-13              
  0.1                   2.8e-13               -3.2e-13              0                     4.2e-13              
  0.05                  1.8e-13               -2.6e-13              1.2e-13               2.8e-13              
  0                     1.2e-13               -2.6e-13              1e-13                 2.4e-13              
  -0.05                 1.8e-13               -4.2e-13              6e-14                 3e-13                
  -0.1                  1.6e-13               -2.8e-13              1e-13                 2.6e-13              
  -0.15                 1e-13                 -1.8e-13              0                     1.4e-13              
  -0.2                  1.4e-13               -5.8e-13              2e-14                 2.4e-13              
  -0.25                 2.2e-13               -3.6e-13              6e-14                 1.6e-13              
  -0.3                  8e-14                 -3.2e-13              6e-14                 1.4e-13              
  -0.35                 1.2e-13               -4.8e-13              8e-14                 2.4e-13              
  -0.4                  4e-14                 -3.4e-13              4e-14                 2.4e-13              
  -0.45                 -2.6e-13              -5.6e-13              8e-14                 5.8e-13              
  -0.5                  -1.74e-12             -2.6e-13              1e-13                 1.94e-12             
  -0.55                 -9.88e-12             -4.4e-13              6e-14                 1e-11                
  -0.6                  -5.118e-11            -6.8e-13              8e-14                 5.154e-11            
  -0.65                 -2.4654e-10           -4.2e-13              1e-13                 2.4682e-10           
  -0.7                  -9.8458e-10           -5.4e-13              1e-13                 9.8486e-10           
  -0.75                 -3.0098e-09           -3.4e-13              4e-14                 3.0098e-09           
  -0.8                  -7.005e-09            -3.8e-13              1e-13                 7.004e-09            
  -0.85                 -1.3158e-08           -5e-13                1.2e-13               1.3182e-08           
  -0.9                  -2.1032e-08           -4.4e-13              2e-14                 2.1058e-08           
  -0.95                 -3.007e-08            -6e-13                4e-14                 3.0098e-08           
  -1                    -3.9732e-08           -4.8e-13              8e-14                 3.9764e-08           
  -1.05                 -4.9782e-08           -5.8e-13              0                     4.9816e-08           
  -1.1                  -5.9962e-08           -6e-13                8e-14                 5.999e-08            
  -1.15                 -7.0244e-08           -6.4e-13              0                     7.0266e-08           
  -1.2                  -8.0462e-08           -6.4e-13              4e-14                 8.0498e-08           
  -1.25                 -9.07e-08             -5.6e-13              2e-14                 9.0734e-08           
  -1.3                  -1.00868e-07          -6.2e-13              -6e-14                1.00906e-07          
  -1.35                 -1.10896e-07          -6e-13                4e-14                 1.10934e-07          
  -1.4                  -1.2078e-07           -5.8e-13              0                     1.2094e-07           
  -1.45                 -1.3058e-07           -6.8e-13              -2e-14                1.3076e-07           
  -1.5                  -1.4032e-07           -7.2e-13              6e-14                 1.405e-07            
  -1.55                 -1.4986e-07           -7.2e-13              2e-14                 1.5006e-07           
  -1.6                  -1.5932e-07           -6.6e-13              2e-14                 1.5952e-07           
  -1.65                 -1.6862e-07           -6.2e-13              2e-14                 1.688e-07            
  -1.7                  -1.7778e-07           -6.4e-13              4e-14                 1.7796e-07           
  -1.75                 -1.8684e-07           -7e-13                1e-13                 1.8704e-07           
  -1.8                  -1.9574e-07           -6.6e-13              -4e-14                1.9592e-07           
  -1.85                 -2.0448e-07           -6e-13                1.4e-13               2.0466e-07           
  -1.9                  -2.1308e-07           -8e-13                8e-14                 2.1328e-07           
  -1.95                 -2.2158e-07           -5.6e-13              -8e-14                2.2174e-07           
  -2                    -2.2988e-07           -8.2e-13              8e-14                 2.3008e-07           
  -2.05                 -2.3806e-07           -7.8e-13              -8e-14                2.3822e-07           
  -2.1                  -2.4604e-07           -7.8e-13              1.2e-13               2.4626e-07           
  -2.15                 -2.5388e-07           -6.8e-13              1.2e-13               2.541e-07            
  -2.2                  -2.6166e-07           -6e-13                -8e-14                2.6184e-07           
  -2.25                 -2.6926e-07           -6.4e-13              1e-13                 2.6944e-07           
  -2.3                  -2.7676e-07           -7e-13                6e-14                 2.7696e-07           
  -2.35                 -2.841e-07            -7.4e-13              0                     2.8426e-07           
  -2.4                  -2.9128e-07           -7.8e-13              8e-14                 2.9146e-07           
  -2.45                 -2.9826e-07           -7.8e-13              0                     2.985e-07            
  -2.5                  -3.0526e-07           -9e-13                2e-14                 3.0544e-07           
  -2.55                 -3.1204e-07           -8.6e-13              2e-14                 3.1222e-07           
  -2.6                  -3.1872e-07           -8.2e-13              4e-14                 3.189e-07            
  -2.65                 -3.252e-07            -9.6e-13              -6e-14                3.2546e-07           
  -2.7                  -3.3162e-07           -7.6e-13              8e-14                 3.3178e-07           
  -2.75                 -3.3786e-07           -7.8e-13              -2e-14                3.3808e-07           
  -2.8                  -3.4402e-07           -9e-13                8e-14                 3.442e-07            
  -2.85                 -3.5e-07              -8e-13                -4e-14                3.5022e-07           
  -2.9                  -3.5594e-07           -8.6e-13              0                     3.5606e-07           
  -2.95                 -3.6166e-07           -9.2e-13              4e-14                 3.6184e-07           
  -3                    -3.6734e-07           -7.2e-13              1e-13                 3.675e-07            
  -3.05                 -3.729e-07            -9.6e-13              0                     3.7312e-07           
  -3.1                  -3.7838e-07           -8.8e-13              8e-14                 3.7852e-07           
  -3.15                 -3.8364e-07           -8.6e-13              8e-14                 3.8382e-07           
  -3.2                  -3.8878e-07           -8.6e-13              0                     3.8896e-07           
  -3.25                 -3.9394e-07           -7.4e-13              8e-14                 3.9412e-07           
  -3.3                  -3.9892e-07           -9.6e-13              -4e-14                3.991e-07            
  -3.35                 -4.0382e-07           -6.6e-13              4e-14                 4.0406e-07           
  -3.4                  -4.0858e-07           -7.2e-13              2e-14                 4.0878e-07           
  -3.45                 -4.1326e-07           -7.6e-13              2e-14                 4.1348e-07           
  -3.5                  -4.1792e-07           -7.4e-13              2e-14                 4.181e-07            
  -3.55                 -4.2244e-07           -8.2e-13              4e-14                 4.2264e-07           
  -3.6                  -4.2686e-07           -7.6e-13              4e-14                 4.2712e-07           
END_DB

BEGIN_DB
 ICCAP_VAR vb         0.9            
 ICCAP_VAR vd         -0.1           
 ICCAP_VAR vs         -0             

 #vg                    id                    ig                    ib                    is                   
  0.5                   2.2e-13               8.4e-13               4.2e-13               1.6e-13              
  0.45                  1.2e-13               5.4e-13               4e-13                 0                    
  0.4                   2.4e-13               1.2e-13               3.4e-13               2.2e-13              
  0.35                  1.6e-13               4e-13                 2e-13                 1.6e-13              
  0.3                   8e-14                 1.8e-13               2.6e-13               -4e-14               
  0.25                  4e-14                 6e-14                 2.6e-13               3e-13                
  0.2                   8e-14                 6e-14                 3e-13                 2e-13                
  0.15                  1.2e-13               1.4e-13               2.8e-13               2e-14                
  0.1                   0                     -1.4e-13              2.2e-13               1.4e-13              
  0.05                  1e-13                 2e-14                 1.8e-13               6e-14                
  0                     1e-13                 8e-14                 1.8e-13               -1.2e-13             
  -0.05                 1e-13                 -2.2e-13              1.6e-13               -6e-14               
  -0.1                  4e-14                 -1e-13                2e-13                 -8e-14               
  -0.15                 4e-14                 -1.8e-13              1.6e-13               -1e-13               
  -0.2                  1e-13                 -2.8e-13              1.4e-13               2.8e-13              
  -0.25                 1.2e-13               -1.8e-13              1.4e-13               1.4e-13              
  -0.3                  4e-14                 -2.6e-13              1.6e-13               3.4e-13              
  -0.35                 2e-14                 -2.6e-13              1.4e-13               2.6e-13              
  -0.4                  4e-14                 -2.6e-13              1.8e-13               3.2e-13              
  -0.45                 4e-14                 -2.8e-13              1e-13                 1.8e-13              
  -0.5                  6e-14                 -2.2e-13              1.6e-13               8e-14                
  -0.55                 1e-13                 -4.8e-13              8e-14                 6e-14                
  -0.6                  2e-14                 -4.2e-13              8e-14                 4e-14                
  -0.65                 4e-14                 -3.4e-13              6e-14                 1.4e-13              
  -0.7                  1e-13                 -4.6e-13              1.2e-13               1.2e-13              
  -0.75                 4e-14                 -4.2e-13              8e-14                 1.4e-13              
  -0.8                  0                     -4e-13                4e-14                 1.4e-13              
  -0.85                 -6.2e-13              -4.4e-13              6e-14                 7.2e-13              
  -0.9                  -3.6e-12              -4e-13                1.2e-13               4e-12                
  -0.95                 -2.25e-11             -3.6e-13              1e-13                 2.272e-11            
  -1                    -1.2676e-10           -5.8e-13              4e-14                 1.2688e-10           
  -1.05                 -5.8934e-10           -6e-13                6e-14                 5.8952e-10           
  -1.1                  -2.0016e-09           -2.2e-13              1.2e-13               2.0026e-09           
  -1.15                 -5.0102e-09           -5.2e-13              8e-14                 5.0104e-09           
  -1.2                  -9.795e-09            -5.8e-13              1.6e-13               9.793e-09            
  -1.25                 -1.6064e-08           -6.8e-13              -6e-14                1.609e-08            
  -1.3                  -2.3344e-08           -5.6e-13              1.4e-13               2.3372e-08           
  -1.35                 -3.1198e-08           -5.2e-13              6e-14                 3.1228e-08           
  -1.4                  -3.9438e-08           -5.4e-13              -4e-14                3.947e-08            
  -1.45                 -4.7846e-08           -5.6e-13              1e-13                 4.787e-08            
  -1.5                  -5.638e-08            -5.6e-13              6e-14                 5.642e-08            
  -1.55                 -6.4944e-08           -6.8e-13              6e-14                 6.4972e-08           
  -1.6                  -7.355e-08            -6.2e-13              0                     7.3586e-08           
  -1.65                 -8.2116e-08           -6.2e-13              1e-13                 8.2146e-08           
  -1.7                  -9.0628e-08           -6.6e-13              8e-14                 9.0666e-08           
  -1.75                 -9.9122e-08           -5.8e-13              -4e-14                9.9158e-08           
  -1.8                  -1.07514e-07          -6.4e-13              1.2e-13               1.07552e-07          
  -1.85                 -1.1578e-07           -6.8e-13              8e-14                 1.1594e-07           
  -1.9                  -1.2402e-07           -5.6e-13              2e-14                 1.2418e-07           
  -1.95                 -1.3218e-07           -6.2e-13              0                     1.3236e-07           
  -2                    -1.4026e-07           -7.4e-13              0                     1.4042e-07           
  -2.05                 -1.4824e-07           -6.2e-13              4e-14                 1.484e-07            
  -2.1                  -1.5612e-07           -6.6e-13              8e-14                 1.563e-07            
  -2.15                 -1.639e-07            -7.4e-13              2e-14                 1.641e-07            
  -2.2                  -1.7158e-07           -8e-13                1e-13                 1.7176e-07           
  -2.25                 -1.792e-07            -5.6e-13              4e-14                 1.7936e-07           
  -2.3                  -1.867e-07            -7.6e-13              0                     1.8686e-07           
  -2.35                 -1.9406e-07           -7.8e-13              1e-13                 1.9424e-07           
  -2.4                  -2.0138e-07           -6.4e-13              0                     2.0156e-07           
  -2.45                 -2.0852e-07           -7.6e-13              0                     2.0868e-07           
  -2.5                  -2.1562e-07           -7.2e-13              -4e-14                2.1576e-07           
  -2.55                 -2.2254e-07           -6.6e-13              2e-14                 2.2272e-07           
  -2.6                  -2.2942e-07           -7e-13                8e-14                 2.296e-07            
  -2.65                 -2.3616e-07           -7.4e-13              2e-14                 2.3636e-07           
  -2.7                  -2.428e-07            -6.2e-13              4e-14                 2.4304e-07           
  -2.75                 -2.494e-07            -8.4e-13              2e-14                 2.4958e-07           
  -2.8                  -2.5586e-07           -7.2e-13              2e-14                 2.5604e-07           
  -2.85                 -2.6222e-07           -8.6e-13              -2e-14                2.6244e-07           
  -2.9                  -2.6848e-07           -7.6e-13              -8e-14                2.6868e-07           
  -2.95                 -2.746e-07            -7.2e-13              8e-14                 2.7482e-07           
  -3                    -2.807e-07            -9.4e-13              4e-14                 2.809e-07            
  -3.05                 -2.8664e-07           -8.2e-13              -8e-14                2.8684e-07           
  -3.1                  -2.9246e-07           -7.8e-13              6e-14                 2.927e-07            
  -3.15                 -2.9822e-07           -7.8e-13              -8e-14                2.984e-07            
  -3.2                  -3.0384e-07           -7.4e-13              2e-14                 3.0398e-07           
  -3.25                 -3.0926e-07           -8.8e-13              0                     3.0954e-07           
  -3.3                  -3.1474e-07           -7.4e-13              4e-14                 3.1498e-07           
  -3.35                 -3.201e-07            -8e-13                4e-14                 3.2032e-07           
  -3.4                  -3.2534e-07           -8.4e-13              2e-14                 3.2554e-07           
  -3.45                 -3.304e-07            -8e-13                2e-14                 3.306e-07            
