! VERSION = 6.00
BEGIN_HEADER
 ICCAP_INPUTS
  vd         V  D GROUND SMU1 0.1 LIN        1    -0         -3.6       37   -0.1      
  vg         V  G GROUND SMU2 0.001 LIN        2    -0.68      -3.6       5    -0.73     
  vb         V  B GROUND SMU4 0.1 CON        -0
  vs         V  S GROUND SMU3 0.1 CON        -0
 ICCAP_OUTPUTS
  id         I  D GROUND SMU1 B
  ig         I  G GROUND SMU2 B
  ib         I  B GROUND SMU4 B
  is         I  S GROUND SMU3 B
 ICCAP_VALUES
  MASTER_SETUP_TYPE "~dc_idvd~"
  LINVT_VALUE "|idvg|100.0n|100.0m|1.000m|5|3.600|"
  LISTVT_VALUE ""
  TYPE "-1"
  TEMP " 27.0000 "
  IS_TNOM " 1.00000 "
  MAIN.W "10.00u"
  MAIN.L "300.0n"
  MAIN.AD "3.400p"
  MAIN.AS "3.400p"
  MAIN.PD "20.68u"
  MAIN.PS "20.68u"
  MAIN.NF "1.000"
  MAIN.M "1"
  MAIN.NRD "0.000"
  MAIN.NRS "0.000"
  MAIN.LDRIFT1 "1E-06"
  MAIN.LDRIFT2 "1E-06"
  MAIN.SA "0.000"
  MAIN.SB "0.000"
  MAIN.SD "0.000"
  MAIN.SCA "0.000"
  MAIN.SCB "0.000"
  MAIN.SCC "0.000"
  MAIN.SC "0.000"
  MODULE "S561"
  PIN_D "20"
  PIN_G "1"
  PIN_S "2"
  PIN_B "19"
  PIN_E ""
  PIN_6 ""
  XY_ID ""
  FUNC "Additional"
  STI "SA ref"
  WPE "WPE ref"
  COMMENT ""
  DIS_MEAS ""
  TypeTCI "10"
END_HEADER

BEGIN_DB
 ICCAP_VAR vg         -0.68          
 ICCAP_VAR vb         -0             
 ICCAP_VAR vs         -0             

 #vd                    id                    ig                    ib                    is                   
  -0                    2.0184e-09            8e-14                 -9.8e-13              -4.8946e-09          
  -0.1                  -8.861e-06            2e-14                 -8e-13                8.862e-06            
  -0.2                  -1.07164e-05          -4e-14                -8.4e-13              1.07192e-05          
  -0.3                  -1.1508e-05           6e-14                 -7.2e-13              1.1524e-05           
  -0.4                  -1.2076e-05           2e-14                 -7.2e-13              1.2102e-05           
  -0.5                  -1.2558e-05           8e-14                 -7e-13                1.2578e-05           
  -0.6                  -1.2976e-05           2e-14                 -5.8e-13              1.2994e-05           
  -0.7                  -1.3364e-05           -2e-14                -4.8e-13              1.3384e-05           
  -0.8                  -1.3732e-05           2e-14                 -5.2e-13              1.375e-05            
  -0.9                  -1.4076e-05           1.8e-13               -5.6e-13              1.4094e-05           
  -1                    -1.4408e-05           2e-14                 -6.4e-13              1.4436e-05           
  -1.1                  -1.4732e-05           6e-14                 -5.8e-13              1.4742e-05           
  -1.2                  -1.5048e-05           -8e-14                -5.8e-13              1.5068e-05           
  -1.3                  -1.5348e-05           0                     -5.8e-13              1.538e-05            
  -1.4                  -1.5664e-05           4e-14                 -5e-13                1.5684e-05           
  -1.5                  -1.5966e-05           4e-14                 -1.6e-13              1.5988e-05           
  -1.6                  -1.6266e-05           -2e-14                5e-13                 1.6288e-05           
  -1.7                  -1.657e-05            0                     2.42e-12              1.6588e-05           
  -1.8                  -1.6866e-05           4e-14                 7.28e-12              1.6886e-05           
  -1.9                  -1.719e-05            -6e-14                1.784e-11             1.7214e-05           
  -2                    -1.7474e-05           -1e-13                3.958e-11             1.7492e-05           
  -2.1                  -1.777e-05            -2e-14                8.284e-11             1.7794e-05           
  -2.2                  -1.8074e-05           -4e-14                1.6374e-10            1.81e-05             
  -2.3                  -1.8382e-05           -1.6e-13              3.0952e-10            1.8406e-05           
  -2.4                  -1.8684e-05           -6e-14                5.6306e-10            1.8724e-05           
  -2.5                  -1.9008e-05           -1e-13                9.9358e-10            1.9032e-05           
  -2.6                  -1.9322e-05           4e-14                 1.7034e-09            1.9318e-05           
  -2.7                  -1.9626e-05           -2e-14                2.86e-09              1.965e-05            
  -2.8                  -1.9954e-05           0                     4.6824e-09            1.9976e-05           
  -2.9                  -2.0272e-05           -6e-14                7.4952e-09            2.027e-05            
  -3                    -2.046e-05            -1.4e-13              1.1782e-08            2.0648e-05           
  -3.1                  -2.0964e-05           -1.6e-13              1.8132e-08            2.0982e-05           
  -3.2                  -2.1316e-05           -1.6e-13              2.743e-08             2.132e-05            
  -3.3                  -2.1678e-05           -4e-14                4.0712e-08            2.1694e-05           
  -3.4                  -2.2082e-05           -8e-14                5.9502e-08            2.2066e-05           
  -3.5                  -2.252e-05            -1.2e-13              8.5826e-08            2.2526e-05           
  -3.6                  -2.3086e-05           -6e-14                1.221e-07             2.3044e-05           
END_DB

BEGIN_DB
 ICCAP_VAR vg         -1.41          
 ICCAP_VAR vb         -0             
 ICCAP_VAR vs         -0             

 #vd                    id                    ig                    ib                    is                   
  -0                    7.66e-08              -2e-13                -2.6e-13              -6.746e-08           
  -0.1                  -0.0001199            -1.2e-13              -3e-13                0.00012028           
  -0.2                  -0.00022006           -2.4e-13              -2.4e-13              0.00022044           
  -0.3                  -0.00029936           -1.6e-13              -1.2e-13              0.00029972           
  -0.4                  -0.00035834           -1.2e-13              -2.6e-13              0.00035864           
  -0.5                  -0.00039972           -1.8e-13              -1.6e-13              0.0004001            
  -0.6                  -0.00042756           -2.6e-13              -1.6e-13              0.00042794           
  -0.7                  -0.00044638           -2e-13                -2.6e-13              0.00044676           
  -0.8                  -0.00045976           -1e-13                -3.2e-13              0.0004601            
  -0.9                  -0.00046998           -2.2e-13              -1.8e-13              0.00047034           
  -1                    -0.00047822           -1.6e-13              -1.2e-13              0.00047858           
  -1.1                  -0.00048516           -2.2e-13              -2e-13                0.00048552           
  -1.2                  -0.00049132           -2.6e-13              -6e-14                0.00049166           
  -1.3                  -0.00049682           -1.8e-13              -3.2e-13              0.00049726           
  -1.4                  -0.00050188           -1.4e-13              -3.6e-13              0.00050222           
  -1.5                  -0.00050648           -2.2e-13              -2.2e-13              0.0005068            
  -1.6                  -0.00051078           -1.8e-13              1e-13                 0.00051114           
  -1.7                  -0.00051488           -1.6e-13              4e-13                 0.00051526           
  -1.8                  -0.00051872           -1.4e-13              1.96e-12              0.0005191            
  -1.9                  -0.00052242           -1.6e-13              7.02e-12              0.00052276           
  -2                    -0.00052598           -1.6e-13              2.18e-11              0.00052634           
  -2.1                  -0.00052942           -1e-13                6.048e-11             0.00052984           
  -2.2                  -0.00053288           -2.2e-13              1.5366e-10            0.00053318           
  -2.3                  -0.00053618           -1.8e-13              3.6066e-10            0.00053652           
  -2.4                  -0.0005394            -2e-13                7.905e-10             0.00053976           
  -2.5                  -0.00054274           -2e-13                1.641e-09             0.00054302           
  -2.6                  -0.00054578           -8e-14                3.2382e-09            0.00054616           
  -2.7                  -0.0005489            -1.4e-13              6.1362e-09            0.00054936           
  -2.8                  -0.00055216           -2.2e-13              1.12262e-08           0.00055256           
  -2.9                  -0.00055536           -8e-14                1.9908e-08            0.00055566           
  -3                    -0.0005584            -1.8e-13              3.433e-08             0.00055874           
  -3.1                  -0.00056152           -1.8e-13              5.77e-08              0.00056184           
  -3.2                  -0.00056466           -1.8e-13              9.4906e-08            0.00056496           
  -3.3                  -0.00056794           -3.8e-13              1.528e-07             0.00056812           
  -3.4                  -0.00057106           -3.2e-13              2.4086e-07            0.0005713            
  -3.5                  -0.00057434           -3e-13                3.7232e-07            0.00057448           
  -3.6                  -0.00057786           -1.8e-13              5.6432e-07            0.00057792           
END_DB

BEGIN_DB
 ICCAP_VAR vg         -2.14          
 ICCAP_VAR vb         -0             
 ICCAP_VAR vs         -0             

 #vd                    id                    ig                    ib                    is                   
  -0                    1.1238e-07            -4e-13                -2e-13                -9.8226e-08          
  -0.1                  -0.00019554           -2.8e-13              -1.2e-13              0.00019592           
  -0.2                  -0.00037608           -3.8e-13              -4e-14                0.00037646           
  -0.3                  -0.0005396            -3.2e-13              -1.4e-13              0.00053996           
  -0.4                  -0.00068486           -1.4e-13              -2.4e-13              0.00068526           
  -0.5                  -0.0008122            -2.4e-13              -1.4e-13              0.00081252           
  -0.6                  -0.00092142           -3e-13                -1.4e-13              0.00092188           
  -0.7                  -0.0010133            -2.8e-13              -1.6e-13              0.00101366           
  -0.8                  -0.0010891            -3e-13                -1.6e-13              0.00108956           
  -0.9                  -0.00115              -2.2e-13              -1.2e-13              0.0011518            
  -1                    -0.001199             -3.4e-13              -1.4e-13              0.001201             
  -1.1                  -0.0012386            -3e-13                -2.2e-13              0.0012404            
  -1.2                  -0.00127              -2.2e-13              -1.8e-13              0.0012722            
  -1.3                  -0.0012958            -2.4e-13              -1e-13                0.001298             
  -1.4                  -0.001317             -2.2e-13              -1.6e-13              0.001319             
  -1.5                  -0.001335             -2.4e-13              -2e-14                0.001337             
  -1.6                  -0.0013504            -2.6e-13              -1.2e-13              0.0013526            
  -1.7                  -0.0013642            -2.4e-13              -1e-13                0.0013664            
  -1.8                  -0.0013764            -2.8e-13              -4e-14                0.0013784            
  -1.9                  -0.0013872            -2.4e-13              2.2e-13               0.001389             
  -2                    -0.001397             -1.8e-13              1.14e-12              0.0013992            
  -2.1                  -0.0014062            -2.2e-13              4.62e-12              0.0014082            
  -2.2                  -0.0014146            -2.6e-13              1.4e-11               0.0014166            
  -2.3                  -0.0014226            -2.4e-13              3.952e-11             0.0014246            
  -2.4                  -0.0014302            -2.6e-13              1.0278e-10            0.0014324            
  -2.5                  -0.0014378            -8e-14                2.5026e-10            0.0014398            
  -2.6                  -0.0014448            -2e-13                5.704e-10             0.0014468            
  -2.7                  -0.0014516            -1.8e-13              1.2342e-09            0.0014536            
  -2.8                  -0.0014578            -2.2e-13              2.5374e-09            0.00146              
  -2.9                  -0.0014644            -2e-13                5.0048e-09            0.0014662            
  -3                    -0.0014704            -1.8e-13              9.5186e-09            0.0014724            
  -3.1                  -0.0014768            -1.8e-13              1.7486e-08            0.0014788            
  -3.2                  -0.0014828            -4e-13                3.1226e-08            0.0014848            
  -3.3                  -0.0014886            -1.8e-13              5.4306e-08            0.0014906            
  -3.4                  -0.0014946            -2.6e-13              9.2264e-08            0.0014964            
  -3.5                  -0.0015006            -4.6e-13              1.534e-07             0.0015024            
  -3.6                  -0.0015062            -3.6e-13              2.495e-07             0.001508             
END_DB

BEGIN_DB
 ICCAP_VAR vg         -2.87          
 ICCAP_VAR vb         -0             
 ICCAP_VAR vs         -0             

 #vd                    id                    ig                    ib                    is                   
  -0                    1.3214e-07            -3.6e-13              -1.4e-13              -1.14446e-07         
  -0.1                  -0.00024928           -3e-13                -1.8e-13              0.00024964           
  -0.2                  -0.00048646           -3e-13                -2e-14                0.00048678           
  -0.3                  -0.00070934           -3.2e-13              0                     0.00070974           
  -0.4                  -0.00091636           -2e-13                -4e-14                0.00091668           
  -0.5                  -0.00110774           -2.8e-13              -2e-14                0.00110828           
  -0.6                  -0.001282             -3.2e-13              -1.2e-13              0.0012838            
  -0.7                  -0.0014398            -2.2e-13              0                     0.0014418            
  -0.8                  -0.001582             -3e-13                -8e-14                0.001584             
  -0.9                  -0.0017084            -2.8e-13              -2e-14                0.0017104            
  -1                    -0.0018194            -3.4e-13              -8e-14                0.0018214            
  -1.1                  -0.001917             -3e-13                -1e-13                0.0019188            
  -1.2                  -0.0020014            -3e-13                -6e-14                0.0020036            
  -1.3                  -0.0020746            -3e-13                -4e-14                0.0020766            
  -1.4                  -0.0021374            -2e-13                -4e-14                0.0021394            
  -1.5                  -0.0021912            -2.4e-13              0                     0.0021932            
  -1.6                  -0.002237             -2.4e-13              8e-14                 0.002239             
  -1.7                  -0.0022768            -2.8e-13              2e-14                 0.0022788            
  -1.8                  -0.0023108            -3.2e-13              -1.4e-13              0.0023128            
  -1.9                  -0.0023406            -3.4e-13              -1.4e-13              0.0023426            
  -2                    -0.0023664            -2.2e-13              -6e-14                0.002369             
  -2.1                  -0.0023898            -2.6e-13              2.8e-13               0.0023916            
  -2.2                  -0.00241              -2.4e-13              9e-13                 0.0024118            
  -2.3                  -0.0024278            -2.4e-13              3.46e-12              0.0024298            
  -2.4                  -0.0024442            -3.2e-13              1.02e-11              0.0024464            
  -2.5                  -0.0024594            -3.4e-13              2.806e-11             0.0024612            
  -2.6                  -0.0024728            -2.8e-13              7.284e-11             0.0024744            
  -2.7                  -0.0024854            -1.6e-13              1.7626e-10            0.0024876            
  -2.8                  -0.0024972            -2.2e-13              4.0164e-10            0.0024994            
  -2.9                  -0.0025086            -3e-13                8.698e-10             0.0025104            
  -3                    -0.0025192            -2.8e-13              1.7966e-09            0.0025208            
  -3.1                  -0.0025288            -2e-13                3.5624e-09            0.0025308            
  -3.2                  -0.0025388            -2.4e-13              6.824e-09             0.0025408            
  -3.3                  -0.002548             -2.4e-13              1.266e-08             0.00255              
  -3.4                  -0.002557             -1.6e-13              2.2846e-08            0.0025592            
  -3.5                  -0.0025656            -1.8e-13              4.0172e-08            0.0025674            
  -3.6                  -0.0025742            -1.8e-13              6.9114e-08            0.0025762            
END_DB

BEGIN_DB
 ICCAP_VAR vg         -3.6           
 ICCAP_VAR vb         -0             
 ICCAP_VAR vs         -0             

 #vd                    id                    ig                    ib                    is                   
  -0                    1.472e-07             -4e-13                -4e-14                -1.2908e-07          
  -0.1                  -0.0002892            -4e-13                -6e-14                0.00028956           
  -0.2                  -0.00056834           -2.4e-13              -4e-14                0.00056868           
  -0.3                  -0.00083518           -2.8e-13              0                     0.00083562           
  -0.4                  -0.00108824           -3e-13                -4e-14                0.00108866           
  -0.5                  -0.0013268            -3.6e-13              -1.4e-13              0.0013286            
  -0.6                  -0.0015512            -2.6e-13              -2e-13                0.0015532            
  -0.7                  -0.00176              -3.2e-13              -2e-14                0.0017622            
  -0.8                  -0.0019544            -3e-13                0                     0.0019564            
