! VERSION = 6.00
BEGIN_HEADER
 ICCAP_INPUTS
  vg         V  G GROUND SMU2 0.001 LIN        1    0.5        -3.6       83   -0.05     
  vb         V  B GROUND SMU4 0.1 LIN        2    0          3.6        5    0.9       
  vd         V  D GROUND SMU1 0.1 LIN        3    -0.1       -3.3       3    -1.6      
  vs         V  S GROUND SMU3 0.1 CON        -0
 ICCAP_OUTPUTS
  id         I  D GROUND SMU1 B
  ig         I  G GROUND SMU2 B
  ib         I  B GROUND SMU4 B
  is         I  S GROUND SMU3 B
 ICCAP_VALUES
  MASTER_SETUP_TYPE "~dc_idvg~"
  LINVT_VALUE ""
  LISTVT_VALUE ""
  TYPE "-1"
  TEMP " 27.0000 "
  IS_TNOM " 1.00000 "
  MAIN.W "10.00u"
  MAIN.L "3.000u"
  MAIN.AD "3.400p"
  MAIN.AS "3.400p"
  MAIN.PD "20.68u"
  MAIN.PS "20.68u"
  MAIN.NF "1.000"
  MAIN.M "1"
  MAIN.NRD "0.000"
  MAIN.NRS "0.000"
  MAIN.LDRIFT1 "1E-06"
  MAIN.LDRIFT2 "1E-06"
  MAIN.SA "0.000"
  MAIN.SB "0.000"
  MAIN.SD "0.000"
  MAIN.SCA "0.000"
  MAIN.SCB "0.000"
  MAIN.SCC "0.000"
  MAIN.SC "0.000"
  MODULE "S562"
  PIN_D "20"
  PIN_G "1"
  PIN_S "2"
  PIN_B "19"
  PIN_E ""
  PIN_6 ""
  XY_ID ""
  FUNC "L Scale"
  STI "SA ref"
  WPE "WPE ref"
  COMMENT ""
  DIS_MEAS ""
  TypeTCI "10"
END_HEADER

BEGIN_DB
 ICCAP_VAR vb         0              
 ICCAP_VAR vd         -0.1           
 ICCAP_VAR vs         -0             

 #vg                    id                    ig                    ib                    is                   
  0.5                   0                     1.86e-11              -4.78e-12             1e-13                
  0.45                  6e-14                 2.9e-12               -8.4e-13              1.8e-13              
  0.4                   -4e-14                5e-13                 -2.4e-13              1.2e-13              
  0.35                  0                     -8e-14                0                     1e-13                
  0.3                   -4e-14                -2.2e-13              -4e-14                2.2e-13              
  0.25                  -2e-14                -2e-13                0                     1e-13                
  0.2                   0                     -2.6e-13              0                     1.4e-13              
  0.15                  0                     -3.2e-13              2e-14                 1.2e-13              
  0.1                   0                     -4e-13                6e-14                 2e-14                
  0.05                  2e-14                 -3e-13                -1e-13                2e-13                
  0                     -8e-14                -3.4e-13              6e-14                 1.2e-13              
  -0.05                 -1.8e-13              -3.4e-13              -1.4e-13              1e-13                
  -0.1                  -1.8e-13              -4.4e-13              -2e-14                2.8e-13              
  -0.15                 -8.2e-13              -4.6e-13              -1e-13                8.8e-13              
  -0.2                  -2.64e-12             -5.6e-13              2e-14                 2.74e-12             
  -0.25                 -8.88e-12             -4.2e-13              -6e-14                9.06e-12             
  -0.3                  -3.054e-11            -5e-13                -2e-14                3.072e-11            
  -0.35                 -1.065e-10            -5.2e-13              -4e-14                1.0642e-10           
  -0.4                  -3.7092e-10           -5.2e-13              -6e-14                3.7104e-10           
  -0.45                 -1.302e-09            -3.8e-13              2e-14                 1.3036e-09           
  -0.5                  -4.5692e-09           -4.8e-13              -1.2e-13              4.5696e-09           
  -0.55                 -1.574e-08            -4e-13                -8e-14                1.5762e-08           
  -0.6                  -5.0408e-08           -5.8e-13              -1.4e-13              5.044e-08            
  -0.65                 -1.4106e-07           -5.6e-13              -2e-13                1.4126e-07           
  -0.7                  -3.3112e-07           -5.4e-13              -6e-14                3.3134e-07           
  -0.75                 -6.5234e-07           -5.4e-13              -8e-14                6.5262e-07           
  -0.8                  -1.10068e-06          -5.6e-13              -1.6e-13              1.10094e-06          
  -0.85                 -1.6484e-06           -4.4e-13              -1e-13                1.6522e-06           
  -0.9                  -2.259e-06            -4.6e-13              -6e-14                2.2626e-06           
  -0.95                 -2.9068e-06           -5.8e-13              -6e-14                2.9108e-06           
  -1                    -3.5692e-06           -6.6e-13              -1e-13                3.5728e-06           
  -1.05                 -4.2392e-06           -6.4e-13              -2e-14                4.243e-06            
  -1.1                  -4.9062e-06           -5.4e-13              -6e-14                4.91e-06             
  -1.15                 -5.5708e-06           -6.8e-13              -6e-14                5.5744e-06           
  -1.2                  -6.2256e-06           -6.6e-13              4e-14                 6.2292e-06           
  -1.25                 -6.8748e-06           -6.6e-13              -2e-14                6.8784e-06           
  -1.3                  -7.5146e-06           -6e-13                -1e-13                7.518e-06            
  -1.35                 -8.1418e-06           -6.8e-13              -6e-14                8.1454e-06           
  -1.4                  -8.7618e-06           -6.4e-13              -2e-14                8.7654e-06           
  -1.45                 -9.3694e-06           -5.6e-13              -2e-14                9.3728e-06           
  -1.5                  -9.969e-06            -7.8e-13              0                     9.9724e-06           
  -1.55                 -1.05566e-05          -7e-13                -8e-14                1.05594e-05          
  -1.6                  -1.11368e-05          -6.6e-13              -6e-14                1.11404e-05          
  -1.65                 -1.1696e-05           -5.8e-13              -1.6e-13              1.1716e-05           
  -1.7                  -1.2254e-05           -6.2e-13              -2e-14                1.2276e-05           
  -1.75                 -1.2806e-05           -6.8e-13              -1.2e-13              1.2826e-05           
  -1.8                  -1.3348e-05           -6.4e-13              -2e-14                1.3368e-05           
  -1.85                 -1.388e-05            -7e-13                -1e-13                1.3898e-05           
  -1.9                  -1.4402e-05           -6.2e-13              0                     1.4422e-05           
  -1.95                 -1.4916e-05           -6.8e-13              -1.4e-13              1.4936e-05           
  -2                    -1.5422e-05           -7.8e-13              4e-14                 1.5442e-05           
  -2.05                 -1.5918e-05           -7.4e-13              -6e-14                1.5938e-05           
  -2.1                  -1.6408e-05           -7e-13                -1e-13                1.6428e-05           
  -2.15                 -1.6888e-05           -7.4e-13              -1e-13                1.6908e-05           
  -2.2                  -1.736e-05            -7.2e-13              -4e-14                1.738e-05            
  -2.25                 -1.7824e-05           -7.8e-13              -1.2e-13              1.7844e-05           
  -2.3                  -1.8282e-05           -7.4e-13              4e-14                 1.8302e-05           
  -2.35                 -1.8732e-05           -7.4e-13              -1e-13                1.875e-05            
  -2.4                  -1.9174e-05           -7.4e-13              -8e-14                1.9194e-05           
  -2.45                 -1.9606e-05           -7.4e-13              -1e-13                1.9628e-05           
  -2.5                  -2.0036e-05           -7.6e-13              -6e-14                2.0054e-05           
  -2.55                 -2.0454e-05           -7.8e-13              -1.4e-13              2.0474e-05           
  -2.6                  -2.087e-05            -8.2e-13              -1.6e-13              2.0888e-05           
  -2.65                 -2.1276e-05           -7.6e-13              -1.4e-13              2.1296e-05           
  -2.7                  -2.1676e-05           -8e-13                -1.4e-13              2.1696e-05           
  -2.75                 -2.207e-05            -8e-13                -4e-14                2.209e-05            
  -2.8                  -2.2456e-05           -8.2e-13              -1e-13                2.2476e-05           
  -2.85                 -2.2838e-05           -8.4e-13              -1.6e-13              2.2858e-05           
  -2.9                  -2.3212e-05           -6e-13                -4e-14                2.3232e-05           
  -2.95                 -2.358e-05            -7.6e-13              -1e-13                2.36e-05             
  -3                    -2.3944e-05           -8.8e-13              0                     2.3962e-05           
  -3.05                 -2.43e-05             -7.2e-13              -1e-13                2.432e-05            
  -3.1                  -2.465e-05            -7.8e-13              0                     2.4668e-05           
  -3.15                 -2.4996e-05           -7.8e-13              0                     2.5014e-05           
  -3.2                  -2.5334e-05           -8.4e-13              2e-14                 2.5354e-05           
  -3.25                 -2.5668e-05           -8.2e-13              -1e-13                2.5688e-05           
  -3.3                  -2.5998e-05           -8.4e-13              -1e-13                2.6016e-05           
  -3.35                 -2.6322e-05           -8.2e-13              6e-14                 2.6342e-05           
  -3.4                  -2.664e-05            -7.4e-13              -1.2e-13              2.666e-05            
  -3.45                 -2.6952e-05           -7.6e-13              -4e-14                2.6972e-05           
  -3.5                  -2.726e-05            -8.8e-13              4e-14                 2.728e-05            
  -3.55                 -2.7562e-05           -8.4e-13              -3e-13                2.7582e-05           
  -3.6                  -2.786e-05            -7.8e-13              0                     2.788e-05            
END_DB

BEGIN_DB
 ICCAP_VAR vb         0.9            
 ICCAP_VAR vd         -0.1           
 ICCAP_VAR vs         -0             

 #vg                    id                    ig                    ib                    is                   
  0.5                   2.2e-13               7.2e-13               3.6e-13               1.2e-13              
  0.45                  1.6e-13               3e-13                 3.2e-13               1e-13                
  0.4                   1.2e-13               3e-13                 3.2e-13               1.2e-13              
  0.35                  0                     1.4e-13               2.8e-13               6e-14                
  0.3                   1e-13                 0                     3.2e-13               1.8e-13              
  0.25                  2e-14                 4e-14                 2.8e-13               0                    
  0.2                   8e-14                 -6e-14                2e-13                 1.2e-13              
  0.15                  2e-14                 -1.6e-13              2.2e-13               1.4e-13              
  0.1                   1.2e-13               -1.6e-13              2.2e-13               1.8e-13              
  0.05                  2e-14                 -1.2e-13              1.8e-13               1e-13                
  0                     2e-14                 -2e-13                1.6e-13               2e-13                
  -0.05                 -2e-14                -1.2e-13              8e-14                 1.8e-13              
  -0.1                  4e-14                 -2.8e-13              1.4e-13               1.2e-13              
  -0.15                 6e-14                 -3.4e-13              6e-14                 1.4e-13              
  -0.2                  6e-14                 -2.8e-13              1e-13                 1.6e-13              
  -0.25                 2e-14                 -2e-13                1.2e-13               1e-13                
  -0.3                  0                     -3.2e-13              1.2e-13               1.2e-13              
  -0.35                 -8e-14                -2e-13                2e-13                 1.6e-13              
  -0.4                  8e-14                 -4.2e-13              1.4e-13               8e-14                
  -0.45                 -2e-14                -4.2e-13              8e-14                 0                    
  -0.5                  -4e-14                -3.4e-13              2e-13                 1.2e-13              
  -0.55                 -3.8e-13              -4.2e-13              1.4e-13               4e-13                
  -0.6                  -1.44e-12             -5.4e-13              4e-14                 1.5e-12              
  -0.65                 -5.92e-12             -4.2e-13              8e-14                 5.98e-12             
  -0.7                  -2.366e-11            -5.2e-13              1e-13                 2.378e-11            
  -0.75                 -9.602e-11            -4.2e-13              0                     9.614e-11            
  -0.8                  -3.86e-10             -5.2e-13              4e-14                 3.8598e-10           
  -0.85                 -1.555e-09            -3.6e-13              1.4e-13               1.5562e-09           
  -0.9                  -6.1346e-09           -5.6e-13              4e-14                 6.1326e-09           
  -0.95                 -2.2906e-08           -4.4e-13              1.4e-13               2.2932e-08           
  -1                    -7.4584e-08           -4e-13                -8e-14                7.4616e-08           
  -1.05                 -1.9998e-07           -4.8e-13              -2e-14                2.0014e-07           
  -1.1                  -4.3354e-07           -5.2e-13              8e-14                 4.3376e-07           
  -1.15                 -7.8506e-07           -4.8e-13              2e-14                 7.8528e-07           
  -1.2                  -1.229e-06            -3.4e-13              1.8e-13               1.2326e-06           
  -1.25                 -1.74e-06             -4.6e-13              -1.2e-13              1.7436e-06           
  -1.3                  -2.2882e-06           -6.2e-13              8e-14                 2.292e-06            
  -1.35                 -2.8536e-06           -5.4e-13              6e-14                 2.8574e-06           
  -1.4                  -3.4302e-06           -5.4e-13              0                     3.4338e-06           
  -1.45                 -4.0066e-06           -5.4e-13              0                     4.01e-06             
  -1.5                  -4.5838e-06           -6.4e-13              4e-14                 4.5874e-06           
  -1.55                 -5.155e-06            -6.6e-13              0                     5.1584e-06           
  -1.6                  -5.7232e-06           -7e-13                0                     5.7268e-06           
  -1.65                 -6.2828e-06           -5.6e-13              -2e-14                6.2866e-06           
  -1.7                  -6.8362e-06           -7e-13                6e-14                 6.8396e-06           
  -1.75                 -7.3832e-06           -6.8e-13              -1.2e-13              7.3864e-06           
  -1.8                  -7.9202e-06           -6.6e-13              8e-14                 7.9242e-06           
  -1.85                 -8.4512e-06           -7.4e-13              -2e-14                8.4552e-06           
  -1.9                  -8.974e-06            -6.8e-13              2e-14                 8.9772e-06           
  -1.95                 -9.4908e-06           -7.4e-13              6e-14                 9.494e-06            
  -2                    -9.9974e-06           -7.2e-13              1e-13                 1.00006e-05          
  -2.05                 -1.04964e-05          -5.8e-13              -6e-14                1.05e-05             
  -2.1                  -1.09896e-05          -6.6e-13              2e-14                 1.09932e-05          
  -2.15                 -1.1474e-05           -6.4e-13              0                     1.14776e-05          
  -2.2                  -1.1942e-05           -6.4e-13              0                     1.196e-05            
  -2.25                 -1.2412e-05           -6.8e-13              0                     1.2432e-05           
  -2.3                  -1.2876e-05           -6.8e-13              -4e-14                1.2894e-05           
  -2.35                 -1.333e-05            -8e-13                -2e-14                1.335e-05            
  -2.4                  -1.378e-05            -8e-13                0                     1.38e-05             
  -2.45                 -1.422e-05            -6.8e-13              8e-14                 1.424e-05            
  -2.5                  -1.4656e-05           -7.4e-13              0                     1.4676e-05           
  -2.55                 -1.5082e-05           -8e-13                4e-14                 1.5102e-05           
  -2.6                  -1.5506e-05           -7e-13                -2e-14                1.5524e-05           
  -2.65                 -1.592e-05            -7.8e-13              -8e-14                1.594e-05            
  -2.7                  -1.6328e-05           -7.2e-13              6e-14                 1.6348e-05           
  -2.75                 -1.6732e-05           -7.2e-13              0                     1.6752e-05           
  -2.8                  -1.7128e-05           -8.4e-13              -8e-14                1.7148e-05           
  -2.85                 -1.7518e-05           -6.8e-13              4e-14                 1.7538e-05           
  -2.9                  -1.7902e-05           -7.2e-13              -2e-14                1.7922e-05           
  -2.95                 -1.828e-05            -7.2e-13              -2e-14                1.83e-05             
  -3                    -1.8652e-05           -7.8e-13              -4e-14                1.8672e-05           
  -3.05                 -1.902e-05            -8e-13                8e-14                 1.904e-05            
  -3.1                  -1.938e-05            -8e-13                -8e-14                1.94e-05             
  -3.15                 -1.9736e-05           -7.8e-13              -2e-14                1.9758e-05           
  -3.2                  -2.0086e-05           -7.4e-13              -6e-14                2.0106e-05           
  -3.25                 -2.043e-05            -8e-13                2e-14                 2.045e-05            
  -3.3                  -2.077e-05            -8.2e-13              -1.6e-13              2.079e-05            
  -3.35                 -2.1106e-05           -7e-13                -1e-13                2.1126e-05           
  -3.4                  -2.1436e-05           -8.6e-13              -4e-14                2.1454e-05           
  -3.45                 -2.1758e-05           -8e-13                -2e-14                2.1778e-05           
