! VERSION = 6.00
BEGIN_HEADER
 ICCAP_INPUTS
  vd         V  D GROUND SMU1 0.1 LIN        1    -0         -3.6       37   -0.1      
  vg         V  G GROUND SMU2 0.001 LIN        2    -1.972     -3.6       5    -0.407    
  vb         V  B GROUND SMU4 0.1 CON        3.6
  vs         V  S GROUND SMU3 0.1 CON        -0
 ICCAP_OUTPUTS
  id         I  D GROUND SMU1 B
  ig         I  G GROUND SMU2 B
  ib         I  B GROUND SMU4 B
  is         I  S GROUND SMU3 B
 ICCAP_VALUES
  MASTER_SETUP_TYPE "~dc_idvd~"
  LINVT_VALUE "|idvg|100.0n|100.0m|1.000m|5|3.600|"
  LISTVT_VALUE ""
  TYPE "-1"
  TEMP " 27.0000 "
  IS_TNOM " 1.00000 "
  MAIN.W "300.0n"
  MAIN.L "10.00u"
  MAIN.AD "102.0f"
  MAIN.AS "102.0f"
  MAIN.PD "1.280u"
  MAIN.PS "1.280u"
  MAIN.NF "1.000"
  MAIN.M "1"
  MAIN.NRD "0.000"
  MAIN.NRS "0.000"
  MAIN.LDRIFT1 "1E-06"
  MAIN.LDRIFT2 "1E-06"
  MAIN.SA "0.000"
  MAIN.SB "0.000"
  MAIN.SD "0.000"
  MAIN.SCA "0.000"
  MAIN.SCB "0.000"
  MAIN.SCC "0.000"
  MAIN.SC "0.000"
  MODULE "S555"
  PIN_D "14"
  PIN_G "7"
  PIN_S "8"
  PIN_B "13"
  PIN_E ""
  PIN_6 ""
  XY_ID ""
  FUNC "Narrow"
  STI "SA ref"
  WPE "WPE ref"
  COMMENT ""
  DIS_MEAS ""
  TypeTCI "10"
END_HEADER

BEGIN_DB
 ICCAP_VAR vg         -1.972         
 ICCAP_VAR vb         3.6            
 ICCAP_VAR vs         -0             

 #vd                    id                    ig                    ib                    is                   
  -0                    7.26e-12              -1.08e-12             1.14e-12              -7.3e-12             
  -0.1                  -8.7828e-09           -6.8e-13              1.04e-12              8.7846e-09           
  -0.2                  -1.0964e-08           -3e-13                9.4e-13               1.09608e-08          
  -0.3                  -1.1128e-08           -3.6e-13              8.8e-13               1.1147e-08           
  -0.4                  -1.1148e-08           -2.2e-13              7e-13                 1.11552e-08          
  -0.5                  -1.1148e-08           -2.8e-13              6.6e-13               1.1156e-08           
  -0.6                  -1.1148e-08           -1.8e-13              7.2e-13               1.11568e-08          
  -0.7                  -1.1156e-08           -3e-13                5.6e-13               1.11598e-08          
  -0.8                  -1.1158e-08           -3.6e-13              5.8e-13               1.11656e-08          
  -0.9                  -1.1154e-08           -1e-13                6.8e-13               1.1162e-08           
  -1                    -1.116e-08            -3e-13                5.4e-13               1.1167e-08           
  -1.1                  -1.1156e-08           -3.4e-13              5.2e-13               1.11644e-08          
  -1.2                  -1.1164e-08           -3.4e-13              5e-13                 1.1164e-08           
  -1.3                  -1.1158e-08           -3.6e-13              4.4e-13               1.116e-08            
  -1.4                  -1.116e-08            -2.2e-13              4.2e-13               1.11688e-08          
  -1.5                  -1.116e-08            -1.4e-13              4.8e-13               1.11696e-08          
  -1.6                  -1.1164e-08           -4.6e-13              3.6e-13               1.11722e-08          
  -1.7                  -1.1162e-08           -3.4e-13              4.4e-13               1.11718e-08          
  -1.8                  -1.1158e-08           -1.2e-13              4.2e-13               1.11706e-08          
  -1.9                  -1.116e-08            -8e-14                3.2e-13               1.11712e-08          
  -2                    -1.1164e-08           4e-14                 3.6e-13               1.1172e-08           
  -2.1                  -1.1166e-08           -1.2e-13              3.2e-13               1.11726e-08          
  -2.2                  -1.1166e-08           -1e-13                3.2e-13               1.1173e-08           
  -2.3                  -1.1164e-08           1.2e-13               2.4e-13               1.11746e-08          
  -2.4                  -1.1168e-08           1.2e-13               2.4e-13               1.11734e-08          
  -2.5                  -1.1168e-08           0                     2.8e-13               1.1179e-08           
  -2.6                  -1.1172e-08           -2.6e-13              3.6e-13               1.11812e-08          
  -2.7                  -1.117e-08            -5e-13                2.4e-13               1.11812e-08          
  -2.8                  -1.117e-08            -1.6e-13              3e-13                 1.11808e-08          
  -2.9                  -1.1174e-08           -1.2e-13              3.8e-13               1.11822e-08          
  -3                    -1.1174e-08           -3e-13                5.4e-13               1.11898e-08          
  -3.1                  -1.1176e-08           -3.2e-13              1.04e-12              1.11868e-08          
  -3.2                  -1.1176e-08           -1.6e-13              1.5e-12               1.1185e-08           
  -3.3                  -1.1176e-08           -2.4e-13              2.26e-12              1.11848e-08          
  -3.4                  -1.118e-08            8e-14                 3.76e-12              1.11806e-08          
  -3.5                  -1.1182e-08           -1.2e-13              6.02e-12              1.11856e-08          
  -3.6                  -1.1188e-08           -1.8e-13              9.56e-12              1.11896e-08          
END_DB

BEGIN_DB
 ICCAP_VAR vg         -2.379         
 ICCAP_VAR vb         3.6            
 ICCAP_VAR vs         -0             

 #vd                    id                    ig                    ib                    is                   
  -0                    3.1e-11               -3.4e-13              3.6e-13               -2.788e-11           
  -0.1                  -4.515e-08            -4.4e-13              2.8e-13               4.5184e-08           
  -0.2                  -7.8424e-08           -3e-13                1.4e-13               7.8464e-08           
  -0.3                  -1.00274e-07          -5e-13                2.2e-13               1.00304e-07          
  -0.4                  -1.119e-07            -2e-14                3e-13                 1.12038e-07          
  -0.5                  -1.1626e-07           2e-14                 2.4e-13               1.1648e-07           
  -0.6                  -1.1716e-07           -2.4e-13              2.4e-13               1.1734e-07           
  -0.7                  -1.1732e-07           -3e-13                2.2e-13               1.1752e-07           
  -0.8                  -1.1738e-07           -2.8e-13              1.6e-13               1.1758e-07           
  -0.9                  -1.174e-07            -3e-13                8e-14                 1.176e-07            
  -1                    -1.1744e-07           -1.8e-13              2.4e-13               1.1764e-07           
  -1.1                  -1.1744e-07           -2e-13                3e-13                 1.1764e-07           
  -1.2                  -1.1746e-07           -2.4e-13              2.2e-13               1.177e-07            
  -1.3                  -1.1748e-07           -3e-13                1.4e-13               1.1766e-07           
  -1.4                  -1.1752e-07           4e-14                 4e-14                 1.1772e-07           
  -1.5                  -1.1754e-07           -4e-14                1e-13                 1.1774e-07           
  -1.6                  -1.1752e-07           -2.6e-13              2.2e-13               1.1774e-07           
  -1.7                  -1.1754e-07           -2e-14                1.2e-13               1.1774e-07           
  -1.8                  -1.1756e-07           -1.4e-13              1e-13                 1.1776e-07           
  -1.9                  -1.1756e-07           -8e-14                1.2e-13               1.1772e-07           
  -2                    -1.1754e-07           0                     8e-14                 1.1778e-07           
  -2.1                  -1.176e-07            -6e-14                1.6e-13               1.1778e-07           
  -2.2                  -1.176e-07            -1e-13                1.2e-13               1.178e-07            
  -2.3                  -1.176e-07            2e-14                 4e-14                 1.178e-07            
  -2.4                  -1.1762e-07           -1e-13                4e-14                 1.1786e-07           
  -2.5                  -1.1764e-07           -2.4e-13              1.2e-13               1.1786e-07           
  -2.6                  -1.1766e-07           -3.6e-13              1e-13                 1.179e-07            
  -2.7                  -1.177e-07            -1.8e-13              6e-14                 1.179e-07            
  -2.8                  -1.1768e-07           0                     1.8e-13               1.1788e-07           
  -2.9                  -1.1772e-07           -8e-14                2.8e-13               1.1792e-07           
  -3                    -1.177e-07            -8e-14                5.6e-13               1.179e-07            
  -3.1                  -1.1768e-07           4e-14                 9.6e-13               1.1792e-07           
  -3.2                  -1.1772e-07           -2e-14                1.68e-12              1.1792e-07           
  -3.3                  -1.1772e-07           -1.4e-13              2.98e-12              1.1796e-07           
  -3.4                  -1.1776e-07           -6e-14                5.56e-12              1.1792e-07           
  -3.5                  -1.1774e-07           -6e-14                9.88e-12              1.1796e-07           
  -3.6                  -1.1776e-07           -2e-14                1.714e-11             1.1796e-07           
END_DB

BEGIN_DB
 ICCAP_VAR vg         -2.786         
 ICCAP_VAR vb         3.6            
 ICCAP_VAR vs         -0             

 #vd                    id                    ig                    ib                    is                   
  -0                    4.7e-11               -2.4e-13              4e-13                 -4.936e-11           
  -0.1                  -8.3506e-08           -5.2e-13              2.2e-13               8.3532e-08           
  -0.2                  -1.5506e-07           -3.2e-13              4e-13                 1.553e-07            
  -0.3                  -2.147e-07            -3.4e-13              2e-13                 2.1492e-07           
  -0.4                  -2.6236e-07           -2.8e-13              1e-13                 2.6252e-07           
  -0.5                  -2.9848e-07           -1.4e-13              2e-13                 2.988e-07            
  -0.6                  -3.2364e-07           -1e-13                1.8e-13               3.2388e-07           
  -0.7                  -3.3866e-07           -4e-14                1e-13                 3.3896e-07           
  -0.8                  -3.4586e-07           -2e-14                1.2e-13               3.4614e-07           
  -0.9                  -3.4826e-07           -1.6e-13              6e-14                 3.4844e-07           
  -1                    -3.4884e-07           -2.2e-13              2e-13                 3.4904e-07           
  -1.1                  -3.4902e-07           -1.8e-13              1.4e-13               3.4926e-07           
  -1.2                  -3.4908e-07           -4e-14                1.4e-13               3.4928e-07           
  -1.3                  -3.492e-07            1.2e-13               1.2e-13               3.4946e-07           
  -1.4                  -3.4926e-07           2e-14                 4e-14                 3.4962e-07           
  -1.5                  -3.494e-07            -1.4e-13              2e-14                 3.4964e-07           
  -1.6                  -3.4942e-07           -1.2e-13              1.2e-13               3.4964e-07           
  -1.7                  -3.4944e-07           0                     1.2e-13               3.497e-07            
  -1.8                  -3.4956e-07           -8e-14                6e-14                 3.498e-07            
  -1.9                  -3.4966e-07           -2e-14                1.6e-13               3.4982e-07           
  -2                    -3.497e-07            0                     1e-13                 3.4992e-07           
  -2.1                  -3.4972e-07           -6e-14                4e-14                 3.5002e-07           
  -2.2                  -3.4974e-07           2.2e-13               6e-14                 3.5e-07              
  -2.3                  -3.4978e-07           -1.4e-13              2e-14                 3.5012e-07           
  -2.4                  -3.4984e-07           -1.8e-13              2e-14                 3.5008e-07           
  -2.5                  -3.4988e-07           -4e-14                4e-14                 3.5016e-07           
  -2.6                  -3.499e-07            6e-14                 6e-14                 3.501e-07            
  -2.7                  -3.499e-07            8e-14                 6e-14                 3.502e-07            
  -2.8                  -3.501e-07            0                     6e-14                 3.5032e-07           
  -2.9                  -3.5004e-07           -2e-14                6e-14                 3.503e-07            
  -3                    -3.5008e-07           6e-14                 6e-14                 3.503e-07            
  -3.1                  -3.502e-07            -4e-14                2.8e-13               3.5044e-07           
  -3.2                  -3.5018e-07           -1.2e-13              3.6e-13               3.5044e-07           
  -3.3                  -3.5018e-07           -4e-14                9.6e-13               3.5044e-07           
  -3.4                  -3.5026e-07           -8e-14                1.82e-12              3.5052e-07           
  -3.5                  -3.503e-07            -2.6e-13              3.36e-12              3.5054e-07           
  -3.6                  -3.5036e-07           -1.2e-13              6.4e-12               3.5056e-07           
END_DB

BEGIN_DB
 ICCAP_VAR vg         -3.193         
 ICCAP_VAR vb         3.6            
 ICCAP_VAR vs         -0             

 #vd                    id                    ig                    ib                    is                   
  -0                    6.762e-11             -2.2e-13              2.6e-13               -7.07e-11            
  -0.1                  -1.1984e-07           -2.4e-13              2.6e-13               1.2004e-07           
  -0.2                  -2.2842e-07           -1.4e-13              2.2e-13               2.286e-07            
  -0.3                  -3.2522e-07           -2e-13                1e-13                 3.2548e-07           
  -0.4                  -4.1022e-07           -3e-13                1.8e-13               4.1048e-07           
  -0.5                  -4.8378e-07           -1.8e-13              1.4e-13               4.8402e-07           
  -0.6                  -5.4572e-07           -3.2e-13              1e-13                 5.4596e-07           
  -0.7                  -5.9606e-07           -1.4e-13              1.2e-13               5.9642e-07           
  -0.8                  -6.3548e-07           -1.2e-13              1e-13                 6.357e-07            
  -0.9                  -6.6402e-07           -2.2e-13              1e-13                 6.6436e-07           
  -1                    -6.827e-07            -3.2e-13              1.2e-13               6.829e-07            
  -1.1                  -6.9318e-07           -2.6e-13              8e-14                 6.934e-07            
  -1.2                  -6.977e-07            -1.6e-13              8e-14                 6.9806e-07           
  -1.3                  -6.993e-07            -6e-14                4e-14                 6.9958e-07           
  -1.4                  -6.9988e-07           -3e-13                1.2e-13               7.0032e-07           
  -1.5                  -7.002e-07            -3e-13                4e-14                 7.0056e-07           
  -1.6                  -7.0046e-07           2e-14                 1.2e-13               7.009e-07            
  -1.7                  -7.007e-07            0                     6e-14                 7.0088e-07           
  -1.8                  -7.0078e-07           -6e-14                1.2e-13               7.0092e-07           
  -1.9                  -7.0082e-07           -3.2e-13              1.4e-13               7.0096e-07           
  -2                    -7.009e-07            -4.2e-13              1.2e-13               7.0116e-07           
  -2.1                  -7.0108e-07           -2e-13                1.2e-13               7.014e-07            
  -2.2                  -7.0118e-07           4e-14                 2e-14                 7.015e-07            
  -2.3                  -7.0122e-07           -3e-13                -4e-14                7.0146e-07           
  -2.4                  -7.0124e-07           -1.2e-13              6e-14                 7.0154e-07           
  -2.5                  -7.014e-07            0                     6e-14                 7.0176e-07           
  -2.6                  -7.0144e-07           -1.6e-13              0                     7.018e-07            
  -2.7                  -7.0154e-07           -1.4e-13              8e-14                 7.0194e-07           
  -2.8                  -7.0172e-07           -2.6e-13              4e-14                 7.0192e-07           
  -2.9                  -7.0182e-07           -2.4e-13              1.4e-13               7.021e-07            
  -3                    -7.0192e-07           6e-14                 4e-14                 7.0216e-07           
  -3.1                  -7.0188e-07           -4e-14                4e-14                 7.0206e-07           
  -3.2                  -7.019e-07            4e-14                 8e-14                 7.0232e-07           
  -3.3                  -7.0194e-07           -1.8e-13              1.6e-13               7.023e-07            
  -3.4                  -7.0206e-07           -2e-14                2.8e-13               7.0238e-07           
  -3.5                  -7.022e-07            -1.6e-13              6.4e-13               7.0248e-07           
  -3.6                  -7.0214e-07           -1e-13                1.22e-12              7.0244e-07           
END_DB

BEGIN_DB
 ICCAP_VAR vg         -3.6           
 ICCAP_VAR vb         3.6            
 ICCAP_VAR vs         -0             

 #vd                    id                    ig                    ib                    is                   
  -0                    8.962e-11             -2.6e-13              1.8e-13               -8.988e-11           
  -0.1                  -1.5374e-07           -2e-13                1.2e-13               1.5398e-07           
  -0.2                  -2.9684e-07           -3.4e-13              1.6e-13               2.9708e-07           
  -0.3                  -4.2866e-07           -1.4e-13              1.8e-13               4.2896e-07           
  -0.4                  -5.4914e-07           -1.4e-13              2e-13                 5.494e-07            
  -0.5                  -6.5852e-07           -3.8e-13              1.2e-13               6.5886e-07           
  -0.6                  -7.5672e-07           -3.4e-13              1.2e-13               7.5704e-07           
  -0.7                  -8.4346e-07           -1.6e-13              1.4e-13               8.4386e-07           
  -0.8                  -9.192e-07            -8e-14                4e-14                 9.1934e-07           
