! VERSION = 6.00
BEGIN_HEADER
 ICCAP_INPUTS
  vd         V  D GROUND SMU1 0.1 LIN        1    -0         -3.6       37   -0.1      
  vg         V  G GROUND SMU2 0.001 LIN        2    -1.812     -3.6       5    -0.447    
  vb         V  B GROUND SMU4 0.1 CON        3.6
  vs         V  S GROUND SMU3 0.1 CON        -0
 ICCAP_OUTPUTS
  id         I  D GROUND SMU1 B
  ig         I  G GROUND SMU2 B
  ib         I  B GROUND SMU4 B
  is         I  S GROUND SMU3 B
 ICCAP_VALUES
  MASTER_SETUP_TYPE "~dc_idvd~"
  LINVT_VALUE "|idvg|100.0n|100.0m|1.000m|5|3.600|"
  LISTVT_VALUE ""
  TYPE "-1"
  TEMP " 125.000 "
  IS_TNOM " 0.00000 "
  MAIN.W "600.0n"
  MAIN.L "500.0n"
  MAIN.AD "204.0f"
  MAIN.AS "204.0f"
  MAIN.PD "1.880u"
  MAIN.PS "1.880u"
  MAIN.NF "1.000"
  MAIN.M "1"
  MAIN.NRD "0.000"
  MAIN.NRS "0.000"
  MAIN.LDRIFT1 "1E-06"
  MAIN.LDRIFT2 "1E-06"
  MAIN.SA "0.000"
  MAIN.SB "0.000"
  MAIN.SD "0.000"
  MAIN.SCA "0.000"
  MAIN.SCB "0.000"
  MAIN.SCC "0.000"
  MAIN.SC "0.000"
  MODULE "S564"
  PIN_D "16"
  PIN_G "5"
  PIN_S "6"
  PIN_B "15"
  PIN_E ""
  PIN_6 ""
  XY_ID ""
  FUNC "LW Scale"
  STI "SA ref"
  WPE "WPE ref"
  COMMENT ""
  DIS_MEAS ""
  TypeTCI "10"
END_HEADER

BEGIN_DB
 ICCAP_VAR vg         -1.812         
 ICCAP_VAR vb         3.6            
 ICCAP_VAR vs         -0             

 #vd                    id                    ig                    ib                    is                   
  -0                    1.1448e-10            -5.38e-12             3.272e-09             -1.6418e-10          
  -0.1                  -3.0116e-07           -4.92e-12             3.2296e-09            3.0122e-07           
  -0.2                  -3.8864e-07           -4.92e-12             3.1998e-09            3.8876e-07           
  -0.3                  -4.1338e-07           -4.78e-12             3.1692e-09            4.1346e-07           
  -0.4                  -4.2562e-07           -4.7e-12              3.1376e-09            4.2576e-07           
  -0.5                  -4.3458e-07           -4.54e-12             3.1036e-09            4.3448e-07           
  -0.6                  -4.4182e-07           -4.34e-12             3.0686e-09            4.4188e-07           
  -0.7                  -4.4806e-07           -4.38e-12             3.0316e-09            4.479e-07            
  -0.8                  -4.536e-07            -4.36e-12             2.9922e-09            4.5352e-07           
  -0.9                  -4.5888e-07           -4.28e-12             2.9506e-09            4.5888e-07           
  -1                    -4.6392e-07           -4.28e-12             2.9038e-09            4.6426e-07           
  -1.1                  -4.6858e-07           -4.22e-12             2.814e-09             4.6888e-07           
  -1.2                  -4.734e-07            -3.76e-12             1.83e-09              4.73e-07             
  -1.3                  -4.734e-07            -1.54e-12             2.0012e-10            4.735e-07            
  -1.4                  -4.819e-07            -7.4e-13              1.4248e-10            4.8206e-07           
  -1.5                  -4.8626e-07           -7.2e-13              1.2762e-10            4.8612e-07           
  -1.6                  -4.9048e-07           -6.8e-13              1.1802e-10            4.905e-07            
  -1.7                  -4.941e-07            -7e-13                1.099e-10             4.9452e-07           
  -1.8                  -4.9848e-07           -6.2e-13              1.039e-10             4.9854e-07           
  -1.9                  -5.0234e-07           -5.4e-13              9.88e-11              5.0238e-07           
  -2                    -5.0616e-07           -5.8e-13              9.45e-11              5.0622e-07           
  -2.1                  -5.0992e-07           -6e-13                9.028e-11             5.0972e-07           
  -2.2                  -5.1382e-07           -5e-13                8.698e-11             5.1382e-07           
  -2.3                  -5.174e-07            -5.6e-13              8.42e-11              5.1778e-07           
  -2.4                  -5.2136e-07           -5.2e-13              8.2e-11               5.2134e-07           
  -2.5                  -5.2504e-07           -5.8e-13              8.05e-11              5.252e-07            
  -2.6                  -5.286e-07            -5e-13                8.098e-11             5.2886e-07           
  -2.7                  -5.3242e-07           -4.8e-13              8.29e-11              5.3258e-07           
  -2.8                  -5.36e-07             -4.2e-13              8.806e-11             5.3606e-07           
  -2.9                  -5.3956e-07           -5.4e-13              9.77e-11              5.3958e-07           
  -3                    -5.4336e-07           -4.6e-13              1.1614e-10            5.4338e-07           
  -3.1                  -5.4704e-07           -5.6e-13              1.456e-10             5.4706e-07           
  -3.2                  -5.5072e-07           -4.8e-13              1.9314e-10            5.505e-07            
  -3.3                  -5.5432e-07           -4.8e-13              2.674e-10             5.5432e-07           
  -3.4                  -5.5802e-07           -4.4e-13              3.806e-10             5.575e-07            
  -3.5                  -5.6178e-07           -4.6e-13              5.5098e-10            5.6108e-07           
  -3.6                  -5.6524e-07           -3.4e-13              8.0298e-10            5.6486e-07           
END_DB

BEGIN_DB
 ICCAP_VAR vg         -2.259         
 ICCAP_VAR vb         3.6            
 ICCAP_VAR vs         -0             

 #vd                    id                    ig                    ib                    is                   
  -0                    5.151e-10             -8.8e-13              4.004e-11             -5.6812e-10          
  -0.1                  -1.859e-06            -5.6e-13              3.848e-11             1.8614e-06           
  -0.2                  -3.3072e-06           -6.8e-13              4.228e-11             3.3104e-06           
  -0.3                  -4.3586e-06           -6.4e-13              4.212e-11             4.3606e-06           
  -0.4                  -5.0618e-06           -6.2e-13              4.172e-11             5.065e-06            
  -0.5                  -5.4938e-06           -5.8e-13              4.114e-11             5.4984e-06           
  -0.6                  -5.7476e-06           -6.2e-13              4.052e-11             5.7516e-06           
  -0.7                  -5.9068e-06           -6.4e-13              4.024e-11             5.9072e-06           
  -0.8                  -6.0132e-06           -6e-13                3.974e-11             6.0152e-06           
  -0.9                  -6.0904e-06           -5.6e-13              3.93e-11              6.0956e-06           
  -1                    -6.1554e-06           -5.6e-13              3.918e-11             6.161e-06            
  -1.1                  -6.2148e-06           -7e-13                3.86e-11              6.2148e-06           
  -1.2                  -6.2618e-06           -4.6e-13              3.812e-11             6.2636e-06           
  -1.3                  -6.3068e-06           -5.6e-13              3.846e-11             6.3078e-06           
  -1.4                  -6.3494e-06           -5.2e-13              3.804e-11             6.35e-06             
  -1.5                  -6.3852e-06           -5e-13                3.692e-11             6.3888e-06           
  -1.6                  -6.4238e-06           -5.6e-13              3.688e-11             6.426e-06            
  -1.7                  -6.4608e-06           -4.2e-13              3.652e-11             6.4604e-06           
  -1.8                  -6.4966e-06           -5.4e-13              3.636e-11             6.4962e-06           
  -1.9                  -6.5266e-06           -4.8e-13              3.616e-11             6.5294e-06           
  -2                    -6.558e-06            -4.6e-13              3.576e-11             6.5618e-06           
  -2.1                  -6.592e-06            -5e-13                3.566e-11             6.5966e-06           
  -2.2                  -6.6206e-06           -5.2e-13              3.524e-11             6.6244e-06           
  -2.3                  -6.6526e-06           -4.6e-13              3.524e-11             6.6534e-06           
  -2.4                  -6.6792e-06           -5e-13                3.632e-11             6.6832e-06           
  -2.5                  -6.7076e-06           -5.8e-13              3.76e-11              6.7122e-06           
  -2.6                  -6.7372e-06           -4.4e-13              4.054e-11             6.741e-06            
  -2.7                  -6.7504e-06           -4.8e-13              4.744e-11             6.7514e-06           
  -2.8                  -6.7776e-06           -4.2e-13              5.998e-11             6.7774e-06           
  -2.9                  -6.804e-06            -3.8e-13              8.286e-11             6.8056e-06           
  -3                    -6.8312e-06           -2e-13                1.231e-10             6.8342e-06           
  -3.1                  -6.8598e-06           -3.8e-13              1.919e-10             6.8604e-06           
  -3.2                  -6.8844e-06           -4.6e-13              3.0712e-10            6.8878e-06           
  -3.3                  -6.9128e-06           -3.2e-13              4.9638e-10            6.9164e-06           
  -3.4                  -6.9392e-06           -4e-13                7.9992e-10            6.9408e-06           
  -3.5                  -6.9638e-06           -5.4e-13              1.2798e-09            6.9726e-06           
  -3.6                  -7.0028e-06           -4.4e-13              2.0294e-09            7.0048e-06           
END_DB

BEGIN_DB
 ICCAP_VAR vg         -2.706         
 ICCAP_VAR vb         3.6            
 ICCAP_VAR vs         -0             

 #vd                    id                    ig                    ib                    is                   
  -0                    9.5032e-10            -8e-13                2.344e-11             -8.8248e-10          
  -0.1                  -3.2716e-06           -6.2e-13              2.334e-11             3.2762e-06           
  -0.2                  -6.1842e-06           -6e-13                2.66e-11              6.1882e-06           
  -0.3                  -8.7192e-06           -6.6e-13              2.712e-11             8.7196e-06           
  -0.4                  -1.08802e-05          -7.2e-13              2.702e-11             1.0878e-05           
  -0.5                  -1.2668e-05           -6.2e-13              2.342e-11             1.267e-05            
  -0.6                  -1.4104e-05           -6.8e-13              2.686e-11             1.4116e-05           
  -0.7                  -1.523e-05            -5.8e-13              2.63e-11              1.5238e-05           
  -0.8                  -1.6078e-05           -6e-13                2.652e-11             1.6076e-05           
  -0.9                  -1.6676e-05           -7.8e-13              2.61e-11              1.6682e-05           
  -1                    -1.7102e-05           -6.2e-13              2.628e-11             1.713e-05            
  -1.1                  -1.7442e-05           -5.8e-13              2.66e-11              1.7448e-05           
  -1.2                  -1.769e-05            -6.2e-13              2.652e-11             1.7694e-05           
  -1.3                  -1.7876e-05           -5e-13                2.65e-11              1.788e-05            
  -1.4                  -1.8038e-05           -6e-13                2.638e-11             1.8042e-05           
  -1.5                  -1.8166e-05           -5.8e-13              2.572e-11             1.8172e-05           
  -1.6                  -1.8284e-05           -6.6e-13              2.59e-11              1.8282e-05           
  -1.7                  -1.8376e-05           -5.6e-13              2.636e-11             1.8394e-05           
  -1.8                  -1.8488e-05           -4.4e-13              2.552e-11             1.8502e-05           
  -1.9                  -1.8582e-05           -5.4e-13              2.582e-11             1.8592e-05           
  -2                    -1.8672e-05           -4.2e-13              2.586e-11             1.8676e-05           
  -2.1                  -1.8748e-05           -5.2e-13              2.57e-11              1.876e-05            
  -2.2                  -1.8836e-05           -5.4e-13              2.546e-11             1.885e-05            
  -2.3                  -1.8918e-05           -4e-13                2.56e-11              1.8926e-05           
  -2.4                  -1.8986e-05           -5.4e-13              2.532e-11             1.8996e-05           
  -2.5                  -1.9056e-05           -5.6e-13              2.574e-11             1.907e-05            
  -2.6                  -1.9128e-05           -6e-13                2.664e-11             1.9136e-05           
  -2.7                  -1.9206e-05           -5.8e-13              2.884e-11             1.9208e-05           
  -2.8                  -1.9268e-05           -5.4e-13              3.316e-11             1.9268e-05           
  -2.9                  -1.933e-05            -5.8e-13              4.154e-11             1.9334e-05           
  -3                    -1.9394e-05           -5.4e-13              5.904e-11             1.9404e-05           
  -3.1                  -1.9464e-05           -5.4e-13              9.114e-11             1.947e-05            
  -3.2                  -1.9518e-05           -5e-13                1.492e-10             1.9528e-05           
  -3.3                  -1.958e-05            -4.4e-13              2.508e-10             1.9586e-05           
  -3.4                  -1.965e-05            -5.2e-13              4.2456e-10            1.9656e-05           
  -3.5                  -1.9688e-05           -3.4e-13              7.146e-10             1.969e-05            
  -3.6                  -1.9758e-05           -4.6e-13              1.1888e-09            1.9788e-05           
END_DB

BEGIN_DB
 ICCAP_VAR vg         -3.153         
 ICCAP_VAR vb         3.6            
 ICCAP_VAR vs         -0             

 #vd                    id                    ig                    ib                    is                   
  -0                    1.0938e-09            -8.8e-13              1.694e-11             -9.217e-10           
  -0.1                  -4.4934e-06           -8.2e-13              1.724e-11             4.4974e-06           
  -0.2                  -8.666e-06            -6.8e-13              2.134e-11             8.6676e-06           
  -0.3                  -1.25e-05             -7.8e-13              1.726e-11             1.25e-05             
  -0.4                  -1.5964e-05           -6.6e-13              2.146e-11             1.5968e-05           
  -0.5                  -1.911e-05            -5.8e-13              2.168e-11             1.9114e-05           
  -0.6                  -2.1904e-05           -6.6e-13              2.122e-11             2.191e-05            
  -0.7                  -2.4364e-05           -7.6e-13              2.126e-11             2.4354e-05           
  -0.8                  -2.6454e-05           -7.2e-13              2.12e-11              2.6466e-05           
  -0.9                  -2.8234e-05           -7.6e-13              2.158e-11             2.8238e-05           
  -1                    -2.9714e-05           -7.8e-13              2.154e-11             2.972e-05            
  -1.1                  -3.0912e-05           -6.4e-13              2.144e-11             3.0918e-05           
  -1.2                  -3.1876e-05           -7e-13                2.104e-11             3.1892e-05           
  -1.3                  -3.2618e-05           -7e-13                2.122e-11             3.2656e-05           
  -1.4                  -3.3264e-05           -6.6e-13              2.114e-11             3.3274e-05           
  -1.5                  -3.3724e-05           -7.6e-13              2.138e-11             3.3728e-05           
  -1.6                  -3.4108e-05           -6.6e-13              2.124e-11             3.4088e-05           
  -1.7                  -3.4392e-05           -5e-13                2.096e-11             3.4396e-05           
  -1.8                  -3.4678e-05           -7.4e-13              2.126e-11             3.4676e-05           
  -1.9                  -3.4892e-05           -7e-13                2.116e-11             3.4886e-05           
  -2                    -3.5076e-05           -7e-13                2.102e-11             3.5088e-05           
  -2.1                  -3.5268e-05           -5.6e-13              2.11e-11              3.5272e-05           
  -2.2                  -3.5452e-05           -5.8e-13              2.086e-11             3.5464e-05           
  -2.3                  -3.5574e-05           -5.8e-13              2.054e-11             3.5584e-05           
  -2.4                  -3.5736e-05           -5.2e-13              2.116e-11             3.5756e-05           
  -2.5                  -3.5898e-05           -6.6e-13              2.082e-11             3.591e-05            
  -2.6                  -3.6036e-05           -5.6e-13              2.098e-11             3.6046e-05           
  -2.7                  -3.6164e-05           -5.4e-13              2.194e-11             3.6176e-05           
  -2.8                  -3.6294e-05           -5.2e-13              2.254e-11             3.6292e-05           
  -2.9                  -3.64e-05             -5.6e-13              2.428e-11             3.639e-05            
  -3                    -3.651e-05            -6.2e-13              2.944e-11             3.6494e-05           
  -3.1                  -3.6618e-05           -6.2e-13              3.79e-11              3.6626e-05           
  -3.2                  -3.6716e-05           -6.4e-13              5.556e-11             3.6706e-05           
  -3.3                  -3.679e-05            -4.4e-13              8.934e-11             3.6824e-05           
  -3.4                  -3.6912e-05           -4.4e-13              1.507e-10             3.694e-05            
  -3.5                  -3.7038e-05           -5e-13                2.6062e-10            3.7054e-05           
  -3.6                  -3.7144e-05           -7.2e-13              4.5128e-10            3.7144e-05           
END_DB

BEGIN_DB
 ICCAP_VAR vg         -3.6           
 ICCAP_VAR vb         3.6            
 ICCAP_VAR vs         -0             

 #vd                    id                    ig                    ib                    is                   
  -0                    1.2772e-09            -9e-13                1.442e-11             -1.1074e-09          
  -0.1                  -5.5584e-06           -9.2e-13              1.462e-11             5.5626e-06           
  -0.2                  -1.08324e-05          -8.4e-13              1.832e-11             1.0835e-05           
  -0.3                  -1.5792e-05           -8.6e-13              1.416e-11             1.5808e-05           
  -0.4                  -2.0434e-05           -9.8e-13              1.826e-11             2.0444e-05           
  -0.5                  -2.4764e-05           -8.4e-13              1.872e-11             2.477e-05            
  -0.6                  -2.8758e-05           -7.8e-13              1.89e-11              2.8754e-05           
  -0.7                  -3.2414e-05           -8.6e-13              1.902e-11             3.2414e-05           
  -0.8                  -3.5748e-05           -7.8e-13              1.908e-11             3.5744e-05           
