! VERSION = 6.00
BEGIN_HEADER
 ICCAP_INPUTS
  vd         V  D GROUND SMU1 0.1 LIN        1    -0         -3.6       37   -0.1      
  vg         V  G GROUND SMU2 0.001 LIST       2 3 -0.451 -0.651 -0.851
  vb         V  B GROUND SMU4 0.1 CON        -0
  vs         V  S GROUND SMU3 0.1 CON        -0
 ICCAP_OUTPUTS
  id         I  D GROUND SMU1 B
  ig         I  G GROUND SMU2 B
  ib         I  B GROUND SMU4 B
  is         I  S GROUND SMU3 B
 ICCAP_VALUES
  MASTER_SETUP_TYPE "~dc_idvd~"
  LINVT_VALUE ""
  LISTVT_VALUE "|idvg|100.0n|-200.0m|1.000m|3|200.0m|200.0m|"
  TYPE "-1"
  TEMP " 70.0000 "
  IS_TNOM " 0.00000 "
  MAIN.W "10.00u"
  MAIN.L "10.00u"
  MAIN.AD "3.400p"
  MAIN.AS "3.400p"
  MAIN.PD "20.68u"
  MAIN.PS "20.68u"
  MAIN.NF "1.000"
  MAIN.M "1"
  MAIN.NRD "0.000"
  MAIN.NRS "0.000"
  MAIN.LDRIFT1 "1E-06"
  MAIN.LDRIFT2 "1E-06"
  MAIN.SA "0.000"
  MAIN.SB "0.000"
  MAIN.SD "0.000"
  MAIN.SCA "0.000"
  MAIN.SCB "0.000"
  MAIN.SCC "0.000"
  MAIN.SC "0.000"
  MODULE "S562"
  PIN_D "16"
  PIN_G "5"
  PIN_S "6"
  PIN_B "15"
  PIN_E ""
  PIN_6 ""
  XY_ID ""
  FUNC "Large"
  STI "SA ref"
  WPE "WPE ref"
  COMMENT ""
  DIS_MEAS ""
  TypeTCI "10"
END_HEADER

BEGIN_DB
 ICCAP_VAR vg         -0.451         
 ICCAP_VAR vb         -0             
 ICCAP_VAR vs         -0             

 #vd                    id                    ig                    ib                    is                   
  -0                    1.24e-12              6e-13                 -1.638e-11            -3.24e-12            
  -0.1                  -2.2964e-09           5.4e-13               -1.55e-11             2.2964e-09           
  -0.2                  -2.3788e-09           4.6e-13               -1.482e-11            2.378e-09            
  -0.3                  -2.3818e-09           4.4e-13               -1.398e-11            2.3816e-09           
  -0.4                  -2.3828e-09           3.8e-13               -1.298e-11            2.3822e-09           
  -0.5                  -2.3834e-09           3.8e-13               -1.2e-11              2.383e-09            
  -0.6                  -2.3846e-09           4.4e-13               -1.104e-11            2.3834e-09           
  -0.7                  -2.3846e-09           3.6e-13               -1.004e-11            2.3834e-09           
  -0.8                  -2.385e-09            3.2e-13               -8.96e-12             2.384e-09            
  -0.9                  -2.3858e-09           3.4e-13               -8.08e-12             2.3844e-09           
  -1                    -2.3862e-09           4e-13                 -7.34e-12             2.3848e-09           
  -1.1                  -2.3862e-09           3.4e-13               -6.42e-12             2.385e-09            
  -1.2                  -2.3868e-09           2.8e-13               -5.66e-12             2.3858e-09           
  -1.3                  -2.3872e-09           3.2e-13               -4.94e-12             2.386e-09            
  -1.4                  -2.3876e-09           3.2e-13               -4.22e-12             2.386e-09            
  -1.5                  -2.388e-09            3.4e-13               -3.58e-12             2.3864e-09           
  -1.6                  -2.3884e-09           3.4e-13               -3.04e-12             2.3866e-09           
  -1.7                  -2.3888e-09           2.6e-13               -2.34e-12             2.3872e-09           
  -1.8                  -2.3892e-09           3.2e-13               -1.8e-12              2.3876e-09           
  -1.9                  -2.389e-09            2.8e-13               -1.28e-12             2.3874e-09           
  -2                    -2.3896e-09           3e-13                 -7.6e-13              2.3878e-09           
  -2.1                  -2.3898e-09           2e-13                 -3e-13                2.3878e-09           
  -2.2                  -2.3904e-09           3.4e-13               1e-13                 2.3884e-09           
  -2.3                  -2.3906e-09           2.6e-13               5.4e-13               2.3884e-09           
  -2.4                  -2.3912e-09           2.2e-13               1.02e-12              2.3888e-09           
  -2.5                  -2.3916e-09           3.2e-13               1.5e-12               2.3888e-09           
  -2.6                  -2.3922e-09           2.2e-13               2.06e-12              2.3892e-09           
  -2.7                  -2.3924e-09           2e-13                 2.78e-12              2.3894e-09           
  -2.8                  -2.3934e-09           2.8e-13               3.54e-12              2.3896e-09           
  -2.9                  -2.3942e-09           8e-14                 4.5e-12               2.3898e-09           
  -3                    -2.3954e-09           4e-13                 5.96e-12              2.3896e-09           
  -3.1                  -2.3968e-09           1.8e-13               7.5e-12               2.3904e-09           
  -3.2                  -2.399e-09            2.2e-13               9.44e-12              2.3904e-09           
  -3.3                  -2.4016e-09           2.6e-13               1.204e-11             2.3904e-09           
  -3.4                  -2.4052e-09           1.4e-13               1.558e-11             2.391e-09            
  -3.5                  -2.4094e-09           3.2e-13               1.99e-11              2.391e-09            
  -3.6                  -2.4152e-09           1.8e-13               2.576e-11             2.3906e-09           
END_DB

BEGIN_DB
 ICCAP_VAR vg         -0.651         
 ICCAP_VAR vb         -0             
 ICCAP_VAR vs         -0             

 #vd                    id                    ig                    ib                    is                   
  -0                    8.892e-11             4e-14                 -8.12e-12             -8.52e-11            
  -0.1                  -9.4166e-08           6e-14                 -8.02e-12             9.4186e-08           
  -0.2                  -1.00674e-07          1.4e-13               -7.8e-12              1.00706e-07          
  -0.3                  -1.0094e-07           0                     -7.4e-12              1.00992e-07          
  -0.4                  -1.0098e-07           8e-14                 -6.92e-12             1.01028e-07          
  -0.5                  -1.01e-07             2e-14                 -6.42e-12             1.01054e-07          
  -0.6                  -1.0102e-07           0                     -5.92e-12             1.01074e-07          
  -0.7                  -1.0104e-07           1.4e-13               -5.22e-12             1.01108e-07          
  -0.8                  -1.0108e-07           1.4e-13               -4.62e-12             1.0112e-07           
  -0.9                  -1.0108e-07           1.8e-13               -4.12e-12             1.01126e-07          
  -1                    -1.011e-07            8e-14                 -3.42e-12             1.01148e-07          
  -1.1                  -1.011e-07            1.4e-13               -2.92e-12             1.01156e-07          
  -1.2                  -1.011e-07            1e-13                 -2.54e-12             1.01164e-07          
  -1.3                  -1.0114e-07           2e-14                 -1.92e-12             1.01176e-07          
  -1.4                  -1.0114e-07           1e-13                 -1.5e-12              1.01194e-07          
  -1.5                  -1.0116e-07           8e-14                 -1.02e-12             1.01208e-07          
  -1.6                  -1.0116e-07           1.2e-13               -5.6e-13              1.01216e-07          
  -1.7                  -1.0118e-07           1.2e-13               -1.8e-13              1.01228e-07          
  -1.8                  -1.012e-07            2e-14                 2.8e-13               1.01242e-07          
  -1.9                  -1.012e-07            1.6e-13               8.6e-13               1.01252e-07          
  -2                    -1.0122e-07           1.8e-13               1.36e-12              1.01268e-07          
  -2.1                  -1.0122e-07           6e-14                 1.96e-12              1.0127e-07           
  -2.2                  -1.0124e-07           1.4e-13               2.72e-12              1.01276e-07          
  -2.3                  -1.0124e-07           4e-14                 3.8e-12               1.01288e-07          
  -2.4                  -1.0126e-07           4e-14                 5.74e-12              1.01294e-07          
  -2.5                  -1.0124e-07           1.6e-13               8.16e-12              1.013e-07            
  -2.6                  -1.0128e-07           6e-14                 1.214e-11             1.0132e-07           
  -2.7                  -1.013e-07            1.6e-13               1.808e-11             1.0132e-07           
  -2.8                  -1.013e-07            1.4e-13               2.704e-11             1.01322e-07          
  -2.9                  -1.0134e-07           1e-13                 4.038e-11             1.0135e-07           
  -3                    -1.0136e-07           -8e-14                6.018e-11             1.0135e-07           
  -3.1                  -1.014e-07            1.2e-13               8.844e-11             1.01356e-07          
  -3.2                  -1.0144e-07           1e-13                 1.2888e-10            1.0136e-07           
  -3.3                  -1.015e-07            1.8e-13               1.8542e-10            1.0137e-07           
  -3.4                  -1.0158e-07           2.2e-13               2.6316e-10            1.01388e-07          
  -3.5                  -1.017e-07            0                     3.691e-10             1.01388e-07          
  -3.6                  -1.0186e-07           1e-13                 5.1102e-10            1.014e-07            
END_DB

BEGIN_DB
 ICCAP_VAR vg         -0.851         
 ICCAP_VAR vb         -0             
 ICCAP_VAR vs         -0             

 #vd                    id                    ig                    ib                    is                   
  -0                    3.0338e-10            -8e-14                -6.02e-12             -2.9132e-10          
  -0.1                  -5.7372e-07           -1e-13                -6.14e-12             5.7382e-07           
  -0.2                  -7.4962e-07           0                     -5.88e-12             7.498e-07            
  -0.3                  -7.6914e-07           -1.2e-13              -5.64e-12             7.6928e-07           
  -0.4                  -7.7042e-07           -6e-14                -5.18e-12             7.7054e-07           
  -0.5                  -7.7074e-07           -2e-14                -4.6e-12              7.7088e-07           
  -0.6                  -7.7096e-07           4e-14                 -4.18e-12             7.7108e-07           
  -0.7                  -7.711e-07            2e-14                 -3.64e-12             7.7124e-07           
  -0.8                  -7.7124e-07           6e-14                 -3.12e-12             7.714e-07            
  -0.9                  -7.7142e-07           -8e-14                -2.68e-12             7.7156e-07           
  -1                    -7.7152e-07           -1e-13                -2.22e-12             7.7166e-07           
  -1.1                  -7.716e-07            6e-14                 -1.7e-12              7.7174e-07           
  -1.2                  -7.7172e-07           -1e-13                -1.22e-12             7.7182e-07           
  -1.3                  -7.7182e-07           -4e-14                -6.8e-13              7.7198e-07           
  -1.4                  -7.7196e-07           1.8e-13               -3.4e-13              7.721e-07            
  -1.5                  -7.7206e-07           1.2e-13               1e-13                 7.7218e-07           
  -1.6                  -7.7214e-07           1e-13                 3.6e-13               7.7228e-07           
  -1.7                  -7.7224e-07           -4e-14                7.4e-13               7.7234e-07           
  -1.8                  -7.7228e-07           -1e-13                1.1e-12               7.7242e-07           
  -1.9                  -7.7234e-07           2e-14                 1.74e-12              7.7248e-07           
  -2                    -7.7242e-07           -2e-14                2.44e-12              7.7256e-07           
  -2.1                  -7.7252e-07           0                     3.3e-12               7.7264e-07           
  -2.2                  -7.7258e-07           1.4e-13               5.06e-12              7.7272e-07           
  -2.3                  -7.7264e-07           8e-14                 7.96e-12              7.7278e-07           
  -2.4                  -7.7272e-07           6e-14                 1.274e-11             7.7286e-07           
  -2.5                  -7.7276e-07           8e-14                 2.082e-11             7.7288e-07           
  -2.6                  -7.729e-07            0                     3.406e-11             7.73e-07             
  -2.7                  -7.7296e-07           4e-14                 5.52e-11              7.7306e-07           
  -2.8                  -7.731e-07            4e-14                 8.916e-11             7.7314e-07           
  -2.9                  -7.732e-07            6e-14                 1.4146e-10            7.7322e-07           
  -3                    -7.7336e-07           6e-14                 2.21e-10              7.7324e-07           
  -3.1                  -7.7352e-07           2e-14                 3.3978e-10            7.7334e-07           
  -3.2                  -7.7378e-07           6e-14                 5.1462e-10            7.7342e-07           
  -3.3                  -7.7408e-07           1e-13                 7.6696e-10            7.7348e-07           
  -3.4                  -7.745e-07            -2e-14                1.12434e-09           7.735e-07            
  -3.5                  -7.7512e-07           6e-14                 1.6246e-09            7.7356e-07           
  -3.6                  -7.758e-07            1.4e-13               2.311e-09             7.736e-07            
END_DB

