! VERSION = 6.00
BEGIN_HEADER
 ICCAP_INPUTS
  vd         V  D GROUND SMU1 0.1 LIN        1    -0         -3.6       37   -0.1      
  vg         V  G GROUND SMU2 0.001 LIST       2 3 -1.669 -1.869 -2.069
  vb         V  B GROUND SMU4 0.1 CON        3.6
  vs         V  S GROUND SMU3 0.1 CON        -0
 ICCAP_OUTPUTS
  id         I  D GROUND SMU1 B
  ig         I  G GROUND SMU2 B
  ib         I  B GROUND SMU4 B
  is         I  S GROUND SMU3 B
 ICCAP_VALUES
  MASTER_SETUP_TYPE "~dc_idvd~"
  LINVT_VALUE ""
  LISTVT_VALUE "|idvg|100.0n|-200.0m|1.000m|3|200.0m|200.0m|"
  TYPE "-1"
  TEMP " 27.0000 "
  IS_TNOM " 1.00000 "
  MAIN.W "300.0n"
  MAIN.L "10.00u"
  MAIN.AD "102.0f"
  MAIN.AS "102.0f"
  MAIN.PD "1.280u"
  MAIN.PS "1.280u"
  MAIN.NF "1.000"
  MAIN.M "1"
  MAIN.NRD "0.000"
  MAIN.NRS "0.000"
  MAIN.LDRIFT1 "1E-06"
  MAIN.LDRIFT2 "1E-06"
  MAIN.SA "0.000"
  MAIN.SB "0.000"
  MAIN.SD "0.000"
  MAIN.SCA "0.000"
  MAIN.SCB "0.000"
  MAIN.SCC "0.000"
  MAIN.SC "0.000"
  MODULE "S555"
  PIN_D "14"
  PIN_G "7"
  PIN_S "8"
  PIN_B "13"
  PIN_E ""
  PIN_6 ""
  XY_ID ""
  FUNC "Narrow"
  STI "SA ref"
  WPE "WPE ref"
  COMMENT ""
  DIS_MEAS ""
  TypeTCI "10"
END_HEADER

BEGIN_DB
 ICCAP_VAR vg         -1.669         
 ICCAP_VAR vb         3.6            
 ICCAP_VAR vs         -0             

 #vd                    id                    ig                    ib                    is                   
  -0                    5.4e-13               -1.4e-13              5.8e-13               4e-14                
  -0.1                  -2.684e-11            -6e-14                5.8e-13               2.66e-11             
  -0.2                  -2.74e-11             -8e-14                4.4e-13               2.74e-11             
  -0.3                  -2.76e-11             6e-14                 3.6e-13               2.716e-11            
  -0.4                  -2.758e-11            2.6e-13               2.8e-13               2.738e-11            
  -0.5                  -2.768e-11            1e-13                 2.8e-13               2.734e-11            
  -0.6                  -2.77e-11             6e-14                 2.6e-13               2.734e-11            
  -0.7                  -2.782e-11            8e-14                 2e-13                 2.728e-11            
  -0.8                  -2.784e-11            2.2e-13               1.6e-13               2.724e-11            
  -0.9                  -2.78e-11             1.4e-13               2e-13                 2.75e-11             
  -1                    -2.796e-11            2.4e-13               1.8e-13               2.732e-11            
  -1.1                  -2.802e-11            2.2e-13               8e-14                 2.738e-11            
  -1.2                  -2.796e-11            3.2e-13               1.2e-13               2.734e-11            
  -1.3                  -2.81e-11             1e-13                 8e-14                 2.732e-11            
  -1.4                  -2.804e-11            1.4e-13               6e-14                 2.73e-11             
  -1.5                  -2.812e-11            2e-13                 6e-14                 2.738e-11            
  -1.6                  -2.81e-11             3e-13                 1.6e-13               2.73e-11             
  -1.7                  -2.822e-11            -6e-14                4e-14                 2.746e-11            
  -1.8                  -2.818e-11            1.4e-13               1e-13                 2.74e-11             
  -1.9                  -2.814e-11            2.2e-13               0                     2.74e-11             
  -2                    -2.818e-11            6e-14                 8e-14                 2.736e-11            
  -2.1                  -2.826e-11            6e-14                 2e-14                 2.748e-11            
  -2.2                  -2.824e-11            2.2e-13               0                     2.732e-11            
  -2.3                  -2.826e-11            -2e-14                2e-14                 2.734e-11            
  -2.4                  -2.83e-11             2.4e-13               0                     2.726e-11            
  -2.5                  -2.834e-11            1e-13                 6e-14                 2.73e-11             
  -2.6                  -2.838e-11            8e-14                 2e-14                 2.728e-11            
  -2.7                  -2.832e-11            3e-13                 -4e-14                2.748e-11            
  -2.8                  -2.834e-11            1e-13                 4e-14                 2.74e-11             
  -2.9                  -2.83e-11             1e-13                 1.4e-13               2.732e-11            
  -3                    -2.838e-11            8e-14                 6e-14                 2.724e-11            
  -3.1                  -2.83e-11             0                     2e-14                 2.738e-11            
  -3.2                  -2.844e-11            -1e-13                -2e-14                2.75e-11             
  -3.3                  -2.854e-11            1e-13                 8e-14                 2.738e-11            
  -3.4                  -2.846e-11            1.6e-13               -2e-14                2.748e-11            
  -3.5                  -2.852e-11            8e-14                 0                     2.74e-11             
  -3.6                  -2.854e-11            1.6e-13               6e-14                 2.748e-11            
END_DB

BEGIN_DB
 ICCAP_VAR vg         -1.869         
 ICCAP_VAR vb         3.6            
 ICCAP_VAR vs         -0             

 #vd                    id                    ig                    ib                    is                   
  -0                    4.04e-12              1e-13                 1.6e-13               -3.2e-12             
  -0.1                  -2.8604e-09           -1.6e-13              1.4e-13               2.8592e-09           
  -0.2                  -3.1162e-09           -1.2e-13              1e-13                 3.1168e-09           
  -0.3                  -3.1238e-09           1.8e-13               6e-14                 3.1238e-09           
  -0.4                  -3.1232e-09           4e-14                 2.4e-13               3.1244e-09           
  -0.5                  -3.1252e-09           6e-14                 2e-14                 3.1258e-09           
  -0.6                  -3.125e-09            0                     8e-14                 3.1252e-09           
  -0.7                  -3.1258e-09           -2e-14                6e-14                 3.1254e-09           
  -0.8                  -3.126e-09            1.8e-13               2e-14                 3.1256e-09           
  -0.9                  -3.1252e-09           2e-14                 2e-14                 3.1266e-09           
  -1                    -3.128e-09            1.4e-13               1.2e-13               3.1274e-09           
  -1.1                  -3.126e-09            2e-14                 2e-14                 3.128e-09            
  -1.2                  -3.1272e-09           6e-14                 2e-14                 3.1286e-09           
  -1.3                  -3.1298e-09           -1.2e-13              2e-14                 3.1298e-09           
  -1.4                  -3.1296e-09           6e-14                 0                     3.1294e-09           
  -1.5                  -3.1288e-09           1.8e-13               2e-14                 3.1266e-09           
  -1.6                  -3.129e-09            0                     -2e-14                3.1292e-09           
  -1.7                  -3.1294e-09           -1.6e-13              8e-14                 3.1284e-09           
  -1.8                  -3.1304e-09           1.4e-13               -8e-14                3.1298e-09           
  -1.9                  -3.1306e-09           0                     -6e-14                3.1288e-09           
  -2                    -3.1306e-09           1.4e-13               -4e-14                3.1296e-09           
  -2.1                  -3.1292e-09           -2e-14                -1e-13                3.13e-09             
  -2.2                  -3.1292e-09           1.2e-13               0                     3.1298e-09           
  -2.3                  -3.13e-09             1.8e-13               -2e-14                3.1302e-09           
  -2.4                  -3.1284e-09           4e-14                 0                     3.128e-09            
  -2.5                  -3.1302e-09           1.4e-13               2e-14                 3.1306e-09           
  -2.6                  -3.132e-09            6e-14                 2e-14                 3.131e-09            
  -2.7                  -3.1314e-09           -8e-14                1e-13                 3.1308e-09           
  -2.8                  -3.13e-09             2.8e-13               -8e-14                3.131e-09            
  -2.9                  -3.1338e-09           -1.4e-13              1.4e-13               3.1324e-09           
  -3                    -3.1336e-09           2e-13                 1.6e-13               3.1314e-09           
  -3.1                  -3.133e-09            2e-14                 3.4e-13               3.1328e-09           
  -3.2                  -3.1344e-09           -2e-14                6.2e-13               3.133e-09            
  -3.3                  -3.1348e-09           -1.6e-13              9.4e-13               3.1342e-09           
  -3.4                  -3.1354e-09           4e-14                 1.5e-12               3.1336e-09           
  -3.5                  -3.1362e-09           1e-13                 2.46e-12              3.1338e-09           
  -3.6                  -3.138e-09            1.6e-13               3.86e-12              3.1338e-09           
END_DB

BEGIN_DB
 ICCAP_VAR vg         -2.069         
 ICCAP_VAR vb         3.6            
 ICCAP_VAR vs         -0             

 #vd                    id                    ig                    ib                    is                   
  -0                    1.292e-11             4e-14                 1.8e-13               -1.132e-11           
  -0.1                  -1.6448e-08           -4e-14                1.8e-13               1.6472e-08           
  -0.2                  -2.3516e-08           6e-14                 2e-14                 2.3526e-08           
  -0.3                  -2.5038e-08           -2.2e-13              1e-13                 2.506e-08            
  -0.4                  -2.5162e-08           -1.4e-13              4e-14                 2.5184e-08           
  -0.5                  -2.5194e-08           2e-14                 6e-14                 2.5216e-08           
  -0.6                  -2.5198e-08           -1.2e-13              0                     2.5212e-08           
  -0.7                  -2.5196e-08           -4e-14                1.2e-13               2.5226e-08           
  -0.8                  -2.52e-08             -2e-14                -6e-14                2.5222e-08           
  -0.9                  -2.5198e-08           0                     2e-14                 2.5224e-08           
  -1                    -2.52e-08             1.4e-13               -2e-14                2.5222e-08           
  -1.1                  -2.5202e-08           1.2e-13               -8e-14                2.5216e-08           
  -1.2                  -2.52e-08             6e-14                 6e-14                 2.5246e-08           
  -1.3                  -2.5218e-08           -1.2e-13              4e-14                 2.5234e-08           
  -1.4                  -2.5212e-08           -2e-14                0                     2.5238e-08           
  -1.5                  -2.521e-08            6e-14                 -1.6e-13              2.5236e-08           
  -1.6                  -2.5224e-08           8e-14                 -1e-13                2.524e-08            
  -1.7                  -2.5224e-08           -1.6e-13              -1e-13                2.524e-08            
  -1.8                  -2.5226e-08           -6e-14                -6e-14                2.5246e-08           
  -1.9                  -2.5216e-08           2e-14                 0                     2.524e-08            
  -2                    -2.5224e-08           6e-14                 -2e-14                2.525e-08            
  -2.1                  -2.5232e-08           1e-13                 -4e-14                2.5252e-08           
  -2.2                  -2.5244e-08           -8e-14                -4e-14                2.5272e-08           
  -2.3                  -2.5242e-08           -1.6e-13              0                     2.5258e-08           
  -2.4                  -2.5224e-08           2e-13                 -4e-14                2.5268e-08           
  -2.5                  -2.5234e-08           1e-13                 -6e-14                2.5268e-08           
  -2.6                  -2.5242e-08           1.4e-13               4e-14                 2.5272e-08           
  -2.7                  -2.5248e-08           2.6e-13               4e-14                 2.5278e-08           
  -2.8                  -2.5252e-08           -6e-14                1.8e-13               2.527e-08            
  -2.9                  -2.5248e-08           0                     1.8e-13               2.5268e-08           
  -3                    -2.525e-08            -1.2e-13              4.8e-13               2.5278e-08           
  -3.1                  -2.526e-08            -1.4e-13              9.2e-13               2.5288e-08           
  -3.2                  -2.5264e-08           1.6e-13               1.76e-12              2.5288e-08           
  -3.3                  -2.5274e-08           1.8e-13               2.94e-12              2.5286e-08           
  -3.4                  -2.5266e-08           2.2e-13               5.12e-12              2.5284e-08           
  -3.5                  -2.5264e-08           1e-13                 8.62e-12              2.5282e-08           
  -3.6                  -2.5264e-08           -2e-13                1.418e-11             2.5284e-08           
END_DB

