! VERSION = 6.00
BEGIN_HEADER
 ICCAP_INPUTS
  vd         V  D GROUND SMU1 0.1 LIN        1    -0         -3.6       37   -0.1      
  vg         V  G GROUND SMU2 0.001 LIST       2 3 -1.675 -1.875 -2.075
  vb         V  B GROUND SMU4 0.1 CON        3.6
  vs         V  S GROUND SMU3 0.1 CON        -0
 ICCAP_OUTPUTS
  id         I  D GROUND SMU1 B
  ig         I  G GROUND SMU2 B
  ib         I  B GROUND SMU4 B
  is         I  S GROUND SMU3 B
 ICCAP_VALUES
  MASTER_SETUP_TYPE "~dc_idvd~"
  LINVT_VALUE ""
  LISTVT_VALUE "|idvg|100.0n|-200.0m|1.000m|3|200.0m|200.0m|"
  TYPE "-1"
  TEMP " 27.0000 "
  IS_TNOM " 1.00000 "
  MAIN.W "600.0n"
  MAIN.L "1.200u"
  MAIN.AD "204.0f"
  MAIN.AS "204.0f"
  MAIN.PD "1.880u"
  MAIN.PS "1.880u"
  MAIN.NF "1.000"
  MAIN.M "1"
  MAIN.NRD "0.000"
  MAIN.NRS "0.000"
  MAIN.LDRIFT1 "1E-06"
  MAIN.LDRIFT2 "1E-06"
  MAIN.SA "0.000"
  MAIN.SB "0.000"
  MAIN.SD "0.000"
  MAIN.SCA "0.000"
  MAIN.SCB "0.000"
  MAIN.SCC "0.000"
  MAIN.SC "0.000"
  MODULE "S564"
  PIN_D "14"
  PIN_G "7"
  PIN_S "8"
  PIN_B "13"
  PIN_E ""
  PIN_6 ""
  XY_ID ""
  FUNC "LW Scale"
  STI "SA ref"
  WPE "WPE ref"
  COMMENT ""
  DIS_MEAS ""
  TypeTCI "10"
END_HEADER

BEGIN_DB
 ICCAP_VAR vg         -1.675         
 ICCAP_VAR vb         3.6            
 ICCAP_VAR vs         -0             

 #vd                    id                    ig                    ib                    is                   
  -0                    7.6e-13               6e-14                 5.4e-13               -5.6e-13             
  -0.1                  -3.8156e-10           -2e-13                3.6e-13               3.812e-10            
  -0.2                  -3.9212e-10           2e-14                 4.4e-13               3.9188e-10           
  -0.3                  -3.94e-10             2.6e-13               2.4e-13               3.9346e-10           
  -0.4                  -3.9538e-10           2.4e-13               2.2e-13               3.9506e-10           
  -0.5                  -3.965e-10            8e-14                 2.2e-13               3.9608e-10           
  -0.6                  -3.9782e-10           8e-14                 1.8e-13               3.9758e-10           
  -0.7                  -3.9924e-10           6e-14                 1.4e-13               3.9852e-10           
  -0.8                  -3.9974e-10           1.6e-13               8e-14                 3.9958e-10           
  -0.9                  -4.0084e-10           -2e-14                2e-13                 4.005e-10            
  -1                    -4.018e-10            -2e-14                0                     4.012e-10            
  -1.1                  -4.0288e-10           3.4e-13               4e-14                 4.021e-10            
  -1.2                  -4.0314e-10           2.4e-13               2e-14                 4.0292e-10           
  -1.3                  -4.0408e-10           2.6e-13               0                     4.0354e-10           
  -1.4                  -4.0476e-10           1.4e-13               -4e-14                4.0442e-10           
  -1.5                  -4.055e-10            4e-14                 -8e-14                4.052e-10            
  -1.6                  -4.0638e-10           2.8e-13               4e-14                 4.0608e-10           
  -1.7                  -4.0682e-10           4.2e-13               6e-14                 4.063e-10            
  -1.8                  -4.0812e-10           1.6e-13               4e-14                 4.0692e-10           
  -1.9                  -4.0872e-10           0                     2e-14                 4.077e-10            
  -2                    -4.0926e-10           -1.8e-13              -2e-14                4.0826e-10           
  -2.1                  -4.0996e-10           3.2e-13               -1.2e-13              4.085e-10            
  -2.2                  -4.1066e-10           2.6e-13               -4e-14                4.099e-10            
  -2.3                  -4.1106e-10           1.8e-13               0                     4.1036e-10           
  -2.4                  -4.1162e-10           3e-13                 4e-14                 4.11e-10             
  -2.5                  -4.1266e-10           2.6e-13               -8e-14                4.117e-10            
  -2.6                  -4.1386e-10           1.2e-13               -2e-14                4.1268e-10           
  -2.7                  -4.14e-10             -1e-13                1e-13                 4.1306e-10           
  -2.8                  -4.1472e-10           1.4e-13               2e-14                 4.1358e-10           
  -2.9                  -4.1552e-10           1.2e-13               -4e-14                4.1422e-10           
  -3                    -4.1564e-10           1.2e-13               0                     4.1446e-10           
  -3.1                  -4.1686e-10           2.8e-13               2e-14                 4.1574e-10           
  -3.2                  -4.1736e-10           1.6e-13               1.4e-13               4.1564e-10           
  -3.3                  -4.18e-10             0                     2.6e-13               4.1668e-10           
  -3.4                  -4.1912e-10           -4e-14                3.8e-13               4.1754e-10           
  -3.5                  -4.1982e-10           1e-13                 6.8e-13               4.1778e-10           
  -3.6                  -4.205e-10            0                     1.04e-12              4.1894e-10           
END_DB

BEGIN_DB
 ICCAP_VAR vg         -1.875         
 ICCAP_VAR vb         3.6            
 ICCAP_VAR vs         -0             

 #vd                    id                    ig                    ib                    is                   
  -0                    5.922e-11             8e-14                 6e-14                 -5.674e-11           
  -0.1                  -4.7244e-08           -1.6e-13              6e-14                 4.7412e-08           
  -0.2                  -5.1394e-08           4e-14                 4e-14                 5.1426e-08           
  -0.3                  -5.181e-08            2e-14                 4e-14                 5.1828e-08           
  -0.4                  -5.1992e-08           -8e-14                -4e-14                5.2014e-08           
  -0.5                  -5.2152e-08           1e-13                 -4e-14                5.2168e-08           
  -0.6                  -5.2256e-08           -1.2e-13              -1e-13                5.2292e-08           
  -0.7                  -5.2378e-08           -1.8e-13              -1.4e-13              5.238e-08            
  -0.8                  -5.2474e-08           -1e-13                -6e-14                5.2494e-08           
  -0.9                  -5.255e-08            4e-14                 -8e-14                5.2602e-08           
  -1                    -5.2634e-08           1.2e-13               -1e-13                5.2614e-08           
  -1.1                  -5.265e-08            1.2e-13               -1.4e-13              5.2684e-08           
  -1.2                  -5.2732e-08           -4e-14                -8e-14                5.2758e-08           
  -1.3                  -5.2816e-08           1.4e-13               -1e-13                5.2852e-08           
  -1.4                  -5.292e-08            2.6e-13               -1.2e-13              5.2998e-08           
  -1.5                  -5.3032e-08           -8e-14                -2e-13                5.3044e-08           
  -1.6                  -5.3086e-08           4e-14                 -8e-14                5.311e-08            
  -1.7                  -5.315e-08            1e-13                 -4e-14                5.32e-08             
  -1.8                  -5.3166e-08           -2e-14                -6e-14                5.319e-08            
  -1.9                  -5.3242e-08           1.4e-13               -1.2e-13              5.3282e-08           
  -2                    -5.33e-08             1e-13                 -1.8e-13              5.3342e-08           
  -2.1                  -5.3378e-08           -1e-13                -1.6e-13              5.3398e-08           
  -2.2                  -5.3454e-08           8e-14                 -1.4e-13              5.3476e-08           
  -2.3                  -5.3482e-08           1e-13                 -8e-14                5.3528e-08           
  -2.4                  -5.3564e-08           -6e-14                -6e-14                5.3588e-08           
  -2.5                  -5.3614e-08           4e-14                 0                     5.3616e-08           
  -2.6                  -5.367e-08            -2e-13                1.4e-13               5.3718e-08           
  -2.7                  -5.3754e-08           6e-14                 5.2e-13               5.3772e-08           
  -2.8                  -5.3788e-08           1.6e-13               1.04e-12              5.382e-08            
  -2.9                  -5.3856e-08           -1.2e-13              1.94e-12              5.3878e-08           
  -3                    -5.3906e-08           2e-14                 3.6e-12               5.3954e-08           
  -3.1                  -5.3968e-08           1.2e-13               6.36e-12              5.3996e-08           
  -3.2                  -5.4048e-08           4e-14                 1.09e-11              5.406e-08            
  -3.3                  -5.4096e-08           0                     1.82e-11              5.4084e-08           
  -3.4                  -5.4186e-08           -2e-14                2.976e-11             5.4172e-08           
  -3.5                  -5.422e-08            -8e-14                4.802e-11             5.4236e-08           
  -3.6                  -5.432e-08            -4e-14                7.544e-11             5.4296e-08           
END_DB

BEGIN_DB
 ICCAP_VAR vg         -2.075         
 ICCAP_VAR vb         3.6            
 ICCAP_VAR vs         -0             

 #vd                    id                    ig                    ib                    is                   
  -0                    2.1822e-10            -1.8e-13              8e-14                 -2.2696e-10          
  -0.1                  -3.0136e-07           3e-13                 -2e-14                3.0156e-07           
  -0.2                  -4.2816e-07           -6e-14                0                     4.2842e-07           
  -0.3                  -4.5958e-07           -2.2e-13              -4e-14                4.5994e-07           
  -0.4                  -4.6604e-07           -1.4e-13              0                     4.6628e-07           
  -0.5                  -4.683e-07            1.4e-13               -2e-14                4.6852e-07           
  -0.6                  -4.6976e-07           1.2e-13               -6e-14                4.7004e-07           
  -0.7                  -4.7074e-07           2.8e-13               -4e-14                4.7074e-07           
  -0.8                  -4.7156e-07           -4e-14                -1.2e-13              4.7196e-07           
  -0.9                  -4.7266e-07           2e-14                 -1.6e-13              4.7296e-07           
  -1                    -4.7346e-07           6e-14                 -1.2e-13              4.737e-07            
  -1.1                  -4.7414e-07           -1e-13                -1.4e-13              4.7438e-07           
  -1.2                  -4.7472e-07           -4e-14                -4e-14                4.7472e-07           
  -1.3                  -4.7508e-07           0                     -6e-14                4.7534e-07           
  -1.4                  -4.7528e-07           -6e-14                -1.6e-13              4.7546e-07           
  -1.5                  -4.758e-07            1e-13                 -1e-13                4.7604e-07           
  -1.6                  -4.7634e-07           6e-14                 -2e-13                4.7666e-07           
  -1.7                  -4.771e-07            -2e-14                -2e-13                4.772e-07            
  -1.8                  -4.774e-07            1.6e-13               -8e-14                4.7756e-07           
  -1.9                  -4.778e-07            6e-14                 -1.6e-13              4.7804e-07           
  -2                    -4.7828e-07           4e-14                 -8e-14                4.7854e-07           
  -2.1                  -4.7868e-07           2e-14                 -1e-13                4.792e-07            
  -2.2                  -4.792e-07            1e-13                 -1.8e-13              4.7978e-07           
  -2.3                  -4.7978e-07           0                     -1.8e-13              4.7982e-07           
  -2.4                  -4.799e-07            2.6e-13               0                     4.803e-07            
  -2.5                  -4.804e-07            -4e-14                2.2e-13               4.8078e-07           
  -2.6                  -4.8088e-07           -1.2e-13              6.6e-13               4.8096e-07           
  -2.7                  -4.813e-07            -4e-14                1.58e-12              4.8156e-07           
  -2.8                  -4.8174e-07           -1.4e-13              3.2e-12               4.8202e-07           
  -2.9                  -4.8214e-07           2e-14                 6.4e-12               4.8234e-07           
  -3                    -4.8282e-07           1e-13                 1.214e-11             4.8302e-07           
  -3.1                  -4.8328e-07           -4e-14                2.218e-11             4.8312e-07           
  -3.2                  -4.8336e-07           1e-13                 3.952e-11             4.8352e-07           
  -3.3                  -4.8372e-07           1.4e-13               6.84e-11              4.839e-07            
  -3.4                  -4.8418e-07           -1.8e-13              1.158e-10             4.843e-07            
  -3.5                  -4.8468e-07           0                     1.9198e-10            4.8504e-07           
  -3.6                  -4.847e-07            4e-14                 3.1158e-10            4.846e-07            
END_DB

