! VERSION = 6.00
BEGIN_HEADER
 ICCAP_INPUTS
  vd         V  D GROUND SMU1 0.1 LIN        1    -0         -3.6       37   -0.1      
  vg         V  G GROUND SMU2 0.001 LIN        2    -1.684     -3.6       5    -0.479    
  vb         V  B GROUND SMU4 0.1 CON        3.6
  vs         V  S GROUND SMU3 0.1 CON        -0
 ICCAP_OUTPUTS
  id         I  D GROUND SMU1 B
  ig         I  G GROUND SMU2 B
  ib         I  B GROUND SMU4 B
  is         I  S GROUND SMU3 B
 ICCAP_VALUES
  MASTER_SETUP_TYPE "~dc_idvd~"
  LINVT_VALUE "|idvg|100.0n|100.0m|1.000m|5|3.600|"
  LISTVT_VALUE ""
  TYPE "-1"
  TEMP " 27.0000 "
  IS_TNOM " 1.00000 "
  MAIN.W "600.0n"
  MAIN.L "350.0n"
  MAIN.AD "204.0f"
  MAIN.AS "204.0f"
  MAIN.PD "1.880u"
  MAIN.PS "1.880u"
  MAIN.NF "1.000"
  MAIN.M "1"
  MAIN.NRD "0.000"
  MAIN.NRS "0.000"
  MAIN.LDRIFT1 "1E-06"
  MAIN.LDRIFT2 "1E-06"
  MAIN.SA "0.000"
  MAIN.SB "0.000"
  MAIN.SD "0.000"
  MAIN.SCA "0.000"
  MAIN.SCB "0.000"
  MAIN.SCC "0.000"
  MAIN.SC "0.000"
  MODULE "S564"
  PIN_D "18"
  PIN_G "3"
  PIN_S "4"
  PIN_B "17"
  PIN_E ""
  PIN_6 ""
  XY_ID ""
  FUNC "LW Scale"
  STI "SA ref"
  WPE "WPE ref"
  COMMENT ""
  DIS_MEAS ""
  TypeTCI "10"
END_HEADER

BEGIN_DB
 ICCAP_VAR vg         -1.684         
 ICCAP_VAR vb         3.6            
 ICCAP_VAR vs         -0             

 #vd                    id                    ig                    ib                    is                   
  -0                    2.4904e-10            -5.8e-13              1.74e-12              -3.1672e-10          
  -0.1                  -3.0076e-07           -5e-13                1.64e-12              3.0194e-07           
  -0.2                  -3.8948e-07           -4.2e-13              1.54e-12              3.8996e-07           
  -0.3                  -4.4002e-07           -3.2e-13              1.38e-12              4.4008e-07           
  -0.4                  -4.826e-07            -2.6e-13              1.38e-12              4.8328e-07           
  -0.5                  -5.1982e-07           -1.4e-13              1.48e-12              5.1956e-07           
  -0.6                  -5.5336e-07           -2e-13                1.34e-12              5.5306e-07           
  -0.7                  -5.888e-07            -2e-13                1.24e-12              5.893e-07            
  -0.8                  -6.23e-07             -2.2e-13              1.26e-12              6.223e-07            
  -0.9                  -6.5398e-07           -1.8e-13              1.16e-12              6.54e-07             
  -1                    -6.8578e-07           -2e-13                1.12e-12              6.8614e-07           
  -1.1                  -7.1864e-07           -2e-14                1.08e-12              7.18e-07             
  -1.2                  -7.4938e-07           -1.4e-13              9.8e-13               7.4958e-07           
  -1.3                  -7.8106e-07           0                     1.02e-12              7.8178e-07           
  -1.4                  -8.1372e-07           -6e-14                1.02e-12              8.1358e-07           
  -1.5                  -8.4556e-07           -1.4e-13              1.04e-12              8.4542e-07           
  -1.6                  -8.7742e-07           -1.6e-13              9.6e-13               8.7826e-07           
  -1.7                  -9.0982e-07           -1.4e-13              1.08e-12              9.1182e-07           
  -1.8                  -9.4504e-07           -6e-14                9.6e-13               9.4578e-07           
  -1.9                  -9.777e-07            0                     1e-12                 9.7828e-07           
  -2                    -1.01072e-06          -1.2e-13              9.8e-13               1.0092e-06           
  -2.1                  -1.04238e-06          -1.8e-13              1.26e-12              1.04294e-06          
  -2.2                  -1.07596e-06          0                     1.98e-12              1.07626e-06          
  -2.3                  -1.11128e-06          -4e-14                3.56e-12              1.11106e-06          
  -2.4                  -1.14554e-06          8e-14                 6.24e-12              1.1472e-06           
  -2.5                  -1.1798e-06           -8e-14                1.18e-11              1.1832e-06           
  -2.6                  -1.2154e-06           -1.6e-13              2.21e-11              1.2194e-06           
  -2.7                  -1.2526e-06           -1e-13                4.054e-11             1.256e-06            
  -2.8                  -1.2892e-06           -6e-14                7.328e-11             1.2936e-06           
  -2.9                  -1.3298e-06           0                     1.2984e-10            1.333e-06            
  -3                    -1.3682e-06           0                     2.2516e-10            1.3728e-06           
  -3.1                  -1.4072e-06           -1.2e-13              3.825e-10             1.4108e-06           
  -3.2                  -1.4382e-06           -8e-14                6.386e-10             1.4506e-06           
  -3.3                  -1.486e-06            -8e-14                1.04458e-09           1.4886e-06           
  -3.4                  -1.5296e-06           -2e-14                1.6854e-09            1.5332e-06           
  -3.5                  -1.5758e-06           -4e-14                2.664e-09             1.575e-06            
  -3.6                  -1.6174e-06           -4e-14                4.1474e-09            1.617e-06            
END_DB

BEGIN_DB
 ICCAP_VAR vg         -2.163         
 ICCAP_VAR vb         3.6            
 ICCAP_VAR vs         -0             

 #vd                    id                    ig                    ib                    is                   
  -0                    2.0236e-09            -1.8e-13              3e-13                 -1.792e-09           
  -0.1                  -3.9366e-06           -8e-14                3.6e-13               3.9408e-06           
  -0.2                  -6.9968e-06           -2.6e-13              4.6e-13               7.0008e-06           
  -0.3                  -9.218e-06            -2.6e-13              3.8e-13               9.2242e-06           
  -0.4                  -1.0746e-05           -2e-13                2.8e-13               1.07504e-05          
  -0.5                  -1.1762e-05           -2e-13                3.4e-13               1.1784e-05           
  -0.6                  -1.247e-05            -2e-13                3.8e-13               1.2488e-05           
  -0.7                  -1.2984e-05           -2e-14                4.8e-13               1.3006e-05           
  -0.8                  -1.3396e-05           -1e-13                4.8e-13               1.3418e-05           
  -0.9                  -1.375e-05            -1.6e-13              3.6e-13               1.3768e-05           
  -1                    -1.4058e-05           -1e-13                3.6e-13               1.4078e-05           
  -1.1                  -1.4342e-05           -2e-14                2.2e-13               1.4362e-05           
  -1.2                  -1.4606e-05           -1.4e-13              4.2e-13               1.4634e-05           
  -1.3                  -1.486e-05            -1.8e-13              3.4e-13               1.488e-05            
  -1.4                  -1.5096e-05           -6e-14                4.2e-13               1.5116e-05           
  -1.5                  -1.5326e-05           -8e-14                4e-13                 1.5346e-05           
  -1.6                  -1.554e-05            -8e-14                3.8e-13               1.5562e-05           
  -1.7                  -1.5754e-05           -2e-14                3.4e-13               1.5768e-05           
  -1.8                  -1.595e-05            1.2e-13               4e-13                 1.597e-05            
  -1.9                  -1.6146e-05           0                     5.6e-13               1.6164e-05           
  -2                    -1.6338e-05           -2e-14                6.2e-13               1.6358e-05           
  -2.1                  -1.653e-05            -6e-14                8.4e-13               1.655e-05            
  -2.2                  -1.6716e-05           -6e-14                1.62e-12              1.6736e-05           
  -2.3                  -1.69e-05             -8e-14                3.68e-12              1.6916e-05           
  -2.4                  -1.7078e-05           -8e-14                7.92e-12              1.7106e-05           
  -2.5                  -1.727e-05            4e-14                 1.698e-11             1.7288e-05           
  -2.6                  -1.745e-05            0                     3.576e-11             1.7474e-05           
  -2.7                  -1.7636e-05           -6e-14                7.222e-11             1.7656e-05           
  -2.8                  -1.7814e-05           -4e-14                1.4012e-10            1.7834e-05           
  -2.9                  -1.7992e-05           -1.6e-13              2.64e-10              1.801e-05            
  -3                    -1.8162e-05           8e-14                 4.8314e-10            1.8182e-05           
  -3.1                  -1.8342e-05           -2e-14                8.6074e-10            1.8362e-05           
  -3.2                  -1.852e-05            0                     1.5036e-09            1.854e-05            
  -3.3                  -1.8702e-05           -8e-14                2.5718e-09            1.8718e-05           
  -3.4                  -1.8882e-05           -2e-14                4.3128e-09            1.8886e-05           
  -3.5                  -1.9048e-05           -8e-14                7.103e-09             1.9066e-05           
  -3.6                  -1.9214e-05           0                     1.1464e-08            1.9204e-05           
END_DB

BEGIN_DB
 ICCAP_VAR vg         -2.642         
 ICCAP_VAR vb         3.6            
 ICCAP_VAR vs         -0             

 #vd                    id                    ig                    ib                    is                   
  -0                    2.5086e-09            -2.4e-13              2.8e-13               -2.5684e-09          
  -0.1                  -7.0564e-06           -2.2e-13              2e-13                 7.0582e-06           
  -0.2                  -1.3378e-05           -1.8e-13              8e-14                 1.3402e-05           
  -0.3                  -1.8918e-05           -1.4e-13              3.2e-13               1.8938e-05           
  -0.4                  -2.364e-05            -2.8e-13              3e-13                 2.3662e-05           
  -0.5                  -2.7574e-05           -1.8e-13              2.6e-13               2.7596e-05           
  -0.6                  -3.0758e-05           -1.8e-13              2e-13                 3.0782e-05           
  -0.7                  -3.3282e-05           -4e-14                2.2e-13               3.3304e-05           
  -0.8                  -3.5252e-05           0                     2.8e-13               3.528e-05            
  -0.9                  -3.6776e-05           -1.6e-13              2.8e-13               3.6804e-05           
  -1                    -3.7986e-05           -6e-14                2.2e-13               3.8006e-05           
  -1.1                  -3.897e-05            -1e-13                2.6e-13               3.8988e-05           
  -1.2                  -3.9774e-05           -1.4e-13              3e-13                 3.9784e-05           
  -1.3                  -4.046e-05            -8e-14                2e-13                 4.048e-05            
  -1.4                  -4.1056e-05           -1.6e-13              1.8e-13               4.1078e-05           
  -1.5                  -4.1604e-05           -6e-14                2e-13                 4.1632e-05           
  -1.6                  -4.212e-05            -1e-13                4e-13                 4.2138e-05           
  -1.7                  -4.2592e-05           -8e-14                3.2e-13               4.2608e-05           
  -1.8                  -4.3034e-05           -4e-14                2e-13                 4.3056e-05           
  -1.9                  -4.3456e-05           -8e-14                3.2e-13               4.3474e-05           
  -2                    -4.3852e-05           -8e-14                2.8e-13               4.3884e-05           
  -2.1                  -4.4242e-05           -8e-14                1.6e-13               4.4236e-05           
  -2.2                  -4.4608e-05           -1.4e-13              4.8e-13               4.4634e-05           
  -2.3                  -4.4972e-05           2e-14                 1.22e-12              4.4988e-05           
  -2.4                  -4.5314e-05           -1.4e-13              2.46e-12              4.5338e-05           
  -2.5                  -4.5658e-05           -1.2e-13              5.44e-12              4.5672e-05           
  -2.6                  -4.5984e-05           -2e-14                1.25e-11              4.6022e-05           
  -2.7                  -4.6316e-05           8e-14                 2.746e-11             4.6348e-05           
  -2.8                  -4.664e-05            -1.2e-13              5.73e-11              4.666e-05            
  -2.9                  -4.6958e-05           -6e-14                1.1606e-10            4.6974e-05           
  -3                    -4.7266e-05           2e-14                 2.2534e-10            4.7284e-05           
  -3.1                  -4.7564e-05           -2e-14                4.2538e-10            4.7582e-05           
  -3.2                  -4.7862e-05           -2e-14                7.8304e-10            4.785e-05            
  -3.3                  -4.8134e-05           -6e-14                1.4192e-09            4.8144e-05           
  -3.4                  -4.8434e-05           -2e-14                2.4744e-09            4.8454e-05           
  -3.5                  -4.873e-05            1.4e-13               4.2338e-09            4.8664e-05           
  -3.6                  -4.8936e-05           0                     7.16e-09              4.8932e-05           
END_DB

BEGIN_DB
 ICCAP_VAR vg         -3.121         
 ICCAP_VAR vb         3.6            
 ICCAP_VAR vs         -0             

 #vd                    id                    ig                    ib                    is                   
  -0                    2.9744e-09            -2.4e-13              2.2e-13               -3.4194e-09          
  -0.1                  -9.5054e-06           -1.4e-13              6e-14                 9.507e-06            
  -0.2                  -1.8396e-05           -2.2e-13              2.2e-13               1.8424e-05           
  -0.3                  -2.6596e-05           -2e-13                1.6e-13               2.6628e-05           
  -0.4                  -3.4044e-05           -1.2e-13              1.2e-13               3.407e-05            
  -0.5                  -4.0748e-05           -1.2e-13              2.4e-13               4.0758e-05           
  -0.6                  -4.667e-05            -1e-13                1.8e-13               4.668e-05            
  -0.7                  -5.1838e-05           -8e-14                2.2e-13               5.182e-05            
  -0.8                  -5.6244e-05           -1.2e-13              2.4e-13               5.629e-05            
  -0.9                  -6.0034e-05           -1.8e-13              1.8e-13               6.0058e-05           
  -1                    -6.3178e-05           -1.6e-13              1.8e-13               6.3204e-05           
  -1.1                  -6.5806e-05           -8e-14                3e-13                 6.583e-05            
  -1.2                  -6.7938e-05           -1.2e-13              2.2e-13               6.8016e-05           
  -1.3                  -6.9812e-05           -4e-14                1.2e-13               6.9788e-05           
  -1.4                  -7.1332e-05           -6e-14                2.4e-13               7.1364e-05           
  -1.5                  -7.2624e-05           -1e-13                2.4e-13               7.2652e-05           
  -1.6                  -7.3762e-05           -1e-13                3.2e-13               7.3768e-05           
  -1.7                  -7.4714e-05           4e-14                 1.6e-13               7.4728e-05           
  -1.8                  -7.557e-05            1e-13                 1.6e-13               7.5604e-05           
  -1.9                  -7.637e-05            -6e-14                1.6e-13               7.6378e-05           
  -2                    -7.709e-05            -1.4e-13              2.2e-13               7.7126e-05           
  -2.1                  -7.7756e-05           2e-14                 3e-13                 7.7784e-05           
  -2.2                  -7.841e-05            -8e-14                2.2e-13               7.8438e-05           
  -2.3                  -7.899e-05            -1e-13                2e-13                 7.9036e-05           
  -2.4                  -7.959e-05            -6e-14                5e-13                 7.9612e-05           
  -2.5                  -8.0104e-05           -1e-13                1.18e-12              8.0072e-05           
  -2.6                  -8.0618e-05           -1.6e-13              3.16e-12              8.0634e-05           
  -2.7                  -8.1116e-05           -2e-14                7.3e-12               8.1122e-05           
  -2.8                  -8.1592e-05           2e-14                 1.672e-11             8.1602e-05           
  -2.9                  -8.2016e-05           -4e-14                3.622e-11             8.205e-05            
  -3                    -8.246e-05            -2e-14                7.56e-11              8.2456e-05           
  -3.1                  -8.2904e-05           2e-14                 1.5234e-10            8.2902e-05           
  -3.2                  -8.3312e-05           -1e-13                2.9424e-10            8.3246e-05           
  -3.3                  -8.369e-05            -1e-13                5.537e-10             8.3748e-05           
  -3.4                  -8.4146e-05           -2e-14                1.01016e-09           8.4124e-05           
  -3.5                  -8.4504e-05           0                     1.8082e-09            8.4464e-05           
  -3.6                  -8.4742e-05           6e-14                 3.1552e-09            8.4782e-05           
END_DB

BEGIN_DB
 ICCAP_VAR vg         -3.6           
 ICCAP_VAR vb         3.6            
 ICCAP_VAR vs         -0             

 #vd                    id                    ig                    ib                    is                   
  -0                    3.299e-09             -4e-13                8e-14                 -3.8804e-09          
  -0.1                  -1.1504e-05           -3e-13                1e-13                 1.1524e-05           
  -0.2                  -2.2496e-05           -3e-13                2e-13                 2.2512e-05           
  -0.3                  -3.2856e-05           -2.6e-13              6e-14                 3.2872e-05           
  -0.4                  -4.2514e-05           -3e-13                -4e-14                4.252e-05            
  -0.5                  -5.1456e-05           -2e-13                1.6e-13               5.1488e-05           
  -0.6                  -5.9678e-05           -2.6e-13              1.6e-13               5.9702e-05           
  -0.7                  -6.718e-05            -2.2e-13              6e-14                 6.7202e-05           
  -0.8                  -7.391e-05            -1.4e-13              1e-13                 7.3944e-05           
