! VERSION = 6.00
BEGIN_HEADER
 ICCAP_INPUTS
  vd         V  D GROUND SMU1 0.1 LIN        1    -0         -3.6       37   -0.1      
  vg         V  G GROUND SMU2 0.001 LIST       2 3 -1.382 -1.582 -1.782
  vb         V  B GROUND SMU4 0.1 CON        3.6
  vs         V  S GROUND SMU3 0.1 CON        -0
 ICCAP_OUTPUTS
  id         I  D GROUND SMU1 B
  ig         I  G GROUND SMU2 B
  ib         I  B GROUND SMU4 B
  is         I  S GROUND SMU3 B
 ICCAP_VALUES
  MASTER_SETUP_TYPE "~dc_idvd~"
  LINVT_VALUE ""
  LISTVT_VALUE "|idvg|100.0n|-200.0m|1.000m|3|200.0m|200.0m|"
  TYPE "-1"
  TEMP " 70.0000 "
  IS_TNOM " 0.00000 "
  MAIN.W "10.00u"
  MAIN.L "350.0n"
  MAIN.AD "3.400p"
  MAIN.AS "3.400p"
  MAIN.PD "20.68u"
  MAIN.PS "20.68u"
  MAIN.NF "1.000"
  MAIN.M "1"
  MAIN.NRD "0.000"
  MAIN.NRS "0.000"
  MAIN.LDRIFT1 "1E-06"
  MAIN.LDRIFT2 "1E-06"
  MAIN.SA "0.000"
  MAIN.SB "0.000"
  MAIN.SD "0.000"
  MAIN.SCA "0.000"
  MAIN.SCB "0.000"
  MAIN.SCC "0.000"
  MAIN.SC "0.000"
  MODULE "S561"
  PIN_D "16"
  PIN_G "5"
  PIN_S "6"
  PIN_B "15"
  PIN_E ""
  PIN_6 ""
  XY_ID ""
  FUNC "Short"
  STI "SA ref"
  WPE "WPE ref"
  COMMENT ""
  DIS_MEAS ""
  TypeTCI "10"
END_HEADER

BEGIN_DB
 ICCAP_VAR vg         -1.382         
 ICCAP_VAR vb         3.6            
 ICCAP_VAR vs         -0             

 #vd                    id                    ig                    ib                    is                   
  -0                    6.3e-12               0                     1.212e-11             -1.336e-11           
  -0.1                  -9.1966e-09           1.2e-13               1.224e-11             9.1932e-09           
  -0.2                  -1.10688e-08          1.4e-13               1.236e-11             1.1061e-08           
  -0.3                  -1.2592e-08           1.2e-13               1.222e-11             1.2602e-08           
  -0.4                  -1.4088e-08           2.4e-13               1.226e-11             1.4106e-08           
  -0.5                  -1.563e-08            1.8e-13               1.238e-11             1.565e-08            
  -0.6                  -1.7212e-08           1.2e-13               1.232e-11             1.7222e-08           
  -0.7                  -1.8838e-08           2.2e-13               1.23e-11              1.8866e-08           
  -0.8                  -2.0532e-08           1.2e-13               1.236e-11             2.054e-08            
  -0.9                  -2.2292e-08           2.2e-13               1.232e-11             2.2294e-08           
  -1                    -2.4092e-08           2.8e-13               1.24e-11              2.4106e-08           
  -1.1                  -2.6e-08              1.2e-13               1.246e-11             2.6018e-08           
  -1.2                  -2.7978e-08           1.8e-13               1.234e-11             2.8002e-08           
  -1.3                  -3.0026e-08           4e-14                 1.236e-11             3.0058e-08           
  -1.4                  -3.2192e-08           2e-13                 1.222e-11             3.222e-08            
  -1.5                  -3.4438e-08           1e-13                 1.222e-11             3.445e-08            
  -1.6                  -3.68e-08             1.6e-13               1.232e-11             3.6802e-08           
  -1.7                  -3.9254e-08           1.2e-13               1.224e-11             3.9284e-08           
  -1.8                  -4.1876e-08           1.2e-13               1.244e-11             4.1886e-08           
  -1.9                  -4.4592e-08           3.4e-13               1.242e-11             4.4608e-08           
  -2                    -4.7476e-08           6e-14                 1.248e-11             4.7508e-08           
  -2.1                  -5.052e-08            1.6e-13               1.264e-11             5.0544e-08           
  -2.2                  -5.372e-08            2.8e-13               1.282e-11             5.371e-08            
  -2.3                  -5.7046e-08           2.2e-13               1.312e-11             5.711e-08            
  -2.4                  -6.0642e-08           2e-13                 1.386e-11             6.0726e-08           
  -2.5                  -6.446e-08            2e-13                 1.512e-11             6.4474e-08           
  -2.6                  -6.8428e-08           2e-14                 1.742e-11             6.8406e-08           
  -2.7                  -7.2612e-08           1.6e-13               2.164e-11             7.2578e-08           
  -2.8                  -7.7012e-08           4e-14                 2.846e-11             7.7022e-08           
  -2.9                  -8.1698e-08           2.4e-13               3.988e-11             8.166e-08            
  -3                    -8.6594e-08           1.2e-13               5.882e-11             8.6538e-08           
  -3.1                  -9.1674e-08           4e-14                 8.896e-11             9.1658e-08           
  -3.2                  -9.7172e-08           1.2e-13               1.367e-10             9.7084e-08           
  -3.3                  -1.0294e-07           1.6e-13               2.1106e-10            1.02834e-07          
  -3.4                  -1.0906e-07           6e-14                 3.2416e-10            1.08836e-07          
  -3.5                  -1.1546e-07           1.8e-13               4.9436e-10            1.1506e-07           
  -3.6                  -1.2254e-07           1.8e-13               7.4872e-10            1.2194e-07           
END_DB

BEGIN_DB
 ICCAP_VAR vg         -1.582         
 ICCAP_VAR vb         3.6            
 ICCAP_VAR vs         -0             

 #vd                    id                    ig                    ib                    is                   
  -0                    9.638e-10             -1e-13                1.154e-11             -9.7094e-10          
  -0.1                  -9.0838e-07           -1.2e-13              1.174e-11             9.0882e-07           
  -0.2                  -1.14528e-06          2e-14                 1.17e-11              1.14422e-06          
  -0.3                  -1.3102e-06           -4e-14                1.184e-11             1.314e-06            
  -0.4                  -1.4596e-06           -4e-14                1.192e-11             1.4624e-06           
  -0.5                  -1.601e-06            -4e-14                1.202e-11             1.6054e-06           
  -0.6                  -1.74e-06             -1.4e-13              1.2e-11               1.7408e-06           
  -0.7                  -1.8718e-06           -8e-14                1.206e-11             1.8774e-06           
  -0.8                  -2.0082e-06           2e-14                 1.216e-11             2.0114e-06           
  -0.9                  -2.1428e-06           6e-14                 1.22e-11              2.1466e-06           
  -1                    -2.2778e-06           8e-14                 1.212e-11             2.2816e-06           
  -1.1                  -2.4162e-06           -2e-14                1.218e-11             2.4194e-06           
  -1.2                  -2.5542e-06           0                     1.206e-11             2.558e-06            
  -1.3                  -2.6954e-06           0                     1.206e-11             2.698e-06            
  -1.4                  -2.8378e-06           -8e-14                1.218e-11             2.8438e-06           
  -1.5                  -2.9836e-06           8e-14                 1.22e-11              2.9868e-06           
  -1.6                  -3.1296e-06           2e-14                 1.218e-11             3.133e-06            
  -1.7                  -3.28e-06             0                     1.22e-11              3.2812e-06           
  -1.8                  -3.4276e-06           6e-14                 1.248e-11             3.4302e-06           
  -1.9                  -3.5826e-06           1e-13                 1.3e-11               3.5848e-06           
  -2                    -3.741e-06            6e-14                 1.412e-11             3.744e-06            
  -2.1                  -3.9026e-06           1.2e-13               1.646e-11             3.9056e-06           
  -2.2                  -4.069e-06            1.4e-13               2.146e-11             4.0784e-06           
  -2.3                  -4.241e-06            4e-14                 3.156e-11             4.2412e-06           
  -2.4                  -4.4156e-06           2e-14                 5.098e-11             4.4152e-06           
  -2.5                  -4.5922e-06           4e-14                 8.746e-11             4.5974e-06           
  -2.6                  -4.775e-06            -1e-13                1.5356e-10            4.778e-06            
  -2.7                  -4.9636e-06           4e-14                 2.7056e-10            4.9688e-06           
  -2.8                  -5.1548e-06           -4e-14                4.721e-10             5.1558e-06           
  -2.9                  -5.3548e-06           -2e-14                8.1484e-10            5.3604e-06           
  -3                    -5.555e-06            4e-14                 1.38e-09              5.5602e-06           
  -3.1                  -5.7678e-06           1.2e-13               2.2972e-09            5.768e-06            
  -3.2                  -5.985e-06            2e-14                 3.7572e-09            5.9812e-06           
  -3.3                  -6.1988e-06           1.6e-13               6.0442e-09            6.1966e-06           
  -3.4                  -6.43e-06             0                     9.561e-09             6.4332e-06           
  -3.5                  -6.6568e-06           0                     1.4842e-08            6.6516e-06           
  -3.6                  -6.9022e-06           -2e-14                2.2764e-08            6.8844e-06           
END_DB

BEGIN_DB
 ICCAP_VAR vg         -1.782         
 ICCAP_VAR vb         3.6            
 ICCAP_VAR vs         -0             

 #vd                    id                    ig                    ib                    is                   
  -0                    2.5502e-09            -2.8e-13              1.154e-11             -3.7848e-09          
  -0.1                  -1.185e-05            -1.8e-13              1.17e-11              1.1854e-05           
  -0.2                  -1.6842e-05           -8e-14                1.178e-11             1.6846e-05           
  -0.3                  -1.9372e-05           -2e-14                1.19e-11              1.9398e-05           
  -0.4                  -2.1122e-05           -1.4e-13              1.178e-11             2.1126e-05           
  -0.5                  -2.2526e-05           -1.4e-13              1.198e-11             2.2544e-05           
  -0.6                  -2.371e-05            -1.6e-13              1.204e-11             2.37e-05             
  -0.7                  -2.4806e-05           -1e-13                1.202e-11             2.4802e-05           
  -0.8                  -2.5838e-05           0                     1.208e-11             2.5858e-05           
  -0.9                  -2.6814e-05           2e-14                 1.218e-11             2.683e-05            
  -1                    -2.7768e-05           -2e-14                1.214e-11             2.7768e-05           
  -1.1                  -2.8696e-05           -4e-14                1.212e-11             2.8686e-05           
  -1.2                  -2.9576e-05           -4e-14                1.212e-11             2.96e-05             
  -1.3                  -3.0458e-05           -1e-13                1.208e-11             3.0472e-05           
  -1.4                  -3.132e-05            4e-14                 1.212e-11             3.1304e-05           
  -1.5                  -3.214e-05            -4e-14                1.226e-11             3.2156e-05           
  -1.6                  -3.3022e-05           -4e-14                1.222e-11             3.2992e-05           
  -1.7                  -3.3808e-05           -1.4e-13              1.232e-11             3.3804e-05           
  -1.8                  -3.4612e-05           -6e-14                1.294e-11             3.464e-05            
  -1.9                  -3.5446e-05           4e-14                 1.418e-11             3.5458e-05           
  -2                    -3.6264e-05           6e-14                 1.72e-11              3.6268e-05           
  -2.1                  -3.7076e-05           -4e-14                2.424e-11             3.7076e-05           
  -2.2                  -3.7878e-05           -6e-14                3.952e-11             3.7916e-05           
  -2.3                  -3.8718e-05           6e-14                 7.122e-11             3.8718e-05           
  -2.4                  -3.953e-05            -8e-14                1.3486e-10            3.9502e-05           
  -2.5                  -4.0306e-05           -2e-14                2.5752e-10            4.031e-05            
  -2.6                  -4.1116e-05           -6e-14                4.8676e-10            4.1138e-05           
  -2.7                  -4.196e-05            -2e-14                9.0184e-10            4.1994e-05           
  -2.8                  -4.281e-05            8e-14                 1.6294e-09            4.2792e-05           
  -2.9                  -4.3636e-05           0                     2.882e-09             4.3648e-05           
  -3                    -4.4494e-05           -2e-14                4.9856e-09            4.4504e-05           
  -3.1                  -4.5324e-05           2e-14                 8.4336e-09            4.5314e-05           
  -3.2                  -4.619e-05            -1e-13                1.4006e-08            4.619e-05            
  -3.3                  -4.7066e-05           -1e-13                2.285e-08             4.7072e-05           
  -3.4                  -4.7968e-05           4e-14                 3.6606e-08            4.7948e-05           
  -3.5                  -4.8904e-05           0                     5.762e-08             4.8832e-05           
  -3.6                  -4.9832e-05           0                     8.9238e-08            4.973e-05            
END_DB

