! VERSION = 6.00
BEGIN_HEADER
 ICCAP_INPUTS
  vg         V  G GROUND SMU2 0.001 LIN        1    0.5        -3.6       83   -0.05     
  vb         V  B GROUND SMU4 0.1 LIN        2    0          3.6        5    0.9       
  vd         V  D GROUND SMU1 0.1 LIN        3    -0.1       -3.3       3    -1.6      
  vs         V  S GROUND SMU3 0.1 CON        -0
 ICCAP_OUTPUTS
  id         I  D GROUND SMU1 B
  ig         I  G GROUND SMU2 B
  ib         I  B GROUND SMU4 B
  is         I  S GROUND SMU3 B
 ICCAP_VALUES
  MASTER_SETUP_TYPE "~dc_idvg~"
  LINVT_VALUE ""
  LISTVT_VALUE ""
  TYPE "-1"
  TEMP " 125.000 "
  IS_TNOM " 0.00000 "
  MAIN.W "10.00u"
  MAIN.L "10.00u"
  MAIN.AD "3.400p"
  MAIN.AS "3.400p"
  MAIN.PD "20.68u"
  MAIN.PS "20.68u"
  MAIN.NF "1.000"
  MAIN.M "1"
  MAIN.NRD "0.000"
  MAIN.NRS "0.000"
  MAIN.LDRIFT1 "1E-06"
  MAIN.LDRIFT2 "1E-06"
  MAIN.SA "0.000"
  MAIN.SB "0.000"
  MAIN.SD "0.000"
  MAIN.SCA "0.000"
  MAIN.SCB "0.000"
  MAIN.SCC "0.000"
  MAIN.SC "0.000"
  MODULE "S562"
  PIN_D "16"
  PIN_G "5"
  PIN_S "6"
  PIN_B "15"
  PIN_E ""
  PIN_6 ""
  XY_ID ""
  FUNC "Large"
  STI "SA ref"
  WPE "WPE ref"
  COMMENT ""
  DIS_MEAS ""
  TypeTCI "10"
END_HEADER

BEGIN_DB
 ICCAP_VAR vb         0              
 ICCAP_VAR vd         -0.1           
 ICCAP_VAR vs         -0             

 #vg                    id                    ig                    ib                    is                   
  0.5                   -1.26e-12             2.0364e-08            -2.0348e-08           -5.4e-13             
  0.45                  5.68e-12              4.7816e-09            -4.8116e-09           -1.6e-13             
  0.4                   3.4e-13               1.1188e-09            -1.1578e-09           2.2e-13              
  0.35                  -2e-14                2.6336e-10            -2.986e-10            2e-14                
  0.3                   -3e-13                6.196e-11             -9.688e-11            -2e-14               
  0.25                  -2.2e-13              1.47e-11              -4.754e-11            2.4e-13              
  0.2                   -3e-13                3.54e-12              -3.462e-11            3.2e-13              
  0.15                  -8e-13                8e-13                 -3.076e-11            4.2e-13              
  0.1                   -1.28e-12             0                     -2.888e-11            7.8e-13              
  0.05                  -2.3e-12              -1e-13                -2.694e-11            1.64e-12             
  0                     -4.74e-12             -2.2e-13              -2.582e-11            4.1e-12              
  -0.05                 -1.024e-11            -2e-13                -2.52e-11             9.14e-12             
  -0.1                  -2.318e-11            -2.4e-13              -2.428e-11            2.206e-11            
  -0.15                 -5.442e-11            -3.8e-13              -2.38e-11             5.368e-11            
  -0.2                  -1.3092e-10           -3.6e-13              -2.34e-11             1.3008e-10           
  -0.25                 -3.1918e-10           -4e-13                -2.254e-11            3.188e-10            
  -0.3                  -7.862e-10            -4e-13                -2.232e-11            7.8578e-10           
  -0.35                 -1.9504e-09           -3.2e-13              -2.146e-11            1.9498e-09           
  -0.4                  -4.7928e-09           -4.8e-13              -2.056e-11            4.7918e-09           
  -0.45                 -1.1504e-08           -3.2e-13              -2.018e-11            1.152e-08            
  -0.5                  -2.624e-08            -4.2e-13              -1.94e-11             2.6256e-08           
  -0.55                 -5.5224e-08           -4.2e-13              -1.93e-11             5.5248e-08           
  -0.6                  -1.04442e-07          -5.8e-13              -1.88e-11             1.04464e-07          
  -0.65                 -1.7734e-07           -5.8e-13              -1.778e-11            1.774e-07            
  -0.7                  -2.7294e-07           -6.4e-13              -1.82e-11             2.7302e-07           
  -0.75                 -3.8732e-07           -5.6e-13              -1.744e-11            3.874e-07            
  -0.8                  -5.1416e-07           -6.2e-13              -1.732e-11            5.1424e-07           
  -0.85                 -6.4974e-07           -6.2e-13              -1.61e-11             6.4986e-07           
  -0.9                  -7.8988e-07           -6.4e-13              -1.61e-11             7.9e-07              
  -0.95                 -9.3328e-07           -6.8e-13              -1.624e-11            9.3342e-07           
  -1                    -1.07738e-06          -6.4e-13              -1.558e-11            1.07756e-06          
  -1.05                 -1.2212e-06           -6.4e-13              -1.508e-11            1.2242e-06           
  -1.1                  -1.3652e-06           -7.8e-13              -1.434e-11            1.3682e-06           
  -1.15                 -1.509e-06            -7.4e-13              -1.482e-11            1.512e-06            
  -1.2                  -1.651e-06            -8.4e-13              -1.42e-11             1.654e-06            
  -1.25                 -1.7922e-06           -7e-13                -1.374e-11            1.7952e-06           
  -1.3                  -1.9322e-06           -8.4e-13              -1.404e-11            1.935e-06            
  -1.35                 -2.0698e-06           -8.6e-13              -1.31e-11             2.0728e-06           
  -1.4                  -2.2066e-06           -8.4e-13              -1.334e-11            2.2096e-06           
  -1.45                 -2.3412e-06           -9.6e-13              -1.308e-11            2.3442e-06           
  -1.5                  -2.4746e-06           -8.8e-13              -1.276e-11            2.4776e-06           
  -1.55                 -2.606e-06            -9e-13                -1.296e-11            2.609e-06            
  -1.6                  -2.7362e-06           -8.8e-13              -1.244e-11            2.7392e-06           
  -1.65                 -2.8644e-06           -8.6e-13              -1.234e-11            2.8674e-06           
  -1.7                  -2.991e-06            -9.6e-13              -1.166e-11            2.994e-06            
  -1.75                 -3.1164e-06           -9e-13                -1.164e-11            3.1194e-06           
  -1.8                  -3.2398e-06           -1e-12                -1.172e-11            3.2426e-06           
  -1.85                 -3.3616e-06           -9.6e-13              -1.144e-11            3.3646e-06           
  -1.9                  -3.4818e-06           -1e-12                -1.158e-11            3.4848e-06           
  -1.95                 -3.6008e-06           -1.04e-12             -1.088e-11            3.604e-06            
  -2                    -3.7182e-06           -9.6e-13              -1.044e-11            3.7214e-06           
  -2.05                 -3.834e-06            -1.1e-12              -1.02e-11             3.8368e-06           
  -2.1                  -3.9488e-06           -1.02e-12             -1.07e-11             3.9516e-06           
  -2.15                 -4.0614e-06           -1e-12                -1.052e-11            4.0644e-06           
  -2.2                  -4.1728e-06           -1.06e-12             -9.98e-12             4.1758e-06           
  -2.25                 -4.283e-06            -9.6e-13              -9.84e-12             4.2858e-06           
  -2.3                  -4.3918e-06           -1.1e-12              -9.62e-12             4.3948e-06           
  -2.35                 -4.499e-06            -1.12e-12             -9.54e-12             4.5018e-06           
  -2.4                  -4.6052e-06           -9.2e-13              -9.48e-12             4.608e-06            
  -2.45                 -4.7094e-06           -1.16e-12             -9.06e-12             4.7124e-06           
  -2.5                  -4.8128e-06           -9.4e-13              -8.92e-12             4.8156e-06           
  -2.55                 -4.9144e-06           -1.1e-12              -8.94e-12             4.9174e-06           
  -2.6                  -5.0154e-06           -1.12e-12             -8.86e-12             5.0182e-06           
  -2.65                 -5.115e-06            -9.6e-13              -8.7e-12              5.118e-06            
  -2.7                  -5.2128e-06           -1.18e-12             -8.38e-12             5.2158e-06           
  -2.75                 -5.31e-06             -1.2e-12              -8.42e-12             5.3128e-06           
  -2.8                  -5.406e-06            -1.12e-12             -8.54e-12             5.4088e-06           
  -2.85                 -5.5004e-06           -1.18e-12             -8e-12                5.503e-06            
  -2.9                  -5.5938e-06           -1.2e-12              -8.24e-12             5.5966e-06           
  -2.95                 -5.6856e-06           -1.22e-12             -8.06e-12             5.6886e-06           
  -3                    -5.7768e-06           -1.32e-12             -7.96e-12             5.7798e-06           
  -3.05                 -5.867e-06            -1.18e-12             -7.64e-12             5.8694e-06           
  -3.1                  -5.9552e-06           -1.2e-12              -7.6e-12              5.958e-06            
  -3.15                 -6.043e-06            -1.28e-12             -7.64e-12             6.0458e-06           
  -3.2                  -6.1294e-06           -1.22e-12             -7.42e-12             6.1322e-06           
  -3.25                 -6.2146e-06           -1.28e-12             -7.56e-12             6.2174e-06           
  -3.3                  -6.299e-06            -1.22e-12             -6.96e-12             6.3018e-06           
  -3.35                 -6.3826e-06           -1.18e-12             -7.38e-12             6.3852e-06           
  -3.4                  -6.4646e-06           -1.2e-12              -7.02e-12             6.4672e-06           
  -3.45                 -6.5454e-06           -1.24e-12             -6.8e-12              6.5482e-06           
  -3.5                  -6.6256e-06           -1.36e-12             -6.64e-12             6.6284e-06           
  -3.55                 -6.705e-06            -1.16e-12             -6.8e-12              6.7074e-06           
  -3.6                  -6.783e-06            -1.22e-12             -6.68e-12             6.7854e-06           
END_DB

BEGIN_DB
 ICCAP_VAR vb         0.9            
 ICCAP_VAR vd         -0.1           
 ICCAP_VAR vs         -0             

 #vg                    id                    ig                    ib                    is                   
  0.5                   -2.54e-12             1.04e-12              5.038e-11             -1.86e-12            
  0.45                  -2.2e-12              7e-13                 4.326e-11             -1.96e-12            
  0.4                   -2.16e-12             3.2e-13               3.838e-11             -1.86e-12            
  0.35                  -1.96e-12             4.4e-13               3.462e-11             -1.88e-12            
  0.3                   -1.86e-12             2.6e-13               3.194e-11             -1.74e-12            
  0.25                  -2.04e-12             2e-13                 2.91e-11              -1.68e-12            
  0.2                   -1.9e-12              2e-13                 2.746e-11             -1.74e-12            
  0.15                  -1.84e-12             4e-14                 2.538e-11             -1.8e-12             
  0.1                   -1.84e-12             6e-14                 2.43e-11              -1.8e-12             
  0.05                  -1.78e-12             0                     2.266e-11             -1.68e-12            
  0                     -1.72e-12             -2e-14                2.222e-11             -2e-12               
  -0.05                 -1.8e-12              -1.2e-13              2.108e-11             -1.64e-12            
  -0.1                  -1.86e-12             -1.4e-13              1.992e-11             -1.64e-12            
  -0.15                 -1.72e-12             -1.4e-13              1.906e-11             -1.62e-12            
  -0.2                  -1.72e-12             -2.8e-13              1.804e-11             -1.52e-12            
  -0.25                 -1.52e-12             -3.8e-13              1.806e-11             -1.52e-12            
  -0.3                  -1.84e-12             -2.4e-13              1.674e-11             -1.6e-12             
  -0.35                 -1.92e-12             -4.6e-13              1.606e-11             -1.08e-12            
  -0.4                  -2.66e-12             -3.4e-13              1.604e-11             -5.8e-13             
  -0.45                 -4.08e-12             -3.8e-13              1.484e-11             1.14e-12             
  -0.5                  -8.38e-12             -4e-13                1.444e-11             5.88e-12             
  -0.55                 -2.108e-11            -3.8e-13              1.346e-11             1.892e-11            
  -0.6                  -5.688e-11            -4e-13                1.336e-11             5.508e-11            
  -0.65                 -1.5808e-10           -4.8e-13              1.226e-11             1.5662e-10           
  -0.7                  -4.4372e-10           -5e-13                1.178e-11             4.4208e-10           
  -0.75                 -1.248e-09            -4.6e-13              1.096e-11             1.2464e-09           
  -0.8                  -3.4488e-09           -5.6e-13              1.04e-11              3.4474e-09           
  -0.85                 -9.216e-09            -6.2e-13              1.066e-11             9.2124e-09           
  -0.9                  -2.278e-08            -5e-13                1.008e-11             2.2794e-08           
  -0.95                 -5.0486e-08           -6.2e-13              1.008e-11             5.0502e-08           
  -1                    -9.789e-08            -6e-13                1.008e-11             9.7918e-08           
  -1.05                 -1.6748e-07           -5.8e-13              9.7e-12               1.6754e-07           
  -1.1                  -2.5644e-07           -5.8e-13              9.64e-12              2.5652e-07           
  -1.15                 -3.6064e-07           -6.4e-13              9.34e-12              3.6072e-07           
  -1.2                  -4.7444e-07           -7.8e-13              9.08e-12              4.7454e-07           
  -1.25                 -5.9498e-07           -8.2e-13              9.24e-12              5.951e-07            
  -1.3                  -7.193e-07            -7e-13                9.04e-12              7.1944e-07           
  -1.35                 -8.4522e-07           -8e-13                9.02e-12              8.453e-07            
  -1.4                  -9.7248e-07           -7.2e-13              8.36e-12              9.7262e-07           
  -1.45                 -1.0995e-06           -9e-13                8.4e-12               1.09968e-06          
  -1.5                  -1.2256e-06           -5.4e-13              8.24e-12              1.2286e-06           
  -1.55                 -1.3518e-06           -9e-13                8.32e-12              1.3548e-06           
  -1.6                  -1.4778e-06           -8e-13                8.1e-12               1.4808e-06           
  -1.65                 -1.6024e-06           -1.02e-12             7.36e-12              1.6054e-06           
  -1.7                  -1.7258e-06           -8.4e-13              8.1e-12               1.7288e-06           
  -1.75                 -1.8484e-06           -8e-13                8.24e-12              1.8514e-06           
  -1.8                  -1.9694e-06           -8.8e-13              7.6e-12               1.9724e-06           
  -1.85                 -2.0892e-06           -8.4e-13              7.74e-12              2.0922e-06           
  -1.9                  -2.2078e-06           -9.6e-13              7.46e-12              2.2108e-06           
  -1.95                 -2.3252e-06           -1.04e-12             7.56e-12              2.3282e-06           
  -2                    -2.4412e-06           -1.04e-12             7.06e-12              2.4442e-06           
  -2.05                 -2.5558e-06           -1.12e-12             7.48e-12              2.5588e-06           
  -2.1                  -2.6694e-06           -1e-12                7.28e-12              2.6724e-06           
  -2.15                 -2.7812e-06           -1.06e-12             6.9e-12               2.7842e-06           
  -2.2                  -2.892e-06            -9.8e-13              6.96e-12              2.8948e-06           
  -2.25                 -3.0012e-06           -1.04e-12             7.38e-12              3.0042e-06           
  -2.3                  -3.1098e-06           -1.1e-12              7e-12                 3.1128e-06           
  -2.35                 -3.2166e-06           -1.08e-12             6.96e-12              3.2194e-06           
  -2.4                  -3.3222e-06           -1.16e-12             7.04e-12              3.3252e-06           
  -2.45                 -3.4264e-06           -1.26e-12             6.5e-12               3.4292e-06           
  -2.5                  -3.5298e-06           -1.08e-12             6.68e-12              3.5328e-06           
  -2.55                 -3.6314e-06           -1.06e-12             6.22e-12              3.6342e-06           
  -2.6                  -3.7322e-06           -1.14e-12             7.1e-12               3.7352e-06           
  -2.65                 -3.832e-06            -1.08e-12             6.68e-12              3.8348e-06           
  -2.7                  -3.9302e-06           -1.14e-12             6.84e-12              3.9332e-06           
  -2.75                 -4.0276e-06           -1.12e-12             6.42e-12              4.0304e-06           
  -2.8                  -4.1236e-06           -1.18e-12             6.68e-12              4.1266e-06           
  -2.85                 -4.2184e-06           -1.16e-12             6.3e-12               4.2214e-06           
  -2.9                  -4.3124e-06           -1.16e-12             6.18e-12              4.3152e-06           
  -2.95                 -4.405e-06            -1.12e-12             6.62e-12              4.4078e-06           
  -3                    -4.4964e-06           -1.18e-12             6.22e-12              4.4992e-06           
  -3.05                 -4.587e-06            -1.26e-12             6.44e-12              4.5898e-06           
  -3.1                  -4.6762e-06           -1.26e-12             5.98e-12              4.679e-06            
  -3.15                 -4.7648e-06           -1.12e-12             5.9e-12               4.7676e-06           
  -3.2                  -4.852e-06            -1.32e-12             6.6e-12               4.8548e-06           
  -3.25                 -4.938e-06            -1.34e-12             6.38e-12              4.9408e-06           
  -3.3                  -5.023e-06            -1.34e-12             6.04e-12              5.026e-06            
  -3.35                 -5.1074e-06           -1.24e-12             6.12e-12              5.1102e-06           
  -3.4                  -5.1902e-06           -1.36e-12             6.56e-12              5.1932e-06           
  -3.45                 -5.2726e-06           -1.36e-12             5.94e-12              5.2752e-06           
