! VERSION = 6.00
BEGIN_HEADER
 ICCAP_INPUTS
  vd         V  D GROUND SMU1 0.1 LIN        1    -0         -3.6       37   -0.1      
  vg         V  G GROUND SMU2 0.001 LIST       2 3 -0.437 -0.637 -0.837
  vb         V  B GROUND SMU4 0.1 CON        -0
  vs         V  S GROUND SMU3 0.1 CON        -0
 ICCAP_OUTPUTS
  id         I  D GROUND SMU1 B
  ig         I  G GROUND SMU2 B
  ib         I  B GROUND SMU4 B
  is         I  S GROUND SMU3 B
 ICCAP_VALUES
  MASTER_SETUP_TYPE "~dc_idvd~"
  LINVT_VALUE ""
  LISTVT_VALUE "|idvg|100.0n|-200.0m|1.000m|3|200.0m|200.0m|"
  TYPE "-1"
  TEMP " 27.0000 "
  IS_TNOM " 1.00000 "
  MAIN.W "300.0n"
  MAIN.L "350.0n"
  MAIN.AD "102.0f"
  MAIN.AS "102.0f"
  MAIN.PD "1.280u"
  MAIN.PS "1.280u"
  MAIN.NF "1.000"
  MAIN.M "1"
  MAIN.NRD "0.000"
  MAIN.NRS "0.000"
  MAIN.LDRIFT1 "1E-06"
  MAIN.LDRIFT2 "1E-06"
  MAIN.SA "0.000"
  MAIN.SB "0.000"
  MAIN.SD "0.000"
  MAIN.SCA "0.000"
  MAIN.SCB "0.000"
  MAIN.SCC "0.000"
  MAIN.SC "0.000"
  MODULE "S565"
  PIN_D "16"
  PIN_G "5"
  PIN_S "6"
  PIN_B "15"
  PIN_E ""
  PIN_6 ""
  XY_ID ""
  FUNC "Small"
  STI "SA ref"
  WPE "WPE ref"
  COMMENT ""
  DIS_MEAS ""
  TypeTCI "10"
END_HEADER

BEGIN_DB
 ICCAP_VAR vg         -0.437         
 ICCAP_VAR vb         -0             
 ICCAP_VAR vs         -0             

 #vd                    id                    ig                    ib                    is                   
  -0                    9.2e-13               5.2e-13               -1.2e-13              -1.24e-12            
  -0.1                  -6.528e-10            4.4e-13               -4e-14                6.508e-10            
  -0.2                  -6.8734e-10           4.6e-13               0                     6.8734e-10           
  -0.3                  -7.0354e-10           4.4e-13               -8e-14                7.0518e-10           
  -0.4                  -7.193e-10            3.2e-13               4e-14                 7.2178e-10           
  -0.5                  -7.3562e-10           2.6e-13               2e-14                 7.34e-10             
  -0.6                  -7.526e-10            4.2e-13               -8e-14                7.4996e-10           
  -0.7                  -7.6664e-10           3.6e-13               -6e-14                7.6646e-10           
  -0.8                  -7.7762e-10           3e-13                 8e-14                 7.7722e-10           
  -0.9                  -7.8982e-10           3.2e-13               -1.4e-13              7.9306e-10           
  -1                    -8.057e-10            3.4e-13               0                     8.05e-10             
  -1.1                  -8.1812e-10           3.4e-13               -2e-14                8.1422e-10           
  -1.2                  -8.291e-10            3.6e-13               -8e-14                8.2978e-10           
  -1.3                  -8.4304e-10           3.8e-13               0                     8.3916e-10           
  -1.4                  -8.5272e-10           2.2e-13               0                     8.5096e-10           
  -1.5                  -8.6758e-10           2.2e-13               -1.4e-13              8.6742e-10           
  -1.6                  -8.803e-10            3.2e-13               4e-14                 8.7958e-10           
  -1.7                  -8.8966e-10           2.6e-13               -4e-14                8.9022e-10           
  -1.8                  -9.017e-10            2.6e-13               -2e-14                9.0414e-10           
  -1.9                  -9.1768e-10           3.6e-13               1e-13                 9.167e-10            
  -2                    -9.2808e-10           3.6e-13               -4e-14                9.29e-10             
  -2.1                  -9.4298e-10           2.6e-13               -4e-14                9.418e-10            
  -2.2                  -9.5246e-10           3.8e-13               -2e-14                9.5096e-10           
  -2.3                  -9.6814e-10           2.2e-13               8e-14                 9.67e-10             
  -2.4                  -9.775e-10            2e-13                 -1e-13                9.762e-10            
  -2.5                  -9.9056e-10           3e-13                 1.8e-13               9.8922e-10           
  -2.6                  -1.0064e-09           3e-13                 2e-13                 1.00592e-09          
  -2.7                  -1.0202e-09           2.4e-13               4.2e-13               1.01598e-09          
  -2.8                  -1.0296e-09           2e-13                 4.6e-13               1.0288e-09           
  -2.9                  -1.0484e-09           2.2e-13               8.4e-13               1.04496e-09          
  -3                    -1.06e-09             3.4e-13               1.22e-12              1.05766e-09          
  -3.1                  -1.0756e-09           1.6e-13               1.92e-12              1.0727e-09           
  -3.2                  -1.0854e-09           1.8e-13               2.82e-12              1.08278e-09          
  -3.3                  -1.1068e-09           1.4e-13               4.02e-12              1.10348e-09          
  -3.4                  -1.1218e-09           2.8e-13               5.72e-12              1.1148e-09           
  -3.5                  -1.1402e-09           4e-13                 8.12e-12              1.1346e-09           
  -3.6                  -1.1602e-09           2.4e-13               1.102e-11             1.1496e-09           
END_DB

BEGIN_DB
 ICCAP_VAR vg         -0.637         
 ICCAP_VAR vb         -0             
 ICCAP_VAR vs         -0             

 #vd                    id                    ig                    ib                    is                   
  -0                    9.628e-11             8e-14                 -1.8e-13              -9.164e-11           
  -0.1                  -6.5058e-08           1e-13                 -4e-14                6.5116e-08           
  -0.2                  -7.101e-08            6e-14                 6e-14                 7.133e-08            
  -0.3                  -7.3634e-08           1e-13                 0                     7.3616e-08           
  -0.4                  -7.5198e-08           6e-14                 -1e-13                7.4824e-08           
  -0.5                  -7.634e-08            1.6e-13               4e-14                 7.6662e-08           
  -0.6                  -7.8084e-08           1.6e-13               -2e-14                7.7968e-08           
  -0.7                  -7.9198e-08           1.6e-13               4e-14                 7.9186e-08           
  -0.8                  -8.0504e-08           1.6e-13               4e-14                 8.099e-08            
  -0.9                  -8.1926e-08           1.6e-13               8e-14                 8.2018e-08           
  -1                    -8.3418e-08           1.6e-13               1e-13                 8.328e-08            
  -1.1                  -8.4596e-08           8e-14                 1e-13                 8.474e-08            
  -1.2                  -8.5622e-08           8e-14                 1.2e-13               8.5534e-08           
  -1.3                  -8.666e-08            1.6e-13               1.6e-13               8.6662e-08           
  -1.4                  -8.7686e-08           2e-13                 8e-14                 8.78e-08             
  -1.5                  -8.9166e-08           1.4e-13               6e-14                 8.9132e-08           
  -1.6                  -9.0142e-08           1.4e-13               1e-13                 9.0194e-08           
  -1.7                  -9.121e-08            8e-14                 -4e-14                9.1364e-08           
  -1.8                  -9.2436e-08           1.2e-13               8e-14                 9.2524e-08           
  -1.9                  -9.3556e-08           1.4e-13               8e-14                 9.3432e-08           
  -2                    -9.435e-08            1.4e-13               2e-13                 9.4378e-08           
  -2.1                  -9.5342e-08           1.8e-13               6.8e-13               9.5494e-08           
  -2.2                  -9.6756e-08           1.4e-13               1.22e-12              9.6462e-08           
  -2.3                  -9.7548e-08           2.2e-13               2.2e-12               9.7602e-08           
  -2.4                  -9.9054e-08           1.8e-13               3.84e-12              9.9076e-08           
  -2.5                  -9.9862e-08           1.8e-13               6.46e-12              9.9934e-08           
  -2.6                  -1.0128e-07           1.2e-13               1.1e-11               1.01266e-07          
  -2.7                  -1.0218e-07           1e-13                 1.812e-11             1.02192e-07          
  -2.8                  -1.036e-07            2e-14                 2.91e-11              1.03326e-07          
  -2.9                  -1.0432e-07           1e-13                 4.608e-11             1.04824e-07          
  -3                    -1.0566e-07           8e-14                 7.168e-11             1.05706e-07          
  -3.1                  -1.073e-07            4e-14                 1.0908e-10            1.07288e-07          
  -3.2                  -1.0826e-07           1.2e-13               1.6336e-10            1.08514e-07          
  -3.3                  -1.097e-07            1e-13                 2.401e-10             1.09808e-07          
  -3.4                  -1.1112e-07           1.8e-13               3.451e-10             1.10742e-07          
  -3.5                  -1.1226e-07           1.4e-13               4.947e-10             1.12338e-07          
  -3.6                  -1.141e-07            4e-14                 6.8806e-10            1.13546e-07          
END_DB

BEGIN_DB
 ICCAP_VAR vg         -0.837         
 ICCAP_VAR vb         -0             
 ICCAP_VAR vs         -0             

 #vd                    id                    ig                    ib                    is                   
  -0                    5.2026e-10            -8e-14                -1.8e-13              -5.3956e-10          
  -0.1                  -7.2864e-07           -4e-14                -4e-14                7.2784e-07           
  -0.2                  -9.6454e-07           4e-14                 -4e-14                9.6484e-07           
  -0.3                  -1.03288e-06          -6e-14                2e-14                 1.03324e-06          
  -0.4                  -1.06374e-06          1.6e-13               0                     1.06428e-06          
  -0.5                  -1.08498e-06          6e-14                 0                     1.08536e-06          
  -0.6                  -1.10232e-06          2e-14                 0                     1.1029e-06           
  -0.7                  -1.1172e-06           8e-14                 2e-14                 1.1183e-06           
  -0.8                  -1.13012e-06          1.2e-13               2e-14                 1.13044e-06          
  -0.9                  -1.1444e-06           -4e-14                -2e-14                1.1463e-06           
  -1                    -1.1572e-06           4e-14                 0                     1.1606e-06           
  -1.1                  -1.169e-06            0                     2e-14                 1.1726e-06           
  -1.2                  -1.1806e-06           -1e-13                -1e-13                1.1836e-06           
  -1.3                  -1.1906e-06           4e-14                 -4e-14                1.1958e-06           
  -1.4                  -1.2028e-06           1e-13                 2e-14                 1.2154e-06           
  -1.5                  -1.2208e-06           4e-14                 0                     1.2258e-06           
  -1.6                  -1.2322e-06           0                     -2e-14                1.2356e-06           
  -1.7                  -1.2422e-06           1.4e-13               1.8e-13               1.246e-06            
  -1.8                  -1.2532e-06           1.4e-13               2e-13                 1.2578e-06           
  -1.9                  -1.2636e-06           8e-14                 5.8e-13               1.2674e-06           
  -2                    -1.274e-06            2e-13                 1.32e-12              1.2776e-06           
  -2.1                  -1.2842e-06           1e-13                 2.82e-12              1.2868e-06           
  -2.2                  -1.2928e-06           1e-13                 5.8e-12               1.2964e-06           
  -2.3                  -1.3026e-06           6e-14                 1.142e-11             1.306e-06            
  -2.4                  -1.3118e-06           1e-13                 2.138e-11             1.316e-06            
  -2.5                  -1.323e-06            8e-14                 3.88e-11              1.3268e-06           
  -2.6                  -1.3336e-06           1.6e-13               6.768e-11             1.3336e-06           
  -2.7                  -1.3406e-06           8e-14                 1.1568e-10            1.3464e-06           
  -2.8                  -1.3528e-06           1.2e-13               1.9252e-10            1.357e-06            
  -2.9                  -1.3628e-06           1.8e-13               3.1162e-10            1.3654e-06           
  -3                    -1.3686e-06           2e-13                 4.9648e-10            1.372e-06            
  -3.1                  -1.383e-06            4e-14                 7.75e-10              1.386e-06            
  -3.2                  -1.3958e-06           1.4e-13               1.1884e-09            1.3964e-06           
  -3.3                  -1.4032e-06           1.4e-13               1.784e-09             1.4064e-06           
  -3.4                  -1.416e-06            1.8e-13               2.6324e-09            1.416e-06            
  -3.5                  -1.4268e-06           2.8e-13               3.8168e-09            1.4266e-06           
  -3.6                  -1.4496e-06           1.6e-13               5.4544e-09            1.4376e-06           
END_DB

