! VERSION = 6.00
BEGIN_HEADER
 ICCAP_INPUTS
  vd         V  D GROUND SMU1 0.1 LIN        1    -0         -3.6       37   -0.1      
  vg         V  G GROUND SMU2 0.001 LIST       2 3 -1.674 -1.874 -2.074
  vb         V  B GROUND SMU4 0.1 CON        3.6
  vs         V  S GROUND SMU3 0.1 CON        -0
 ICCAP_OUTPUTS
  id         I  D GROUND SMU1 B
  ig         I  G GROUND SMU2 B
  ib         I  B GROUND SMU4 B
  is         I  S GROUND SMU3 B
 ICCAP_VALUES
  MASTER_SETUP_TYPE "~dc_idvd~"
  LINVT_VALUE ""
  LISTVT_VALUE "|idvg|100.0n|-200.0m|1.000m|3|200.0m|200.0m|"
  TYPE "-1"
  TEMP " 27.0000 "
  IS_TNOM " 1.00000 "
  MAIN.W "2.000u"
  MAIN.L "1.200u"
  MAIN.AD "680.0f"
  MAIN.AS "680.0f"
  MAIN.PD "4.680u"
  MAIN.PS "4.680u"
  MAIN.NF "1.000"
  MAIN.M "1"
  MAIN.NRD "0.000"
  MAIN.NRS "0.000"
  MAIN.LDRIFT1 "1E-06"
  MAIN.LDRIFT2 "1E-06"
  MAIN.SA "0.000"
  MAIN.SB "0.000"
  MAIN.SD "0.000"
  MAIN.SCA "0.000"
  MAIN.SCB "0.000"
  MAIN.SCC "0.000"
  MAIN.SC "0.000"
  MODULE "S563"
  PIN_D "16"
  PIN_G "5"
  PIN_S "6"
  PIN_B "15"
  PIN_E ""
  PIN_6 ""
  XY_ID ""
  FUNC "LW Scale"
  STI "SA ref"
  WPE "WPE ref"
  COMMENT ""
  DIS_MEAS ""
  TypeTCI "10"
END_HEADER

BEGIN_DB
 ICCAP_VAR vg         -1.674         
 ICCAP_VAR vb         3.6            
 ICCAP_VAR vs         -0             

 #vd                    id                    ig                    ib                    is                   
  -0                    1.54e-12              -2e-14                5.8e-13               -3.2e-12             
  -0.1                  -1.3674e-09           -8e-14                5.4e-13               1.3688e-09           
  -0.2                  -1.402e-09            0                     3.2e-13               1.4032e-09           
  -0.3                  -1.4062e-09           0                     3.6e-13               1.4072e-09           
  -0.4                  -1.4086e-09           8e-14                 3.6e-13               1.4096e-09           
  -0.5                  -1.411e-09            6e-14                 3.4e-13               1.4124e-09           
  -0.6                  -1.4132e-09           2e-13                 2.8e-13               1.4144e-09           
  -0.7                  -1.4146e-09           8e-14                 3.6e-13               1.417e-09            
  -0.8                  -1.4176e-09           1.6e-13               3.6e-13               1.418e-09            
  -0.9                  -1.4204e-09           1.2e-13               2.2e-13               1.4224e-09           
  -1                    -1.4234e-09           1.4e-13               4e-13                 1.4236e-09           
  -1.1                  -1.4248e-09           2.2e-13               2.4e-13               1.4252e-09           
  -1.2                  -1.4258e-09           4e-14                 3.6e-13               1.426e-09            
  -1.3                  -1.427e-09            2.8e-13               3.8e-13               1.4278e-09           
  -1.4                  -1.4288e-09           8e-14                 2.4e-13               1.4284e-09           
  -1.5                  -1.4298e-09           1.2e-13               3.2e-13               1.4302e-09           
  -1.6                  -1.4308e-09           1.8e-13               2.2e-13               1.431e-09            
  -1.7                  -1.4322e-09           4e-14                 1.8e-13               1.4322e-09           
  -1.8                  -1.433e-09            1.2e-13               2.2e-13               1.4336e-09           
  -1.9                  -1.4344e-09           8e-14                 1.8e-13               1.4352e-09           
  -2                    -1.4356e-09           1.8e-13               1.8e-13               1.4356e-09           
  -2.1                  -1.4366e-09           1e-13                 1.2e-13               1.4368e-09           
  -2.2                  -1.4374e-09           1.2e-13               2e-13                 1.4378e-09           
  -2.3                  -1.439e-09            8e-14                 2.2e-13               1.4384e-09           
  -2.4                  -1.4396e-09           2e-13                 1.8e-13               1.44e-09             
  -2.5                  -1.4408e-09           6e-14                 2.6e-13               1.4406e-09           
  -2.6                  -1.4414e-09           2.2e-13               1.8e-13               1.442e-09            
  -2.7                  -1.4436e-09           6e-14                 2.8e-13               1.4428e-09           
  -2.8                  -1.444e-09            2.4e-13               3.4e-13               1.4432e-09           
  -2.9                  -1.4448e-09           8e-14                 2.4e-13               1.4446e-09           
  -3                    -1.446e-09            1.6e-13               4e-13                 1.4456e-09           
  -3.1                  -1.4472e-09           2.2e-13               5.4e-13               1.4456e-09           
  -3.2                  -1.448e-09            1.6e-13               8.4e-13               1.4468e-09           
  -3.3                  -1.4494e-09           2e-14                 1.12e-12              1.4482e-09           
  -3.4                  -1.451e-09            1.2e-13               1.74e-12              1.4496e-09           
  -3.5                  -1.4528e-09           8e-14                 2.78e-12              1.45e-09             
  -3.6                  -1.4548e-09           1.8e-13               4.08e-12              1.4514e-09           
END_DB

BEGIN_DB
 ICCAP_VAR vg         -1.874         
 ICCAP_VAR vb         3.6            
 ICCAP_VAR vs         -0             

 #vd                    id                    ig                    ib                    is                   
  -0                    1.5936e-10            -8e-14                1.6e-13               -1.6728e-10          
  -0.1                  -1.5768e-07           -8e-14                6e-14                 1.5786e-07           
  -0.2                  -1.7328e-07           -6e-14                1e-13                 1.735e-07            
  -0.3                  -1.7456e-07           -4e-14                1.4e-13               1.7454e-07           
  -0.4                  -1.7476e-07           6e-14                 4e-14                 1.7506e-07           
  -0.5                  -1.7524e-07           4e-14                 8e-14                 1.7534e-07           
  -0.6                  -1.753e-07            2e-14                 1.6e-13               1.7556e-07           
  -0.7                  -1.7572e-07           0                     6e-14                 1.7586e-07           
  -0.8                  -1.76e-07             1.6e-13               1.6e-13               1.7606e-07           
  -0.9                  -1.7608e-07           8e-14                 1.8e-13               1.7628e-07           
  -1                    -1.7634e-07           2e-14                 1.4e-13               1.7646e-07           
  -1.1                  -1.7652e-07           8e-14                 1e-13                 1.7666e-07           
  -1.2                  -1.7656e-07           8e-14                 1.2e-13               1.7672e-07           
  -1.3                  -1.7662e-07           1.2e-13               1.2e-13               1.7682e-07           
  -1.4                  -1.7684e-07           1e-13                 1.4e-13               1.7698e-07           
  -1.5                  -1.77e-07             0                     1e-13                 1.7718e-07           
  -1.6                  -1.7714e-07           -8e-14                8e-14                 1.7746e-07           
  -1.7                  -1.7746e-07           8e-14                 8e-14                 1.7768e-07           
  -1.8                  -1.776e-07            0                     1.2e-13               1.778e-07            
  -1.9                  -1.7774e-07           1.6e-13               1.4e-13               1.779e-07            
  -2                    -1.7768e-07           8e-14                 1.6e-13               1.7782e-07           
  -2.1                  -1.7786e-07           6e-14                 1.2e-13               1.7804e-07           
  -2.2                  -1.7808e-07           1.2e-13               1.8e-13               1.7824e-07           
  -2.3                  -1.7808e-07           8e-14                 2.2e-13               1.7816e-07           
  -2.4                  -1.781e-07            0                     2.8e-13               1.7842e-07           
  -2.5                  -1.7814e-07           4e-14                 6.4e-13               1.7824e-07           
  -2.6                  -1.7824e-07           1.8e-13               1.12e-12              1.7836e-07           
  -2.7                  -1.7824e-07           2.4e-13               2.02e-12              1.7848e-07           
  -2.8                  -1.7838e-07           1.2e-13               3.64e-12              1.787e-07            
  -2.9                  -1.7862e-07           8e-14                 6.44e-12              1.7874e-07           
  -3                    -1.787e-07            0                     1.132e-11             1.7884e-07           
  -3.1                  -1.7876e-07           2e-14                 1.992e-11             1.789e-07            
  -3.2                  -1.7902e-07           1.4e-13               3.372e-11             1.7926e-07           
  -3.3                  -1.7922e-07           4e-14                 5.634e-11             1.7928e-07           
  -3.4                  -1.7924e-07           -2e-14                9.188e-11             1.7936e-07           
  -3.5                  -1.794e-07            4e-14                 1.4714e-10            1.7956e-07           
  -3.6                  -1.7976e-07           1e-13                 2.3146e-10            1.797e-07            
END_DB

BEGIN_DB
 ICCAP_VAR vg         -2.074         
 ICCAP_VAR vb         3.6            
 ICCAP_VAR vs         -0             

 #vd                    id                    ig                    ib                    is                   
  -0                    5.4922e-10            -4e-14                1e-13                 -5.782e-10           
  -0.1                  -9.444e-07            -2e-13                -2e-14                9.4454e-07           
  -0.2                  -1.3638e-06           -6e-14                1.8e-13               1.3672e-06           
  -0.3                  -1.4782e-06           6e-14                 1.4e-13               1.4818e-06           
  -0.4                  -1.5002e-06           -1.4e-13              2.4e-13               1.5044e-06           
  -0.5                  -1.5074e-06           -2e-14                4e-14                 1.5114e-06           
  -0.6                  -1.5114e-06           1.2e-13               0                     1.5154e-06           
  -0.7                  -1.5144e-06           2e-14                 1.8e-13               1.5186e-06           
  -0.8                  -1.5176e-06           2e-14                 1.8e-13               1.5212e-06           
  -0.9                  -1.5194e-06           1.2e-13               1.6e-13               1.5232e-06           
  -1                    -1.5214e-06           -2e-14                1.6e-13               1.5252e-06           
  -1.1                  -1.5234e-06           0                     1.8e-13               1.527e-06            
  -1.2                  -1.5246e-06           0                     4e-14                 1.5288e-06           
  -1.3                  -1.5262e-06           1e-13                 0                     1.5302e-06           
  -1.4                  -1.5276e-06           4e-14                 0                     1.5314e-06           
  -1.5                  -1.5292e-06           6e-14                 1.6e-13               1.533e-06            
  -1.6                  -1.53e-06             -4e-14                1.6e-13               1.5342e-06           
  -1.7                  -1.5318e-06           -1.8e-13              0                     1.5352e-06           
  -1.8                  -1.5326e-06           0                     1.6e-13               1.5368e-06           
  -1.9                  -1.5342e-06           8e-14                 1.2e-13               1.538e-06            
  -2                    -1.5352e-06           -6e-14                2e-14                 1.5386e-06           
  -2.1                  -1.5356e-06           0                     1.2e-13               1.5386e-06           
  -2.2                  -1.5358e-06           6e-14                 2.4e-13               1.5396e-06           
  -2.3                  -1.5368e-06           -2e-14                1.6e-13               1.5402e-06           
  -2.4                  -1.5376e-06           8e-14                 4.8e-13               1.5414e-06           
  -2.5                  -1.5386e-06           8e-14                 1.2e-12               1.5428e-06           
  -2.6                  -1.5406e-06           2e-14                 2.4e-12               1.5442e-06           
  -2.7                  -1.5412e-06           0                     4.88e-12              1.5452e-06           
  -2.8                  -1.5422e-06           6e-14                 9.78e-12              1.546e-06            
  -2.9                  -1.543e-06            1e-13                 1.908e-11             1.547e-06            
  -3                    -1.5442e-06           0                     3.598e-11             1.5478e-06           
  -3.1                  -1.5452e-06           1e-13                 6.534e-11             1.5488e-06           
  -3.2                  -1.5462e-06           1.2e-13               1.1624e-10            1.5498e-06           
  -3.3                  -1.5476e-06           1.4e-13               2.0186e-10            1.551e-06            
  -3.4                  -1.5486e-06           1.8e-13               3.4214e-10            1.552e-06            
  -3.5                  -1.5492e-06           -1e-13                5.6916e-10            1.5524e-06           
  -3.6                  -1.5506e-06           6e-14                 9.2654e-10            1.554e-06            
END_DB

