! VERSION = 6.00
BEGIN_HEADER
 ICCAP_INPUTS
  vg         V  G GROUND SMU2 0.001 LIN        1    0.5        -3.6       83   -0.05     
  vb         V  B GROUND SMU4 0.1 LIN        2    0          3.6        5    0.9       
  vd         V  D GROUND SMU1 0.1 LIN        3    -0.1       -3.3       3    -1.6      
  vs         V  S GROUND SMU3 0.1 CON        -0
 ICCAP_OUTPUTS
  id         I  D GROUND SMU1 B
  ig         I  G GROUND SMU2 B
  ib         I  B GROUND SMU4 B
  is         I  S GROUND SMU3 B
 ICCAP_VALUES
  MASTER_SETUP_TYPE "~dc_idvg~"
  LINVT_VALUE ""
  LISTVT_VALUE ""
  TYPE "-1"
  TEMP " 70.0000 "
  IS_TNOM " 0.00000 "
  MAIN.W "300.0n"
  MAIN.L "10.00u"
  MAIN.AD "102.0f"
  MAIN.AS "102.0f"
  MAIN.PD "1.280u"
  MAIN.PS "1.280u"
  MAIN.NF "1.000"
  MAIN.M "1"
  MAIN.NRD "0.000"
  MAIN.NRS "0.000"
  MAIN.LDRIFT1 "1E-06"
  MAIN.LDRIFT2 "1E-06"
  MAIN.SA "0.000"
  MAIN.SB "0.000"
  MAIN.SD "0.000"
  MAIN.SCA "0.000"
  MAIN.SCB "0.000"
  MAIN.SCC "0.000"
  MAIN.SC "0.000"
  MODULE "S555"
  PIN_D "14"
  PIN_G "7"
  PIN_S "8"
  PIN_B "13"
  PIN_E ""
  PIN_6 ""
  XY_ID ""
  FUNC "Narrow"
  STI "SA ref"
  WPE "WPE ref"
  COMMENT ""
  DIS_MEAS ""
  TypeTCI "10"
END_HEADER

BEGIN_DB
 ICCAP_VAR vb         0              
 ICCAP_VAR vd         -0.1           
 ICCAP_VAR vs         -0             

 #vg                    id                    ig                    ib                    is                   
  0.5                   -5.2e-13              6.4094e-10            -3.6366e-10           -3.6e-13             
  0.45                  -2.2e-13              1.207e-10             -1.8026e-10           -4e-14               
  0.4                   6e-14                 2.292e-11             -1.0794e-10           1.2e-13              
  0.35                  1.6e-13               4.56e-12              -7.712e-11            1.8e-13              
  0.3                   1.2e-13               8.4e-13               -6.08e-11             1.8e-13              
  0.25                  1.8e-13               2e-14                 -5.076e-11            3.4e-13              
  0.2                   1.8e-13               -1.8e-13              -4.366e-11            2e-13                
  0.15                  1.6e-13               -3.6e-13              -3.844e-11            2.8e-13              
  0.1                   6e-14                 -3.2e-13              -3.444e-11            2.6e-13              
  0.05                  1.2e-13               -4.4e-13              -3.098e-11            2.4e-13              
  0                     1.8e-13               -4e-13                -2.826e-11            2.2e-13              
  -0.05                 1.4e-13               -5.4e-13              -2.58e-11             2.6e-13              
  -0.1                  2e-14                 -4.4e-13              -2.378e-11            3.2e-13              
  -0.15                 -4e-14                -5.2e-13              -2.188e-11            2.4e-13              
  -0.2                  -3e-13                -5.2e-13              -2.028e-11            6e-13                
  -0.25                 -1.06e-12             -4.4e-13              -1.882e-11            1.18e-12             
  -0.3                  -3.22e-12             -6e-13                -1.74e-11             3.34e-12             
  -0.35                 -9.48e-12             -6.2e-13              -1.626e-11            9.74e-12             
  -0.4                  -2.806e-11            -6.4e-13              -1.516e-11            2.834e-11            
  -0.45                 -8.272e-11            -6.6e-13              -1.416e-11            8.29e-11             
  -0.5                  -2.3746e-10           -6.8e-13              -1.322e-11            2.3726e-10           
  -0.55                 -6.445e-10            -8.4e-13              -1.234e-11            6.445e-10            
  -0.6                  -1.5684e-09           -4.6e-13              -1.108e-11            1.5678e-09           
  -0.65                 -3.3248e-09           -6.4e-13              -1.03e-11             3.3252e-09           
  -0.7                  -6.1236e-09           -6.4e-13              -9.78e-12             6.1232e-09           
  -0.75                 -9.9574e-09           -6.4e-13              -9.18e-12             9.9556e-09           
  -0.8                  -1.4594e-08           -6.6e-13              -8.42e-12             1.4614e-08           
  -0.85                 -1.983e-08            -7.8e-13              -7.92e-12             1.985e-08            
  -0.9                  -2.5424e-08           -7.2e-13              -7.5e-12              2.5442e-08           
  -0.95                 -3.1262e-08           -8.6e-13              -7e-12                3.1284e-08           
  -1                    -3.7202e-08           -9.2e-13              -6.58e-12             3.7228e-08           
  -1.05                 -4.3256e-08           -8.4e-13              -6.16e-12             4.3274e-08           
  -1.1                  -4.9308e-08           -8.6e-13              -5.7e-12              4.9322e-08           
  -1.15                 -5.5382e-08           -8e-13                -5.34e-12             5.5402e-08           
  -1.2                  -6.142e-08            -9e-13                -4.98e-12             6.145e-08            
  -1.25                 -6.7444e-08           -7.2e-13              -4.72e-12             6.7468e-08           
  -1.3                  -7.3434e-08           -8.8e-13              -4.3e-12              7.3454e-08           
  -1.35                 -7.9352e-08           -8.2e-13              -3.94e-12             7.938e-08            
  -1.4                  -8.5244e-08           -8.6e-13              -3.66e-12             8.5276e-08           
  -1.45                 -9.1058e-08           -8.8e-13              -3.4e-12              9.1086e-08           
  -1.5                  -9.6836e-08           -8.2e-13              -3.06e-12             9.6862e-08           
  -1.55                 -1.02536e-07          -1.02e-12             -2.74e-12             1.02562e-07          
  -1.6                  -1.08196e-07          -8.6e-13              -2.54e-12             1.08226e-07          
  -1.65                 -1.13778e-07          -8.6e-13              -2.46e-12             1.13812e-07          
  -1.7                  -1.1928e-07           -9.8e-13              -2.14e-12             1.1934e-07           
  -1.75                 -1.2474e-07           -8.2e-13              -1.88e-12             1.2482e-07           
  -1.8                  -1.3016e-07           -1.14e-12             -1.68e-12             1.302e-07            
  -1.85                 -1.3548e-07           -9.8e-13              -1.4e-12              1.3552e-07           
  -1.9                  -1.4072e-07           -9.6e-13              -1.22e-12             1.4078e-07           
  -1.95                 -1.4594e-07           -1.1e-12              -1.14e-12             1.46e-07             
  -2                    -1.5108e-07           -8.6e-13              -9.2e-13              1.5114e-07           
  -2.05                 -1.5614e-07           -9.6e-13              -8.4e-13              1.562e-07            
  -2.1                  -1.6116e-07           -1.1e-12              -5.6e-13              1.6124e-07           
  -2.15                 -1.6612e-07           -1.04e-12             -4.6e-13              1.6616e-07           
  -2.2                  -1.7098e-07           -1.12e-12             -1.8e-13              1.7104e-07           
  -2.25                 -1.7582e-07           -9.6e-13              -1e-13                1.7586e-07           
  -2.3                  -1.8056e-07           -1.08e-12             2e-14                 1.8062e-07           
  -2.35                 -1.8526e-07           -1.02e-12             2.2e-13               1.8532e-07           
  -2.4                  -1.899e-07            -9.6e-13              2.2e-13               1.8998e-07           
  -2.45                 -1.945e-07            -1.06e-12             4.4e-13               1.9456e-07           
  -2.5                  -1.9902e-07           -1.18e-12             5e-13                 1.9906e-07           
  -2.55                 -2.0346e-07           -9.6e-13              6e-13                 2.0352e-07           
  -2.6                  -2.0788e-07           -1.2e-12              9.2e-13               2.0794e-07           
  -2.65                 -2.122e-07            -1.06e-12             8.4e-13               2.1228e-07           
  -2.7                  -2.165e-07            -1.08e-12             9.4e-13               2.1656e-07           
  -2.75                 -2.2074e-07           -1e-12                1.24e-12              2.208e-07            
  -2.8                  -2.2492e-07           -1.16e-12             1.2e-12               2.25e-07             
  -2.85                 -2.2902e-07           -1.16e-12             1.4e-12               2.2908e-07           
  -2.9                  -2.3312e-07           -1.12e-12             1.4e-12               2.3318e-07           
  -2.95                 -2.3714e-07           -1.2e-12              1.64e-12              2.3718e-07           
  -3                    -2.4108e-07           -1.18e-12             1.7e-12               2.4112e-07           
  -3.05                 -2.45e-07             -1.04e-12             1.72e-12              2.4506e-07           
  -3.1                  -2.4884e-07           -1.16e-12             1.88e-12              2.4892e-07           
  -3.15                 -2.5264e-07           -1.14e-12             1.82e-12              2.527e-07            
  -3.2                  -2.5638e-07           -1.1e-12              2.06e-12              2.5644e-07           
  -3.25                 -2.6008e-07           -1.24e-12             2.08e-12              2.6014e-07           
  -3.3                  -2.637e-07            -1.12e-12             2.22e-12              2.638e-07            
  -3.35                 -2.673e-07            -1.22e-12             2.24e-12              2.6738e-07           
  -3.4                  -2.7088e-07           -1.1e-12              2.28e-12              2.709e-07            
  -3.45                 -2.7436e-07           -9.6e-13              2.44e-12              2.7442e-07           
  -3.5                  -2.7784e-07           -1.26e-12             2.5e-12               2.7788e-07           
  -3.55                 -2.8118e-07           -1.2e-12              2.5e-12               2.8128e-07           
  -3.6                  -2.8456e-07           -1.06e-12             2.72e-12              2.846e-07            
END_DB

BEGIN_DB
 ICCAP_VAR vb         0.9            
 ICCAP_VAR vd         -0.1           
 ICCAP_VAR vs         -0             

 #vg                    id                    ig                    ib                    is                   
  0.5                   1e-13                 8.8e-13               1e-11                 1.4e-13              
  0.45                  0                     6.4e-13               9.9e-12               6e-14                
  0.4                   2e-14                 3.2e-13               9.92e-12              1.4e-13              
  0.35                  2e-14                 3.4e-13               9.92e-12              1.2e-13              
  0.3                   4e-14                 1.2e-13               9.88e-12              1.6e-13              
  0.25                  -4e-14                1.2e-13               9.84e-12              1.4e-13              
  0.2                   -6e-14                -8e-14                9.82e-12              1e-13                
  0.15                  0                     -4e-14                9.8e-12               1.2e-13              
  0.1                   -4e-14                -4e-14                9.78e-12              0                    
  0.05                  0                     -3e-13                9.78e-12              1.4e-13              
  0                     6e-14                 -2.6e-13              9.76e-12              1.6e-13              
  -0.05                 0                     -4.2e-13              9.82e-12              1.6e-13              
  -0.1                  -6e-14                -3.2e-13              9.7e-12               2.8e-13              
  -0.15                 2e-14                 -4e-13                9.7e-12               1e-13                
  -0.2                  4e-14                 -4.2e-13              9.76e-12              1e-13                
  -0.25                 -4e-14                -4.4e-13              9.6e-12               2.6e-13              
  -0.3                  -8e-14                -4e-13                9.76e-12              6e-14                
  -0.35                 0                     -4e-13                9.74e-12              0                    
  -0.4                  -6e-14                -5.6e-13              9.68e-12              1.6e-13              
  -0.45                 0                     -3e-13                9.74e-12              -2e-14               
  -0.5                  -2e-14                -4.6e-13              9.66e-12              1e-13                
  -0.55                 -6e-14                -5.6e-13              9.72e-12              2e-14                
  -0.6                  -2.4e-13              -5.6e-13              9.72e-12              2.6e-13              
  -0.65                 -7.2e-13              -5.2e-13              9.72e-12              6.8e-13              
  -0.7                  -2.14e-12             -6.8e-13              9.62e-12              2.24e-12             
  -0.75                 -7.42e-12             -5.8e-13              9.68e-12              7.4e-12              
  -0.8                  -2.47e-11             -8.2e-13              9.74e-12              2.482e-11            
  -0.85                 -8.166e-11            -7.6e-13              9.6e-12               8.186e-11            
  -0.9                  -2.5738e-10           -7.6e-13              9.6e-12               2.5764e-10           
  -0.95                 -7.3726e-10           -7.4e-13              9.58e-12              7.3702e-10           
  -1                    -1.8062e-09           -5.2e-13              9.68e-12              1.8058e-09           
  -1.05                 -3.7408e-09           -8.2e-13              9.64e-12              3.7406e-09           
  -1.1                  -6.6086e-09           -6.8e-13              9.66e-12              6.6084e-09           
  -1.15                 -1.03016e-08          -7.8e-13              9.68e-12              1.02982e-08          
  -1.2                  -1.4564e-08           -6e-13                9.58e-12              1.4588e-08           
  -1.25                 -1.9262e-08           -6.8e-13              9.54e-12              1.9282e-08           
  -1.3                  -2.4208e-08           -8.8e-13              9.6e-12               2.4224e-08           
  -1.35                 -2.929e-08            -6.8e-13              9.64e-12              2.9312e-08           
  -1.4                  -3.4484e-08           -7.8e-13              9.62e-12              3.4504e-08           
  -1.45                 -3.972e-08            -8e-13                9.6e-12               3.9738e-08           
  -1.5                  -4.4988e-08           -8.8e-13              9.6e-12               4.5008e-08           
  -1.55                 -5.025e-08            -9.2e-13              9.68e-12              5.0272e-08           
  -1.6                  -5.5538e-08           -8.4e-13              9.64e-12              5.5564e-08           
  -1.65                 -6.0778e-08           -9.2e-13              9.62e-12              6.08e-08             
  -1.7                  -6.6008e-08           -7.6e-13              9.66e-12              6.6038e-08           
  -1.75                 -7.1228e-08           -9e-13                9.6e-12               7.1252e-08           
  -1.8                  -7.64e-08             -9e-13                9.68e-12              7.6422e-08           
  -1.85                 -8.1526e-08           -9e-13                9.64e-12              8.1546e-08           
  -1.9                  -8.662e-08            -9.8e-13              9.6e-12               8.663e-08            
  -1.95                 -9.1686e-08           -9e-13                9.66e-12              9.171e-08            
  -2                    -9.669e-08            -9.4e-13              9.6e-12               9.6716e-08           
  -2.05                 -1.01662e-07          -1.02e-12             9.66e-12              1.01682e-07          
  -2.1                  -1.06614e-07          -9.8e-13              9.56e-12              1.06628e-07          
  -2.15                 -1.11498e-07          -9.6e-13              9.62e-12              1.11502e-07          
  -2.2                  -1.1628e-07           -1e-12                9.54e-12              1.1634e-07           
  -2.25                 -1.2106e-07           -1.06e-12             9.52e-12              1.211e-07            
  -2.3                  -1.258e-07            -1.12e-12             9.52e-12              1.2586e-07           
  -2.35                 -1.305e-07            -1.06e-12             9.54e-12              1.3056e-07           
  -2.4                  -1.3514e-07           -9e-13                9.56e-12              1.352e-07            
  -2.45                 -1.3974e-07           -9.2e-13              9.6e-12               1.3978e-07           
  -2.5                  -1.4426e-07           -1.12e-12             9.56e-12              1.4432e-07           
  -2.55                 -1.4872e-07           -9.8e-13              9.52e-12              1.488e-07            
  -2.6                  -1.5318e-07           -9.4e-13              9.54e-12              1.5324e-07           
  -2.65                 -1.576e-07            -1.04e-12             9.46e-12              1.5764e-07           
  -2.7                  -1.6192e-07           -9.2e-13              9.6e-12               1.6196e-07           
  -2.75                 -1.6622e-07           -1e-12                9.54e-12              1.6628e-07           
  -2.8                  -1.705e-07            -9.8e-13              9.62e-12              1.7056e-07           
  -2.85                 -1.7468e-07           -9.6e-13              9.64e-12              1.7474e-07           
  -2.9                  -1.7884e-07           -1.02e-12             9.6e-12               1.789e-07            
  -2.95                 -1.8292e-07           -1.02e-12             9.62e-12              1.8298e-07           
  -3                    -1.8698e-07           -1.18e-12             9.42e-12              1.8704e-07           
  -3.05                 -1.9096e-07           -7.6e-13              9.62e-12              1.9102e-07           
  -3.1                  -1.9488e-07           -1.24e-12             9.58e-12              1.9496e-07           
  -3.15                 -1.9882e-07           -1.18e-12             9.56e-12              1.9888e-07           
  -3.2                  -2.0266e-07           -1.14e-12             9.56e-12              2.0274e-07           
  -3.25                 -2.065e-07            -1.08e-12             9.5e-12               2.0656e-07           
  -3.3                  -2.1022e-07           -1.08e-12             9.48e-12              2.1026e-07           
  -3.35                 -2.1388e-07           -1.1e-12              9.58e-12              2.1396e-07           
  -3.4                  -2.1752e-07           -1.08e-12             9.46e-12              2.176e-07            
  -3.45                 -2.2118e-07           -1.1e-12              9.58e-12              2.2122e-07           
