! VERSION = 6.00
BEGIN_HEADER
 ICCAP_INPUTS
  vg         V  G GROUND SMU2 0.001 LIN        1    0.5        -3.6       83   -0.05     
  vb         V  B GROUND SMU4 0.1 LIN        2    0          3.6        5    0.9       
  vd         V  D GROUND SMU1 0.1 LIN        3    -0.1       -3.3       3    -1.6      
  vs         V  S GROUND SMU3 0.1 CON        -0
 ICCAP_OUTPUTS
  id         I  D GROUND SMU1 B
  ig         I  G GROUND SMU2 B
  ib         I  B GROUND SMU4 B
  is         I  S GROUND SMU3 B
 ICCAP_VALUES
  MASTER_SETUP_TYPE "~dc_idvg~"
  LINVT_VALUE ""
  LISTVT_VALUE ""
  TYPE "-1"
  TEMP " 27.0000 "
  IS_TNOM " 1.00000 "
  MAIN.W "150.0n"
  MAIN.L "330.0n"
  MAIN.AD "100.5f"
  MAIN.AS "100.5f"
  MAIN.PD "1.340u"
  MAIN.PS "1.340u"
  MAIN.NF "1.000"
  MAIN.M "1"
  MAIN.NRD "0.000"
  MAIN.NRS "0.000"
  MAIN.LDRIFT1 "1E-06"
  MAIN.LDRIFT2 "1E-06"
  MAIN.SA "0.000"
  MAIN.SB "0.000"
  MAIN.SD "0.000"
  MAIN.SCA "0.000"
  MAIN.SCB "0.000"
  MAIN.SCC "0.000"
  MAIN.SC "0.000"
  MODULE "S555"
  PIN_D "12"
  PIN_G "9"
  PIN_S "10"
  PIN_B "11"
  PIN_E ""
  PIN_6 ""
  XY_ID ""
  FUNC "Additional"
  STI "SA ref"
  WPE "WPE ref"
  COMMENT ""
  DIS_MEAS ""
  TypeTCI "10"
END_HEADER

BEGIN_DB
 ICCAP_VAR vb         0              
 ICCAP_VAR vd         -0.1           
 ICCAP_VAR vs         -0             

 #vg                    id                    ig                    ib                    is                   
  0.5                   0                     1.908e-11             -5.36e-12             1.2e-13              
  0.45                  6e-14                 3.18e-12              -9.4e-13              2e-14                
  0.4                   -2e-14                6.8e-13               -2.4e-13              2e-13                
  0.35                  1.4e-13               1.4e-13               -1.4e-13              8e-14                
  0.3                   4e-14                 1e-13                 -4e-14                1.6e-13              
  0.25                  1.2e-13               -1.6e-13              -1.4e-13              2.2e-13              
  0.2                   -1.8e-13              4e-14                 -4e-14                6e-14                
  0.15                  1.2e-13               -1.2e-13              -8e-14                3.2e-13              
  0.1                   -4e-14                -1.6e-13              0                     4e-14                
  0.05                  1.6e-13               -3e-13                -2e-13                2.6e-13              
  0                     -4e-14                -1.2e-13              -2e-14                -1e-13               
  -0.05                 1.2e-13               -2.8e-13              0                     3.2e-13              
  -0.1                  -8e-14                -1.6e-13              -1.2e-13              8e-14                
  -0.15                 -3.4e-13              -2.2e-13              8e-14                 2.2e-13              
  -0.2                  -5.6e-13              -2.4e-13              2e-14                 8.4e-13              
  -0.25                 -2.44e-12             -2.8e-13              -4e-14                2.56e-12             
  -0.3                  -8.36e-12             -3.4e-13              -2e-14                8.46e-12             
  -0.35                 -2.902e-11            -2.4e-13              -4e-14                2.898e-11            
  -0.4                  -9.898e-11            -3.6e-13              2e-14                 9.892e-11            
  -0.45                 -3.3804e-10           -5.2e-13              -1.2e-13              3.3718e-10           
  -0.5                  -1.14602e-09          -3.6e-13              0                     1.1478e-09           
  -0.55                 -3.8294e-09           -3.2e-13              -1.6e-13              3.836e-09            
  -0.6                  -1.208e-08            -4e-13                0                     1.2094e-08           
  -0.65                 -3.436e-08            -4.2e-13              4e-14                 3.4424e-08           
  -0.7                  -8.277e-08            -3.8e-13              4e-14                 8.2898e-08           
  -0.75                 -1.6482e-07           -4.2e-13              1.4e-13               1.6488e-07           
  -0.8                  -2.7612e-07           -4.6e-13              8e-14                 2.7632e-07           
  -0.85                 -4.077e-07            -4.2e-13              -6e-14                4.08e-07             
  -0.9                  -5.505e-07            -6e-13                -1e-13                5.488e-07            
  -0.95                 -6.9472e-07           -5.6e-13              -1.4e-13              6.9492e-07           
  -1                    -8.4388e-07           -6.2e-13              -8e-14                8.4424e-07           
  -1.05                 -9.9384e-07           -5.8e-13              -4e-14                9.941e-07            
  -1.1                  -1.142e-06            -6.2e-13              -4e-14                1.14262e-06          
  -1.15                 -1.2874e-06           -3.4e-13              2e-14                 1.2912e-06           
  -1.2                  -1.4312e-06           -4.8e-13              -1e-13                1.435e-06            
  -1.25                 -1.573e-06            -6.8e-13              0                     1.5766e-06           
  -1.3                  -1.7122e-06           -5.8e-13              -6e-14                1.716e-06            
  -1.35                 -1.8476e-06           -5.4e-13              4e-14                 1.8516e-06           
  -1.4                  -1.9814e-06           -5.8e-13              -1.4e-13              1.985e-06            
  -1.45                 -2.1116e-06           -6.8e-13              6e-14                 2.1156e-06           
  -1.5                  -2.2402e-06           -5.8e-13              0                     2.2438e-06           
  -1.55                 -2.3654e-06           -5.4e-13              -1e-13                2.3692e-06           
  -1.6                  -2.489e-06            -4.8e-13              -6e-14                2.4928e-06           
  -1.65                 -2.61e-06             -4.8e-13              0                     2.6136e-06           
  -1.7                  -2.7282e-06           -6.8e-13              -1e-13                2.7322e-06           
  -1.75                 -2.8448e-06           -5.6e-13              -4e-14                2.8488e-06           
  -1.8                  -2.959e-06            -5.6e-13              -1.8e-13              2.963e-06            
  -1.85                 -3.0712e-06           -6.6e-13              -1e-13                3.0748e-06           
  -1.9                  -3.1808e-06           -6.6e-13              4e-14                 3.184e-06            
  -1.95                 -3.2894e-06           -7e-13                -8e-14                3.293e-06            
  -2                    -3.3954e-06           -7.4e-13              0                     3.399e-06            
  -2.05                 -3.4992e-06           -6.8e-13              -1.4e-13              3.5018e-06           
  -2.1                  -3.602e-06            -5.8e-13              2e-14                 3.6056e-06           
  -2.15                 -3.7024e-06           -7.4e-13              -1.4e-13              3.7048e-06           
  -2.2                  -3.7998e-06           -7.4e-13              -4e-14                3.8046e-06           
  -2.25                 -3.897e-06            -7e-13                -2e-14                3.9016e-06           
  -2.3                  -3.991e-06            -7.6e-13              -1.6e-13              3.9928e-06           
  -2.35                 -4.0872e-06           -7.6e-13              -4e-14                4.0902e-06           
  -2.4                  -4.175e-06            -8e-13                -8e-14                4.1812e-06           
  -2.45                 -4.2676e-06           -9e-13                -1e-13                4.272e-06            
  -2.5                  -4.3572e-06           -6.4e-13              4e-14                 4.3626e-06           
  -2.55                 -4.4448e-06           -8e-13                -8e-14                4.45e-06             
  -2.6                  -4.532e-06            -6.6e-13              0                     4.5348e-06           
  -2.65                 -4.6152e-06           -8.6e-13              2e-14                 4.6176e-06           
  -2.7                  -4.6924e-06           -6.6e-13              -2e-14                4.6996e-06           
  -2.75                 -4.7802e-06           -8.6e-13              2e-14                 4.7854e-06           
  -2.8                  -4.8572e-06           -6.4e-13              -1.6e-13              4.8558e-06           
  -2.85                 -4.9098e-06           -7e-13                -2e-14                4.9246e-06           
  -2.9                  -4.9948e-06           -8e-13                2e-14                 5.0072e-06           
  -2.95                 -5.0904e-06           -8.2e-13              -1.4e-13              5.093e-06            
  -3                    -5.1556e-06           -6.8e-13              -2e-14                5.1676e-06           
  -3.05                 -5.229e-06            -8.8e-13              -1.4e-13              5.2424e-06           
  -3.1                  -5.31e-06             -6.4e-13              4e-14                 5.3116e-06           
  -3.15                 -5.3808e-06           -9e-13                -8e-14                5.3846e-06           
  -3.2                  -5.4506e-06           -8.8e-13              -1e-13                5.4516e-06           
  -3.25                 -5.5178e-06           -8.6e-13              6e-14                 5.5124e-06           
  -3.3                  -5.5742e-06           -8.4e-13              -1.2e-13              5.5776e-06           
  -3.35                 -5.6448e-06           -8.4e-13              -4e-14                5.6432e-06           
  -3.4                  -5.7006e-06           -9.2e-13              -4e-14                5.7116e-06           
  -3.45                 -5.7712e-06           -7.8e-13              -4e-14                5.7738e-06           
  -3.5                  -5.8278e-06           -9.2e-13              2e-14                 5.8326e-06           
  -3.55                 -5.8904e-06           -7.8e-13              -8e-14                5.8956e-06           
  -3.6                  -5.9552e-06           -8.2e-13              0                     5.953e-06            
END_DB

BEGIN_DB
 ICCAP_VAR vb         0.9            
 ICCAP_VAR vd         -0.1           
 ICCAP_VAR vs         -0             

 #vg                    id                    ig                    ib                    is                   
  0.5                   1.2e-13               8e-13                 3.4e-13               8e-14                
  0.45                  8e-14                 3.8e-13               2e-13                 1.2e-13              
  0.4                   2e-14                 2e-13                 3e-13                 1.8e-13              
  0.35                  0                     3.6e-13               1.4e-13               8e-14                
  0.3                   4e-14                 2.4e-13               2.8e-13               8e-14                
  0.25                  0                     8e-14                 1.2e-13               2e-13                
  0.2                   1e-13                 1.2e-13               1e-13                 0                    
  0.15                  -1.2e-13              4e-14                 1.6e-13               8e-14                
  0.1                   1e-13                 0                     8e-14                 8e-14                
  0.05                  -1.2e-13              -2e-14                1.8e-13               0                    
  0                     1.4e-13               -1.4e-13              2.4e-13               0                    
  -0.05                 -2e-14                -4e-14                0                     1e-13                
  -0.1                  -6e-14                -8e-14                6e-14                 2e-14                
  -0.15                 0                     -8e-14                3.4e-13               -4e-14               
  -0.2                  1.6e-13               -1.6e-13              2e-14                 2e-13                
  -0.25                 -6e-14                -1.2e-13              6e-14                 4e-14                
  -0.3                  2e-14                 -3e-13                -2e-14                1.4e-13              
  -0.35                 -8e-14                -3.8e-13              1.2e-13               1.2e-13              
  -0.4                  8e-14                 -3.8e-13              1.4e-13               2.4e-13              
  -0.45                 0                     -2.2e-13              0                     1.4e-13              
  -0.5                  -2.4e-13              -3.4e-13              2e-14                 2.4e-13              
  -0.55                 -2e-13                -2e-13                8e-14                 3.6e-13              
  -0.6                  -1.16e-12             -3.4e-13              1e-13                 1.26e-12             
  -0.65                 -4e-12                -2.4e-13              8e-14                 4.04e-12             
  -0.7                  -1.632e-11            -3.4e-13              8e-14                 1.644e-11            
  -0.75                 -6.422e-11            -2.2e-13              8e-14                 6.4e-11              
  -0.8                  -2.4868e-10           -4.6e-13              8e-14                 2.4862e-10           
  -0.85                 -9.5028e-10           -4e-13                8e-14                 9.529e-10            
  -0.9                  -3.4958e-09           -2.4e-13              1e-13                 3.4982e-09           
  -0.95                 -1.1946e-08           -4.6e-13              8e-14                 1.1938e-08           
  -1                    -3.5522e-08           -3.4e-13              1.6e-13               3.5532e-08           
  -1.05                 -8.6798e-08           -4.6e-13              0                     8.6758e-08           
  -1.1                  -1.6968e-07           -3.2e-13              1e-13                 1.6984e-07           
  -1.15                 -2.8018e-07           -5.2e-13              6e-14                 2.804e-07            
  -1.2                  -4.0684e-07           -4.8e-13              1.2e-13               4.072e-07            
  -1.25                 -5.4316e-07           -5.4e-13              0                     5.4338e-07           
  -1.3                  -6.8318e-07           -3.6e-13              4e-14                 6.835e-07            
  -1.35                 -8.2392e-07           -5.2e-13              2.2e-13               8.2418e-07           
  -1.4                  -9.641e-07            -6e-13                2e-13                 9.642e-07            
  -1.45                 -1.1022e-06           -6.2e-13              -2e-14                1.10248e-06          
  -1.5                  -1.2374e-06           -4.8e-13              4e-14                 1.2412e-06           
  -1.55                 -1.371e-06            -5.2e-13              0                     1.375e-06            
  -1.6                  -1.5032e-06           -5.4e-13              1.6e-13               1.507e-06            
  -1.65                 -1.6322e-06           -4.8e-13              -4e-14                1.6362e-06           
  -1.7                  -1.759e-06            -6.8e-13              0                     1.7628e-06           
  -1.75                 -1.8834e-06           -6.6e-13              1e-13                 1.8872e-06           
  -1.8                  -2.0052e-06           -5.8e-13              8e-14                 2.0088e-06           
  -1.85                 -2.1246e-06           -6e-13                -6e-14                2.1284e-06           
  -1.9                  -2.242e-06            -6.4e-13              4e-14                 2.2458e-06           
  -1.95                 -2.3576e-06           -5.6e-13              4e-14                 2.361e-06            
  -2                    -2.4704e-06           -7.4e-13              4e-14                 2.4846e-06           
  -2.05                 -2.5966e-06           -6.4e-13              1e-13                 2.6004e-06           
  -2.1                  -2.7068e-06           -5.6e-13              8e-14                 2.7104e-06           
  -2.15                 -2.8146e-06           -6.8e-13              0                     2.8186e-06           
  -2.2                  -2.9206e-06           -7e-13                2e-14                 2.9242e-06           
  -2.25                 -3.025e-06            -6.4e-13              4e-14                 3.0284e-06           
  -2.3                  -3.1276e-06           -6.6e-13              1.6e-13               3.1318e-06           
  -2.35                 -3.2278e-06           -6e-13                4e-14                 3.2314e-06           
  -2.4                  -3.3252e-06           -6.6e-13              -6e-14                3.3322e-06           
  -2.45                 -3.424e-06            -6.2e-13              4e-14                 3.428e-06            
  -2.5                  -3.52e-06             -7e-13                4e-14                 3.5234e-06           
  -2.55                 -3.6114e-06           -6.6e-13              8e-14                 3.6146e-06           
  -2.6                  -3.7038e-06           -7.2e-13              6e-14                 3.7098e-06           
  -2.65                 -3.7968e-06           -6.6e-13              -4e-14                3.7982e-06           
  -2.7                  -3.888e-06            -8.2e-13              6e-14                 3.8874e-06           
  -2.75                 -3.9768e-06           -5.8e-13              4e-14                 3.9776e-06           
  -2.8                  -4.0536e-06           -8.8e-13              6e-14                 4.0584e-06           
  -2.85                 -4.13e-06             -6.6e-13              0                     4.1426e-06           
  -2.9                  -4.2184e-06           -8e-13                8e-14                 4.2232e-06           
  -2.95                 -4.2972e-06           -7.8e-13              0                     4.2914e-06           
  -3                    -4.3846e-06           -7.4e-13              2e-14                 4.3832e-06           
  -3.05                 -4.4644e-06           -8e-13                -2e-14                4.4394e-06           
  -3.1                  -4.5202e-06           -8e-13                0                     4.5118e-06           
  -3.15                 -4.5902e-06           -7.6e-13              -2e-14                4.5926e-06           
  -3.2                  -4.6776e-06           -7.4e-13              4e-14                 4.6684e-06           
  -3.25                 -4.7298e-06           -7.2e-13              -1e-13                4.738e-06            
  -3.3                  -4.8068e-06           -8.4e-13              0                     4.8176e-06           
  -3.35                 -4.88e-06             -7.2e-13              4e-14                 4.8828e-06           
  -3.4                  -4.9462e-06           -8.4e-13              2e-14                 4.958e-06            
  -3.45                 -5.0178e-06           -7.2e-13              8e-14                 5.017e-06            
