! VERSION = 6.00
BEGIN_HEADER
 ICCAP_INPUTS
  vd         V  D GROUND SMU1 0.1 LIN        1    -0         -3.6       37   -0.1      
  vg         V  G GROUND SMU2 0.001 LIST       2 3 -1.29 -1.49 -1.69
  vb         V  B GROUND SMU4 0.1 CON        3.6
  vs         V  S GROUND SMU3 0.1 CON        -0
 ICCAP_OUTPUTS
  id         I  D GROUND SMU1 B
  ig         I  G GROUND SMU2 B
  ib         I  B GROUND SMU4 B
  is         I  S GROUND SMU3 B
 ICCAP_VALUES
  MASTER_SETUP_TYPE "~dc_idvd~"
  LINVT_VALUE ""
  LISTVT_VALUE "|idvg|100.0n|-200.0m|1.000m|3|200.0m|200.0m|"
  TYPE "-1"
  TEMP " 27.0000 "
  IS_TNOM " 1.00000 "
  MAIN.W "600.0n"
  MAIN.L "330.0n"
  MAIN.AD "204.0f"
  MAIN.AS "204.0f"
  MAIN.PD "1.880u"
  MAIN.PS "1.880u"
  MAIN.NF "1.000"
  MAIN.M "1"
  MAIN.NRD "0.000"
  MAIN.NRS "0.000"
  MAIN.LDRIFT1 "1E-06"
  MAIN.LDRIFT2 "1E-06"
  MAIN.SA "0.000"
  MAIN.SB "0.000"
  MAIN.SD "0.000"
  MAIN.SCA "0.000"
  MAIN.SCB "0.000"
  MAIN.SCC "0.000"
  MAIN.SC "0.000"
  MODULE "S564"
  PIN_D "20"
  PIN_G "1"
  PIN_S "2"
  PIN_B "19"
  PIN_E ""
  PIN_6 ""
  XY_ID ""
  FUNC "Additional"
  STI "SA ref"
  WPE "WPE ref"
  COMMENT ""
  DIS_MEAS ""
  TypeTCI "10"
END_HEADER

BEGIN_DB
 ICCAP_VAR vg         -1.29          
 ICCAP_VAR vb         3.6            
 ICCAP_VAR vs         -0             

 #vd                    id                    ig                    ib                    is                   
  -0                    6.8e-13               1.2e-13               7.4e-13               -2.8e-13             
  -0.1                  -1.488e-10            8e-14                 6.2e-13               1.4844e-10           
  -0.2                  -1.8642e-10           1.4e-13               5.6e-13               1.8612e-10           
  -0.3                  -2.2234e-10           2.2e-13               4.2e-13               2.214e-10            
  -0.4                  -2.5932e-10           8e-14                 5e-13                 2.5974e-10           
  -0.5                  -3.0086e-10           2.4e-13               3.6e-13               3.0044e-10           
  -0.6                  -3.4304e-10           1.4e-13               2.8e-13               3.4252e-10           
  -0.7                  -3.8848e-10           2e-13                 3e-13                 3.886e-10            
  -0.8                  -4.3578e-10           6e-14                 2.2e-13               4.3592e-10           
  -0.9                  -4.8678e-10           1.6e-13               2e-13                 4.858e-10            
  -1                    -5.4094e-10           6e-14                 2e-13                 5.4056e-10           
  -1.1                  -5.9816e-10           8e-14                 2e-13                 5.9844e-10           
  -1.2                  -6.603e-10            2.4e-13               2.2e-13               6.5858e-10           
  -1.3                  -7.2564e-10           1e-13                 2.6e-13               7.253e-10            
  -1.4                  -7.9758e-10           4e-14                 2e-13                 7.9748e-10           
  -1.5                  -8.7158e-10           2e-14                 2.2e-13               8.7298e-10           
  -1.6                  -9.5368e-10           6e-14                 1.6e-13               9.5188e-10           
  -1.7                  -1.0426e-09           8e-14                 2e-13                 1.04214e-09          
  -1.8                  -1.1344e-09           6e-14                 1e-13                 1.13298e-09          
  -1.9                  -1.2392e-09           4e-14                 1.6e-13               1.2382e-09           
  -2                    -1.3436e-09           0                     1.8e-13               1.3476e-09           
  -2.1                  -1.469e-09            1e-13                 4e-14                 1.467e-09            
  -2.2                  -1.5964e-09           2e-14                 1e-13                 1.595e-09            
  -2.3                  -1.7364e-09           -4e-14                2.4e-13               1.7358e-09           
  -2.4                  -1.8806e-09           -8e-14                6e-14                 1.8802e-09           
  -2.5                  -2.0444e-09           0                     3.2e-13               2.0392e-09           
  -2.6                  -2.2152e-09           4e-14                 3.6e-13               2.2162e-09           
  -2.7                  -2.3996e-09           2e-14                 5.2e-13               2.3988e-09           
  -2.8                  -2.6066e-09           4e-14                 8.6e-13               2.6028e-09           
  -2.9                  -2.8322e-09           -2e-14                1.44e-12              2.8184e-09           
  -3                    -3.066e-09            2e-14                 2.56e-12              3.0544e-09           
  -3.1                  -3.3054e-09           -2e-14                4.14e-12              3.3138e-09           
  -3.2                  -3.595e-09            4e-14                 6.74e-12              3.5912e-09           
  -3.3                  -3.8974e-09           4e-14                 1.096e-11             3.8896e-09           
  -3.4                  -4.235e-09            -2e-14                1.75e-11              4.2102e-09           
  -3.5                  -4.58e-09             -6e-14                2.754e-11             4.559e-09            
  -3.6                  -4.9866e-09           -8e-14                4.266e-11             4.942e-09            
END_DB

BEGIN_DB
 ICCAP_VAR vg         -1.49          
 ICCAP_VAR vb         3.6            
 ICCAP_VAR vs         -0             

 #vd                    id                    ig                    ib                    is                   
  -0                    5.776e-11             2e-14                 0                     -5.568e-11           
  -0.1                  -3.5494e-08           -2e-14                1e-13                 3.5534e-08           
  -0.2                  -4.5744e-08           -2e-14                1.2e-13               4.5716e-08           
  -0.3                  -5.4694e-08           -2e-14                -2e-14                5.471e-08            
  -0.4                  -6.3272e-08           -2e-14                8e-14                 6.3412e-08           
  -0.5                  -7.2138e-08           -4e-14                1.2e-13               7.2064e-08           
  -0.6                  -8.1034e-08           2e-14                 1e-13                 8.0972e-08           
  -0.7                  -8.965e-08            -2e-14                8e-14                 8.973e-08            
  -0.8                  -9.8988e-08           -1.4e-13              -8e-14                9.8876e-08           
  -0.9                  -1.0816e-07           -1e-13                1e-13                 1.08252e-07          
  -1                    -1.1768e-07           0                     8e-14                 1.1776e-07           
  -1.1                  -1.2754e-07           -2e-14                4e-14                 1.2778e-07           
  -1.2                  -1.3738e-07           -1.2e-13              -4e-14                1.3798e-07           
  -1.3                  -1.4792e-07           -1e-13                4e-14                 1.481e-07            
  -1.4                  -1.5882e-07           -8e-14                8e-14                 1.5912e-07           
  -1.5                  -1.7066e-07           -6e-14                8e-14                 1.7036e-07           
  -1.6                  -1.822e-07            -1.6e-13              0                     1.8196e-07           
  -1.7                  -1.9424e-07           -4e-14                2e-14                 1.9474e-07           
  -1.8                  -2.0708e-07           -8e-14                1e-13                 2.0668e-07           
  -1.9                  -2.1922e-07           -1.8e-13              1.8e-13               2.2036e-07           
  -2                    -2.3334e-07           0                     2.8e-13               2.3444e-07           
  -2.1                  -2.4808e-07           -1.6e-13              4.8e-13               2.484e-07            
  -2.2                  -2.6346e-07           -1e-13                1.08e-12              2.6406e-07           
  -2.3                  -2.7878e-07           -8e-14                1.98e-12              2.7904e-07           
  -2.4                  -2.9432e-07           -1.2e-13              3.78e-12              2.9516e-07           
  -2.5                  -3.1166e-07           -1e-13                7.3e-12               3.1136e-07           
  -2.6                  -3.2668e-07           -1e-13                1.382e-11             3.2894e-07           
  -2.7                  -3.481e-07            -1.2e-13              2.586e-11             3.483e-07            
  -2.8                  -3.661e-07            -1.4e-13              4.698e-11             3.6772e-07           
  -2.9                  -3.8692e-07           -2.4e-13              8.312e-11             3.8718e-07           
  -3                    -4.0656e-07           -2e-13                1.4418e-10            4.0612e-07           
  -3.1                  -4.284e-07            -6e-14                2.443e-10             4.2954e-07           
  -3.2                  -4.5062e-07           -1.8e-13              4.0478e-10            4.516e-07            
  -3.3                  -4.7572e-07           -1.6e-13              6.533e-10             4.7494e-07           
  -3.4                  -4.9646e-07           -1.6e-13              1.04608e-09           4.917e-07            
  -3.5                  -5.277e-07            -8e-14                1.6592e-09            5.3086e-07           
  -3.6                  -5.5538e-07           -1.2e-13              2.576e-09             5.559e-07            
END_DB

BEGIN_DB
 ICCAP_VAR vg         -1.69          
 ICCAP_VAR vb         3.6            
 ICCAP_VAR vs         -0             

 #vd                    id                    ig                    ib                    is                   
  -0                    7.2248e-10            0                     1.4e-13               -7.4586e-10          
  -0.1                  -8.439e-07            -4e-14                -6e-14                8.4466e-07           
  -0.2                  -1.18e-06             -4e-14                0                     1.1822e-06           
  -0.3                  -1.361e-06            -1.2e-13              1.2e-13               1.3646e-06           
  -0.4                  -1.4986e-06           -1e-13                1.2e-13               1.5026e-06           
  -0.5                  -1.6186e-06           -4e-14                0                     1.623e-06            
  -0.6                  -1.7288e-06           -2e-14                6e-14                 1.732e-06            
  -0.7                  -1.8334e-06           -8e-14                1.2e-13               1.8316e-06           
  -0.8                  -1.9258e-06           -8e-14                -4e-14                1.9316e-06           
  -0.9                  -2.0194e-06           -6e-14                8e-14                 2.0228e-06           
  -1                    -2.1064e-06           -6e-14                1.6e-13               2.1094e-06           
  -1.1                  -2.1942e-06           -2e-13                1.2e-13               2.1982e-06           
  -1.2                  -2.281e-06            -2.6e-13              -6e-14                2.285e-06            
  -1.3                  -2.3634e-06           -8e-14                8e-14                 2.37e-06             
  -1.4                  -2.4474e-06           -1.2e-13              4e-14                 2.4512e-06           
  -1.5                  -2.53e-06             -1.2e-13              2e-14                 2.5348e-06           
  -1.6                  -2.613e-06            -1.4e-13              4e-14                 2.6176e-06           
  -1.7                  -2.6958e-06           -1e-13                4e-14                 2.702e-06            
  -1.8                  -2.7796e-06           -1.4e-13              1e-13                 2.7828e-06           
  -1.9                  -2.8636e-06           -1.2e-13              2.6e-13               2.8658e-06           
  -2                    -2.9448e-06           -1.6e-13              5e-13                 2.947e-06            
  -2.1                  -3.0266e-06           -1.4e-13              1.36e-12              3.0316e-06           
  -2.2                  -3.1112e-06           4e-14                 3.1e-12               3.1184e-06           
  -2.3                  -3.1952e-06           -1e-13                6.66e-12              3.1986e-06           
  -2.4                  -3.2796e-06           -1e-13                1.406e-11             3.2842e-06           
  -2.5                  -3.3658e-06           -6e-14                2.844e-11             3.372e-06            
  -2.6                  -3.4528e-06           -2e-14                5.546e-11             3.4576e-06           
  -2.7                  -3.5412e-06           -2e-13                1.0488e-10            3.5484e-06           
  -2.8                  -3.634e-06            -1.6e-13              1.9252e-10            3.6348e-06           
  -2.9                  -3.723e-06            -2e-13                3.4544e-10            3.7254e-06           
  -3                    -3.813e-06            -1e-13                6.0236e-10            3.8154e-06           
  -3.1                  -3.9064e-06           -2.4e-13              1.03194e-09           3.9126e-06           
  -3.2                  -3.9894e-06           -1.6e-13              1.711e-09             3.9824e-06           
  -3.3                  -4.079e-06            -1.4e-13              2.822e-09             4.1034e-06           
  -3.4                  -4.202e-06            -1.8e-13              4.525e-09             4.1962e-06           
  -3.5                  -4.302e-06            -2.4e-13              7.1818e-09            4.303e-06            
  -3.6                  -4.4126e-06           -1.4e-13              1.11582e-08           4.4026e-06           
END_DB

