! VERSION = 6.00
BEGIN_HEADER
 ICCAP_INPUTS
  vg         V  G GROUND SMU2 0.001 LIN        1    0.5        -3.6       83   -0.05     
  vb         V  B GROUND SMU4 0.1 LIN        2    0          3.6        5    0.9       
  vd         V  D GROUND SMU1 0.1 LIN        3    -0.1       -3.3       3    -1.6      
  vs         V  S GROUND SMU3 0.1 CON        -0
 ICCAP_OUTPUTS
  id         I  D GROUND SMU1 B
  ig         I  G GROUND SMU2 B
  ib         I  B GROUND SMU4 B
  is         I  S GROUND SMU3 B
 ICCAP_VALUES
  MASTER_SETUP_TYPE "~dc_idvg~"
  LINVT_VALUE ""
  LISTVT_VALUE ""
  TYPE "-1"
  TEMP " 27.0000 "
  IS_TNOM " 1.00000 "
  MAIN.W "10.00u"
  MAIN.L "5.000u"
  MAIN.AD "3.400p"
  MAIN.AS "3.400p"
  MAIN.PD "20.68u"
  MAIN.PS "20.68u"
  MAIN.NF "1.000"
  MAIN.M "1"
  MAIN.NRD "0.000"
  MAIN.NRS "0.000"
  MAIN.LDRIFT1 "1E-06"
  MAIN.LDRIFT2 "1E-06"
  MAIN.SA "0.000"
  MAIN.SB "0.000"
  MAIN.SD "0.000"
  MAIN.SCA "0.000"
  MAIN.SCB "0.000"
  MAIN.SCC "0.000"
  MAIN.SC "0.000"
  MODULE "S562"
  PIN_D "18"
  PIN_G "3"
  PIN_S "4"
  PIN_B "17"
  PIN_E ""
  PIN_6 ""
  XY_ID ""
  FUNC "L Scale"
  STI "SA ref"
  WPE "WPE ref"
  COMMENT ""
  DIS_MEAS ""
  TypeTCI "10"
END_HEADER

BEGIN_DB
 ICCAP_VAR vb         0              
 ICCAP_VAR vd         -0.1           
 ICCAP_VAR vs         -0             

 #vg                    id                    ig                    ib                    is                   
  0.5                   2e-14                 1.982e-11             -5.58e-12             1e-13                
  0.45                  -2e-14                3e-12                 -8e-13                1.8e-13              
  0.4                   0                     5.2e-13               -1.2e-13              1e-13                
  0.35                  4e-14                 2e-14                 0                     8e-14                
  0.3                   -6e-14                -6e-14                8e-14                 0                    
  0.25                  1.6e-13               -1.2e-13              6e-14                 2.2e-13              
  0.2                   -2e-14                -1.4e-13              4e-14                 1.4e-13              
  0.15                  6e-14                 -1.2e-13              -2e-14                3e-13                
  0.1                   -2e-13                -2e-13                -4e-14                2e-14                
  0.05                  1.4e-13               -2.4e-13              1.2e-13               2e-13                
  0                     0                     -3e-13                -6e-14                2.2e-13              
  -0.05                 -1.8e-13              -3.4e-13              2e-14                 8e-14                
  -0.1                  -1e-13                -3.6e-13              -6e-14                4.4e-13              
  -0.15                 -5.4e-13              -3.2e-13              1.2e-13               5.6e-13              
  -0.2                  -1.6e-12              -2.6e-13              0                     1.78e-12             
  -0.25                 -5.44e-12             -3.6e-13              1.4e-13               5.38e-12             
  -0.3                  -1.852e-11            -3.4e-13              0                     1.876e-11            
  -0.35                 -6.422e-11            -4.6e-13              -1.2e-13              6.446e-11            
  -0.4                  -2.244e-10            -3.2e-13              1.2e-13               2.2448e-10           
  -0.45                 -7.878e-10            -3.8e-13              -4e-14                7.8772e-10           
  -0.5                  -2.7628e-09           -3.2e-13              -2e-14                2.763e-09            
  -0.55                 -9.5136e-09           -2.2e-13              -2e-14                9.5124e-09           
  -0.6                  -3.0392e-08           -4.6e-13              0                     3.0418e-08           
  -0.65                 -8.4882e-08           -3.6e-13              2e-13                 8.4896e-08           
  -0.7                  -1.9866e-07           -4.2e-13              -2e-14                1.9884e-07           
  -0.75                 -3.909e-07            -5e-13                4e-14                 3.9112e-07           
  -0.8                  -6.592e-07            -5.2e-13              4e-14                 6.5946e-07           
  -0.85                 -9.8806e-07           -4.6e-13              -1e-13                9.8832e-07           
  -0.9                  -1.3522e-06           -4.6e-13              -6e-14                1.356e-06            
  -0.95                 -1.7404e-06           -4.4e-13              1.6e-13               1.7442e-06           
  -1                    -2.1376e-06           -5.4e-13              0                     2.1412e-06           
  -1.05                 -2.5396e-06           -4.8e-13              0                     2.5434e-06           
  -1.1                  -2.9404e-06           -5.8e-13              0                     2.9442e-06           
  -1.15                 -3.34e-06             -4.8e-13              2e-14                 3.3436e-06           
  -1.2                  -3.7338e-06           -5e-13                -2e-14                3.7378e-06           
  -1.25                 -4.1248e-06           -6e-13                8e-14                 4.1284e-06           
  -1.3                  -4.5102e-06           -5e-13                -1e-13                4.5142e-06           
  -1.35                 -4.8888e-06           -5.8e-13              -2e-14                4.8924e-06           
  -1.4                  -5.2628e-06           -5.8e-13              -1e-13                5.2666e-06           
  -1.45                 -5.6296e-06           -6.2e-13              1e-13                 5.6334e-06           
  -1.5                  -5.992e-06            -5.2e-13              -6e-14                5.9956e-06           
  -1.55                 -6.3472e-06           -6e-13                -8e-14                6.3508e-06           
  -1.6                  -6.6986e-06           -5.8e-13              -4e-14                6.7024e-06           
  -1.65                 -7.0428e-06           -5.4e-13              6e-14                 7.0466e-06           
  -1.7                  -7.3814e-06           -5.4e-13              -8e-14                7.3852e-06           
  -1.75                 -7.7154e-06           -5.6e-13              8e-14                 7.7192e-06           
  -1.8                  -8.043e-06            -6e-13                -6e-14                8.0466e-06           
  -1.85                 -8.365e-06            -6e-13                4e-14                 8.3684e-06           
  -1.9                  -8.6818e-06           -6.2e-13              1e-13                 8.6856e-06           
  -1.95                 -8.9946e-06           -6.4e-13              0                     8.998e-06            
  -2                    -9.3008e-06           -6.4e-13              1.4e-13               9.3042e-06           
  -2.05                 -9.6022e-06           -6.4e-13              0                     9.606e-06            
  -2.1                  -9.8998e-06           -7e-13                2e-14                 9.9036e-06           
  -2.15                 -1.01914e-05          -6e-13                0                     1.0195e-05           
  -2.2                  -1.04778e-05          -7e-13                4e-14                 1.04814e-05          
  -2.25                 -1.07604e-05          -6.4e-13              6e-14                 1.07638e-05          
  -2.3                  -1.1039e-05           -6.4e-13              -6e-14                1.10426e-05          
  -2.35                 -1.13122e-05          -6.4e-13              -1.2e-13              1.13158e-05          
  -2.4                  -1.1572e-05           -5.4e-13              -2e-14                1.1592e-05           
  -2.45                 -1.1836e-05           -4.6e-13              -4e-14                1.1856e-05           
  -2.5                  -1.2096e-05           -4.8e-13              8e-14                 1.2116e-05           
  -2.55                 -1.2352e-05           -6.2e-13              4e-14                 1.2372e-05           
  -2.6                  -1.2604e-05           -6.2e-13              -2e-14                1.2624e-05           
  -2.65                 -1.2852e-05           -6.6e-13              2e-14                 1.2872e-05           
  -2.7                  -1.3096e-05           -7.2e-13              0                     1.3116e-05           
  -2.75                 -1.3336e-05           -6.2e-13              -4e-14                1.3356e-05           
  -2.8                  -1.3572e-05           -6e-13                4e-14                 1.3592e-05           
  -2.85                 -1.3804e-05           -7.8e-13              8e-14                 1.3824e-05           
  -2.9                  -1.4032e-05           -7e-13                -8e-14                1.4052e-05           
  -2.95                 -1.4256e-05           -6.2e-13              4e-14                 1.4276e-05           
  -3                    -1.4478e-05           -7e-13                -2e-14                1.4498e-05           
  -3.05                 -1.4696e-05           -7.6e-13              -1e-13                1.4716e-05           
  -3.1                  -1.491e-05            -6.4e-13              0                     1.4928e-05           
  -3.15                 -1.512e-05            -7.4e-13              -1.2e-13              1.514e-05            
  -3.2                  -1.5328e-05           -6.6e-13              -6e-14                1.5348e-05           
  -3.25                 -1.5532e-05           -7.6e-13              2e-14                 1.555e-05            
  -3.3                  -1.5732e-05           -8.4e-13              -6e-14                1.575e-05            
  -3.35                 -1.593e-05            -7.2e-13              -2e-14                1.5948e-05           
  -3.4                  -1.6122e-05           -7.2e-13              -2e-13                1.6142e-05           
  -3.45                 -1.6314e-05           -6.6e-13              1.2e-13               1.6334e-05           
  -3.5                  -1.6502e-05           -7.4e-13              -1.6e-13              1.652e-05            
  -3.55                 -1.6686e-05           -6.8e-13              1.2e-13               1.6706e-05           
  -3.6                  -1.6868e-05           -8.8e-13              -1e-13                1.6888e-05           
END_DB

BEGIN_DB
 ICCAP_VAR vb         0.9            
 ICCAP_VAR vd         -0.1           
 ICCAP_VAR vs         -0             

 #vg                    id                    ig                    ib                    is                   
  0.5                   6e-14                 5.2e-13               4.4e-13               4e-14                
  0.45                  2e-14                 3.6e-13               4.4e-13               8e-14                
  0.4                   -6e-14                2.6e-13               2.8e-13               8e-14                
  0.35                  8e-14                 1.4e-13               3.6e-13               1e-13                
  0.3                   -6e-14                8e-14                 2.8e-13               2e-14                
  0.25                  -2e-14                0                     2.8e-13               1.4e-13              
  0.2                   6e-14                 0                     2.4e-13               -8e-14               
  0.15                  2e-14                 4e-14                 2.4e-13               1.2e-13              
  0.1                   -2e-14                -4e-14                2.6e-13               1e-13                
  0.05                  0                     -2e-14                3.6e-13               -6e-14               
  0                     1e-13                 -1.4e-13              2e-13                 2.2e-13              
  -0.05                 -1.2e-13              -6e-14                2.8e-13               -2e-14               
  -0.1                  1e-13                 -2e-13                8e-14                 1.6e-13              
  -0.15                 6e-14                 -1.2e-13              4.6e-13               -2e-14               
  -0.2                  1e-13                 -2.2e-13              1.4e-13               1.6e-13              
  -0.25                 1.2e-13               -3e-13                2e-13                 8e-14                
  -0.3                  2e-14                 -1.6e-13              2.6e-13               0                    
  -0.35                 1.2e-13               -2.6e-13              1.6e-13               1.8e-13              
  -0.4                  1e-13                 -3e-13                1.6e-13               2.2e-13              
  -0.45                 2e-14                 -3e-13                2e-13                 6e-14                
  -0.5                  1.2e-13               -3e-13                1e-13                 1.8e-13              
  -0.55                 -2.4e-13              -2.2e-13              0                     2.4e-13              
  -0.6                  -8.4e-13              -3.2e-13              2.2e-13               9.8e-13              
  -0.65                 -3.4e-12              -3e-13                1.4e-13               3.68e-12             
  -0.7                  -1.408e-11            -4e-13                4e-14                 1.438e-11            
  -0.75                 -5.712e-11            -2.6e-13              1.6e-13               5.708e-11            
  -0.8                  -2.2934e-10           -4e-13                1.4e-13               2.2952e-10           
  -0.85                 -9.2442e-10           -4.6e-13              6e-14                 9.2432e-10           
  -0.9                  -3.6434e-09           -3e-13                1.6e-13               3.643e-09            
  -0.95                 -1.3586e-08           -2.4e-13              1.4e-13               1.361e-08            
  -1                    -4.4202e-08           -3e-13                1.8e-13               4.424e-08            
  -1.05                 -1.1842e-07           -4e-13                1.6e-13               1.1862e-07           
  -1.1                  -2.5696e-07           -3.4e-13              1.6e-13               2.5716e-07           
  -1.15                 -4.6602e-07           -3.8e-13              2.4e-13               4.662e-07            
  -1.2                  -7.3138e-07           -5.2e-13              4e-14                 7.316e-07            
  -1.25                 -1.03618e-06          -3.2e-13              2e-13                 1.03632e-06          
  -1.3                  -1.3618e-06           -4e-13                4e-14                 1.3654e-06           
  -1.35                 -1.6998e-06           -3.2e-13              3.2e-13               1.7034e-06           
  -1.4                  -2.0446e-06           -5.2e-13              6e-14                 2.0484e-06           
  -1.45                 -2.39e-06             -4.8e-13              1.6e-13               2.3936e-06           
  -1.5                  -2.736e-06            -5e-13                1.6e-13               2.7398e-06           
  -1.55                 -3.0788e-06           -5.6e-13              6e-14                 3.0824e-06           
  -1.6                  -3.4204e-06           -4.4e-13              1.2e-13               3.424e-06            
  -1.65                 -3.757e-06            -7.4e-13              0                     3.7606e-06           
  -1.7                  -4.0896e-06           -5e-13                2e-14                 4.0934e-06           
  -1.75                 -4.4192e-06           -5.6e-13              6e-14                 4.4228e-06           
  -1.8                  -4.7432e-06           -5.8e-13              -2e-14                4.747e-06            
  -1.85                 -5.0628e-06           -4.6e-13              1.4e-13               5.0666e-06           
  -1.9                  -5.378e-06            -4.8e-13              0                     5.3816e-06           
  -1.95                 -5.6898e-06           -5.2e-13              1e-13                 5.6934e-06           
  -2                    -5.996e-06            -5.4e-13              1e-13                 5.9994e-06           
  -2.05                 -6.2974e-06           -5.6e-13              6e-14                 6.3012e-06           
  -2.1                  -6.5956e-06           -5.4e-13              6e-14                 6.5994e-06           
  -2.15                 -6.889e-06            -5.6e-13              1e-13                 6.8924e-06           
  -2.2                  -7.1772e-06           -5.4e-13              0                     7.1808e-06           
  -2.25                 -7.4614e-06           -4.2e-13              1.6e-13               7.465e-06            
  -2.3                  -7.7426e-06           -6e-13                8e-14                 7.746e-06            
  -2.35                 -8.0176e-06           -6e-13                1.4e-13               8.0214e-06           
  -2.4                  -8.29e-06             -5.6e-13              1e-13                 8.2936e-06           
  -2.45                 -8.5572e-06           -5.8e-13              2e-14                 8.5608e-06           
  -2.5                  -8.8212e-06           -6.2e-13              1.2e-13               8.825e-06            
  -2.55                 -9.0802e-06           -7.8e-13              4e-14                 9.0838e-06           
  -2.6                  -9.3364e-06           -6.2e-13              1.2e-13               9.34e-06             
  -2.65                 -9.5888e-06           -6.8e-13              2e-14                 9.5922e-06           
  -2.7                  -9.8362e-06           -6.6e-13              -2e-14                9.8394e-06           
  -2.75                 -1.0081e-05           -6.4e-13              8e-14                 1.00844e-05          
  -2.8                  -1.0322e-05           -6.6e-13              8e-14                 1.03252e-05          
  -2.85                 -1.05582e-05          -6.2e-13              2e-14                 1.05616e-05          
  -2.9                  -1.0792e-05           -6.6e-13              6e-14                 1.07954e-05          
  -2.95                 -1.10214e-05          -6e-13                -6e-14                1.1025e-05           
  -3                    -1.12484e-05          -6.4e-13              8e-14                 1.12518e-05          
  -3.05                 -1.14716e-05          -6.2e-13              -6e-14                1.14752e-05          
  -3.1                  -1.1682e-05           -5.6e-13              1.2e-13               1.1702e-05           
  -3.15                 -1.1898e-05           -5.4e-13              0                     1.1918e-05           
  -3.2                  -1.2112e-05           -8e-13                1.6e-13               1.213e-05            
  -3.25                 -1.232e-05            -6.8e-13              -8e-14                1.234e-05            
  -3.3                  -1.2528e-05           -7.8e-13              1.2e-13               1.2548e-05           
  -3.35                 -1.2732e-05           -7.2e-13              4e-14                 1.275e-05            
  -3.4                  -1.2932e-05           -6.4e-13              2e-14                 1.2952e-05           
  -3.45                 -1.3128e-05           -7.2e-13              2e-14                 1.3148e-05           
