! VERSION = 6.00
BEGIN_HEADER
 ICCAP_INPUTS
  vd         V  D GROUND SMU1 0.1 LIN        1    -0         -3.6       37   -0.1      
  vg         V  G GROUND SMU2 0.001 LIST       2 3 -0.385 -0.585 -0.785
  vb         V  B GROUND SMU4 0.1 CON        -0
  vs         V  S GROUND SMU3 0.1 CON        -0
 ICCAP_OUTPUTS
  id         I  D GROUND SMU1 B
  ig         I  G GROUND SMU2 B
  ib         I  B GROUND SMU4 B
  is         I  S GROUND SMU3 B
 ICCAP_VALUES
  MASTER_SETUP_TYPE "~dc_idvd~"
  LINVT_VALUE ""
  LISTVT_VALUE "|idvg|100.0n|-200.0m|1.000m|3|200.0m|200.0m|"
  TYPE "-1"
  TEMP " 125.000 "
  IS_TNOM " 0.00000 "
  MAIN.W "2.000u"
  MAIN.L "1.200u"
  MAIN.AD "680.0f"
  MAIN.AS "680.0f"
  MAIN.PD "4.680u"
  MAIN.PS "4.680u"
  MAIN.NF "1.000"
  MAIN.M "1"
  MAIN.NRD "0.000"
  MAIN.NRS "0.000"
  MAIN.LDRIFT1 "1E-06"
  MAIN.LDRIFT2 "1E-06"
  MAIN.SA "0.000"
  MAIN.SB "0.000"
  MAIN.SD "0.000"
  MAIN.SCA "0.000"
  MAIN.SCB "0.000"
  MAIN.SCC "0.000"
  MAIN.SC "0.000"
  MODULE "S563"
  PIN_D "16"
  PIN_G "5"
  PIN_S "6"
  PIN_B "15"
  PIN_E ""
  PIN_6 ""
  XY_ID ""
  FUNC "LW Scale"
  STI "SA ref"
  WPE "WPE ref"
  COMMENT ""
  DIS_MEAS ""
  TypeTCI "10"
END_HEADER

BEGIN_DB
 ICCAP_VAR vg         -0.385         
 ICCAP_VAR vb         -0             
 ICCAP_VAR vs         -0             

 #vd                    id                    ig                    ib                    is                   
  -0                    2.08e-12              7.4e-13               -1.668e-11            -7.26e-12            
  -0.1                  -6.247e-09            6.6e-13               -1.58e-11             6.2458e-09           
  -0.2                  -6.616e-09            6.4e-13               -1.34e-11             6.6142e-09           
  -0.3                  -6.6486e-09           6.6e-13               -1.274e-11            6.6466e-09           
  -0.4                  -6.6624e-09           7.2e-13               -1.228e-11            6.6606e-09           
  -0.5                  -6.6708e-09           6.6e-13               -1.132e-11            6.6688e-09           
  -0.6                  -6.68e-09             5.2e-13               -1.05e-11             6.6778e-09           
  -0.7                  -6.6874e-09           5.8e-13               -9.56e-12             6.686e-09            
  -0.8                  -6.6956e-09           5.4e-13               -8.96e-12             6.6922e-09           
  -0.9                  -6.7012e-09           4.4e-13               -8.82e-12             6.6984e-09           
  -1                    -6.7052e-09           6.4e-13               -8.36e-12             6.704e-09            
  -1.1                  -6.7114e-09           5e-13                 -7.82e-12             6.71e-09             
  -1.2                  -6.7176e-09           5.8e-13               -7.68e-12             6.7132e-09           
  -1.3                  -6.7228e-09           4.8e-13               -6.9e-12              6.7196e-09           
  -1.4                  -6.7286e-09           4.4e-13               -7.04e-12             6.7252e-09           
  -1.5                  -6.7332e-09           3.8e-13               -6.24e-12             6.7302e-09           
  -1.6                  -6.738e-09            4.8e-13               -5.96e-12             6.7362e-09           
  -1.7                  -6.743e-09            4.6e-13               -5.96e-12             6.7396e-09           
  -1.8                  -6.7508e-09           4.8e-13               -5.68e-12             6.7534e-09           
  -1.9                  -6.7632e-09           4.8e-13               -5.22e-12             6.7606e-09           
  -2                    -6.768e-09            3.8e-13               -5.08e-12             6.7644e-09           
  -2.1                  -6.774e-09            5.4e-13               -5.06e-12             6.7698e-09           
  -2.2                  -6.7804e-09           4e-13                 -4.36e-12             6.7766e-09           
  -2.3                  -6.7844e-09           4e-13                 -3.92e-12             6.7818e-09           
  -2.4                  -6.789e-09            4.2e-13               -3.48e-12             6.7858e-09           
  -2.5                  -6.7952e-09           3.4e-13               -2.8e-12              6.7896e-09           
  -2.6                  -6.7988e-09           3.8e-13               -2.38e-12             6.793e-09            
  -2.7                  -6.8026e-09           4e-13                 -1.32e-12             6.7982e-09           
  -2.8                  -6.8078e-09           3.6e-13               6e-14                 6.802e-09            
  -2.9                  -6.8128e-09           3.6e-13               1.82e-12              6.804e-09            
  -3                    -6.8212e-09           4e-13                 4.54e-12              6.8102e-09           
  -3.1                  -6.8286e-09           2.4e-13               7.66e-12              6.8144e-09           
  -3.2                  -6.8362e-09           4.2e-13               1.228e-11             6.8162e-09           
  -3.3                  -6.8446e-09           4.4e-13               1.872e-11             6.8206e-09           
  -3.4                  -6.8568e-09           2e-13                 2.664e-11             6.825e-09            
  -3.5                  -6.8706e-09           2.6e-13               3.688e-11             6.8256e-09           
  -3.6                  -6.8874e-09           2.4e-13               5.07e-11              6.831e-09            
END_DB

BEGIN_DB
 ICCAP_VAR vg         -0.585         
 ICCAP_VAR vb         -0             
 ICCAP_VAR vs         -0             

 #vd                    id                    ig                    ib                    is                   
  -0                    1.0992e-10            6e-14                 -1.178e-11            -1.1192e-10          
  -0.1                  -1.5374e-07           8e-14                 -1.186e-11            1.5382e-07           
  -0.2                  -1.6952e-07           6e-14                 -6.84e-12             1.6966e-07           
  -0.3                  -1.7108e-07           1.2e-13               -6.18e-12             1.712e-07            
  -0.4                  -1.7144e-07           1e-13                 -5.58e-12             1.7152e-07           
  -0.5                  -1.7168e-07           1.4e-13               -4.94e-12             1.7184e-07           
  -0.6                  -1.7204e-07           0                     -4.56e-12             1.721e-07            
  -0.7                  -1.7224e-07           2e-13                 -3.92e-12             1.7232e-07           
  -0.8                  -1.7246e-07           2.4e-13               -3.94e-12             1.7254e-07           
  -0.9                  -1.7262e-07           1.6e-13               -3.88e-12             1.7274e-07           
  -1                    -1.7282e-07           2.2e-13               -3.4e-12              1.7292e-07           
  -1.1                  -1.7302e-07           1.2e-13               -2.8e-12              1.7308e-07           
  -1.2                  -1.7312e-07           2e-13                 -2.96e-12             1.732e-07            
  -1.3                  -1.7328e-07           1e-13                 -2.52e-12             1.7336e-07           
  -1.4                  -1.7356e-07           4e-14                 -1.82e-12             1.7362e-07           
  -1.5                  -1.737e-07            -2e-14                -1.96e-12             1.7374e-07           
  -1.6                  -1.737e-07            2.4e-13               -1.46e-12             1.7376e-07           
  -1.7                  -1.7382e-07           2e-13                 -1.1e-12              1.7388e-07           
  -1.8                  -1.7394e-07           1.4e-13               -1.38e-12             1.7404e-07           
  -1.9                  -1.741e-07            1.6e-13               -5.8e-13              1.7416e-07           
  -2                    -1.7422e-07           1.8e-13               -8e-14                1.743e-07            
  -2.1                  -1.7436e-07           1.6e-13               5.8e-13               1.744e-07            
  -2.2                  -1.7456e-07           1.2e-13               2.28e-12              1.7462e-07           
  -2.3                  -1.746e-07            1.4e-13               3.52e-12              1.747e-07            
  -2.4                  -1.7474e-07           1.6e-13               6.62e-12              1.748e-07            
  -2.5                  -1.7476e-07           8e-14                 1.172e-11             1.7488e-07           
  -2.6                  -1.7502e-07           8e-14                 1.906e-11             1.751e-07            
  -2.7                  -1.7516e-07           6e-14                 3.016e-11             1.7518e-07           
  -2.8                  -1.7522e-07           1.2e-13               4.66e-11              1.7536e-07           
  -2.9                  -1.7548e-07           2.2e-13               7.034e-11             1.7546e-07           
  -3                    -1.756e-07            1.6e-13               1.0506e-10            1.7558e-07           
  -3.1                  -1.7576e-07           2.2e-13               1.5506e-10            1.7568e-07           
  -3.2                  -1.7596e-07           2e-13                 2.242e-10             1.7578e-07           
  -3.3                  -1.7612e-07           1.4e-13               3.2004e-10            1.7574e-07           
  -3.4                  -1.7632e-07           2.4e-13               4.508e-10             1.7596e-07           
  -3.5                  -1.7656e-07           1.8e-13               6.2604e-10            1.7604e-07           
  -3.6                  -1.7696e-07           2.4e-13               8.5782e-10            1.761e-07            
END_DB

BEGIN_DB
 ICCAP_VAR vg         -0.785         
 ICCAP_VAR vb         -0             
 ICCAP_VAR vs         -0             

 #vd                    id                    ig                    ib                    is                   
  -0                    3.612e-10             -2e-14                -9.12e-12             -4.0714e-10          
  -0.1                  -8.5872e-07           4e-14                 -8.98e-12             8.5886e-07           
  -0.2                  -1.14664e-06          -2e-14                -4.48e-12             1.147e-06            
  -0.3                  -1.1974e-06           2e-14                 -7.6e-12              1.1998e-06           
  -0.4                  -1.2058e-06           -1e-13                -3.8e-12              1.2092e-06           
  -0.5                  -1.2098e-06           -8e-14                -2.76e-12             1.2124e-06           
  -0.6                  -1.212e-06            -6e-14                -2.8e-12              1.2154e-06           
  -0.7                  -1.2146e-06           -4e-14                -2.18e-12             1.2172e-06           
  -0.8                  -1.216e-06            0                     -1.98e-12             1.2188e-06           
  -0.9                  -1.2176e-06           4e-14                 -1.96e-12             1.2206e-06           
  -1                    -1.2194e-06           -4e-14                -1.34e-12             1.222e-06            
  -1.1                  -1.2204e-06           8e-14                 -1.32e-12             1.2234e-06           
  -1.2                  -1.2218e-06           -8e-14                -9.4e-13              1.2252e-06           
  -1.3                  -1.2232e-06           4e-14                 -4e-13                1.2262e-06           
  -1.4                  -1.2244e-06           4e-14                 -6.2e-13              1.2274e-06           
  -1.5                  -1.2254e-06           -8e-14                -4.6e-13              1.2286e-06           
  -1.6                  -1.2276e-06           1e-13                 -1.4e-13              1.23e-06             
  -1.7                  -1.228e-06            -4e-14                2.4e-13               1.231e-06            
  -1.8                  -1.229e-06            4e-14                 3.6e-13               1.2322e-06           
  -1.9                  -1.2302e-06           0                     1.3e-12               1.2336e-06           
  -2                    -1.2312e-06           -2e-14                1.92e-12              1.234e-06            
  -2.1                  -1.232e-06            1.4e-13               4.34e-12              1.2348e-06           
  -2.2                  -1.2326e-06           -2e-14                7.14e-12              1.2356e-06           
  -2.3                  -1.2336e-06           -1.6e-13              1.26e-11              1.2362e-06           
  -2.4                  -1.2342e-06           2e-14                 2.252e-11             1.2376e-06           
  -2.5                  -1.2356e-06           2e-14                 3.83e-11              1.2388e-06           
  -2.6                  -1.2366e-06           0                     6.326e-11             1.2394e-06           
  -2.7                  -1.237e-06            -6e-14                1.0368e-10            1.2404e-06           
  -2.8                  -1.2382e-06           -1e-13                1.6428e-10            1.2408e-06           
  -2.9                  -1.2394e-06           0                     2.572e-10             1.2422e-06           
  -3                    -1.2404e-06           0                     3.9504e-10            1.2424e-06           
  -3.1                  -1.2408e-06           1e-13                 5.9584e-10            1.2432e-06           
  -3.2                  -1.2416e-06           6e-14                 8.8572e-10            1.2436e-06           
  -3.3                  -1.2426e-06           2e-14                 1.2964e-09            1.2452e-06           
  -3.4                  -1.2446e-06           8e-14                 1.87e-09              1.2454e-06           
  -3.5                  -1.2458e-06           8e-14                 2.6562e-09            1.2468e-06           
  -3.6                  -1.2486e-06           -2e-14                3.7238e-09            1.2476e-06           
END_DB

