! VERSION = 6.00
BEGIN_HEADER
 ICCAP_INPUTS
  vd         V  D GROUND SMU1 0.1 LIN        1    -0         -3.6       37   -0.1      
  vg         V  G GROUND SMU2 0.001 LIN        2    -1.984     -3.6       5    -0.404    
  vb         V  B GROUND SMU4 0.1 CON        3.6
  vs         V  S GROUND SMU3 0.1 CON        -0
 ICCAP_OUTPUTS
  id         I  D GROUND SMU1 B
  ig         I  G GROUND SMU2 B
  ib         I  B GROUND SMU4 B
  is         I  S GROUND SMU3 B
 ICCAP_VALUES
  MASTER_SETUP_TYPE "~dc_idvd~"
  LINVT_VALUE "|idvg|100.0n|100.0m|1.000m|5|3.600|"
  LISTVT_VALUE ""
  TYPE "-1"
  TEMP " 27.0000 "
  IS_TNOM " 1.00000 "
  MAIN.W "2.000u"
  MAIN.L "3.000u"
  MAIN.AD "680.0f"
  MAIN.AS "680.0f"
  MAIN.PD "4.680u"
  MAIN.PS "4.680u"
  MAIN.NF "1.000"
  MAIN.M "1"
  MAIN.NRD "0.000"
  MAIN.NRS "0.000"
  MAIN.LDRIFT1 "1E-06"
  MAIN.LDRIFT2 "1E-06"
  MAIN.SA "0.000"
  MAIN.SB "0.000"
  MAIN.SD "0.000"
  MAIN.SCA "0.000"
  MAIN.SCB "0.000"
  MAIN.SCC "0.000"
  MAIN.SC "0.000"
  MODULE "S563"
  PIN_D "14"
  PIN_G "7"
  PIN_S "8"
  PIN_B "13"
  PIN_E ""
  PIN_6 ""
  XY_ID ""
  FUNC "LW Scale"
  STI "SA ref"
  WPE "WPE ref"
  COMMENT ""
  DIS_MEAS ""
  TypeTCI "10"
END_HEADER

BEGIN_DB
 ICCAP_VAR vg         -1.984         
 ICCAP_VAR vb         3.6            
 ICCAP_VAR vs         -0             

 #vd                    id                    ig                    ib                    is                   
  -0                    1.289e-10             -1.1e-12              1.06e-12              -1.5184e-10          
  -0.1                  -1.8818e-07           -6.8e-13              1e-12                 1.8846e-07           
  -0.2                  -2.3478e-07           -4.4e-13              8.4e-13               2.3496e-07           
  -0.3                  -2.3926e-07           -5.4e-13              7.6e-13               2.3942e-07           
  -0.4                  -2.3992e-07           -5e-13                7.4e-13               2.4012e-07           
  -0.5                  -2.4024e-07           -3.8e-13              5.8e-13               2.405e-07            
  -0.6                  -2.4052e-07           -4.2e-13              6.2e-13               2.4068e-07           
  -0.7                  -2.407e-07            -4.6e-13              6.6e-13               2.4096e-07           
  -0.8                  -2.4088e-07           -3.6e-13              6e-13                 2.411e-07            
  -0.9                  -2.4102e-07           -5.4e-13              6.2e-13               2.4124e-07           
  -1                    -2.4116e-07           -3.4e-13              6.2e-13               2.4134e-07           
  -1.1                  -2.4126e-07           -2.8e-13              4.2e-13               2.4146e-07           
  -1.2                  -2.4138e-07           -3.8e-13              3.4e-13               2.4156e-07           
  -1.3                  -2.4146e-07           -3.8e-13              4e-13                 2.4168e-07           
  -1.4                  -2.4158e-07           -3.6e-13              3.2e-13               2.4174e-07           
  -1.5                  -2.4168e-07           -3.6e-13              3.4e-13               2.4192e-07           
  -1.6                  -2.4176e-07           -2e-13                3.2e-13               2.4198e-07           
  -1.7                  -2.4188e-07           -2.2e-13              4e-13                 2.4212e-07           
  -1.8                  -2.4192e-07           -6e-13                2.6e-13               2.4212e-07           
  -1.9                  -2.42e-07             -3.2e-13              2.4e-13               2.4228e-07           
  -2                    -2.4212e-07           -1.6e-13              6e-14                 2.4232e-07           
  -2.1                  -2.422e-07            -8e-14                2.2e-13               2.424e-07            
  -2.2                  -2.4218e-07           -2.2e-13              2.8e-13               2.424e-07            
  -2.3                  -2.4236e-07           -3.4e-13              3.2e-13               2.4246e-07           
  -2.4                  -2.4232e-07           -2e-13                2.6e-13               2.4252e-07           
  -2.5                  -2.4244e-07           1e-13                 4.8e-13               2.4262e-07           
  -2.6                  -2.4254e-07           -2e-13                8.2e-13               2.4266e-07           
  -2.7                  -2.4252e-07           -3.6e-13              1.5e-12               2.4276e-07           
  -2.8                  -2.4262e-07           -1.2e-13              2.84e-12              2.4292e-07           
  -2.9                  -2.4278e-07           -2e-14                5.28e-12              2.4298e-07           
  -3                    -2.4288e-07           -1e-13                9.48e-12              2.4302e-07           
  -3.1                  -2.429e-07            -2e-13                1.684e-11             2.4316e-07           
  -3.2                  -2.4306e-07           -2.4e-13              2.908e-11             2.433e-07            
  -3.3                  -2.4316e-07           1e-13                 4.958e-11             2.433e-07            
  -3.4                  -2.4324e-07           -4e-14                8.232e-11             2.4336e-07           
  -3.5                  -2.433e-07            -2e-13                1.3454e-10            2.435e-07            
  -3.6                  -2.4354e-07           -4e-14                2.1548e-10            2.4356e-07           
END_DB

BEGIN_DB
 ICCAP_VAR vg         -2.388         
 ICCAP_VAR vb         3.6            
 ICCAP_VAR vs         -0             

 #vd                    id                    ig                    ib                    is                   
  -0                    5.6166e-10            -1e-13                3e-13                 -5.6846e-10          
  -0.1                  -9.239e-07            -2.2e-13              2.2e-13               9.2434e-07           
  -0.2                  -1.6098e-06           -1.6e-13              1.4e-13               1.6138e-06           
  -0.3                  -2.0662e-06           -2e-13                2.8e-13               2.07e-06             
  -0.4                  -2.3134e-06           -1.2e-13              1e-13                 2.317e-06            
  -0.5                  -2.4074e-06           -2.8e-13              2e-14                 2.4112e-06           
  -0.6                  -2.4322e-06           -1.4e-13              1.4e-13               2.436e-06            
  -0.7                  -2.4398e-06           -2e-14                1e-13                 2.4432e-06           
  -0.8                  -2.4434e-06           -2e-14                8e-14                 2.4474e-06           
  -0.9                  -2.4466e-06           4e-14                 1.4e-13               2.4498e-06           
  -1                    -2.448e-06            2e-14                 1.4e-13               2.452e-06            
  -1.1                  -2.45e-06             -2.6e-13              6e-14                 2.4536e-06           
  -1.2                  -2.4512e-06           -2.4e-13              6e-14                 2.455e-06            
  -1.3                  -2.4528e-06           -1e-13                8e-14                 2.4568e-06           
  -1.4                  -2.454e-06            -2.8e-13              0                     2.457e-06            
  -1.5                  -2.4546e-06           -2.6e-13              -6e-14                2.4586e-06           
  -1.6                  -2.4554e-06           -1.6e-13              -6e-14                2.459e-06            
  -1.7                  -2.4562e-06           -2.4e-13              -6e-14                2.4606e-06           
  -1.8                  -2.4578e-06           -3.8e-13              0                     2.4616e-06           
  -1.9                  -2.4586e-06           -1.6e-13              -6e-14                2.462e-06            
  -2                    -2.4594e-06           -2e-14                -4e-14                2.463e-06            
  -2.1                  -2.4606e-06           -2e-13                -4e-14                2.4644e-06           
  -2.2                  -2.4622e-06           -2e-14                2e-14                 2.4656e-06           
  -2.3                  -2.4628e-06           -4e-14                0                     2.4664e-06           
  -2.4                  -2.4634e-06           -1.8e-13              4e-14                 2.4666e-06           
  -2.5                  -2.4638e-06           -2.2e-13              2e-13                 2.4676e-06           
  -2.6                  -2.4644e-06           -1e-13                3.4e-13               2.4678e-06           
  -2.7                  -2.465e-06            4e-14                 7.8e-13               2.4686e-06           
  -2.8                  -2.4658e-06           -2e-14                2.04e-12              2.4696e-06           
  -2.9                  -2.4666e-06           -4e-13                4.64e-12              2.4696e-06           
  -3                    -2.4672e-06           -3.4e-13              9.66e-12              2.4704e-06           
  -3.1                  -2.468e-06            -1.2e-13              1.946e-11             2.4722e-06           
  -3.2                  -2.4688e-06           1.6e-13               3.738e-11             2.4724e-06           
  -3.3                  -2.4698e-06           1.8e-13               7.04e-11              2.4732e-06           
  -3.4                  -2.4706e-06           0                     1.2808e-10            2.4744e-06           
  -3.5                  -2.4714e-06           -1.4e-13              2.2686e-10            2.4746e-06           
  -3.6                  -2.4722e-06           -6e-14                3.9212e-10            2.4754e-06           
END_DB

BEGIN_DB
 ICCAP_VAR vg         -2.792         
 ICCAP_VAR vb         3.6            
 ICCAP_VAR vs         -0             

 #vd                    id                    ig                    ib                    is                   
  -0                    9.578e-10             -5.4e-13              1.8e-13               -9.1498e-10          
  -0.1                  -1.651e-06            -1.2e-13              1.4e-13               1.6548e-06           
  -0.2                  -3.0802e-06           -1.4e-13              1.6e-13               3.0844e-06           
  -0.3                  -4.2802e-06           -2.4e-13              4e-14                 4.284e-06            
  -0.4                  -5.2484e-06           -1.8e-13              4e-14                 5.2526e-06           
  -0.5                  -5.9922e-06           -3.2e-13              1.4e-13               5.9966e-06           
  -0.6                  -6.5158e-06           -1.4e-13              4e-14                 6.519e-06            
  -0.7                  -6.837e-06            1e-13                 0                     6.8416e-06           
  -0.8                  -7.0014e-06           2e-14                 -2e-14                7.0048e-06           
  -0.9                  -7.0676e-06           -3.6e-13              -6e-14                7.072e-06            
  -1                    -7.0948e-06           -2.2e-13              -6e-14                7.099e-06            
  -1.1                  -7.1066e-06           -8e-14                2e-14                 7.1112e-06           
  -1.2                  -7.117e-06            -3.2e-13              0                     7.1212e-06           
  -1.3                  -7.1226e-06           -3.4e-13              -8e-14                7.1274e-06           
  -1.4                  -7.1282e-06           -6e-14                -1e-13                7.1318e-06           
  -1.5                  -7.1328e-06           2e-14                 -1.4e-13              7.1372e-06           
  -1.6                  -7.137e-06            -2.6e-13              -4e-14                7.141e-06            
  -1.7                  -7.1412e-06           -4.4e-13              0                     7.1442e-06           
  -1.8                  -7.1434e-06           -1.6e-13              0                     7.147e-06            
  -1.9                  -7.1464e-06           -1.8e-13              -1.6e-13              7.1514e-06           
  -2                    -7.1498e-06           -1.4e-13              -1.6e-13              7.1538e-06           
  -2.1                  -7.1524e-06           2e-14                 -6e-14                7.1578e-06           
  -2.2                  -7.1566e-06           -2.2e-13              -2.2e-13              7.1606e-06           
  -2.3                  -7.1598e-06           -3.6e-13              -1e-13                7.1626e-06           
  -2.4                  -7.1612e-06           -1.2e-13              -6e-14                7.1652e-06           
  -2.5                  -7.163e-06            1e-13                 -6e-14                7.1688e-06           
  -2.6                  -7.167e-06            0                     -8e-14                7.1692e-06           
  -2.7                  -7.168e-06            -1.2e-13              -2e-14                7.1712e-06           
  -2.8                  -7.1712e-06           -2e-13                2.4e-13               7.1746e-06           
  -2.9                  -7.1734e-06           -1.2e-13              6.6e-13               7.1764e-06           
  -3                    -7.1758e-06           -4e-14                1.74e-12              7.1776e-06           
  -3.1                  -7.1764e-06           -4e-14                4.18e-12              7.1796e-06           
  -3.2                  -7.1796e-06           -1.2e-13              9.52e-12              7.1842e-06           
  -3.3                  -7.1822e-06           1.6e-13               2.018e-11             7.1858e-06           
  -3.4                  -7.1832e-06           4e-14                 4.118e-11             7.186e-06            
  -3.5                  -7.1852e-06           -6e-14                8.106e-11             7.1888e-06           
  -3.6                  -7.1862e-06           -1e-13                1.5488e-10            7.1896e-06           
END_DB

BEGIN_DB
 ICCAP_VAR vg         -3.196         
 ICCAP_VAR vb         3.6            
 ICCAP_VAR vs         -0             

 #vd                    id                    ig                    ib                    is                   
  -0                    1.2302e-09            -3e-13                2e-13                 -1.12842e-09         
  -0.1                  -2.3096e-06           -3e-13                0                     2.3132e-06           
  -0.2                  -4.4156e-06           -2.6e-13              0                     4.4192e-06           
  -0.3                  -6.308e-06            -2.2e-13              4e-14                 6.3126e-06           
  -0.4                  -7.9818e-06           -4e-14                -4e-14                7.9854e-06           
  -0.5                  -9.4426e-06           -1.8e-13              -2e-14                9.4468e-06           
  -0.6                  -1.06854e-05          -3.2e-13              2e-14                 1.06906e-05          
  -0.7                  -1.1698e-05           -2.4e-13              2e-14                 1.1718e-05           
  -0.8                  -1.2506e-05           -2e-13                0                     1.2526e-05           
  -0.9                  -1.3102e-05           -1.8e-13              -2e-14                1.3122e-05           
  -1                    -1.3508e-05           0                     -4e-14                1.3528e-05           
  -1.1                  -1.375e-05            -2.2e-13              -4e-14                1.3768e-05           
  -1.2                  -1.3878e-05           -3e-13                -2e-14                1.3896e-05           
  -1.3                  -1.394e-05            -2.2e-13              -6e-14                1.3962e-05           
  -1.4                  -1.3974e-05           4e-14                 -1.4e-13              1.3994e-05           
  -1.5                  -1.3994e-05           0                     -1e-13                1.4014e-05           
  -1.6                  -1.4008e-05           -1.8e-13              -8e-14                1.4028e-05           
  -1.7                  -1.402e-05            -1.6e-13              -1.2e-13              1.404e-05            
  -1.8                  -1.403e-05            -2.6e-13              -1.6e-13              1.405e-05            
  -1.9                  -1.4038e-05           -1.4e-13              0                     1.4056e-05           
  -2                    -1.4042e-05           -2.6e-13              -1.4e-13              1.4064e-05           
  -2.1                  -1.4052e-05           -2.4e-13              -2e-13                1.407e-05            
  -2.2                  -1.4056e-05           -4e-14                -1.6e-13              1.4076e-05           
  -2.3                  -1.4062e-05           -1.8e-13              -8e-14                1.408e-05            
  -2.4                  -1.4066e-05           -3.6e-13              -1.4e-13              1.4088e-05           
  -2.5                  -1.4072e-05           -4e-14                -1.4e-13              1.4094e-05           
  -2.6                  -1.408e-05            -4e-14                -1.2e-13              1.4096e-05           
  -2.7                  -1.4082e-05           -1.4e-13              -2e-13                1.4102e-05           
  -2.8                  -1.4086e-05           -2e-14                -1.8e-13              1.4104e-05           
  -2.9                  -1.409e-05            0                     -4e-14                1.4112e-05           
  -3                    -1.4098e-05           -1e-13                0                     1.4116e-05           
  -3.1                  -1.4102e-05           -2.6e-13              3.6e-13               1.412e-05            
  -3.2                  -1.4106e-05           -6e-14                8.4e-13               1.4124e-05           
  -3.3                  -1.4108e-05           1.2e-13               2.4e-12               1.4128e-05           
  -3.4                  -1.4112e-05           -8e-14                5.78e-12              1.4132e-05           
  -3.5                  -1.4114e-05           -2.4e-13              1.346e-11             1.4136e-05           
  -3.6                  -1.412e-05            -1.6e-13              2.922e-11             1.414e-05            
END_DB

BEGIN_DB
 ICCAP_VAR vg         -3.6           
 ICCAP_VAR vb         3.6            
 ICCAP_VAR vs         -0             

 #vd                    id                    ig                    ib                    is                   
  -0                    1.5424e-09            -4e-13                2e-14                 -1.277e-09           
  -0.1                  -2.8988e-06           -2.4e-13              1.6e-13               2.9022e-06           
  -0.2                  -5.6118e-06           -1.8e-13              1e-13                 5.6152e-06           
  -0.3                  -8.1272e-06           -1e-13                -8e-14                8.1312e-06           
  -0.4                  -1.04378e-05          -2e-13                -1.6e-13              1.04428e-05          
  -0.5                  -1.2544e-05           -3.8e-13              -2e-14                1.2566e-05           
  -0.6                  -1.4456e-05           -1.6e-13              2e-14                 1.4476e-05           
  -0.7                  -1.6156e-05           -2.4e-13              -4e-14                1.6178e-05           
  -0.8                  -1.7654e-05           0                     -1e-13                1.7674e-05           
