! VERSION = 6.00
BEGIN_HEADER
 ICCAP_INPUTS
  vd         V  D GROUND SMU1 0.1 LIN        1    -0         -3.6       37   -0.1      
  vg         V  G GROUND SMU2 0.001 LIN        2    -1.608     -3.6       5    -0.498    
  vb         V  B GROUND SMU4 0.1 CON        3.6
  vs         V  S GROUND SMU3 0.1 CON        -0
 ICCAP_OUTPUTS
  id         I  D GROUND SMU1 B
  ig         I  G GROUND SMU2 B
  ib         I  B GROUND SMU4 B
  is         I  S GROUND SMU3 B
 ICCAP_VALUES
  MASTER_SETUP_TYPE "~dc_idvd~"
  LINVT_VALUE "|idvg|100.0n|100.0m|1.000m|5|3.600|"
  LISTVT_VALUE ""
  TYPE "-1"
  TEMP " 125.000 "
  IS_TNOM " 0.00000 "
  MAIN.W "300.0n"
  MAIN.L "350.0n"
  MAIN.AD "102.0f"
  MAIN.AS "102.0f"
  MAIN.PD "1.280u"
  MAIN.PS "1.280u"
  MAIN.NF "1.000"
  MAIN.M "1"
  MAIN.NRD "0.000"
  MAIN.NRS "0.000"
  MAIN.LDRIFT1 "1E-06"
  MAIN.LDRIFT2 "1E-06"
  MAIN.SA "0.000"
  MAIN.SB "0.000"
  MAIN.SD "0.000"
  MAIN.SCA "0.000"
  MAIN.SCB "0.000"
  MAIN.SCC "0.000"
  MAIN.SC "0.000"
  MODULE "S565"
  PIN_D "16"
  PIN_G "5"
  PIN_S "6"
  PIN_B "15"
  PIN_E ""
  PIN_6 ""
  XY_ID ""
  FUNC "Small"
  STI "SA ref"
  WPE "WPE ref"
  COMMENT ""
  DIS_MEAS ""
  TypeTCI "10"
END_HEADER

BEGIN_DB
 ICCAP_VAR vg         -1.608         
 ICCAP_VAR vb         3.6            
 ICCAP_VAR vs         -0             

 #vd                    id                    ig                    ib                    is                   
  -0                    4.848e-11             -5e-12                3.2428e-09            -9.286e-11           
  -0.1                  -1.4488e-07           -4.74e-12             3.2014e-09            1.4504e-07           
  -0.2                  -1.917e-07            -4.54e-12             3.1722e-09            1.9174e-07           
  -0.3                  -2.1546e-07           -4.64e-12             3.142e-09             2.1556e-07           
  -0.4                  -2.3368e-07           -4.56e-12             3.1104e-09            2.3366e-07           
  -0.5                  -2.4954e-07           -4.36e-12             3.078e-09             2.4962e-07           
  -0.6                  -2.645e-07            -4.36e-12             3.043e-09             2.6442e-07           
  -0.7                  -2.7872e-07           -4.18e-12             3.0072e-09            2.786e-07            
  -0.8                  -2.9254e-07           -4.14e-12             2.9682e-09            2.925e-07            
  -0.9                  -3.063e-07            -4.08e-12             2.9276e-09            3.0668e-07           
  -1                    -3.2052e-07           -4.02e-12             2.8834e-09            3.2046e-07           
  -1.1                  -3.342e-07            -4e-12                2.8164e-09            3.3426e-07           
  -1.2                  -3.4804e-07           -3.72e-12             2.223e-09             3.4784e-07           
  -1.3                  -3.6148e-07           -1.84e-12             2.4642e-10            3.6176e-07           
  -1.4                  -3.7558e-07           -5.8e-13              1.4596e-10            3.7576e-07           
  -1.5                  -3.898e-07            -5.4e-13              1.2878e-10            3.9e-07              
  -1.6                  -4.0414e-07           -5.4e-13              1.1864e-10            4.0412e-07           
  -1.7                  -4.1822e-07           -4.6e-13              1.1092e-10            4.1852e-07           
  -1.8                  -4.3284e-07           -5e-13                1.0412e-10            4.3322e-07           
  -1.9                  -4.4766e-07           -4.4e-13              9.862e-11             4.4782e-07           
  -2                    -4.6256e-07           -4e-13                9.464e-11             4.6288e-07           
  -2.1                  -4.7818e-07           -4.4e-13              9.068e-11             4.781e-07            
  -2.2                  -4.9366e-07           -3e-13                8.722e-11             4.935e-07            
  -2.3                  -5.0996e-07           -2.4e-13              8.52e-11              5.0978e-07           
  -2.4                  -5.2572e-07           -3.4e-13              8.392e-11             5.257e-07            
  -2.5                  -5.422e-07            -3.4e-13              8.444e-11             5.4236e-07           
  -2.6                  -5.5896e-07           -4.2e-13              8.842e-11             5.5922e-07           
  -2.7                  -5.7614e-07           -4e-13                9.622e-11             5.7624e-07           
  -2.8                  -5.9304e-07           -4.2e-13              1.1184e-10            5.9314e-07           
  -2.9                  -6.1084e-07           -3.4e-13              1.3852e-10            6.1086e-07           
  -3                    -6.2898e-07           -2.6e-13              1.833e-10             6.2874e-07           
  -3.1                  -6.4724e-07           -3.8e-13              2.562e-10             6.4712e-07           
  -3.2                  -6.6608e-07           -2.8e-13              3.7032e-10            6.661e-07            
  -3.3                  -6.8536e-07           -2.6e-13              5.4704e-10            6.8468e-07           
  -3.4                  -7.0506e-07           -2.8e-13              8.1434e-10            7.045e-07            
  -3.5                  -7.2472e-07           -3.4e-13              1.2094e-09            7.2422e-07           
  -3.6                  -7.4628e-07           -1.6e-13              1.799e-09             7.4436e-07           
END_DB

BEGIN_DB
 ICCAP_VAR vg         -2.106         
 ICCAP_VAR vb         3.6            
 ICCAP_VAR vs         -0             

 #vd                    id                    ig                    ib                    is                   
  -0                    5.2084e-10            -5.8e-13              3.868e-11             -5.5028e-10          
  -0.1                  -1.5266e-06           -7.8e-13              3.7e-11               1.5298e-06           
  -0.2                  -2.7314e-06           -5.2e-13              4.104e-11             2.7348e-06           
  -0.3                  -3.6328e-06           -4.6e-13              4.08e-11              3.6362e-06           
  -0.4                  -4.278e-06            -5.4e-13              4.048e-11             4.281e-06            
  -0.5                  -4.729e-06            -3.8e-13              4.012e-11             4.7324e-06           
  -0.6                  -5.0462e-06           -4.8e-13              3.95e-11              5.0496e-06           
  -0.7                  -5.28e-06             -4.6e-13              3.924e-11             5.2834e-06           
  -0.8                  -5.4624e-06           -5e-13                3.876e-11             5.464e-06            
  -0.9                  -5.6136e-06           -3.6e-13              3.866e-11             5.6164e-06           
  -1                    -5.7422e-06           -4.4e-13              3.856e-11             5.7488e-06           
  -1.1                  -5.8642e-06           -4.2e-13              3.774e-11             5.8682e-06           
  -1.2                  -5.9772e-06           -4.2e-13              3.71e-11              5.98e-06             
  -1.3                  -6.0826e-06           -5.2e-13              3.752e-11             6.0856e-06           
  -1.4                  -6.1838e-06           -4.2e-13              3.676e-11             6.1878e-06           
  -1.5                  -6.2826e-06           -3.4e-13              3.656e-11             6.2852e-06           
  -1.6                  -6.3786e-06           -4e-13                3.604e-11             6.3792e-06           
  -1.7                  -6.473e-06            -4.8e-13              3.528e-11             6.4742e-06           
  -1.8                  -6.5636e-06           -5.4e-13              3.574e-11             6.566e-06            
  -1.9                  -6.6546e-06           -4.8e-13              3.562e-11             6.6564e-06           
  -2                    -6.743e-06            -3.8e-13              3.486e-11             6.7462e-06           
  -2.1                  -6.828e-06            -3.6e-13              3.516e-11             6.8336e-06           
  -2.2                  -6.9146e-06           -4.4e-13              3.56e-11              6.9186e-06           
  -2.3                  -7.0002e-06           -4.6e-13              3.622e-11             7.0028e-06           
  -2.4                  -7.0838e-06           -3e-13                3.884e-11             7.0864e-06           
  -2.5                  -7.1672e-06           -4.2e-13              4.444e-11             7.1716e-06           
  -2.6                  -7.2524e-06           -3.2e-13              5.436e-11             7.2536e-06           
  -2.7                  -7.3348e-06           -3.6e-13              7.362e-11             7.3378e-06           
  -2.8                  -7.418e-06            -3.8e-13              1.0724e-10            7.4214e-06           
  -2.9                  -7.5012e-06           -2.8e-13              1.6666e-10            7.5044e-06           
  -3                    -7.5856e-06           -3.2e-13              2.6644e-10            7.5884e-06           
  -3.1                  -7.669e-06            -3e-13                4.3622e-10            7.6706e-06           
  -3.2                  -7.7514e-06           -2.4e-13              7.0686e-10            7.755e-06            
  -3.3                  -7.835e-06            -2.8e-13              1.1438e-09            7.8382e-06           
  -3.4                  -7.919e-06            -3.6e-13              1.8282e-09            7.9226e-06           
  -3.5                  -8.0122e-06           -1.6e-13              2.9082e-09            8.0118e-06           
  -3.6                  -8.0998e-06           -3.4e-13              4.527e-09             8.0992e-06           
END_DB

BEGIN_DB
 ICCAP_VAR vg         -2.604         
 ICCAP_VAR vb         3.6            
 ICCAP_VAR vs         -0             

 #vd                    id                    ig                    ib                    is                   
  -0                    9.712e-10             -6.6e-13              2.228e-11             -7.9222e-10          
  -0.1                  -2.8022e-06           -5.2e-13              2.192e-11             2.8054e-06           
  -0.2                  -5.3278e-06           -6.4e-13              2.624e-11             5.3254e-06           
  -0.3                  -7.5438e-06           -7e-13                2.646e-11             7.547e-06            
  -0.4                  -9.4732e-06           -6.6e-13              2.658e-11             9.4762e-06           
  -0.5                  -1.11124e-05          -6e-13                2.592e-11             1.11134e-05          
  -0.6                  -1.2488e-05           -4.8e-13              2.208e-11             1.2492e-05           
  -0.7                  -1.36e-05             -5.6e-13              2.556e-11             1.3604e-05           
  -0.8                  -1.451e-05            -5.4e-13              2.602e-11             1.4498e-05           
  -0.9                  -1.5202e-05           -4.8e-13              2.61e-11              1.521e-05            
  -1                    -1.5782e-05           -5e-13                2.558e-11             1.5812e-05           
  -1.1                  -1.627e-05            -4.2e-13              2.58e-11              1.626e-05            
  -1.2                  -1.6656e-05           -5e-13                2.536e-11             1.6662e-05           
  -1.3                  -1.6982e-05           -5.8e-13              2.514e-11             1.699e-05            
  -1.4                  -1.7254e-05           -5.2e-13              2.51e-11              1.7274e-05           
  -1.5                  -1.7524e-05           -5e-13                2.53e-11              1.7532e-05           
  -1.6                  -1.7758e-05           -3.4e-13              2.468e-11             1.7768e-05           
  -1.7                  -1.7978e-05           -4.6e-13              2.488e-11             1.7982e-05           
  -1.8                  -1.8184e-05           -4.2e-13              2.518e-11             1.8192e-05           
  -1.9                  -1.8382e-05           -4.6e-13              2.506e-11             1.839e-05            
  -2                    -1.857e-05            -4e-13                2.478e-11             1.858e-05            
  -2.1                  -1.8754e-05           -3.8e-13              2.462e-11             1.876e-05            
  -2.2                  -1.8932e-05           -3.6e-13              2.504e-11             1.8938e-05           
  -2.3                  -1.9114e-05           -5.2e-13              2.502e-11             1.9122e-05           
  -2.4                  -1.928e-05            -4.4e-13              2.568e-11             1.9288e-05           
  -2.5                  -1.9444e-05           -4.4e-13              2.786e-11             1.9448e-05           
  -2.6                  -1.9584e-05           -4.8e-13              3.226e-11             1.961e-05            
  -2.7                  -1.9762e-05           -3e-13                4.036e-11             1.9766e-05           
  -2.8                  -1.9904e-05           -3.6e-13              5.588e-11             1.9922e-05           
  -2.9                  -2.0066e-05           -3.8e-13              8.448e-11             2.0074e-05           
  -3                    -2.0216e-05           -4.4e-13              1.3512e-10            2.0226e-05           
  -3.1                  -2.0364e-05           -4e-13                2.2376e-10            2.0332e-05           
  -3.2                  -2.0472e-05           -3.8e-13              3.7626e-10            2.0472e-05           
  -3.3                  -2.062e-05            -2.4e-13              6.3638e-10            2.0668e-05           
  -3.4                  -2.0818e-05           -2.6e-13              1.05942e-09           2.082e-05            
  -3.5                  -2.0964e-05           -4.6e-13              1.7434e-09            2.0968e-05           
  -3.6                  -2.1104e-05           -2.6e-13              2.8234e-09            2.1108e-05           
END_DB

BEGIN_DB
 ICCAP_VAR vg         -3.102         
 ICCAP_VAR vb         3.6            
 ICCAP_VAR vs         -0             

 #vd                    id                    ig                    ib                    is                   
  -0                    1.166e-09             -8.8e-13              1.664e-11             -1.09156e-09         
  -0.1                  -3.8358e-06           -7e-13                1.626e-11             3.838e-06            
  -0.2                  -7.4362e-06           -6e-13                2.108e-11             7.4364e-06           
  -0.3                  -1.07704e-05          -6.2e-13              2.088e-11             1.07776e-05          
  -0.4                  -1.3834e-05           -6.8e-13              1.668e-11             1.3854e-05           
  -0.5                  -1.6636e-05           -6.4e-13              2.088e-11             1.6646e-05           
  -0.6                  -1.9162e-05           -5.6e-13              2.074e-11             1.917e-05            
  -0.7                  -2.141e-05            -4.8e-13              2.084e-11             2.1408e-05           
  -0.8                  -2.3408e-05           -6.2e-13              2.088e-11             2.3422e-05           
  -0.9                  -2.5102e-05           -5.6e-13              2.086e-11             2.5106e-05           
  -1                    -2.659e-05            -5.6e-13              2.054e-11             2.6592e-05           
  -1.1                  -2.7866e-05           -6.8e-13              2.034e-11             2.7864e-05           
  -1.2                  -2.895e-05            -4.2e-13              2.09e-11              2.8942e-05           
  -1.3                  -2.9842e-05           -4.6e-13              2.064e-11             2.9858e-05           
  -1.4                  -3.0604e-05           -5.6e-13              2.056e-11             3.062e-05            
  -1.5                  -3.1264e-05           -4e-13                2.048e-11             3.1284e-05           
  -1.6                  -3.1886e-05           -6.2e-13              2.034e-11             3.1904e-05           
  -1.7                  -3.2376e-05           -5.4e-13              2.032e-11             3.2362e-05           
  -1.8                  -3.2768e-05           -4.4e-13              2.042e-11             3.2796e-05           
  -1.9                  -3.3184e-05           -4.2e-13              2.03e-11              3.3192e-05           
  -2                    -3.3588e-05           -5.6e-13              2.022e-11             3.3604e-05           
  -2.1                  -3.3914e-05           -5.2e-13              1.998e-11             3.394e-05            
  -2.2                  -3.4182e-05           -5e-13                2.048e-11             3.4208e-05           
  -2.3                  -3.4486e-05           -5e-13                1.996e-11             3.4516e-05           
  -2.4                  -3.4786e-05           -4.2e-13              2.036e-11             3.478e-05            
  -2.5                  -3.5036e-05           -5.2e-13              2.126e-11             3.5058e-05           
  -2.6                  -3.5312e-05           -5.2e-13              2.19e-11              3.5318e-05           
  -2.7                  -3.558e-05            -5.2e-13              2.466e-11             3.5582e-05           
  -2.8                  -3.581e-05            -4.4e-13              3.02e-11              3.5802e-05           
  -2.9                  -3.6088e-05           -4.2e-13              4.03e-11              3.6114e-05           
  -3                    -3.6336e-05           -3.8e-13              5.942e-11             3.6344e-05           
  -3.1                  -3.6556e-05           -6e-13                9.404e-11             3.6564e-05           
  -3.2                  -3.6778e-05           -4.4e-13              1.5598e-10            3.6728e-05           
  -3.3                  -3.698e-05            -4.6e-13              2.6328e-10            3.6982e-05           
  -3.4                  -3.721e-05            -4e-13                4.4426e-10            3.7144e-05           
  -3.5                  -3.7364e-05           -4.8e-13              7.4966e-10            3.7378e-05           
  -3.6                  -3.7634e-05           -4e-13                1.2524e-09            3.7646e-05           
END_DB

BEGIN_DB
 ICCAP_VAR vg         -3.6           
 ICCAP_VAR vb         3.6            
 ICCAP_VAR vs         -0             

 #vd                    id                    ig                    ib                    is                   
  -0                    1.4312e-09            -8.8e-13              1.336e-11             -1.1538e-09          
  -0.1                  -4.728e-06            -8.2e-13              1.386e-11             4.7312e-06           
  -0.2                  -9.2502e-06           -8e-13                1.812e-11             9.2582e-06           
  -0.3                  -1.354e-05            -8.2e-13              1.368e-11             1.3544e-05           
  -0.4                  -1.7562e-05           -6.8e-13              1.798e-11             1.7578e-05           
  -0.5                  -2.1366e-05           -6.4e-13              1.806e-11             2.1362e-05           
  -0.6                  -2.489e-05            -7.8e-13              1.798e-11             2.4884e-05           
  -0.7                  -2.8128e-05           -7.6e-13              1.808e-11             2.814e-05            
  -0.8                  -3.1114e-05           -6.2e-13              1.806e-11             3.1126e-05           
