! VERSION = 6.00
BEGIN_HEADER
 ICCAP_INPUTS
  vd         V  D GROUND SMU1 0.1 LIN        1    -0         -3.6       37   -0.1      
  vg         V  G GROUND SMU2 0.001 LIN        2    -0.624     -3.6       5    -0.744    
  vb         V  B GROUND SMU4 0.1 CON        -0
  vs         V  S GROUND SMU3 0.1 CON        -0
 ICCAP_OUTPUTS
  id         I  D GROUND SMU1 B
  ig         I  G GROUND SMU2 B
  ib         I  B GROUND SMU4 B
  is         I  S GROUND SMU3 B
 ICCAP_VALUES
  MASTER_SETUP_TYPE "~dc_idvd~"
  LINVT_VALUE "|idvg|100.0n|100.0m|1.000m|5|3.600|"
  LISTVT_VALUE ""
  TYPE "-1"
  TEMP " 125.000 "
  IS_TNOM " 0.00000 "
  MAIN.W "300.0n"
  MAIN.L "350.0n"
  MAIN.AD "102.0f"
  MAIN.AS "102.0f"
  MAIN.PD "1.280u"
  MAIN.PS "1.280u"
  MAIN.NF "1.000"
  MAIN.M "1"
  MAIN.NRD "0.000"
  MAIN.NRS "0.000"
  MAIN.LDRIFT1 "1E-06"
  MAIN.LDRIFT2 "1E-06"
  MAIN.SA "0.000"
  MAIN.SB "0.000"
  MAIN.SD "0.000"
  MAIN.SCA "0.000"
  MAIN.SCB "0.000"
  MAIN.SCC "0.000"
  MAIN.SC "0.000"
  MODULE "S565"
  PIN_D "16"
  PIN_G "5"
  PIN_S "6"
  PIN_B "15"
  PIN_E ""
  PIN_6 ""
  XY_ID ""
  FUNC "Small"
  STI "SA ref"
  WPE "WPE ref"
  COMMENT ""
  DIS_MEAS ""
  TypeTCI "10"
END_HEADER

BEGIN_DB
 ICCAP_VAR vg         -0.624         
 ICCAP_VAR vb         -0             
 ICCAP_VAR vs         -0             

 #vd                    id                    ig                    ib                    is                   
  -0                    8.65e-11              1.8e-13               -8.034e-11            -1.3344e-10          
  -0.1                  -2.2018e-07           8e-14                 -7.62e-11             2.2038e-07           
  -0.2                  -2.659e-07            6e-14                 -6.882e-11            2.664e-07            
  -0.3                  -2.7792e-07           1e-13                 -6.582e-11            2.781e-07            
  -0.4                  -2.8444e-07           2.8e-13               -6.298e-11            2.845e-07            
  -0.5                  -2.8954e-07           3e-13                 -6.062e-11            2.8966e-07           
  -0.6                  -2.9404e-07           2.2e-13               -5.822e-11            2.942e-07            
  -0.7                  -2.9824e-07           1.4e-13               -5.644e-11            2.9836e-07           
  -0.8                  -3.0224e-07           2e-14                 -5.408e-11            3.0224e-07           
  -0.9                  -3.0594e-07           1.4e-13               -5.212e-11            3.0586e-07           
  -1                    -3.0928e-07           3e-13                 -5.016e-11            3.0942e-07           
  -1.1                  -3.1278e-07           1.6e-13               -4.876e-11            3.1256e-07           
  -1.2                  -3.1584e-07           2.6e-13               -4.7e-11              3.1598e-07           
  -1.3                  -3.1888e-07           1.4e-13               -4.556e-11            3.1898e-07           
  -1.4                  -3.221e-07            1.8e-13               -4.43e-11             3.2232e-07           
  -1.5                  -3.2516e-07           1.6e-13               -4.31e-11             3.2512e-07           
  -1.6                  -3.2796e-07           1.8e-13               -4.192e-11            3.2836e-07           
  -1.7                  -3.312e-07            1.6e-13               -4.012e-11            3.3116e-07           
  -1.8                  -3.3412e-07           1.6e-13               -3.886e-11            3.3416e-07           
  -1.9                  -3.372e-07            1.6e-13               -3.788e-11            3.3736e-07           
  -2                    -3.4012e-07           3.2e-13               -3.642e-11            3.4026e-07           
  -2.1                  -3.4296e-07           2.4e-13               -3.42e-11             3.4316e-07           
  -2.2                  -3.4594e-07           1.6e-13               -3.052e-11            3.4592e-07           
  -2.3                  -3.4894e-07           1.4e-13               -2.596e-11            3.4902e-07           
  -2.4                  -3.5184e-07           1.8e-13               -1.972e-11            3.517e-07            
  -2.5                  -3.5476e-07           1.2e-13               -9.38e-12             3.5484e-07           
  -2.6                  -3.578e-07            0                     5.98e-12              3.5776e-07           
  -2.7                  -3.6074e-07           2e-13                 2.918e-11             3.6088e-07           
  -2.8                  -3.6386e-07           2.6e-13               6.348e-11             3.6372e-07           
  -2.9                  -3.6684e-07           1e-13                 1.14e-10              3.668e-07            
  -3                    -3.6982e-07           1.4e-13               1.8778e-10            3.6974e-07           
  -3.1                  -3.7282e-07           1.4e-13               2.9332e-10            3.7254e-07           
  -3.2                  -3.7602e-07           1.2e-13               4.4024e-10            3.7572e-07           
  -3.3                  -3.7936e-07           1e-13                 6.4868e-10            3.7898e-07           
  -3.4                  -3.8258e-07           2.2e-13               9.2666e-10            3.8228e-07           
  -3.5                  -3.869e-07            4e-14                 1.304e-09             3.8594e-07           
  -3.6                  -3.9052e-07           1e-13                 1.8092e-09            3.8912e-07           
END_DB

BEGIN_DB
 ICCAP_VAR vg         -1.368         
 ICCAP_VAR vb         -0             
 ICCAP_VAR vs         -0             

 #vd                    id                    ig                    ib                    is                   
  -0                    8.9078e-10            -6e-13                -2.826e-11            -8.2846e-10          
  -0.1                  -2.621e-06            -3.2e-13              -2.612e-11            2.6242e-06           
  -0.2                  -4.778e-06            -2.2e-13              -2.206e-11            4.781e-06            
  -0.3                  -6.4688e-06           -3.2e-13              -2.118e-11            6.4718e-06           
  -0.4                  -7.7176e-06           -3e-13                -2.038e-11            7.72e-06             
  -0.5                  -8.5848e-06           -2.4e-13              -2.042e-11            8.5884e-06           
  -0.6                  -9.152e-06            -3e-13                -1.934e-11            9.1548e-06           
  -0.7                  -9.513e-06            -2.6e-13              -1.932e-11            9.5168e-06           
  -0.8                  -9.755e-06            -3.2e-13              -1.88e-11             9.7582e-06           
  -0.9                  -9.9298e-06           -3.2e-13              -1.82e-11             9.9326e-06           
  -1                    -1.00662e-05          -2.4e-13              -1.834e-11            1.0069e-05           
  -1.1                  -1.0181e-05           -2.4e-13              -1.792e-11            1.01842e-05          
  -1.2                  -1.02812e-05          -2.2e-13              -1.714e-11            1.02842e-05          
  -1.3                  -1.03714e-05          -2e-13                -1.678e-11            1.03742e-05          
  -1.4                  -1.045e-05            -1e-13                -1.992e-11            1.04564e-05          
  -1.5                  -1.054e-05            -1.4e-13              -1.636e-11            1.05324e-05          
  -1.6                  -1.0598e-05           -6e-14                -1.572e-11            1.0603e-05           
  -1.7                  -1.0664e-05           -1e-13                -1.588e-11            1.06702e-05          
  -1.8                  -1.0726e-05           -1.2e-13              -1.506e-11            1.07324e-05          
  -1.9                  -1.0786e-05           -1.4e-13              -1.45e-11             1.07932e-05          
  -2                    -1.0846e-05           -1.6e-13              -1.388e-11            1.08524e-05          
  -2.1                  -1.0904e-05           2e-14                 -1.226e-11            1.09158e-05          
  -2.2                  -1.0958e-05           -1.6e-13              -9.14e-12             1.09638e-05          
  -2.3                  -1.1014e-05           -1.6e-13              -2.56e-12             1.10186e-05          
  -2.4                  -1.1066e-05           -6e-14                9.4e-12               1.1078e-05           
  -2.5                  -1.1124e-05           -4e-14                3.232e-11             1.11304e-05          
  -2.6                  -1.1172e-05           -8e-14                7.002e-11             1.1184e-05           
  -2.7                  -1.1226e-05           -1e-13                1.375e-10             1.12346e-05          
  -2.8                  -1.1278e-05           -1.2e-13              2.5e-10               1.12848e-05          
  -2.9                  -1.1326e-05           -1.6e-13              4.3262e-10            1.1335e-05           
  -3                    -1.1376e-05           2e-14                 7.2286e-10            1.13828e-05          
  -3.1                  -1.1426e-05           -6e-14                1.176e-09             1.1432e-05           
  -3.2                  -1.1472e-05           -4e-14                1.8682e-09            1.148e-05            
  -3.3                  -1.1524e-05           -1.4e-13              2.9128e-09            1.1526e-05           
  -3.4                  -1.157e-05            -2e-14                4.452e-09             1.1574e-05           
  -3.5                  -1.1622e-05           -2e-14                6.696e-09             1.1622e-05           
  -3.6                  -1.1672e-05           0                     9.9184e-09            1.1686e-05           
END_DB

BEGIN_DB
 ICCAP_VAR vg         -2.112         
 ICCAP_VAR vb         -0             
 ICCAP_VAR vs         -0             

 #vd                    id                    ig                    ib                    is                   
  -0                    1.3632e-09            -6.8e-13              -1.648e-11            -1.1054e-09          
  -0.1                  -4.5196e-06           -4.8e-13              -1.564e-11            4.5228e-06           
  -0.2                  -8.658e-06            -6.2e-13              -1.178e-11            8.6616e-06           
  -0.3                  -1.239e-05            -3.2e-13              -1.504e-11            1.2398e-05           
  -0.4                  -1.571e-05            -5.4e-13              -1.078e-11            1.5716e-05           
  -0.5                  -1.8628e-05           -5e-13                -9.9e-12              1.8634e-05           
  -0.6                  -2.1138e-05           -2.6e-13              -1.052e-11            2.1148e-05           
  -0.7                  -2.3258e-05           -3.8e-13              -9.78e-12             2.3266e-05           
  -0.8                  -2.5014e-05           -3.4e-13              -9.58e-12             2.5022e-05           
  -0.9                  -2.6424e-05           -3.4e-13              -9.74e-12             2.6442e-05           
  -1                    -2.7558e-05           -4.8e-13              -9.14e-12             2.7566e-05           
  -1.1                  -2.8444e-05           -3.4e-13              -8.86e-12             2.8452e-05           
  -1.2                  -2.9134e-05           -3e-13                -9.08e-12             2.9142e-05           
  -1.3                  -2.9678e-05           -3.4e-13              -8.6e-12              2.9686e-05           
  -1.4                  -3.0116e-05           -3.2e-13              -8.66e-12             3.0122e-05           
  -1.5                  -3.0478e-05           -3.6e-13              -8.66e-12             3.0486e-05           
  -1.6                  -3.0786e-05           -3.4e-13              -8.12e-12             3.0794e-05           
  -1.7                  -3.1056e-05           -3e-13                -8.3e-12              3.1062e-05           
  -1.8                  -3.1294e-05           -1.6e-13              -7.8e-12              3.13e-05             
  -1.9                  -3.151e-05            -3.2e-13              -8.12e-12             3.1516e-05           
  -2                    -3.1702e-05           -3.4e-13              -7.9e-12              3.1696e-05           
  -2.1                  -3.1888e-05           -1.6e-13              -7.74e-12             3.1892e-05           
  -2.2                  -3.2054e-05           -2e-13                -6.98e-12             3.206e-05            
  -2.3                  -3.2212e-05           -2e-13                -6.56e-12             3.2216e-05           
  -2.4                  -3.236e-05            -1.4e-13              -4.18e-12             3.2368e-05           
  -2.5                  -3.2502e-05           -2.2e-13              -5.6e-13              3.2506e-05           
  -2.6                  -3.2636e-05           -2.4e-13              8.22e-12              3.2646e-05           
  -2.7                  -3.277e-05            -1e-13                2.472e-11             3.2776e-05           
  -2.8                  -3.2896e-05           -1.4e-13              5.468e-11             3.2902e-05           
  -2.9                  -3.3018e-05           -8e-14                1.087e-10             3.3024e-05           
  -3                    -3.3138e-05           -2.6e-13              2.0462e-10            3.3148e-05           
  -3.1                  -3.326e-05            -2.4e-13              3.697e-10             3.3268e-05           
  -3.2                  -3.3382e-05           -2.6e-13              6.4198e-10            3.3386e-05           
  -3.3                  -3.349e-05            -1.2e-13              1.08114e-09           3.3448e-05           
  -3.4                  -3.3566e-05           -4.6e-13              1.7828e-09            3.3566e-05           
  -3.5                  -3.373e-05            -1.2e-13              2.8892e-09            3.3732e-05           
  -3.6                  -3.3844e-05           -2.4e-13              4.5702e-09            3.3844e-05           
END_DB

BEGIN_DB
 ICCAP_VAR vg         -2.856         
 ICCAP_VAR vb         -0             
 ICCAP_VAR vs         -0             

 #vd                    id                    ig                    ib                    is                   
  -0                    1.5252e-09            -7.4e-13              -1.146e-11            -1.326e-09           
  -0.1                  -5.9992e-06           -6.8e-13              -1.106e-11            6.0012e-06           
  -0.2                  -1.1666e-05           -6.2e-13              -1.046e-11            1.1676e-05           
  -0.3                  -1.6986e-05           -6.4e-13              -6.58e-12             1.6988e-05           
  -0.4                  -2.1922e-05           -3.4e-13              -5.86e-12             2.194e-05            
  -0.5                  -2.6524e-05           -3.2e-13              -6.36e-12             2.6532e-05           
  -0.6                  -3.0734e-05           -5e-13                -5.94e-12             3.0734e-05           
  -0.7                  -3.4552e-05           -4.4e-13              -5.6e-12              3.455e-05            
  -0.8                  -3.7956e-05           -4.4e-13              -5.52e-12             3.7978e-05           
  -0.9                  -4.106e-05            -4.6e-13              -5.64e-12             4.1034e-05           
  -1                    -4.3758e-05           -3.4e-13              -5.46e-12             4.3784e-05           
  -1.1                  -4.6188e-05           -4.2e-13              -5.74e-12             4.6228e-05           
  -1.2                  -4.8306e-05           -5e-13                -5.1e-12              4.8316e-05           
  -1.3                  -5.0102e-05           -6.2e-13              -5.18e-12             5.0098e-05           
  -1.4                  -5.1632e-05           -3.6e-13              -5.22e-12             5.1636e-05           
  -1.5                  -5.293e-05            -4.2e-13              -4.68e-12             5.2938e-05           
  -1.6                  -5.4026e-05           -3.8e-13              -5.02e-12             5.4026e-05           
  -1.7                  -5.4938e-05           -3.6e-13              -4.76e-12             5.4952e-05           
  -1.8                  -5.5666e-05           -3.8e-13              -4.62e-12             5.568e-05            
  -1.9                  -5.635e-05            -3.6e-13              -5.04e-12             5.6368e-05           
  -2                    -5.6928e-05           -3.6e-13              -4.62e-12             5.6936e-05           
  -2.1                  -5.7434e-05           -3.4e-13              -4.24e-12             5.7414e-05           
  -2.2                  -5.785e-05            -3.8e-13              -4.94e-12             5.7882e-05           
  -2.3                  -5.8274e-05           -2.4e-13              -4.24e-12             5.827e-05            
  -2.4                  -5.8634e-05           -3.2e-13              -3.74e-12             5.8636e-05           
  -2.5                  -5.8964e-05           -3.2e-13              -3.74e-12             5.8964e-05           
  -2.6                  -5.9302e-05           -2.4e-13              -2.26e-12             5.9286e-05           
  -2.7                  -5.9568e-05           -2e-13                2e-13                 5.9532e-05           
  -2.8                  -5.9814e-05           -3.4e-13              4.7e-12               5.98e-05             
  -2.9                  -6.003e-05            -2.6e-13              1.486e-11             6.0034e-05           
  -3                    -6.0308e-05           -1.8e-13              3.36e-11              6.0316e-05           
  -3.1                  -6.0516e-05           -2.4e-13              6.778e-11             6.0458e-05           
  -3.2                  -6.0682e-05           -2.8e-13              1.2954e-10            6.0686e-05           
  -3.3                  -6.091e-05            -1.8e-13              2.3794e-10            6.0918e-05           
  -3.4                  -6.1046e-05           -1.8e-13              4.2148e-10            6.108e-05            
  -3.5                  -6.1294e-05           -2.4e-13              7.28e-10              6.1308e-05           
  -3.6                  -6.1496e-05           -2e-13                1.2254e-09            6.1446e-05           
END_DB

BEGIN_DB
 ICCAP_VAR vg         -3.6           
 ICCAP_VAR vb         -0             
 ICCAP_VAR vs         -0             

 #vd                    id                    ig                    ib                    is                   
  -0                    1.538e-09             -8.8e-13              -8.7e-12              -1.3522e-09          
  -0.1                  -7.1948e-06           -5.8e-13              -7.92e-12             7.1998e-06           
  -0.2                  -1.4098e-05           -6.8e-13              -7.98e-12             1.4102e-05           
  -0.3                  -2.0688e-05           -7.2e-13              -4.44e-12             2.0696e-05           
  -0.4                  -2.692e-05            -7.6e-13              -3.66e-12             2.6944e-05           
  -0.5                  -3.2856e-05           -5e-13                -3.82e-12             3.2866e-05           
  -0.6                  -3.8418e-05           -6.4e-13              -3.52e-12             3.8434e-05           
  -0.7                  -4.3638e-05           -6e-13                -3.42e-12             4.3656e-05           
  -0.8                  -4.8512e-05           -5.4e-13              -3.56e-12             4.8504e-05           
