! VERSION = 6.00
BEGIN_HEADER
 ICCAP_INPUTS
  vd         V  D GROUND SMU1 0.1 LIN        1    -0         -3.6       37   -0.1      
  vg         V  G GROUND SMU2 0.001 LIST       2 3 -0.413 -0.613 -0.813
  vb         V  B GROUND SMU4 0.1 CON        -0
  vs         V  S GROUND SMU3 0.1 CON        -0
 ICCAP_OUTPUTS
  id         I  D GROUND SMU1 B
  ig         I  G GROUND SMU2 B
  ib         I  B GROUND SMU4 B
  is         I  S GROUND SMU3 B
 ICCAP_VALUES
  MASTER_SETUP_TYPE "~dc_idvd~"
  LINVT_VALUE ""
  LISTVT_VALUE "|idvg|100.0n|-200.0m|1.000m|3|200.0m|200.0m|"
  TYPE "-1"
  TEMP " 27.0000 "
  IS_TNOM " 1.00000 "
  MAIN.W "10.00u"
  MAIN.L "330.0n"
  MAIN.AD "3.400p"
  MAIN.AS "3.400p"
  MAIN.PD "20.68u"
  MAIN.PS "20.68u"
  MAIN.NF "1.000"
  MAIN.M "1"
  MAIN.NRD "0.000"
  MAIN.NRS "0.000"
  MAIN.LDRIFT1 "1E-06"
  MAIN.LDRIFT2 "1E-06"
  MAIN.SA "0.000"
  MAIN.SB "0.000"
  MAIN.SD "0.000"
  MAIN.SCA "0.000"
  MAIN.SCB "0.000"
  MAIN.SCC "0.000"
  MAIN.SC "0.000"
  MODULE "S561"
  PIN_D "18"
  PIN_G "3"
  PIN_S "4"
  PIN_B "17"
  PIN_E ""
  PIN_6 ""
  XY_ID ""
  FUNC "Additional"
  STI "SA ref"
  WPE "WPE ref"
  COMMENT ""
  DIS_MEAS ""
  TypeTCI "10"
END_HEADER

BEGIN_DB
 ICCAP_VAR vg         -0.413         
 ICCAP_VAR vb         -0             
 ICCAP_VAR vs         -0             

 #vd                    id                    ig                    ib                    is                   
  -0                    1.208e-11             4.4e-13               -1e-13                -4.052e-11           
  -0.1                  -2.0214e-08           3.4e-13               -8e-14                2.0236e-08           
  -0.2                  -2.179e-08            3.4e-13               -2e-14                2.181e-08            
  -0.3                  -2.278e-08            5e-13                 8e-14                 2.2794e-08           
  -0.4                  -2.3634e-08           3.2e-13               4e-14                 2.365e-08            
  -0.5                  -2.4434e-08           3e-13                 -2e-14                2.4468e-08           
  -0.6                  -2.521e-08            3.8e-13               -2e-14                2.525e-08            
  -0.7                  -2.5938e-08           3.2e-13               -1.2e-13              2.5964e-08           
  -0.8                  -2.6664e-08           4e-13                 -8e-14                2.6678e-08           
  -0.9                  -2.734e-08            3.8e-13               -4e-14                2.7382e-08           
  -1                    -2.8042e-08           2.4e-13               -6e-14                2.8058e-08           
  -1.1                  -2.873e-08            3.4e-13               -1.8e-13              2.8734e-08           
  -1.2                  -2.941e-08            4e-13                 -1.2e-13              2.9444e-08           
  -1.3                  -3.011e-08            3.2e-13               -6e-14                3.014e-08            
  -1.4                  -3.0806e-08           3.4e-13               0                     3.082e-08            
  -1.5                  -3.1506e-08           2.6e-13               4e-14                 3.1542e-08           
  -1.6                  -3.2214e-08           2.2e-13               -1.2e-13              3.2244e-08           
  -1.7                  -3.291e-08            3.6e-13               6e-14                 3.2936e-08           
  -1.8                  -3.3636e-08           4.2e-13               2e-14                 3.367e-08            
  -1.9                  -3.4392e-08           2.4e-13               2e-13                 3.44e-08             
  -2                    -3.5116e-08           2.8e-13               2.4e-13               3.5156e-08           
  -2.1                  -3.5874e-08           3e-13                 6.2e-13               3.588e-08            
  -2.2                  -3.661e-08            2.6e-13               1.3e-12               3.6636e-08           
  -2.3                  -3.74e-08             2.2e-13               2.14e-12              3.7416e-08           
  -2.4                  -3.8174e-08           2.2e-13               3.58e-12              3.8218e-08           
  -2.5                  -3.8988e-08           2.6e-13               6.1e-12               3.901e-08            
  -2.6                  -3.982e-08            4e-13                 9.94e-12              3.9832e-08           
  -2.7                  -4.0656e-08           3.2e-13               1.592e-11             4.0672e-08           
  -2.8                  -4.1494e-08           3.6e-13               2.52e-11              4.1514e-08           
  -2.9                  -4.2384e-08           2.8e-13               3.88e-11              4.2398e-08           
  -3                    -4.329e-08            2.2e-13               5.872e-11             4.3234e-08           
  -3.1                  -4.4184e-08           2.2e-13               8.75e-11              4.4126e-08           
  -3.2                  -4.5142e-08           3.2e-13               1.2822e-10            4.505e-08            
  -3.3                  -4.612e-08            3.2e-13               1.85e-10              4.5972e-08           
  -3.4                  -4.7112e-08           3e-13                 2.6198e-10            4.6862e-08           
  -3.5                  -4.8134e-08           2.8e-13               3.6656e-10            4.7764e-08           
  -3.6                  -4.921e-08            2.8e-13               5.0598e-10            4.8746e-08           
END_DB

BEGIN_DB
 ICCAP_VAR vg         -0.613         
 ICCAP_VAR vb         -0             
 ICCAP_VAR vs         -0             

 #vd                    id                    ig                    ib                    is                   
  -0                    1.8836e-09            2.2e-13               -2.6e-13              -1.6552e-09          
  -0.1                  -1.9156e-06           6e-14                 -1.6e-13              1.9186e-06           
  -0.2                  -2.1422e-06           0                     -1.4e-13              2.1466e-06           
  -0.3                  -2.2546e-06           1.2e-13               -1.2e-13              2.2582e-06           
  -0.4                  -2.3414e-06           8e-14                 0                     2.3454e-06           
  -0.5                  -2.4188e-06           -2e-14                6e-14                 2.4226e-06           
  -0.6                  -2.4898e-06           1e-13                 4e-14                 2.4918e-06           
  -0.7                  -2.5526e-06           2.2e-13               2e-14                 2.5564e-06           
  -0.8                  -2.6146e-06           2.2e-13               0                     2.6186e-06           
  -0.9                  -2.6742e-06           8e-14                 2e-14                 2.6778e-06           
  -1                    -2.7304e-06           2.4e-13               0                     2.7346e-06           
  -1.1                  -2.7856e-06           1.6e-13               2e-14                 2.7888e-06           
  -1.2                  -2.8388e-06           6e-14                 2e-13                 2.8428e-06           
  -1.3                  -2.893e-06            1.4e-13               1.2e-13               2.8992e-06           
  -1.4                  -2.9468e-06           1.2e-13               -4e-14                2.9502e-06           
  -1.5                  -2.9998e-06           8e-14                 8e-14                 3.0052e-06           
  -1.6                  -3.0546e-06           2.4e-13               3.8e-13               3.0578e-06           
  -1.7                  -3.108e-06            4e-14                 8.8e-13               3.1114e-06           
  -1.8                  -3.161e-06            1e-13                 2.22e-12              3.1648e-06           
  -1.9                  -3.2166e-06           2.4e-13               5.28e-12              3.2186e-06           
  -2                    -3.2684e-06           1.2e-13               1.132e-11             3.2722e-06           
  -2.1                  -3.3238e-06           1.4e-13               2.27e-11              3.3258e-06           
  -2.2                  -3.3756e-06           2.2e-13               4.376e-11             3.3788e-06           
  -2.3                  -3.4304e-06           1.6e-13               8.1e-11               3.4358e-06           
  -2.4                  -3.4858e-06           6e-14                 1.448e-10             3.4904e-06           
  -2.5                  -3.5412e-06           1.4e-13               2.5152e-10            3.5456e-06           
  -2.6                  -3.5974e-06           1.4e-13               4.2596e-10            3.6016e-06           
  -2.7                  -3.6542e-06           1.2e-13               7.0442e-10            3.6576e-06           
  -2.8                  -3.7116e-06           1e-13                 1.14044e-09           3.7146e-06           
  -2.9                  -3.7742e-06           1.6e-13               1.8072e-09            3.7748e-06           
  -3                    -3.8296e-06           2.2e-13               2.807e-09             3.8308e-06           
  -3.1                  -3.8902e-06           -2e-14                4.2784e-09            3.8912e-06           
  -3.2                  -3.953e-06            2.8e-13               6.4078e-09            3.9512e-06           
  -3.3                  -4.0194e-06           2.4e-13               9.4322e-09            4.0138e-06           
  -3.4                  -4.0914e-06           1.6e-13               1.3664e-08            4.0882e-06           
  -3.5                  -4.1632e-06           1.6e-13               1.95e-08              4.1538e-06           
  -3.6                  -4.2448e-06           2.2e-13               2.7442e-08            4.2272e-06           
END_DB

BEGIN_DB
 ICCAP_VAR vg         -0.813         
 ICCAP_VAR vb         -0             
 ICCAP_VAR vs         -0             

 #vd                    id                    ig                    ib                    is                   
  -0                    1.3718e-08            -2e-14                -4e-14                -1.4368e-08          
  -0.1                  -2.13e-05             2e-14                 -2.6e-13              2.1314e-05           
  -0.2                  -2.8128e-05           2e-14                 -1.2e-13              2.8152e-05           
  -0.3                  -3.0334e-05           4e-14                 -4e-14                3.0352e-05           
  -0.4                  -3.1496e-05           -2e-14                2e-14                 3.152e-05            
  -0.5                  -3.2346e-05           1.2e-13               -2e-14                3.2358e-05           
  -0.6                  -3.304e-05            8e-14                 -4e-14                3.307e-05            
  -0.7                  -3.3664e-05           -4e-14                -1.2e-13              3.369e-05            
  -0.8                  -3.422e-05            8e-14                 -1.6e-13              3.4242e-05           
  -0.9                  -3.4734e-05           4e-14                 4e-14                 3.4752e-05           
  -1                    -3.521e-05            -8e-14                0                     3.5236e-05           
  -1.1                  -3.5668e-05           0                     1.2e-13               3.5702e-05           
  -1.2                  -3.6124e-05           2e-14                 -2e-14                3.6138e-05           
  -1.3                  -3.6536e-05           1e-13                 0                     3.6554e-05           
  -1.4                  -3.6946e-05           2e-14                 2e-14                 3.697e-05            
  -1.5                  -3.735e-05            2.4e-13               3.2e-13               3.7384e-05           
  -1.6                  -3.7774e-05           1.2e-13               7.8e-13               3.7792e-05           
  -1.7                  -3.8166e-05           4e-14                 2.66e-12              3.8174e-05           
  -1.8                  -3.8542e-05           1.4e-13               7.34e-12              3.8566e-05           
  -1.9                  -3.8924e-05           2e-13                 1.864e-11             3.8942e-05           
  -2                    -3.9308e-05           1.8e-13               4.378e-11             3.933e-05            
  -2.1                  -3.9686e-05           2e-13                 9.552e-11             3.9702e-05           
  -2.2                  -4.006e-05            8e-14                 1.9594e-10            4.0082e-05           
  -2.3                  -4.044e-05            1e-13                 3.8266e-10            4.0456e-05           
  -2.4                  -4.0832e-05           2e-13                 7.158e-10             4.0852e-05           
  -2.5                  -4.1208e-05           2.2e-13               1.2952e-09            4.124e-05            
  -2.6                  -4.1608e-05           4e-14                 2.268e-09             4.1622e-05           
  -2.7                  -4.1982e-05           6e-14                 3.8656e-09            4.1996e-05           
  -2.8                  -4.2364e-05           2e-13                 6.4254e-09            4.2372e-05           
  -2.9                  -4.2752e-05           8e-14                 1.04456e-08           4.2758e-05           
  -3                    -4.3146e-05           1e-13                 1.6628e-08            4.3158e-05           
  -3.1                  -4.3548e-05           0                     2.59e-08              4.351e-05            
  -3.2                  -4.391e-05            2e-14                 3.9628e-08            4.3906e-05           
  -3.3                  -4.4326e-05           1e-13                 5.9574e-08            4.4294e-05           
  -3.4                  -4.4766e-05           1.2e-13               8.7866e-08            4.4712e-05           
  -3.5                  -4.5316e-05           1.2e-13               1.2786e-07            4.5262e-05           
  -3.6                  -4.5812e-05           1.8e-13               1.8282e-07            4.572e-05            
END_DB

