! VERSION = 6.00
BEGIN_HEADER
 ICCAP_INPUTS
  vd         V  D GROUND SMU1 0.1 LIN        1    -0         -3.6       37   -0.1      
  vg         V  G GROUND SMU2 0.001 LIST       2 3 -0.387 -0.587 -0.787
  vb         V  B GROUND SMU4 0.1 CON        -0
  vs         V  S GROUND SMU3 0.1 CON        -0
 ICCAP_OUTPUTS
  id         I  D GROUND SMU1 B
  ig         I  G GROUND SMU2 B
  ib         I  B GROUND SMU4 B
  is         I  S GROUND SMU3 B
 ICCAP_VALUES
  MASTER_SETUP_TYPE "~dc_idvd~"
  LINVT_VALUE ""
  LISTVT_VALUE "|idvg|100.0n|-200.0m|1.000m|3|200.0m|200.0m|"
  TYPE "-1"
  TEMP " 70.0000 "
  IS_TNOM " 0.00000 "
  MAIN.W "300.0n"
  MAIN.L "350.0n"
  MAIN.AD "102.0f"
  MAIN.AS "102.0f"
  MAIN.PD "1.280u"
  MAIN.PS "1.280u"
  MAIN.NF "1.000"
  MAIN.M "1"
  MAIN.NRD "0.000"
  MAIN.NRS "0.000"
  MAIN.LDRIFT1 "1E-06"
  MAIN.LDRIFT2 "1E-06"
  MAIN.SA "0.000"
  MAIN.SB "0.000"
  MAIN.SD "0.000"
  MAIN.SCA "0.000"
  MAIN.SCB "0.000"
  MAIN.SCC "0.000"
  MAIN.SC "0.000"
  MODULE "S565"
  PIN_D "16"
  PIN_G "5"
  PIN_S "6"
  PIN_B "15"
  PIN_E ""
  PIN_6 ""
  XY_ID ""
  FUNC "Small"
  STI "SA ref"
  WPE "WPE ref"
  COMMENT ""
  DIS_MEAS ""
  TypeTCI "10"
END_HEADER

BEGIN_DB
 ICCAP_VAR vg         -0.387         
 ICCAP_VAR vb         -0             
 ICCAP_VAR vs         -0             

 #vd                    id                    ig                    ib                    is                   
  -0                    1.06e-12              6.2e-13               -1.202e-11            -1.48e-12            
  -0.1                  -1.1702e-09           4.8e-13               -1.204e-11            1.1732e-09           
  -0.2                  -1.2512e-09           5.8e-13               -1.166e-11            1.2506e-09           
  -0.3                  -1.2822e-09           4.8e-13               -1.132e-11            1.2826e-09           
  -0.4                  -1.3098e-09           3.8e-13               -1.078e-11            1.3092e-09           
  -0.5                  -1.335e-09            4.8e-13               -1.014e-11            1.3346e-09           
  -0.6                  -1.3592e-09           4.8e-13               -9.62e-12             1.3602e-09           
  -0.7                  -1.3864e-09           3.6e-13               -8.82e-12             1.3834e-09           
  -0.8                  -1.4048e-09           4e-13                 -8.24e-12             1.4058e-09           
  -0.9                  -1.4262e-09           2.4e-13               -7.58e-12             1.4286e-09           
  -1                    -1.4506e-09           2.8e-13               -6.86e-12             1.4482e-09           
  -1.1                  -1.4676e-09           3.2e-13               -6.32e-12             1.4684e-09           
  -1.2                  -1.4906e-09           3.4e-13               -5.76e-12             1.4858e-09           
  -1.3                  -1.5114e-09           3.2e-13               -5.1e-12              1.5046e-09           
  -1.4                  -1.53e-09             1.8e-13               -4.52e-12             1.5274e-09           
  -1.5                  -1.5528e-09           3.2e-13               -3.92e-12             1.5484e-09           
  -1.6                  -1.568e-09            2.8e-13               -3.44e-12             1.5696e-09           
  -1.7                  -1.5882e-09           4e-13                 -2.92e-12             1.5856e-09           
  -1.8                  -1.6092e-09           3.2e-13               -2.64e-12             1.6072e-09           
  -1.9                  -1.629e-09            2.4e-13               -2.12e-12             1.6292e-09           
  -2                    -1.649e-09            2.4e-13               -1.7e-12              1.6454e-09           
  -2.1                  -1.6668e-09           3.6e-13               -1.46e-12             1.668e-09            
  -2.2                  -1.6892e-09           4e-13                 -8.8e-13              1.6882e-09           
  -2.3                  -1.7118e-09           3e-13                 -6.4e-13              1.7084e-09           
  -2.4                  -1.7284e-09           2e-13                 -2e-13                1.7276e-09           
  -2.5                  -1.7506e-09           2.6e-13               1.2e-13               1.7484e-09           
  -2.6                  -1.7702e-09           2.2e-13               6.8e-13               1.768e-09            
  -2.7                  -1.7914e-09           2.8e-13               1.24e-12              1.7904e-09           
  -2.8                  -1.8126e-09           3e-13                 1.72e-12              1.8096e-09           
  -2.9                  -1.8334e-09           2.2e-13               2.48e-12              1.8296e-09           
  -3                    -1.8606e-09           2.8e-13               3.52e-12              1.8552e-09           
  -3.1                  -1.8776e-09           3e-13                 4.88e-12              1.8728e-09           
  -3.2                  -1.9032e-09           1.8e-13               6.58e-12              1.8944e-09           
  -3.3                  -1.9282e-09           2.2e-13               9.06e-12              1.9182e-09           
  -3.4                  -1.9514e-09           1.8e-13               1.196e-11             1.9362e-09           
  -3.5                  -1.9796e-09           1.8e-13               1.582e-11             1.959e-09            
  -3.6                  -2.0056e-09           2.8e-13               2.11e-11              1.9806e-09           
END_DB

BEGIN_DB
 ICCAP_VAR vg         -0.587         
 ICCAP_VAR vb         -0             
 ICCAP_VAR vs         -0             

 #vd                    id                    ig                    ib                    is                   
  -0                    6.2e-11               -4e-14                -6.56e-12             -6.252e-11           
  -0.1                  -6.0988e-08           2e-13                 -6.86e-12             6.0896e-08           
  -0.2                  -6.7422e-08           0                     -6.62e-12             6.7368e-08           
  -0.3                  -6.949e-08            1.2e-13               -6.54e-12             6.9496e-08           
  -0.4                  -7.1082e-08           1.8e-13               -6.36e-12             7.1088e-08           
  -0.5                  -7.242e-08            0                     -6e-12                7.257e-08            
  -0.6                  -7.3768e-08           4e-14                 -5.64e-12             7.3754e-08           
  -0.7                  -7.4978e-08           6e-14                 -5.24e-12             7.5084e-08           
  -0.8                  -7.6314e-08           2e-14                 -4.84e-12             7.6246e-08           
  -0.9                  -7.7252e-08           1e-13                 -4.4e-12              7.735e-08            
  -1                    -7.837e-08            8e-14                 -4e-12                7.84e-08             
  -1.1                  -7.9428e-08           8e-14                 -3.58e-12             7.9316e-08           
  -1.2                  -8.0306e-08           1e-13                 -3.14e-12             8.0372e-08           
  -1.3                  -8.147e-08            -6e-14                -2.74e-12             8.1358e-08           
  -1.4                  -8.231e-08            4e-14                 -2.26e-12             8.239e-08            
  -1.5                  -8.3474e-08           1.2e-13               -1.8e-12              8.3262e-08           
  -1.6                  -8.421e-08            1.4e-13               -1.64e-12             8.4248e-08           
  -1.7                  -8.5212e-08           1e-13                 -1.14e-12             8.5206e-08           
  -1.8                  -8.6286e-08           1.8e-13               -8.6e-13              8.6102e-08           
  -1.9                  -8.72e-08             1.6e-13               -4.4e-13              8.7308e-08           
  -2                    -8.8306e-08           8e-14                 2e-13                 8.7962e-08           
  -2.1                  -8.8904e-08           1.4e-13               7.4e-13               8.9056e-08           
  -2.2                  -9.0088e-08           6e-14                 1.76e-12              9.0196e-08           
  -2.3                  -9.0914e-08           1.4e-13               3.12e-12              9.0924e-08           
  -2.4                  -9.1918e-08           8e-14                 5.28e-12              9.199e-08            
  -2.5                  -9.2958e-08           2.4e-13               8.4e-12               9.3136e-08           
  -2.6                  -9.4138e-08           1.4e-13               1.316e-11             9.3998e-08           
  -2.7                  -9.4984e-08           1.6e-13               2.072e-11             9.49e-08             
  -2.8                  -9.6148e-08           4e-14                 3.208e-11             9.6082e-08           
  -2.9                  -9.715e-08            1.4e-13               4.896e-11             9.6942e-08           
  -3                    -9.8026e-08           0                     7.356e-11             9.7904e-08           
  -3.1                  -9.912e-08            1e-13                 1.09e-10              9.89e-08             
  -3.2                  -1.0024e-07           6e-14                 1.5946e-10            9.9946e-08           
  -3.3                  -1.0138e-07           4e-14                 2.2984e-10            1.01042e-07          
  -3.4                  -1.0232e-07           1e-13                 3.2736e-10            1.0215e-07           
  -3.5                  -1.036e-07            1e-13                 4.609e-10             1.03684e-07          
  -3.6                  -1.0536e-07           1.6e-13               6.3596e-10            1.04858e-07          
END_DB

BEGIN_DB
 ICCAP_VAR vg         -0.787         
 ICCAP_VAR vb         -0             
 ICCAP_VAR vs         -0             

 #vd                    id                    ig                    ib                    is                   
  -0                    2.8714e-10            -2e-13                -4.9e-12              -2.9902e-10          
  -0.1                  -5.805e-07            0                     -4.96e-12             5.8018e-07           
  -0.2                  -7.6936e-07           0                     -5.04e-12             7.6908e-07           
  -0.3                  -8.2398e-07           2e-14                 -4.94e-12             8.2454e-07           
  -0.4                  -8.4902e-07           2e-14                 -4.78e-12             8.4948e-07           
  -0.5                  -8.6624e-07           2e-14                 -4.6e-12              8.6614e-07           
  -0.6                  -8.8088e-07           -4e-14                -4.3e-12              8.8078e-07           
  -0.7                  -8.9264e-07           2e-14                 -3.94e-12             8.9384e-07           
  -0.8                  -9.04e-07             -2e-14                -3.48e-12             9.0492e-07           
  -0.9                  -9.1522e-07           1e-13                 -3.16e-12             9.1558e-07           
  -1                    -9.2602e-07           6e-14                 -2.74e-12             9.2578e-07           
  -1.1                  -9.3552e-07           0                     -2.42e-12             9.3562e-07           
  -1.2                  -9.4508e-07           4e-14                 -2.06e-12             9.4514e-07           
  -1.3                  -9.5342e-07           2e-14                 -1.74e-12             9.5358e-07           
  -1.4                  -9.62e-07             8e-14                 -1.34e-12             9.6206e-07           
  -1.5                  -9.709e-07            0                     -9.8e-13              9.7062e-07           
  -1.6                  -9.7836e-07           8e-14                 -5.4e-13              9.7848e-07           
  -1.7                  -9.8688e-07           8e-14                 -2e-13                9.8652e-07           
  -1.8                  -9.9456e-07           2e-14                 2.4e-13               9.953e-07            
  -1.9                  -1.00194e-06          2e-13                 9.6e-13               1.00292e-06          
  -2                    -1.01064e-06          -6e-14                2.04e-12              1.01064e-06          
  -2.1                  -1.01894e-06          -4e-14                4.1e-12               1.01914e-06          
  -2.2                  -1.02636e-06          0                     7.48e-12              1.02582e-06          
  -2.3                  -1.03576e-06          1e-13                 1.324e-11             1.03444e-06          
  -2.4                  -1.04268e-06          6e-14                 2.316e-11             1.0419e-06           
  -2.5                  -1.05182e-06          1.4e-13               3.97e-11              1.0511e-06           
  -2.6                  -1.0585e-06           -2e-14                6.654e-11             1.05982e-06          
  -2.7                  -1.0674e-06           4e-14                 1.0962e-10            1.06702e-06          
  -2.8                  -1.074e-06            1e-13                 1.769e-10             1.07516e-06          
  -2.9                  -1.08282e-06          4e-14                 2.8002e-10            1.08224e-06          
  -3                    -1.09028e-06          4e-14                 4.358e-10             1.09016e-06          
  -3.1                  -1.0985e-06           4e-14                 6.6468e-10            1.0975e-06           
  -3.2                  -1.10672e-06          1.2e-13               9.9788e-10            1.10582e-06          
  -3.3                  -1.113e-06            1.4e-13               1.4798e-09            1.1144e-06           
  -3.4                  -1.1226e-06           4e-14                 2.1422e-09            1.124e-06            
  -3.5                  -1.133e-06            1e-13                 3.07e-09              1.1324e-06           
  -3.6                  -1.1414e-06           1.4e-13               4.342e-09             1.1402e-06           
END_DB

