! VERSION = 6.00
BEGIN_HEADER
 ICCAP_INPUTS
  vd         V  D GROUND SMU1 0.1 LIN        1    -0         -3.6       37   -0.1      
  vg         V  G GROUND SMU2 0.001 LIN        2    -0.724     -3.6       5    -0.719    
  vb         V  B GROUND SMU4 0.1 CON        -0
  vs         V  S GROUND SMU3 0.1 CON        -0
 ICCAP_OUTPUTS
  id         I  D GROUND SMU1 B
  ig         I  G GROUND SMU2 B
  ib         I  B GROUND SMU4 B
  is         I  S GROUND SMU3 B
 ICCAP_VALUES
  MASTER_SETUP_TYPE "~dc_idvd~"
  LINVT_VALUE "|idvg|100.0n|100.0m|1.000m|5|3.600|"
  LISTVT_VALUE ""
  TYPE "-1"
  TEMP " 27.0000 "
  IS_TNOM " 1.00000 "
  MAIN.W "300.0n"
  MAIN.L "330.0n"
  MAIN.AD "102.0f"
  MAIN.AS "102.0f"
  MAIN.PD "1.280u"
  MAIN.PS "1.280u"
  MAIN.NF "1.000"
  MAIN.M "1"
  MAIN.NRD "0.000"
  MAIN.NRS "0.000"
  MAIN.LDRIFT1 "1E-06"
  MAIN.LDRIFT2 "1E-06"
  MAIN.SA "0.000"
  MAIN.SB "0.000"
  MAIN.SD "0.000"
  MAIN.SCA "0.000"
  MAIN.SCB "0.000"
  MAIN.SCC "0.000"
  MAIN.SC "0.000"
  MODULE "S565"
  PIN_D "18"
  PIN_G "3"
  PIN_S "4"
  PIN_B "17"
  PIN_E ""
  PIN_6 ""
  XY_ID ""
  FUNC "Additional"
  STI "SA ref"
  WPE "WPE ref"
  COMMENT ""
  DIS_MEAS ""
  TypeTCI "10"
END_HEADER

BEGIN_DB
 ICCAP_VAR vg         -0.724         
 ICCAP_VAR vb         -0             
 ICCAP_VAR vs         -0             

 #vd                    id                    ig                    ib                    is                   
  -0                    2.5376e-10            -1.8e-13              -1e-12                -3.3408e-10          
  -0.1                  -2.8222e-07           4e-14                 -9.8e-13              2.8246e-07           
  -0.2                  -3.3272e-07           1.4e-13               -9.6e-13              3.3322e-07           
  -0.3                  -3.5158e-07           1.2e-13               -8.4e-13              3.5208e-07           
  -0.4                  -3.6522e-07           1e-13                 -8e-13                3.6516e-07           
  -0.5                  -3.754e-07            8e-14                 -6.4e-13              3.7542e-07           
  -0.6                  -3.8548e-07           6e-14                 -7e-13                3.8534e-07           
  -0.7                  -3.9562e-07           4e-14                 -7e-13                3.964e-07            
  -0.8                  -4.0474e-07           2.4e-13               -6.8e-13              4.0492e-07           
  -0.9                  -4.1266e-07           1.2e-13               -6.2e-13              4.1254e-07           
  -1                    -4.1782e-07           1e-13                 -7e-13                4.2022e-07           
  -1.1                  -4.2626e-07           2e-14                 -6e-13                4.2726e-07           
  -1.2                  -4.3386e-07           2.2e-13               -4.8e-13              4.3396e-07           
  -1.3                  -4.4084e-07           1.2e-13               -5.8e-13              4.4088e-07           
  -1.4                  -4.4724e-07           8e-14                 -5.2e-13              4.476e-07            
  -1.5                  -4.534e-07            6e-14                 -5.6e-13              4.5396e-07           
  -1.6                  -4.5914e-07           2.4e-13               -6e-13                4.5948e-07           
  -1.7                  -4.6548e-07           2.2e-13               -4e-13                4.6588e-07           
  -1.8                  -4.7132e-07           1.4e-13               -4e-13                4.7156e-07           
  -1.9                  -4.7712e-07           1.4e-13               -1.2e-13              4.757e-07            
  -2                    -4.814e-07            8e-14                 3.6e-13               4.8098e-07           
  -2.1                  -4.8824e-07           8e-14                 1.26e-12              4.8902e-07           
  -2.2                  -4.9446e-07           8e-14                 3.14e-12              4.9496e-07           
  -2.3                  -5.0028e-07           1.4e-13               6.46e-12              5.0044e-07           
  -2.4                  -5.0598e-07           6e-14                 1.208e-11             5.0648e-07           
  -2.5                  -5.0956e-07           1e-13                 2.164e-11             5.1214e-07           
  -2.6                  -5.175e-07            1.2e-13               3.77e-11              5.1776e-07           
  -2.7                  -5.2304e-07           1e-13                 6.304e-11             5.2234e-07           
  -2.8                  -5.2802e-07           1.6e-13               1.0334e-10            5.29e-07             
  -2.9                  -5.3262e-07           1.6e-13               1.6618e-10            5.3362e-07           
  -3                    -5.3884e-07           1.2e-13               2.6082e-10            5.401e-07            
  -3.1                  -5.4408e-07           8e-14                 4.0188e-10            5.4334e-07           
  -3.2                  -5.5e-07              2.4e-13               6.0928e-10            5.4942e-07           
  -3.3                  -5.5592e-07           1.2e-13               9.0622e-10            5.5664e-07           
  -3.4                  -5.6438e-07           1e-13                 1.32e-09              5.6728e-07           
  -3.5                  -5.739e-07            2e-14                 1.9068e-09            5.7324e-07           
  -3.6                  -5.8354e-07           1.6e-13               2.7082e-09            5.7814e-07           
END_DB

BEGIN_DB
 ICCAP_VAR vg         -1.443         
 ICCAP_VAR vb         -0             
 ICCAP_VAR vs         -0             

 #vd                    id                    ig                    ib                    is                   
  -0                    2.061e-09             -2.6e-13              -3e-13                -1.9138e-09          
  -0.1                  -3.7736e-06           -1e-13                -2.6e-13              3.7772e-06           
  -0.2                  -6.8618e-06           -2.4e-13              -3.2e-13              6.8652e-06           
  -0.3                  -9.2308e-06           -8e-14                -2.8e-13              9.2342e-06           
  -0.4                  -1.0921e-05           -1.6e-13              -2.6e-13              1.09298e-05          
  -0.5                  -1.203e-05            -2e-13                -2.6e-13              1.205e-05            
  -0.6                  -1.273e-05            -6e-14                -1.8e-13              1.2748e-05           
  -0.7                  -1.3174e-05           -8e-14                -1.2e-13              1.3194e-05           
  -0.8                  -1.348e-05            -1.4e-13              -8e-14                1.35e-05             
  -0.9                  -1.3714e-05           -8e-14                -2.6e-13              1.3734e-05           
  -1                    -1.3906e-05           0                     -2.6e-13              1.3926e-05           
  -1.1                  -1.4072e-05           2e-14                 -1e-13                1.409e-05            
  -1.2                  -1.4216e-05           0                     -2e-13                1.4236e-05           
  -1.3                  -1.4348e-05           0                     -1.6e-13              1.4368e-05           
  -1.4                  -1.4468e-05           6e-14                 -1.6e-13              1.4486e-05           
  -1.5                  -1.4578e-05           0                     -1.8e-13              1.4598e-05           
  -1.6                  -1.4682e-05           -6e-14                -2.4e-13              1.47e-05             
  -1.7                  -1.478e-05            0                     -1e-13                1.48e-05             
  -1.8                  -1.4872e-05           1e-13                 6e-14                 1.4892e-05           
  -1.9                  -1.496e-05            -1e-13                1e-13                 1.498e-05            
  -2                    -1.5044e-05           -1e-13                3.6e-13               1.5068e-05           
  -2.1                  -1.5126e-05           6e-14                 1.14e-12              1.5146e-05           
  -2.2                  -1.5204e-05           -1e-13                3.44e-12              1.5226e-05           
  -2.3                  -1.5282e-05           -4e-14                8.22e-12              1.5302e-05           
  -2.4                  -1.5358e-05           0                     1.798e-11             1.5378e-05           
  -2.5                  -1.5432e-05           0                     3.77e-11              1.5454e-05           
  -2.6                  -1.5508e-05           2e-14                 7.462e-11             1.5528e-05           
  -2.7                  -1.5582e-05           -8e-14                1.419e-10             1.56e-05             
  -2.8                  -1.5652e-05           0                     2.6018e-10            1.5672e-05           
  -2.9                  -1.5724e-05           -2e-14                4.6344e-10            1.5744e-05           
  -3                    -1.5796e-05           2e-14                 8.0074e-10            1.5814e-05           
  -3.1                  -1.5868e-05           0                     1.3504e-09            1.5888e-05           
  -3.2                  -1.5938e-05           -1e-13                2.2304e-09            1.5956e-05           
  -3.3                  -1.601e-05            4e-14                 3.6046e-09            1.6026e-05           
  -3.4                  -1.6082e-05           1e-13                 5.7034e-09            1.6096e-05           
  -3.5                  -1.6156e-05           4e-14                 8.866e-09             1.6166e-05           
  -3.6                  -1.6228e-05           -8e-14                1.3484e-08            1.6246e-05           
END_DB

BEGIN_DB
 ICCAP_VAR vg         -2.162         
 ICCAP_VAR vb         -0             
 ICCAP_VAR vs         -0             

 #vd                    id                    ig                    ib                    is                   
  -0                    2.6644e-09            -3.6e-13              -1.6e-13              -2.7112e-09          
  -0.1                  -6.3384e-06           -3.2e-13              -2.4e-13              6.3422e-06           
  -0.2                  -1.212e-05            -2.6e-13              -2.4e-13              1.2136e-05           
  -0.3                  -1.7282e-05           -1.8e-13              -1.4e-13              1.7302e-05           
  -0.4                  -2.1786e-05           -2.4e-13              0                     2.1812e-05           
  -0.5                  -2.5642e-05           -2e-13                -4e-14                2.5662e-05           
  -0.6                  -2.8856e-05           -1.2e-13              -3e-13                2.8876e-05           
  -0.7                  -3.1464e-05           -1.6e-13              -1.4e-13              3.1486e-05           
  -0.8                  -3.3542e-05           0                     -6e-14                3.3562e-05           
  -0.9                  -3.5164e-05           -1.4e-13              -2e-14                3.5184e-05           
  -1                    -3.64e-05             -1.6e-13              -1.4e-13              3.6432e-05           
  -1.1                  -3.7368e-05           -2e-13                4e-14                 3.739e-05            
  -1.2                  -3.8114e-05           -8e-14                -8e-14                3.8136e-05           
  -1.3                  -3.8714e-05           -1.8e-13              -1.6e-13              3.8738e-05           
  -1.4                  -3.9204e-05           -1e-13                -1.4e-13              3.9236e-05           
  -1.5                  -3.962e-05            -1e-13                -2e-14                3.9654e-05           
  -1.6                  -3.9996e-05           -8e-14                -2e-14                4.001e-05            
  -1.7                  -4.0316e-05           -2e-14                -8e-14                4.033e-05            
  -1.8                  -4.061e-05            -4e-14                -4e-14                4.0626e-05           
  -1.9                  -4.087e-05            -8e-14                -2e-14                4.089e-05            
  -2                    -4.111e-05            -1e-13                4e-14                 4.1116e-05           
  -2.1                  -4.133e-05            -4e-14                -2e-14                4.134e-05            
  -2.2                  -4.1546e-05           -1.2e-13              2.2e-13               4.156e-05            
  -2.3                  -4.1728e-05           -1e-13                9.8e-13               4.1758e-05           
  -2.4                  -4.192e-05            0                     2.52e-12              4.1942e-05           
  -2.5                  -4.2102e-05           -2e-14                5.86e-12              4.2118e-05           
  -2.6                  -4.2272e-05           0                     1.346e-11             4.2284e-05           
  -2.7                  -4.2424e-05           -4e-14                2.922e-11             4.2444e-05           
  -2.8                  -4.259e-05            -6e-14                5.988e-11             4.2602e-05           
  -2.9                  -4.2736e-05           -6e-14                1.1822e-10            4.2758e-05           
  -3                    -4.2888e-05           6e-14                 2.2528e-10            4.2906e-05           
  -3.1                  -4.3038e-05           -2e-14                4.1502e-10            4.306e-05            
  -3.2                  -4.3174e-05           -6e-14                7.4406e-10            4.319e-05            
  -3.3                  -4.3326e-05           -6e-14                1.3018e-09            4.3352e-05           
  -3.4                  -4.3468e-05           1e-13                 2.2126e-09            4.3484e-05           
  -3.5                  -4.3612e-05           0                     3.693e-09             4.3622e-05           
  -3.6                  -4.375e-05            8e-14                 6.0296e-09            4.3764e-05           
END_DB

BEGIN_DB
 ICCAP_VAR vg         -2.881         
 ICCAP_VAR vb         -0             
 ICCAP_VAR vs         -0             

 #vd                    id                    ig                    ib                    is                   
  -0                    3.0164e-09            -3.8e-13              -2.8e-13              -3.2924e-09          
  -0.1                  -8.239e-06            -3.4e-13              -1.4e-13              8.2412e-06           
  -0.2                  -1.6006e-05           -2.2e-13              -4e-14                1.6022e-05           
  -0.3                  -2.323e-05            -2.8e-13              -1.4e-13              2.325e-05            
  -0.4                  -2.9866e-05           -3e-13                -8e-14                2.9906e-05           
  -0.5                  -3.5928e-05           -1.6e-13              2e-14                 3.5936e-05           
  -0.6                  -4.128e-05            -1.4e-13              6e-14                 4.13e-05             
  -0.7                  -4.6094e-05           -1.8e-13              -6e-14                4.611e-05            
  -0.8                  -5.0276e-05           -1.4e-13              -4e-14                5.0284e-05           
  -0.9                  -5.394e-05            -1.4e-13              -2e-14                5.3936e-05           
  -1                    -5.7068e-05           -1e-13                0                     5.709e-05            
  -1.1                  -5.9716e-05           -8e-14                1.6e-13               5.974e-05            
  -1.2                  -6.1992e-05           -6e-14                -6e-14                6.2006e-05           
  -1.3                  -6.3848e-05           -8e-14                -1.2e-13              6.387e-05            
  -1.4                  -6.5474e-05           -6e-14                6e-14                 6.5474e-05           
  -1.5                  -6.6782e-05           -1.2e-13              -2e-14                6.6808e-05           
  -1.6                  -6.7992e-05           -1.4e-13              -1.8e-13              6.8006e-05           
  -1.7                  -6.8922e-05           -1.4e-13              -6e-14                6.8954e-05           
  -1.8                  -6.9746e-05           -1.4e-13              -4e-14                6.9762e-05           
  -1.9                  -7.0448e-05           0                     -1.4e-13              7.0442e-05           
  -2                    -7.1058e-05           -8e-14                -2e-14                7.1004e-05           
  -2.1                  -7.152e-05            -1.2e-13              4e-14                 7.153e-05            
  -2.2                  -7.1996e-05           -1.8e-13              -4e-14                7.2008e-05           
  -2.3                  -7.2446e-05           -1e-13                -2e-14                7.2444e-05           
  -2.4                  -7.2814e-05           -4e-14                2.4e-13               7.2858e-05           
  -2.5                  -7.3208e-05           1e-13                 6e-13                 7.3242e-05           
  -2.6                  -7.3562e-05           -1e-13                1.62e-12              7.3582e-05           
  -2.7                  -7.3888e-05           -2.2e-13              4.02e-12              7.3906e-05           
  -2.8                  -7.4178e-05           -2.2e-13              9.52e-12              7.4198e-05           
  -2.9                  -7.4444e-05           -6e-14                2.048e-11             7.4462e-05           
  -3                    -7.4714e-05           -1.2e-13              4.272e-11             7.474e-05            
  -3.1                  -7.5046e-05           -2e-14                8.512e-11             7.5056e-05           
  -3.2                  -7.5196e-05           -1e-13                1.63e-10              7.5322e-05           
  -3.3                  -7.5524e-05           2e-14                 3.0454e-10            7.5512e-05           
  -3.4                  -7.5662e-05           -4e-14                5.4838e-10            7.576e-05            
  -3.5                  -7.5966e-05           2e-14                 9.692e-10             7.6e-05              
  -3.6                  -7.618e-05            -1.6e-13              1.6774e-09            7.6216e-05           
END_DB

BEGIN_DB
 ICCAP_VAR vg         -3.6           
 ICCAP_VAR vb         -0             
 ICCAP_VAR vs         -0             

 #vd                    id                    ig                    ib                    is                   
  -0                    2.9494e-09            -3.8e-13              -1e-13                -3.4404e-09          
  -0.1                  -9.7022e-06           -3.2e-13              -8e-14                9.7074e-06           
  -0.2                  -1.9014e-05           -2e-13                -8e-14                1.9018e-05           
  -0.3                  -2.7816e-05           -3.4e-13              4e-14                 2.7832e-05           
  -0.4                  -3.6074e-05           -3.2e-13              -1.2e-13              3.6102e-05           
  -0.5                  -4.3802e-05           -4e-13                -1e-13                4.3854e-05           
  -0.6                  -5.0984e-05           -3.2e-13              4e-14                 5.1006e-05           
  -0.7                  -5.7522e-05           -1.6e-13              -2e-14                5.7534e-05           
  -0.8                  -6.3472e-05           -1.4e-13              -1.6e-13              6.3514e-05           
