! VERSION = 6.00
BEGIN_HEADER
 ICCAP_INPUTS
  vg         V  G GROUND SMU2 0.001 LIN        1    0.5        -3.6       83   -0.05     
  vb         V  B GROUND SMU4 0.1 LIN        2    0          3.6        5    0.9       
  vd         V  D GROUND SMU1 0.1 LIN        3    -0.1       -3.3       3    -1.6      
  vs         V  S GROUND SMU3 0.1 CON        -0
 ICCAP_OUTPUTS
  id         I  D GROUND SMU1 B
  ig         I  G GROUND SMU2 B
  ib         I  B GROUND SMU4 B
  is         I  S GROUND SMU3 B
 ICCAP_VALUES
  MASTER_SETUP_TYPE "~dc_idvg~"
  LINVT_VALUE ""
  LISTVT_VALUE ""
  TYPE "-1"
  TEMP " 27.0000 "
  IS_TNOM " 1.00000 "
  MAIN.W "600.0n"
  MAIN.L "500.0n"
  MAIN.AD "204.0f"
  MAIN.AS "204.0f"
  MAIN.PD "1.880u"
  MAIN.PS "1.880u"
  MAIN.NF "1.000"
  MAIN.M "1"
  MAIN.NRD "0.000"
  MAIN.NRS "0.000"
  MAIN.LDRIFT1 "1E-06"
  MAIN.LDRIFT2 "1E-06"
  MAIN.SA "0.000"
  MAIN.SB "0.000"
  MAIN.SD "0.000"
  MAIN.SCA "0.000"
  MAIN.SCB "0.000"
  MAIN.SCC "0.000"
  MAIN.SC "0.000"
  MODULE "S564"
  PIN_D "16"
  PIN_G "5"
  PIN_S "6"
  PIN_B "15"
  PIN_E ""
  PIN_6 ""
  XY_ID ""
  FUNC "LW Scale"
  STI "SA ref"
  WPE "WPE ref"
  COMMENT ""
  DIS_MEAS ""
  TypeTCI "10"
END_HEADER

BEGIN_DB
 ICCAP_VAR vb         0              
 ICCAP_VAR vd         -0.1           
 ICCAP_VAR vs         -0             

 #vg                    id                    ig                    ib                    is                   
  0.5                   -6e-14                1.82e-11              -4.38e-12             8e-14                
  0.45                  0                     2.66e-12              -5.4e-13              -6e-14               
  0.4                   4e-14                 5.4e-13               -4e-14                2e-14                
  0.35                  0                     1e-13                 2e-14                 2e-14                
  0.3                   2e-14                 -2e-14                8e-14                 0                    
  0.25                  -4e-14                -2e-13                -6e-14                8e-14                
  0.2                   -2e-14                -1.4e-13              8e-14                 1e-13                
  0.15                  2e-14                 -2.4e-13              8e-14                 1e-13                
  0.1                   -2e-14                -1.2e-13              6e-14                 4e-14                
  0.05                  1.6e-13               -3e-13                -4e-14                1.4e-13              
  0                     -8e-14                -3e-13                0                     2e-13                
  -0.05                 0                     -3.4e-13              2e-14                 8e-14                
  -0.1                  -1.8e-13              -3e-13                -2e-14                3.8e-13              
  -0.15                 -4.4e-13              -3.2e-13              -1e-13                6.2e-13              
  -0.2                  -1.66e-12             -4e-13                4e-14                 1.88e-12             
  -0.25                 -6.06e-12             -2.6e-13              2e-14                 5.96e-12             
  -0.3                  -2.034e-11            -3.6e-13              -2e-14                2.06e-11             
  -0.35                 -7.064e-11            -3.8e-13              2e-14                 7.07e-11             
  -0.4                  -2.4618e-10           -3.8e-13              0                     2.4604e-10           
  -0.45                 -8.5972e-10           -4.6e-13              1e-13                 8.6044e-10           
  -0.5                  -2.9944e-09           -4e-13                0                     2.971e-09            
  -0.55                 -1.00898e-08          -4.2e-13              0                     1.00888e-08          
  -0.6                  -3.1626e-08           -3.6e-13              8e-14                 3.1644e-08           
  -0.65                 -8.658e-08            -5e-13                2e-14                 8.6584e-08           
  -0.7                  -1.982e-07            -3.8e-13              0                     1.9844e-07           
  -0.75                 -3.7992e-07           -4.4e-13              4e-14                 3.8024e-07           
  -0.8                  -6.237e-07            -5e-13                0                     6.2384e-07           
  -0.85                 -9.1056e-07           -4e-13                6e-14                 9.108e-07            
  -0.9                  -1.2186e-06           -3.6e-13              1.2e-13               1.2224e-06           
  -0.95                 -1.539e-06            -4.6e-13              4e-14                 1.543e-06            
  -1                    -1.8596e-06           -4.2e-13              1.2e-13               1.8634e-06           
  -1.05                 -2.1786e-06           -5e-13                -8e-14                2.1826e-06           
  -1.1                  -2.4914e-06           -5.4e-13              1.2e-13               2.4952e-06           
  -1.15                 -2.7996e-06           -6.6e-13              -2e-14                2.8034e-06           
  -1.2                  -3.1004e-06           -5e-13                0                     3.1042e-06           
  -1.25                 -3.3914e-06           -5.6e-13              0                     3.3988e-06           
  -1.3                  -3.6838e-06           -5.2e-13              4e-14                 3.6876e-06           
  -1.35                 -3.965e-06            -4.4e-13              0                     3.9688e-06           
  -1.4                  -4.2408e-06           -6e-13                -1e-13                4.2446e-06           
  -1.45                 -4.5096e-06           -5.6e-13              0                     4.5136e-06           
  -1.5                  -4.774e-06            -6.6e-13              4e-14                 4.7778e-06           
  -1.55                 -5.0312e-06           -5.4e-13              -4e-14                5.035e-06            
  -1.6                  -5.2834e-06           -5.6e-13              2e-14                 5.2886e-06           
  -1.65                 -5.5302e-06           -5.8e-13              0                     5.5338e-06           
  -1.7                  -5.7736e-06           -5.2e-13              8e-14                 5.7774e-06           
  -1.75                 -6.0116e-06           -6.2e-13              0                     6.0152e-06           
  -1.8                  -6.2414e-06           -6.6e-13              0                     6.2438e-06           
  -1.85                 -6.4672e-06           -5e-13                -6e-14                6.4708e-06           
  -1.9                  -6.69e-06             -6e-13                -2e-14                6.6936e-06           
  -1.95                 -6.9052e-06           -6.4e-13              1.2e-13               6.9132e-06           
  -2                    -7.1198e-06           -6.8e-13              -4e-14                7.1268e-06           
  -2.05                 -7.333e-06            -7e-13                0                     7.3394e-06           
  -2.1                  -7.5386e-06           -6.8e-13              1.2e-13               7.5428e-06           
  -2.15                 -7.7404e-06           -5.8e-13              -4e-14                7.7438e-06           
  -2.2                  -7.9376e-06           -7e-13                4e-14                 7.9436e-06           
  -2.25                 -8.1316e-06           -6.4e-13              2e-14                 8.1354e-06           
  -2.3                  -8.3226e-06           -7e-13                -8e-14                8.3238e-06           
  -2.35                 -8.5084e-06           -5.6e-13              -4e-14                8.5138e-06           
  -2.4                  -8.6906e-06           -7.2e-13              -8e-14                8.697e-06            
  -2.45                 -8.8686e-06           -6.8e-13              -4e-14                8.873e-06            
  -2.5                  -9.046e-06            -7e-13                6e-14                 9.0518e-06           
  -2.55                 -9.2152e-06           -7e-13                -1e-13                9.2192e-06           
  -2.6                  -9.3824e-06           -7e-13                6e-14                 9.3926e-06           
  -2.65                 -9.556e-06            -5.8e-13              -1e-13                9.5588e-06           
  -2.7                  -9.7212e-06           -8e-13                0                     9.7208e-06           
  -2.75                 -9.8822e-06           -7.6e-13              -4e-14                9.8856e-06           
  -2.8                  -1.00422e-05          -7.2e-13              0                     1.00478e-05          
  -2.85                 -1.01962e-05          -7.4e-13              1e-13                 1.0197e-05           
  -2.9                  -1.03464e-05          -7.4e-13              -6e-14                1.03462e-05          
  -2.95                 -1.04932e-05          -7.4e-13              6e-14                 1.04944e-05          
  -3                    -1.06382e-05          -7.4e-13              -2e-14                1.064e-05            
  -3.05                 -1.07808e-05          -6.6e-13              2e-14                 1.07826e-05          
  -3.1                  -1.09216e-05          -7e-13                2e-14                 1.09204e-05          
  -3.15                 -1.1066e-05           -6.6e-13              -6e-14                1.10692e-05          
  -3.2                  -1.11966e-05          -8.6e-13              -2e-14                1.12034e-05          
  -3.25                 -1.13342e-05          -7e-13                -6e-14                1.13384e-05          
  -3.3                  -1.14664e-05          -7.6e-13              -8e-14                1.14688e-05          
  -3.35                 -1.1584e-05           -6.2e-13              -1.4e-13              1.1602e-05           
  -3.4                  -1.1714e-05           -6.6e-13              1e-13                 1.1732e-05           
  -3.45                 -1.1838e-05           -7.4e-13              -2e-14                1.1852e-05           
  -3.5                  -1.1958e-05           -6.8e-13              -6e-14                1.1978e-05           
  -3.55                 -1.2082e-05           -7.2e-13              1e-13                 1.2104e-05           
  -3.6                  -1.2202e-05           -6.8e-13              -6e-14                1.222e-05            
END_DB

BEGIN_DB
 ICCAP_VAR vb         0.9            
 ICCAP_VAR vd         -0.1           
 ICCAP_VAR vs         -0             

 #vg                    id                    ig                    ib                    is                   
  0.5                   -2e-14                7e-13                 3e-13                 2.2e-13              
  0.45                  0                     2.2e-13               2.4e-13               1.6e-13              
  0.4                   4e-14                 3.2e-13               3.4e-13               1.2e-13              
  0.35                  0                     2.2e-13               3.2e-13               2.6e-13              
  0.3                   1.2e-13               1.6e-13               2.2e-13               1.4e-13              
  0.25                  -6e-14                2e-13                 1.8e-13               2e-13                
  0.2                   -4e-14                4e-14                 1.8e-13               0                    
  0.15                  8e-14                 0                     2.6e-13               1.4e-13              
  0.1                   -4e-14                2e-14                 3.4e-13               -2e-14               
  0.05                  -4e-14                0                     1.6e-13               1.8e-13              
  0                     -2e-14                4e-14                 2.8e-13               -1.2e-13             
  -0.05                 4e-14                 -2e-13                1.6e-13               1.4e-13              
  -0.1                  4e-14                 -1e-13                2.4e-13               1e-13                
  -0.15                 -4e-14                -1e-13                2e-13                 4e-14                
  -0.2                  8e-14                 -6e-14                2.2e-13               8e-14                
  -0.25                 -4e-14                -1.4e-13              2e-13                 2e-14                
  -0.3                  4e-14                 -2.4e-13              1.2e-13               2e-13                
  -0.35                 1e-13                 -3e-13                1.4e-13               2.2e-13              
  -0.4                  8e-14                 -2.4e-13              1.2e-13               0                    
  -0.45                 2e-14                 -3.2e-13              8e-14                 2.6e-13              
  -0.5                  -1e-13                -1.8e-13              1e-13                 1.8e-13              
  -0.55                 -2.4e-13              -3.4e-13              8e-14                 5.8e-13              
  -0.6                  -1.36e-12             -2.6e-13              1.6e-13               1.42e-12             
  -0.65                 -5.24e-12             -3.4e-13              8e-14                 5.18e-12             
  -0.7                  -2.056e-11            -3.6e-13              6e-14                 2.076e-11            
  -0.75                 -8.274e-11            -2.6e-13              1.6e-13               8.256e-11            
  -0.8                  -3.2988e-10           -4e-13                6e-14                 3.2994e-10           
  -0.85                 -1.3106e-09           -2.6e-13              6e-14                 1.3108e-09           
  -0.9                  -4.9926e-09           -3.2e-13              2e-14                 4.9942e-09           
  -0.95                 -1.7982e-08           -3.2e-13              1.4e-13               1.8006e-08           
  -1                    -5.6004e-08           -3e-13                1e-13                 5.6082e-08           
  -1.05                 -1.4312e-07           -3.8e-13              2.6e-13               1.4334e-07           
  -1.1                  -2.953e-07            -4.8e-13              1.4e-13               2.9552e-07           
  -1.15                 -5.0902e-07           -4.4e-13              4e-14                 5.0926e-07           
  -1.2                  -7.6498e-07           -5.6e-13              1e-13                 7.652e-07            
  -1.25                 -1.04558e-06          -4.2e-13              1.6e-13               1.04584e-06          
  -1.3                  -1.3354e-06           -4.8e-13              8e-14                 1.339e-06            
  -1.35                 -1.6272e-06           -3.8e-13              1e-13                 1.631e-06            
  -1.4                  -1.9182e-06           -5.4e-13              6e-14                 1.9222e-06           
  -1.45                 -2.204e-06            -3.8e-13              2e-13                 2.2078e-06           
  -1.5                  -2.4854e-06           -4.6e-13              1e-13                 2.4894e-06           
  -1.55                 -2.7606e-06           -4.6e-13              6e-14                 2.7646e-06           
  -1.6                  -3.0314e-06           -5.4e-13              2.2e-13               3.035e-06            
  -1.65                 -3.2932e-06           -6e-13                4e-14                 3.2982e-06           
  -1.7                  -3.5516e-06           -4.8e-13              2e-14                 3.557e-06            
  -1.75                 -3.807e-06            -6e-13                -6e-14                3.8108e-06           
  -1.8                  -4.0544e-06           -6.2e-13              1.4e-13               4.058e-06            
  -1.85                 -4.2946e-06           -5.2e-13              2e-14                 4.3004e-06           
  -1.9                  -4.5298e-06           -6e-13                -2e-14                4.5336e-06           
  -1.95                 -4.7648e-06           -6.2e-13              4e-14                 4.767e-06            
  -2                    -4.9914e-06           -4.6e-13              0                     4.9948e-06           
  -2.05                 -5.2152e-06           -7.4e-13              0                     5.219e-06            
  -2.1                  -5.4352e-06           -4.8e-13              1e-13                 5.4392e-06           
  -2.15                 -5.6506e-06           -7e-13                -2e-14                5.6546e-06           
  -2.2                  -5.86e-06             -6.2e-13              8e-14                 5.863e-06            
  -2.25                 -6.0688e-06           -6.2e-13              4e-14                 6.0722e-06           
  -2.3                  -6.2726e-06           -5.6e-13              -2e-14                6.2766e-06           
  -2.35                 -6.472e-06            -7.2e-13              1.2e-13               6.4758e-06           
  -2.4                  -6.6638e-06           -5.2e-13              1e-13                 6.668e-06            
  -2.45                 -6.8536e-06           -6e-13                0                     6.8612e-06           
  -2.5                  -7.0434e-06           -6.4e-13              0                     7.0478e-06           
  -2.55                 -7.2272e-06           -6e-13                2e-14                 7.2318e-06           
  -2.6                  -7.409e-06            -5.6e-13              1.6e-13               7.4106e-06           
  -2.65                 -7.58e-06             -6.8e-13              4e-14                 7.5848e-06           
  -2.7                  -7.757e-06            -6.6e-13              2e-13                 7.76e-06             
  -2.75                 -7.927e-06            -6.4e-13              4e-14                 7.9314e-06           
  -2.8                  -8.0986e-06           -6.4e-13              2e-14                 8.0998e-06           
  -2.85                 -8.2628e-06           -7e-13                1.4e-13               8.2684e-06           
  -2.9                  -8.4278e-06           -7.4e-13              4e-14                 8.4306e-06           
  -2.95                 -8.5882e-06           -7.6e-13              4e-14                 8.5896e-06           
  -3                    -8.7424e-06           -7.6e-13              1.6e-13               8.7446e-06           
  -3.05                 -8.8934e-06           -7.2e-13              1e-13                 8.895e-06            
  -3.1                  -9.0414e-06           -7.6e-13              -4e-14                9.0448e-06           
  -3.15                 -9.1876e-06           -7.4e-13              0                     9.1946e-06           
  -3.2                  -9.3348e-06           -7.8e-13              8e-14                 9.3382e-06           
  -3.25                 -9.48e-06             -6.8e-13              4e-14                 9.4826e-06           
  -3.3                  -9.6192e-06           -7e-13                8e-14                 9.6236e-06           
  -3.35                 -9.761e-06            -6.6e-13              1e-13                 9.7652e-06           
  -3.4                  -9.9e-06              -7.6e-13              0                     9.9036e-06           
  -3.45                 -1.00326e-05          -6.8e-13              6e-14                 1.00342e-05          
