! VERSION = 6.00
BEGIN_HEADER
 ICCAP_INPUTS
  vg         V  G GROUND SMU2 0.001 LIN        1    0.5        -3.6       83   -0.05     
  vb         V  B GROUND SMU4 0.1 LIN        2    0          3.6        5    0.9       
  vd         V  D GROUND SMU1 0.1 LIN        3    -0.1       -3.3       3    -1.6      
  vs         V  S GROUND SMU3 0.1 CON        -0
 ICCAP_OUTPUTS
  id         I  D GROUND SMU1 B
  ig         I  G GROUND SMU2 B
  ib         I  B GROUND SMU4 B
  is         I  S GROUND SMU3 B
 ICCAP_VALUES
  MASTER_SETUP_TYPE "~dc_idvg~"
  LINVT_VALUE ""
  LISTVT_VALUE ""
  TYPE "-1"
  TEMP " 27.0000 "
  IS_TNOM " 1.00000 "
  MAIN.W "300.0n"
  MAIN.L "10.00u"
  MAIN.AD "102.0f"
  MAIN.AS "102.0f"
  MAIN.PD "1.280u"
  MAIN.PS "1.280u"
  MAIN.NF "1.000"
  MAIN.M "1"
  MAIN.NRD "0.000"
  MAIN.NRS "0.000"
  MAIN.LDRIFT1 "1E-06"
  MAIN.LDRIFT2 "1E-06"
  MAIN.SA "0.000"
  MAIN.SB "0.000"
  MAIN.SD "0.000"
  MAIN.SCA "0.000"
  MAIN.SCB "0.000"
  MAIN.SCC "0.000"
  MAIN.SC "0.000"
  MODULE "S555"
  PIN_D "14"
  PIN_G "7"
  PIN_S "8"
  PIN_B "13"
  PIN_E ""
  PIN_6 ""
  XY_ID ""
  FUNC "Narrow"
  STI "SA ref"
  WPE "WPE ref"
  COMMENT ""
  DIS_MEAS ""
  TypeTCI "10"
END_HEADER

BEGIN_DB
 ICCAP_VAR vb         0              
 ICCAP_VAR vd         -0.1           
 ICCAP_VAR vs         -0             

 #vg                    id                    ig                    ib                    is                   
  0.5                   1.2e-13               1.99e-11              -5.68e-12             2.8e-13              
  0.45                  4e-14                 3.3e-12               -9.6e-13              4e-14                
  0.4                   1.6e-13               6.4e-13               -1.4e-13              1.4e-13              
  0.35                  1e-13                 1.6e-13               -2e-14                8e-14                
  0.3                   1e-13                 0                     -4e-14                2.8e-13              
  0.25                  6e-14                 -2.8e-13              0                     1.4e-13              
  0.2                   1e-13                 -6e-14                2e-14                 1.6e-13              
  0.15                  1e-13                 -4e-13                8e-14                 1.8e-13              
  0.1                   1e-13                 -2e-13                -2e-14                2e-14                
  0.05                  1.2e-13               -3.2e-13              2e-14                 3.4e-13              
  0                     8e-14                 -3.6e-13              6e-14                 2e-14                
  -0.05                 1.8e-13               -3.2e-13              2e-14                 2.2e-13              
  -0.1                  1e-13                 -3.6e-13              8e-14                 1.6e-13              
  -0.15                 6e-14                 -2.8e-13              -2e-14                2e-13                
  -0.2                  4e-14                 -5.4e-13              0                     6e-14                
  -0.25                 6e-14                 -3.2e-13              4e-14                 3.6e-13              
  -0.3                  -3.8e-13              -4.4e-13              6e-14                 3.2e-13              
  -0.35                 -1.16e-12             -5.8e-13              4e-14                 1.34e-12             
  -0.4                  -4.34e-12             -4.8e-13              -4e-14                4.5e-12              
  -0.45                 -1.536e-11            -4e-13                1e-13                 1.55e-11             
  -0.5                  -5.416e-11            -6e-13                0                     5.458e-11            
  -0.55                 -1.8628e-10           -4.2e-13              6e-14                 1.8646e-10           
  -0.6                  -5.8954e-10           -6.8e-13              1.2e-13               5.8988e-10           
  -0.65                 -1.6236e-09           -3e-13                -2e-14                1.6242e-09           
  -0.7                  -3.733e-09            -6.8e-13              6e-14                 3.7338e-09           
  -0.75                 -7.2154e-09           -4.2e-13              4e-14                 7.2156e-09           
  -0.8                  -1.1978e-08           -4.6e-13              6e-14                 1.2008e-08           
  -0.85                 -1.7784e-08           -5.6e-13              2e-14                 1.7806e-08           
  -0.9                  -2.4228e-08           -7.4e-13              -4e-14                2.4258e-08           
  -0.95                 -3.1114e-08           -4.8e-13              4e-14                 3.1144e-08           
  -1                    -3.8196e-08           -7.4e-13              1.2e-13               3.8224e-08           
  -1.05                 -4.5426e-08           -7e-13                -4e-14                4.5464e-08           
  -1.1                  -5.2692e-08           -8e-13                2e-14                 5.2726e-08           
  -1.15                 -6e-08                -8e-13                4e-14                 6.0028e-08           
  -1.2                  -6.7246e-08           -7.8e-13              -4e-14                6.7286e-08           
  -1.25                 -7.4506e-08           -7.2e-13              0                     7.4542e-08           
  -1.3                  -8.1714e-08           -9e-13                -4e-14                8.1722e-08           
  -1.35                 -8.8802e-08           -6.8e-13              4e-14                 8.8844e-08           
  -1.4                  -9.59e-08             -8.2e-13              4e-14                 9.5944e-08           
  -1.45                 -1.02858e-07          -7e-13                0                     1.02924e-07          
  -1.5                  -1.0981e-07           -5.8e-13              0                     1.09858e-07          
  -1.55                 -1.1652e-07           -6.2e-13              -4e-14                1.1674e-07           
  -1.6                  -1.2334e-07           -7.8e-13              2e-14                 1.2352e-07           
  -1.65                 -1.3e-07              -8e-13                0                     1.302e-07            
  -1.7                  -1.366e-07            -8e-13                0                     1.368e-07            
  -1.75                 -1.4312e-07           -7.6e-13              -4e-14                1.4332e-07           
  -1.8                  -1.4954e-07           -6.8e-13              0                     1.4974e-07           
  -1.85                 -1.559e-07            -9.8e-13              6e-14                 1.5608e-07           
  -1.9                  -1.6214e-07           -6.6e-13              4e-14                 1.6232e-07           
  -1.95                 -1.6832e-07           -9.2e-13              2e-14                 1.6854e-07           
  -2                    -1.7444e-07           -6.8e-13              -2e-14                1.7464e-07           
  -2.05                 -1.8044e-07           -9.2e-13              1.2e-13               1.8066e-07           
  -2.1                  -1.864e-07            -8e-13                0                     1.866e-07            
  -2.15                 -1.9222e-07           -9e-13                8e-14                 1.9242e-07           
  -2.2                  -1.9796e-07           -7.8e-13              -1e-13                1.982e-07            
  -2.25                 -2.0368e-07           -1.08e-12             1e-13                 2.0388e-07           
  -2.3                  -2.0926e-07           -7.8e-13              -1e-13                2.0946e-07           
  -2.35                 -2.1474e-07           -8.6e-13              1e-13                 2.1496e-07           
  -2.4                  -2.202e-07            -9.6e-13              0                     2.2038e-07           
  -2.45                 -2.2548e-07           -9.6e-13              8e-14                 2.2574e-07           
  -2.5                  -2.3082e-07           -6.8e-13              -4e-14                2.3098e-07           
  -2.55                 -2.3598e-07           -1e-12                6e-14                 2.3618e-07           
  -2.6                  -2.4114e-07           -6.4e-13              0                     2.4136e-07           
  -2.65                 -2.4614e-07           -9.8e-13              1.2e-13               2.464e-07            
  -2.7                  -2.5112e-07           -8e-13                6e-14                 2.5136e-07           
  -2.75                 -2.56e-07             -8.6e-13              6e-14                 2.5622e-07           
  -2.8                  -2.608e-07            -7.6e-13              4e-14                 2.6104e-07           
  -2.85                 -2.6554e-07           -9.4e-13              8e-14                 2.6578e-07           
  -2.9                  -2.7026e-07           -9.8e-13              -4e-14                2.7044e-07           
  -2.95                 -2.7482e-07           -8.4e-13              0                     2.7504e-07           
  -3                    -2.7932e-07           -8.2e-13              0                     2.7954e-07           
  -3.05                 -2.8382e-07           -1.1e-12              2e-14                 2.84e-07             
  -3.1                  -2.8822e-07           -8.2e-13              1e-13                 2.8838e-07           
  -3.15                 -2.925e-07            -9.4e-13              -8e-14                2.927e-07            
  -3.2                  -2.967e-07            -1.02e-12             0                     2.9688e-07           
  -3.25                 -3.0088e-07           -1.04e-12             2e-14                 3.011e-07            
  -3.3                  -3.0502e-07           -9e-13                0                     3.0522e-07           
  -3.35                 -3.091e-07            -1e-12                1e-13                 3.0926e-07           
  -3.4                  -3.1304e-07           -1.02e-12             -4e-14                3.1328e-07           
  -3.45                 -3.1698e-07           -9e-13                6e-14                 3.1718e-07           
  -3.5                  -3.208e-07            -9.6e-13              -2e-14                3.2104e-07           
  -3.55                 -3.2458e-07           -9.4e-13              6e-14                 3.2484e-07           
  -3.6                  -3.2836e-07           -1.02e-12             1e-13                 3.2852e-07           
END_DB

BEGIN_DB
 ICCAP_VAR vb         0.9            
 ICCAP_VAR vd         -0.1           
 ICCAP_VAR vs         -0             

 #vg                    id                    ig                    ib                    is                   
  0.5                   1.6e-13               1.12e-12              4.8e-13               1.4e-13              
  0.45                  1.4e-13               5.2e-13               5e-13                 8e-14                
  0.4                   1e-13                 5.4e-13               4.2e-13               2.4e-13              
  0.35                  0                     2e-13                 3.8e-13               1.2e-13              
  0.3                   1.8e-13               4e-14                 2.4e-13               2.2e-13              
  0.25                  1.2e-13               6e-14                 4e-13                 1.8e-13              
  0.2                   1e-13                 0                     3e-13                 2e-13                
  0.15                  1e-13                 -1.4e-13              3.4e-13               1.8e-13              
  0.1                   8e-14                 2e-14                 2e-13                 1.8e-13              
  0.05                  6e-14                 -2e-13                2.6e-13               2.2e-13              
  0                     6e-14                 0                     4e-14                 2.8e-13              
  -0.05                 1.2e-13               -2.8e-13              2.6e-13               1.4e-13              
  -0.1                  0                     -6e-14                1.2e-13               1.2e-13              
  -0.15                 1.6e-13               -2e-13                2.6e-13               2.6e-13              
  -0.2                  4e-14                 -3.6e-13              1.2e-13               1e-13                
  -0.25                 2e-14                 -2.6e-13              2.4e-13               0                    
  -0.3                  1.2e-13               -1.8e-13              2e-13                 1.6e-13              
  -0.35                 1.4e-13               -4.2e-13              2e-13                 1e-13                
  -0.4                  0                     -4.6e-13              2.2e-13               6e-14                
  -0.45                 1.2e-13               -2e-13                1.2e-13               2.6e-13              
  -0.5                  0                     -3.2e-13              1.2e-13               4e-14                
  -0.55                 1.4e-13               -4.6e-13              1.2e-13               1.8e-13              
  -0.6                  -2e-14                -3.8e-13              1.8e-13               6e-14                
  -0.65                 4e-14                 -6.2e-13              1.2e-13               2.4e-13              
  -0.7                  -2.2e-13              -3.8e-13              2.2e-13               3.6e-13              
  -0.75                 -1.06e-12             -1.8e-13              2e-14                 1.38e-12             
  -0.8                  -4.48e-12             -8e-13                1.2e-13               4.74e-12             
  -0.85                 -1.828e-11            -4.6e-13              1.4e-13               1.834e-11            
  -0.9                  -7.196e-11            -6.4e-13              8e-14                 7.226e-11            
  -0.95                 -2.6766e-10           -4e-13                4e-14                 2.6778e-10           
  -1                    -8.5882e-10           -5.8e-13              1.8e-13               8.5902e-10           
  -1.05                 -2.253e-09            -6.4e-13              -2e-14                2.2544e-09           
  -1.1                  -4.7768e-09           -6.4e-13              8e-14                 4.777e-09            
  -1.15                 -8.4888e-09           -5.2e-13              6e-14                 8.4894e-09           
  -1.2                  -1.3128e-08           -4.2e-13              1e-13                 1.3152e-08           
  -1.25                 -1.8452e-08           -3.6e-13              1e-13                 1.8478e-08           
  -1.3                  -2.4188e-08           -7.4e-13              1.4e-13               2.4218e-08           
  -1.35                 -3.0168e-08           -5.2e-13              8e-14                 3.0194e-08           
  -1.4                  -3.6312e-08           -6.8e-13              6e-14                 3.6344e-08           
  -1.45                 -4.2522e-08           -6.2e-13              2.4e-13               4.255e-08            
  -1.5                  -4.8788e-08           -6.2e-13              1.4e-13               4.8812e-08           
  -1.55                 -5.5038e-08           -6.2e-13              2.2e-13               5.506e-08            
  -1.6                  -6.1306e-08           -8.4e-13              8e-14                 6.1352e-08           
  -1.65                 -6.7554e-08           -6e-13                1e-13                 6.7582e-08           
  -1.7                  -7.376e-08            -7.2e-13              4e-14                 7.3786e-08           
  -1.75                 -7.9956e-08           -9.8e-13              0                     7.9984e-08           
  -1.8                  -8.6108e-08           -6.6e-13              1.2e-13               8.6148e-08           
  -1.85                 -9.2178e-08           -9.8e-13              6e-14                 9.2228e-08           
  -1.9                  -9.8232e-08           -7e-13                8e-14                 9.825e-08            
  -1.95                 -1.04224e-07          -8.4e-13              1.4e-13               1.04246e-07          
  -2                    -1.10148e-07          -7.8e-13              0                     1.10184e-07          
  -2.05                 -1.1592e-07           -8e-13                4e-14                 1.1612e-07           
  -2.1                  -1.2176e-07           -8e-13                1.4e-13               1.2196e-07           
  -2.15                 -1.2752e-07           -7.6e-13              4e-14                 1.2774e-07           
  -2.2                  -1.3324e-07           -8.6e-13              1.4e-13               1.3346e-07           
  -2.25                 -1.389e-07            -7.4e-13              6e-14                 1.391e-07            
  -2.3                  -1.445e-07            -6.8e-13              1e-13                 1.4468e-07           
  -2.35                 -1.5e-07              -1.02e-12             1e-13                 1.5018e-07           
  -2.4                  -1.5544e-07           -5.6e-13              0                     1.5566e-07           
  -2.45                 -1.6084e-07           -9.2e-13              8e-14                 1.6102e-07           
  -2.5                  -1.6618e-07           -7.2e-13              1e-13                 1.6636e-07           
  -2.55                 -1.7144e-07           -8.4e-13              1.2e-13               1.7166e-07           
  -2.6                  -1.7666e-07           -8.4e-13              4e-14                 1.7686e-07           
  -2.65                 -1.818e-07            -7.2e-13              1.6e-13               1.8198e-07           
  -2.7                  -1.8684e-07           -8.6e-13              4e-14                 1.8702e-07           
  -2.75                 -1.9184e-07           -9.2e-13              6e-14                 1.921e-07            
  -2.8                  -1.9682e-07           -5.8e-13              4e-14                 1.9702e-07           
  -2.85                 -2.017e-07            -1e-12                8e-14                 2.0192e-07           
  -2.9                  -2.0654e-07           -9.6e-13              2e-14                 2.0674e-07           
  -2.95                 -2.1126e-07           -9.2e-13              6e-14                 2.1144e-07           
  -3                    -2.1594e-07           -9.8e-13              4e-14                 2.1608e-07           
  -3.05                 -2.2052e-07           -1.12e-12             0                     2.2074e-07           
  -3.1                  -2.2506e-07           -7.6e-13              -2e-14                2.2526e-07           
  -3.15                 -2.296e-07            -9.8e-13              6e-14                 2.2978e-07           
  -3.2                  -2.3402e-07           -9.2e-13              0                     2.3426e-07           
  -3.25                 -2.3842e-07           -1.04e-12             4e-14                 2.3866e-07           
  -3.3                  -2.427e-07            -7e-13                -2e-14                2.4288e-07           
  -3.35                 -2.4694e-07           -1.1e-12              6e-14                 2.4716e-07           
  -3.4                  -2.5106e-07           -7.8e-13              8e-14                 2.513e-07            
  -3.45                 -2.5518e-07           -1.02e-12             4e-14                 2.5538e-07           
