! VERSION = 6.00
BEGIN_HEADER
 ICCAP_INPUTS
  vd         V  D GROUND SMU1 0.1 LIN        1    -0         -3.6       37   -0.1      
  vg         V  G GROUND SMU2 0.001 LIST       2 3 -0.381 -0.581 -0.781
  vb         V  B GROUND SMU4 0.1 CON        -0
  vs         V  S GROUND SMU3 0.1 CON        -0
 ICCAP_OUTPUTS
  id         I  D GROUND SMU1 B
  ig         I  G GROUND SMU2 B
  ib         I  B GROUND SMU4 B
  is         I  S GROUND SMU3 B
 ICCAP_VALUES
  MASTER_SETUP_TYPE "~dc_idvd~"
  LINVT_VALUE ""
  LISTVT_VALUE "|idvg|100.0n|-200.0m|1.000m|3|200.0m|200.0m|"
  TYPE "-1"
  TEMP " 125.000 "
  IS_TNOM " 0.00000 "
  MAIN.W "300.0n"
  MAIN.L "10.00u"
  MAIN.AD "102.0f"
  MAIN.AS "102.0f"
  MAIN.PD "1.280u"
  MAIN.PS "1.280u"
  MAIN.NF "1.000"
  MAIN.M "1"
  MAIN.NRD "0.000"
  MAIN.NRS "0.000"
  MAIN.LDRIFT1 "1E-06"
  MAIN.LDRIFT2 "1E-06"
  MAIN.SA "0.000"
  MAIN.SB "0.000"
  MAIN.SD "0.000"
  MAIN.SCA "0.000"
  MAIN.SCB "0.000"
  MAIN.SCC "0.000"
  MAIN.SC "0.000"
  MODULE "S555"
  PIN_D "14"
  PIN_G "7"
  PIN_S "8"
  PIN_B "13"
  PIN_E ""
  PIN_6 ""
  XY_ID ""
  FUNC "Narrow"
  STI "SA ref"
  WPE "WPE ref"
  COMMENT ""
  DIS_MEAS ""
  TypeTCI "10"
END_HEADER

BEGIN_DB
 ICCAP_VAR vg         -0.381         
 ICCAP_VAR vb         -0             
 ICCAP_VAR vs         -0             

 #vd                    id                    ig                    ib                    is                   
  -0                    5.6e-13               9.4e-13               -7.96e-12             2e-14                
  -0.1                  -1.1796e-10           7.2e-13               -6.9e-12              1.1754e-10           
  -0.2                  -1.2434e-10           8.4e-13               -7.94e-12             1.2402e-10           
  -0.3                  -1.2476e-10           4.2e-13               -7.66e-12             1.246e-10            
  -0.4                  -1.2488e-10           6.2e-13               -7.32e-12             1.2446e-10           
  -0.5                  -1.251e-10            7.8e-13               -6.86e-12             1.2468e-10           
  -0.6                  -1.2534e-10           6.2e-13               -6.92e-12             1.2456e-10           
  -0.7                  -1.2544e-10           5.6e-13               -6.68e-12             1.2464e-10           
  -0.8                  -1.2544e-10           4.2e-13               -6.18e-12             1.2458e-10           
  -0.9                  -1.255e-10            5.4e-13               -6.74e-12             1.2462e-10           
  -1                    -1.2556e-10           5.2e-13               -6.26e-12             1.246e-10            
  -1.1                  -1.2558e-10           5e-13                 -5.8e-12              1.2452e-10           
  -1.2                  -1.2568e-10           3.6e-13               -5.9e-12              1.246e-10            
  -1.3                  -1.257e-10            4.4e-13               -5.44e-12             1.2472e-10           
  -1.4                  -1.257e-10            4.4e-13               -5.6e-12              1.2472e-10           
  -1.5                  -1.258e-10            3e-13                 -5.42e-12             1.2466e-10           
  -1.6                  -1.2596e-10           3.4e-13               -5.64e-12             1.2472e-10           
  -1.7                  -1.2592e-10           3.4e-13               -4.92e-12             1.2482e-10           
  -1.8                  -1.2596e-10           3.4e-13               -5.36e-12             1.2476e-10           
  -1.9                  -1.2592e-10           2e-13                 -4.98e-12             1.2482e-10           
  -2                    -1.2606e-10           2e-13                 -4.88e-12             1.2482e-10           
  -2.1                  -1.2614e-10           3.6e-13               -4.8e-12              1.2474e-10           
  -2.2                  -1.2614e-10           1.4e-13               -4.86e-12             1.249e-10            
  -2.3                  -1.2618e-10           2.2e-13               -4.64e-12             1.2494e-10           
  -2.4                  -1.2624e-10           3.4e-13               -4.6e-12              1.2474e-10           
  -2.5                  -1.2638e-10           3.4e-13               -4.46e-12             1.2478e-10           
  -2.6                  -1.263e-10            2e-13                 -3.88e-12             1.248e-10            
  -2.7                  -1.2638e-10           8e-14                 -4.08e-12             1.25e-10             
  -2.8                  -1.265e-10            3.2e-13               -3.9e-12              1.2482e-10           
  -2.9                  -1.265e-10            1.8e-13               -4.12e-12             1.2492e-10           
  -3                    -1.2654e-10           2.4e-13               -3.92e-12             1.248e-10            
  -3.1                  -1.2674e-10           2e-14                 -3.98e-12             1.2496e-10           
  -3.2                  -1.2684e-10           2.6e-13               -3.34e-12             1.2488e-10           
  -3.3                  -1.2706e-10           3.2e-13               -3.74e-12             1.2494e-10           
  -3.4                  -1.2714e-10           1.4e-13               -3.24e-12             1.2484e-10           
  -3.5                  -1.2756e-10           8e-14                 -3.34e-12             1.2492e-10           
  -3.6                  -1.2784e-10           3e-13                 -2.2e-12              1.2492e-10           
END_DB

BEGIN_DB
 ICCAP_VAR vg         -0.581         
 ICCAP_VAR vb         -0             
 ICCAP_VAR vs         -0             

 #vd                    id                    ig                    ib                    is                   
  -0                    2.72e-12              -1.2e-13              -5.5e-12              -1.42e-12            
  -0.1                  -2.8182e-09           6e-14                 -5.52e-12             2.818e-09            
  -0.2                  -3.0902e-09           -2e-14                -4.1e-12              3.0898e-09           
  -0.3                  -3.108e-09            4e-14                 -4.12e-12             3.1066e-09           
  -0.4                  -3.1094e-09           1e-13                 -4.22e-12             3.108e-09            
  -0.5                  -3.109e-09            8e-14                 -3.56e-12             3.107e-09            
  -0.6                  -3.11e-09             1.6e-13               -3.72e-12             3.1088e-09           
  -0.7                  -3.1106e-09           8e-14                 -3.38e-12             3.1094e-09           
  -0.8                  -3.1114e-09           -1.2e-13              -3.62e-12             3.11e-09             
  -0.9                  -3.112e-09            1.2e-13               -3.3e-12              3.1104e-09           
  -1                    -3.1128e-09           -1.8e-13              -3.52e-12             3.111e-09            
  -1.1                  -3.1134e-09           -2e-14                -3.64e-12             3.11e-09             
  -1.2                  -3.1122e-09           1.2e-13               -3.16e-12             3.111e-09            
  -1.3                  -3.114e-09            2e-14                 -2.96e-12             3.1122e-09           
  -1.4                  -3.1142e-09           2e-14                 -3.04e-12             3.1124e-09           
  -1.5                  -3.1142e-09           6e-14                 -2.64e-12             3.1126e-09           
  -1.6                  -3.114e-09            -2e-14                -2.84e-12             3.1126e-09           
  -1.7                  -3.1158e-09           1.2e-13               -3e-12                3.1134e-09           
  -1.8                  -3.1148e-09           4e-14                 -2.68e-12             3.1136e-09           
  -1.9                  -3.1158e-09           4e-14                 -2.5e-12              3.1132e-09           
  -2                    -3.116e-09            1.6e-13               -2.56e-12             3.1144e-09           
  -2.1                  -3.1162e-09           2.8e-13               -2.74e-12             3.1134e-09           
  -2.2                  -3.1176e-09           -2e-14                -2.4e-12              3.1148e-09           
  -2.3                  -3.1174e-09           8e-14                 -2.94e-12             3.1142e-09           
  -2.4                  -3.1188e-09           1e-13                 -1.96e-12             3.1136e-09           
  -2.5                  -3.1172e-09           1e-13                 -2.08e-12             3.1164e-09           
  -2.6                  -3.119e-09            1.2e-13               -1.78e-12             3.1162e-09           
  -2.7                  -3.1198e-09           4e-14                 -1.54e-12             3.1156e-09           
  -2.8                  -3.1202e-09           1.2e-13               -1.38e-12             3.1162e-09           
  -2.9                  -3.1206e-09           -2e-13                -1.28e-12             3.1166e-09           
  -3                    -3.121e-09            1.6e-13               0                     3.1166e-09           
  -3.1                  -3.1224e-09           -1.2e-13              1.02e-12              3.1172e-09           
  -3.2                  -3.1238e-09           -1.2e-13              1.94e-12              3.1176e-09           
  -3.3                  -3.127e-09            1.8e-13               3.82e-12              3.1182e-09           
  -3.4                  -3.1286e-09           2e-14                 6.52e-12              3.1182e-09           
  -3.5                  -3.1322e-09           1.2e-13               1.016e-11             3.1184e-09           
  -3.6                  -3.1376e-09           2.2e-13               1.41e-11              3.1178e-09           
END_DB

BEGIN_DB
 ICCAP_VAR vg         -0.781         
 ICCAP_VAR vb         -0             
 ICCAP_VAR vs         -0             

 #vd                    id                    ig                    ib                    is                   
  -0                    7.32e-12              -1.4e-13              -4.32e-12             -6.36e-12            
  -0.1                  -1.5544e-08           -2e-13                -4.66e-12             1.5562e-08           
  -0.2                  -2.05e-08             -1.4e-13              -7.8e-13              2.0516e-08           
  -0.3                  -2.1198e-08           -2.2e-13              -9.4e-13              2.1212e-08           
  -0.4                  -2.1258e-08           -1.6e-13              -7.8e-13              2.1268e-08           
  -0.5                  -2.126e-08            -6e-14                -4e-13                2.1282e-08           
  -0.6                  -2.1272e-08           -2e-13                -3.4e-13              2.1286e-08           
  -0.7                  -2.1288e-08           -1e-13                -6.2e-13              2.1296e-08           
  -0.8                  -2.1294e-08           2e-14                 -5.4e-13              2.13e-08             
  -0.9                  -2.1288e-08           -2e-14                -7.4e-13              2.1308e-08           
  -1                    -2.1294e-08           -2e-14                -4.8e-13              2.131e-08            
  -1.1                  -2.1296e-08           -1.8e-13              1.6e-13               2.1312e-08           
  -1.2                  -2.1302e-08           -2e-13                -1.2e-13              2.1314e-08           
  -1.3                  -2.1304e-08           -4e-14                8e-14                 2.132e-08            
  -1.4                  -2.1314e-08           -8e-14                4.6e-13               2.1326e-08           
  -1.5                  -2.1314e-08           -4e-14                3e-13                 2.1328e-08           
  -1.6                  -2.1312e-08           -4e-14                1.4e-13               2.1326e-08           
  -1.7                  -2.1318e-08           0                     1.4e-13               2.1328e-08           
  -1.8                  -2.132e-08            -2.4e-13              4e-13                 2.1334e-08           
  -1.9                  -2.1318e-08           -2e-13                6.2e-13               2.1336e-08           
  -2                    -2.1324e-08           -3.6e-13              2e-14                 2.1336e-08           
  -2.1                  -2.133e-08            -1.8e-13              4.6e-13               2.134e-08            
  -2.2                  -2.1326e-08           0                     3.8e-13               2.134e-08            
  -2.3                  -2.1332e-08           0                     4.6e-13               2.1342e-08           
  -2.4                  -2.1334e-08           -6e-14                9.2e-13               2.1348e-08           
  -2.5                  -2.1334e-08           0                     1.26e-12              2.1346e-08           
  -2.6                  -2.1346e-08           -1.2e-13              1.74e-12              2.1348e-08           
  -2.7                  -2.1342e-08           4e-14                 2.62e-12              2.1356e-08           
  -2.8                  -2.1344e-08           -4e-14                3.32e-12              2.1354e-08           
  -2.9                  -2.1344e-08           0                     5.36e-12              2.1352e-08           
  -3                    -2.1352e-08           4e-14                 8.12e-12              2.1356e-08           
  -3.1                  -2.1358e-08           -4e-14                1.152e-11             2.1356e-08           
  -3.2                  -2.1362e-08           -6e-14                1.716e-11             2.136e-08            
  -3.3                  -2.1372e-08           -2e-14                2.4e-11               2.1362e-08           
  -3.4                  -2.1388e-08           -6e-14                3.46e-11              2.136e-08            
  -3.5                  -2.1398e-08           -1.2e-13              4.892e-11             2.1364e-08           
  -3.6                  -2.1418e-08           0                     6.868e-11             2.1362e-08           
END_DB

