! VERSION = 6.00
BEGIN_HEADER
 ICCAP_INPUTS
  vg         V  G GROUND SMU2 0.001 LIN        1    0.5        -3.6       83   -0.05     
  vb         V  B GROUND SMU4 0.1 LIN        2    0          3.6        5    0.9       
  vd         V  D GROUND SMU1 0.1 LIN        3    -0.1       -3.3       3    -1.6      
  vs         V  S GROUND SMU3 0.1 CON        -0
 ICCAP_OUTPUTS
  id         I  D GROUND SMU1 B
  ig         I  G GROUND SMU2 B
  ib         I  B GROUND SMU4 B
  is         I  S GROUND SMU3 B
 ICCAP_VALUES
  MASTER_SETUP_TYPE "~dc_idvg~"
  LINVT_VALUE ""
  LISTVT_VALUE ""
  TYPE "-1"
  TEMP "-40.0000 "
  IS_TNOM " 0.00000 "
  MAIN.W "300.0n"
  MAIN.L "350.0n"
  MAIN.AD "102.0f"
  MAIN.AS "102.0f"
  MAIN.PD "1.280u"
  MAIN.PS "1.280u"
  MAIN.NF "1.000"
  MAIN.M "1"
  MAIN.NRD "0.000"
  MAIN.NRS "0.000"
  MAIN.LDRIFT1 "1E-06"
  MAIN.LDRIFT2 "1E-06"
  MAIN.SA "0.000"
  MAIN.SB "0.000"
  MAIN.SD "0.000"
  MAIN.SCA "0.000"
  MAIN.SCB "0.000"
  MAIN.SCC "0.000"
  MAIN.SC "0.000"
  MODULE "S565"
  PIN_D "16"
  PIN_G "5"
  PIN_S "6"
  PIN_B "15"
  PIN_E ""
  PIN_6 ""
  XY_ID ""
  FUNC "Small"
  STI "SA ref"
  WPE "WPE ref"
  COMMENT ""
  DIS_MEAS ""
  TypeTCI "10"
END_HEADER

BEGIN_DB
 ICCAP_VAR vb         0              
 ICCAP_VAR vd         -0.1           
 ICCAP_VAR vs         -0             

 #vg                    id                    ig                    ib                    is                   
  0.5                   6e-14                 7.2e-13               -3.8e-13              6e-14                
  0.45                  -2e-14                2.2e-13               -1.8e-13              -8e-14               
  0.4                   1e-13                 -2e-14                -1.6e-13              3.6e-13              
  0.35                  4e-14                 -2.4e-13              -2.6e-13              1e-13                
  0.3                   8e-14                 0                     -2e-13                6e-14                
  0.25                  2e-14                 1.2e-13               -3e-13                1.6e-13              
  0.2                   4e-14                 -1.8e-13              -2.4e-13              6e-14                
  0.15                  1.2e-13               -3.2e-13              -2e-13                -2e-14               
  0.1                   0                     -2e-14                -2.2e-13              4e-14                
  0.05                  8e-14                 0                     -2e-13                2e-13                
  0                     1.4e-13               -2.8e-13              -1.8e-13              8e-14                
  -0.05                 1e-13                 -2.8e-13              -2.4e-13              1.8e-13              
  -0.1                  1.6e-13               -4e-14                -1.8e-13              8e-14                
  -0.15                 2.2e-13               -3.6e-13              -1.6e-13              1e-13                
  -0.2                  -2e-14                -4.2e-13              -2.2e-13              2.4e-13              
  -0.25                 1e-13                 -2e-13                -1.8e-13              2e-14                
  -0.3                  -1.4e-13              -1.2e-13              -3.4e-13              5.4e-13              
  -0.35                 -1.02e-12             1e-13                 -1.6e-13              1.24e-12             
  -0.4                  -5.8e-12              0                     -2.2e-13              5.96e-12             
  -0.45                 -3.026e-11            -5.4e-13              -2.2e-13              3.074e-11            
  -0.5                  -1.5642e-10           -5.2e-13              -2e-13                1.566e-10            
  -0.55                 -7.9686e-10           -6.8e-13              -2.6e-13              7.9948e-10           
  -0.6                  -3.9078e-09           -5.6e-13              -2.2e-13              3.9046e-09           
  -0.65                 -1.7354e-08           -3e-13                -1.2e-13              1.737e-08            
  -0.7                  -6.354e-08            -3.4e-13              -2e-13                6.3456e-08           
  -0.75                 -1.7702e-07           -2e-13                -2e-13                1.7718e-07           
  -0.8                  -3.794e-07            -2e-13                -2.2e-13              3.7956e-07           
  -0.85                 -6.6246e-07           -2e-13                -1.8e-13              6.626e-07            
  -0.9                  -9.9176e-07           -4.8e-13              -2e-13                9.913e-07            
  -0.95                 -1.34e-06             -3.6e-13              -2.4e-13              1.3438e-06           
  -1                    -1.6928e-06           -4.2e-13              -1.6e-13              1.6964e-06           
  -1.05                 -2.0408e-06           -1.4e-13              -2e-13                2.0444e-06           
  -1.1                  -2.3784e-06           -3.2e-13              -2e-13                2.382e-06            
  -1.15                 -2.7084e-06           -6e-13                -1e-13                2.7118e-06           
  -1.2                  -3.0266e-06           -4.4e-13              -1.4e-13              3.0296e-06           
  -1.25                 -3.3346e-06           -2.2e-13              -6e-14                3.3382e-06           
  -1.3                  -3.632e-06            -3.2e-13              -2.2e-13              3.6358e-06           
  -1.35                 -3.9188e-06           -3e-13                -1.6e-13              3.9224e-06           
  -1.4                  -4.1968e-06           -4.4e-13              -1.8e-13              4.2002e-06           
  -1.45                 -4.4642e-06           -5e-13                -2.2e-13              4.4668e-06           
  -1.5                  -4.7232e-06           -5.2e-13              -1.4e-13              4.727e-06            
  -1.55                 -4.974e-06            -1.8e-13              -2e-13                4.9778e-06           
  -1.6                  -5.219e-06            -4.6e-13              -1.4e-13              5.2228e-06           
  -1.65                 -5.4562e-06           -5.4e-13              -1.8e-13              5.4598e-06           
  -1.7                  -5.687e-06            -4e-13                -2e-13                5.6904e-06           
  -1.75                 -5.9122e-06           -5.6e-13              -3.2e-13              5.916e-06            
  -1.8                  -6.1308e-06           -6.6e-13              -1.4e-13              6.134e-06            
  -1.85                 -6.3442e-06           -4.4e-13              -2e-13                6.3474e-06           
  -1.9                  -6.5518e-06           -6.8e-13              -1.6e-13              6.5554e-06           
  -1.95                 -6.755e-06            -2.4e-13              -1.4e-13              6.7564e-06           
  -2                    -6.9524e-06           -6.2e-13              -2.2e-13              6.9528e-06           
  -2.05                 -7.1396e-06           -5.2e-13              -1.6e-13              7.144e-06            
  -2.1                  -7.3268e-06           -2.8e-13              -2.4e-13              7.3326e-06           
  -2.15                 -7.512e-06            -5.4e-13              -1.8e-13              7.511e-06            
  -2.2                  -7.688e-06            -6e-14                -1.6e-13              7.6978e-06           
  -2.25                 -7.8652e-06           -3.8e-13              -1.4e-13              7.8616e-06           
  -2.3                  -8.033e-06            -7e-13                -2e-13                8.0378e-06           
  -2.35                 -8.1978e-06           -2.4e-13              -1.6e-13              8.2032e-06           
  -2.4                  -8.3632e-06           -2.2e-13              -1.8e-13              8.3616e-06           
  -2.45                 -8.5194e-06           -8.4e-13              -1.4e-13              8.5202e-06           
  -2.5                  -8.6754e-06           -7.2e-13              2e-14                 8.6746e-06           
  -2.55                 -8.8194e-06           -5.4e-13              -8e-14                8.8304e-06           
  -2.6                  -8.9682e-06           -4.2e-13              -1.8e-13              8.9784e-06           
  -2.65                 -9.1162e-06           -2.8e-13              -1.6e-13              9.1212e-06           
  -2.7                  -9.263e-06            -6.2e-13              -1.8e-13              9.2614e-06           
  -2.75                 -9.3996e-06           -3e-13                -1.4e-13              9.402e-06            
  -2.8                  -9.5354e-06           -5.6e-13              -2e-13                9.5392e-06           
  -2.85                 -9.6696e-06           -4e-13                -1e-13                9.673e-06            
  -2.9                  -9.8008e-06           -6.8e-13              -3e-13                9.8042e-06           
  -2.95                 -9.932e-06            -5.6e-13              -1.4e-13              9.9286e-06           
  -3                    -1.0051e-05           -6e-13                -1.6e-13              1.00544e-05          
  -3.05                 -1.01738e-05          -2.2e-13              -2.2e-13              1.0178e-05           
  -3.1                  -1.02946e-05          -4.6e-13              -4e-14                1.02978e-05          
  -3.15                 -1.0412e-05           -1.08e-12             -1e-13                1.04174e-05          
  -3.2                  -1.05272e-05          -6.8e-13              -1.2e-13              1.05296e-05          
  -3.25                 -1.06404e-05          -6.4e-13              -1.6e-13              1.06438e-05          
  -3.3                  -1.07506e-05          -5.4e-13              -2.6e-13              1.07544e-05          
  -3.35                 -1.08612e-05          -6e-13                -1e-13                1.08638e-05          
  -3.4                  -1.09668e-05          -5.4e-13              -2e-13                1.09682e-05          
  -3.45                 -1.10698e-05          -4.8e-13              -1.8e-13              1.10732e-05          
  -3.5                  -1.11702e-05          -6.8e-13              -1.8e-13              1.11736e-05          
  -3.55                 -1.12734e-05          -7.8e-13              -2e-14                1.12712e-05          
  -3.6                  -1.13642e-05          -5.8e-13              -8e-14                1.13716e-05          
END_DB

BEGIN_DB
 ICCAP_VAR vb         0.9            
 ICCAP_VAR vd         -0.1           
 ICCAP_VAR vs         -0             

 #vg                    id                    ig                    ib                    is                   
  0.5                   1.6e-13               5e-13                 2e-14                 2.2e-13              
  0.45                  1e-13                 4.4e-13               1.6e-13               1.4e-13              
  0.4                   4e-14                 3.2e-13               1e-13                 1.8e-13              
  0.35                  2e-14                 0                     4e-14                 3.6e-13              
  0.3                   4e-14                 4e-14                 2.4e-13               -2e-14               
  0.25                  0                     2.6e-13               6e-14                 2.6e-13              
  0.2                   -2e-14                1.8e-13               1.2e-13               6e-14                
  0.15                  8e-14                 2e-13                 2e-14                 -4e-14               
  0.1                   6e-14                 3e-13                 1e-13                 6e-14                
  0.05                  4e-14                 -2.2e-13              -2e-14                6e-14                
  0                     2e-14                 2e-14                 2e-14                 1.2e-13              
  -0.05                 0                     -5.6e-13              1e-13                 0                    
  -0.1                  0                     1.8e-13               2e-14                 1.4e-13              
  -0.15                 1e-13                 1.6e-13               1e-13                 -1.2e-13             
  -0.2                  1e-13                 -3e-13                2e-14                 1.4e-13              
  -0.25                 1.6e-13               -1e-13                0                     1.8e-13              
  -0.3                  8e-14                 -2e-13                4e-14                 1.6e-13              
  -0.35                 2e-13                 -3.2e-13              -8e-14                2.2e-13              
  -0.4                  8e-14                 -2e-14                -6e-14                1.6e-13              
  -0.45                 1.2e-13               -1.8e-13              0                     3.4e-13              
  -0.5                  1.2e-13               -7.4e-13              -4e-14                1.2e-13              
  -0.55                 1e-13                 -5.2e-13              -2e-14                4e-14                
  -0.6                  2e-14                 -8e-14                -1e-13                1.8e-13              
  -0.65                 -6e-14                -1e-13                0                     1.6e-13              
  -0.7                  -7.6e-13              -6.6e-13              0                     1.04e-12             
  -0.75                 -5.76e-12             -4.2e-13              2e-14                 6.06e-12             
  -0.8                  -3.45e-11             -5.2e-13              -8e-14                3.474e-11            
  -0.85                 -2.0272e-10           -2.8e-13              -2e-14                2.0262e-10           
  -0.9                  -1.1454e-09           4e-14                 -8e-14                1.14458e-09          
  -0.95                 -6.026e-09            -6e-14                0                     6.0296e-09           
  -1                    -2.6602e-08           -2e-14                6e-14                 2.6634e-08           
  -1.05                 -8.8966e-08           -8.2e-13              2e-14                 8.8984e-08           
  -1.1                  -2.1946e-07           -8e-14                -4e-14                2.1952e-07           
  -1.15                 -4.2834e-07           -4e-13                -8e-14                4.2872e-07           
  -1.2                  -6.996e-07            -4.8e-13              -6e-14                6.9986e-07           
  -1.25                 -1.00824e-06          -3.8e-13              4e-14                 1.00844e-06          
  -1.3                  -1.3306e-06           -2.6e-13              0                     1.334e-06            
  -1.35                 -1.655e-06            -2.8e-13              -2e-13                1.6584e-06           
  -1.4                  -1.9762e-06           -5.2e-13              2e-14                 1.9796e-06           
  -1.45                 -2.288e-06            -2.2e-13              -1e-13                2.2914e-06           
  -1.5                  -2.592e-06            -4.6e-13              -2e-14                2.595e-06            
  -1.55                 -2.8846e-06           -3.2e-13              0                     2.8884e-06           
  -1.6                  -3.17e-06             -2.2e-13              -2e-14                3.1736e-06           
  -1.65                 -3.4452e-06           -4.4e-13              -4e-14                3.4486e-06           
  -1.7                  -3.7118e-06           -3.8e-13              -2e-14                3.713e-06            
  -1.75                 -3.9696e-06           -5e-13                0                     3.9736e-06           
  -1.8                  -4.2192e-06           -1.4e-13              -1.2e-13              4.2232e-06           
  -1.85                 -4.4614e-06           -5.8e-13              -1.4e-13              4.465e-06            
  -1.9                  -4.6956e-06           -7.6e-13              0                     4.6988e-06           
  -1.95                 -4.9232e-06           -4.8e-13              -4e-14                4.9228e-06           
  -2                    -5.1344e-06           -5.8e-13              -8e-14                5.1482e-06           
  -2.05                 -5.3592e-06           -4.4e-13              -4e-14                5.3558e-06           
  -2.1                  -5.5658e-06           -5.8e-13              -4e-14                5.5658e-06           
  -2.15                 -5.7706e-06           -7.2e-13              0                     5.7728e-06           
  -2.2                  -5.9648e-06           -5.6e-13              -1.6e-13              5.9722e-06           
  -2.25                 -6.1576e-06           -3.2e-13              2e-14                 6.1578e-06           
  -2.3                  -6.348e-06            -3.4e-13              -1.8e-13              6.3432e-06           
  -2.35                 -6.526e-06            -4.2e-13              -1.4e-13              6.5366e-06           
  -2.4                  -6.7088e-06           -4.2e-13              -1.6e-13              6.7146e-06           
  -2.45                 -6.8892e-06           -5.4e-13              2e-14                 6.8858e-06           
  -2.5                  -7.063e-06            -2.6e-13              -8e-14                7.0576e-06           
  -2.55                 -7.232e-06            -3.8e-13              -2e-14                7.2284e-06           
  -2.6                  -7.393e-06            -8.4e-13              -4e-14                7.3946e-06           
  -2.65                 -7.5522e-06           -6e-13                -2e-14                7.5586e-06           
  -2.7                  -7.7074e-06           -3.2e-13              -6e-14                7.7146e-06           
  -2.75                 -7.8606e-06           -7e-13                8e-14                 7.8676e-06           
  -2.8                  -8.014e-06            -3.8e-13              -1.2e-13              8.0142e-06           
  -2.85                 -8.1594e-06           -5.6e-13              -1e-13                8.1624e-06           
  -2.9                  -8.303e-06            -4.4e-13              -2e-14                8.3062e-06           
  -2.95                 -8.443e-06            -7.2e-13              -4e-14                8.4462e-06           
  -3                    -8.5824e-06           -4.6e-13              -1e-13                8.5852e-06           
  -3.05                 -8.7168e-06           -6.6e-13              0                     8.7206e-06           
  -3.1                  -8.848e-06            -8.6e-13              0                     8.8488e-06           
  -3.15                 -8.976e-06            -6.8e-13              -2.4e-13              8.976e-06            
  -3.2                  -9.0986e-06           -4.8e-13              -4e-14                9.1024e-06           
  -3.25                 -9.2224e-06           -6.8e-13              -6e-14                9.227e-06            
  -3.3                  -9.3446e-06           -8e-13                -1.4e-13              9.348e-06            
  -3.35                 -9.4628e-06           -4.2e-13              -1e-13                9.4652e-06           
  -3.4                  -9.578e-06            -6e-13                -1.4e-13              9.583e-06            
  -3.45                 -9.6928e-06           -6.2e-13              -4e-14                9.696e-06            
