! VERSION = 6.00
BEGIN_HEADER
 ICCAP_INPUTS
  vd         V  D GROUND SMU1 0.1 LIN        1    -0         -3.6       37   -0.1      
  vg         V  G GROUND SMU2 0.001 LIN        2    -1.88      -3.6       5    -0.43     
  vb         V  B GROUND SMU4 0.1 CON        3.6
  vs         V  S GROUND SMU3 0.1 CON        -0
 ICCAP_OUTPUTS
  id         I  D GROUND SMU1 B
  ig         I  G GROUND SMU2 B
  ib         I  B GROUND SMU4 B
  is         I  S GROUND SMU3 B
 ICCAP_VALUES
  MASTER_SETUP_TYPE "~dc_idvd~"
  LINVT_VALUE "|idvg|100.0n|100.0m|1.000m|5|3.600|"
  LISTVT_VALUE ""
  TYPE "-1"
  TEMP " 27.0000 "
  IS_TNOM " 1.00000 "
  MAIN.W "600.0n"
  MAIN.L "500.0n"
  MAIN.AD "204.0f"
  MAIN.AS "204.0f"
  MAIN.PD "1.880u"
  MAIN.PS "1.880u"
  MAIN.NF "1.000"
  MAIN.M "1"
  MAIN.NRD "0.000"
  MAIN.NRS "0.000"
  MAIN.LDRIFT1 "1E-06"
  MAIN.LDRIFT2 "1E-06"
  MAIN.SA "0.000"
  MAIN.SB "0.000"
  MAIN.SD "0.000"
  MAIN.SCA "0.000"
  MAIN.SCB "0.000"
  MAIN.SCC "0.000"
  MAIN.SC "0.000"
  MODULE "S564"
  PIN_D "16"
  PIN_G "5"
  PIN_S "6"
  PIN_B "15"
  PIN_E ""
  PIN_6 ""
  XY_ID ""
  FUNC "LW Scale"
  STI "SA ref"
  WPE "WPE ref"
  COMMENT ""
  DIS_MEAS ""
  TypeTCI "10"
END_HEADER

BEGIN_DB
 ICCAP_VAR vg         -1.88          
 ICCAP_VAR vb         3.6            
 ICCAP_VAR vs         -0             

 #vd                    id                    ig                    ib                    is                   
  -0                    2.1712e-10            -7e-13                1.5e-12               -2.8034e-10          
  -0.1                  -3.665e-07            -5e-13                1.22e-12              3.6672e-07           
  -0.2                  -4.5804e-07           -3.8e-13              1.18e-12              4.5824e-07           
  -0.3                  -4.7968e-07           -4e-13                1.2e-12               4.8436e-07           
  -0.4                  -4.9896e-07           -4e-13                1.16e-12              4.9904e-07           
  -0.5                  -5.1026e-07           -3e-13                1.06e-12              5.1038e-07           
  -0.6                  -5.193e-07            -2.8e-13              1.06e-12              5.198e-07            
  -0.7                  -5.2744e-07           -3.2e-13              9.8e-13               5.2674e-07           
  -0.8                  -5.3426e-07           -2.2e-13              1.04e-12              5.35e-07             
  -0.9                  -5.4134e-07           -1.4e-13              8.6e-13               5.4162e-07           
  -1                    -5.4788e-07           -2.4e-13              8.8e-13               5.4692e-07           
  -1.1                  -5.539e-07            -1e-13                7.8e-13               5.5434e-07           
  -1.2                  -5.5996e-07           -2.2e-13              8.6e-13               5.6026e-07           
  -1.3                  -5.6564e-07           -8e-14                8e-13                 5.6576e-07           
  -1.4                  -5.712e-07            -1.8e-13              8.2e-13               5.7138e-07           
  -1.5                  -5.755e-07            -2.2e-13              7.6e-13               5.7584e-07           
  -1.6                  -5.8144e-07           -2.2e-13              7.8e-13               5.8214e-07           
  -1.7                  -5.8644e-07           -4e-14                7.4e-13               5.8726e-07           
  -1.8                  -5.9084e-07           -1.8e-13              7.4e-13               5.9232e-07           
  -1.9                  -5.9694e-07           -1e-13                6.6e-13               5.9722e-07           
  -2                    -6.0206e-07           -8e-14                7e-13                 6.0116e-07           
  -2.1                  -6.0596e-07           -1.8e-13              7.2e-13               6.0604e-07           
  -2.2                  -6.1194e-07           -6e-14                9.4e-13               6.1216e-07           
  -2.3                  -6.1666e-07           -8e-14                9.4e-13               6.161e-07            
  -2.4                  -6.1878e-07           -1.2e-13              1.46e-12              6.2136e-07           
  -2.5                  -6.2624e-07           8e-14                 2.56e-12              6.2624e-07           
  -2.6                  -6.307e-07            6e-14                 4.54e-12              6.2986e-07           
  -2.7                  -6.352e-07            -8e-14                8.16e-12              6.3584e-07           
  -2.8                  -6.396e-07            -4e-14                1.49e-11              6.4068e-07           
  -2.9                  -6.4462e-07           -1e-13                2.664e-11             6.4418e-07           
  -3                    -6.4948e-07           0                     4.698e-11             6.4976e-07           
  -3.1                  -6.5094e-07           2e-14                 8.066e-11             6.5476e-07           
  -3.2                  -6.578e-07            -8e-14                1.366e-10             6.588e-07            
  -3.3                  -6.6402e-07           -8e-14                2.2666e-10            6.641e-07            
  -3.4                  -6.6896e-07           1.8e-13               3.686e-10             6.6822e-07           
  -3.5                  -6.7292e-07           0                     5.9052e-10            6.7354e-07           
  -3.6                  -6.7862e-07           -1.2e-13              9.2808e-10            6.7768e-07           
END_DB

BEGIN_DB
 ICCAP_VAR vg         -2.31          
 ICCAP_VAR vb         3.6            
 ICCAP_VAR vs         -0             

 #vd                    id                    ig                    ib                    is                   
  -0                    1.0846e-09            -3.2e-13              2.8e-13               -1.04202e-09         
  -0.1                  -2.4192e-06           -1.6e-13              4.4e-13               2.4254e-06           
  -0.2                  -4.2884e-06           -2.2e-13              3.2e-13               4.2854e-06           
  -0.3                  -5.6002e-06           -2e-13                3e-13                 5.6042e-06           
  -0.4                  -6.4556e-06           -1.4e-13              3.6e-13               6.4768e-06           
  -0.5                  -6.9676e-06           -1.4e-13              4.4e-13               6.9596e-06           
  -0.6                  -7.2488e-06           -1.2e-13              3e-13                 7.2826e-06           
  -0.7                  -7.4482e-06           -2.2e-13              4e-13                 7.4594e-06           
  -0.8                  -7.5946e-06           -2e-13                4e-13                 7.5984e-06           
  -0.9                  -7.6772e-06           -8e-14                4.2e-13               7.6612e-06           
  -1                    -7.7402e-06           -2e-13                3.6e-13               7.7694e-06           
  -1.1                  -7.8048e-06           4e-14                 3e-13                 7.8086e-06           
  -1.2                  -7.898e-06            -2e-14                4.2e-13               7.9074e-06           
  -1.3                  -7.9602e-06           -1.2e-13              3.8e-13               7.964e-06            
  -1.4                  -8.0132e-06           -1.2e-13              2.4e-13               8.0074e-06           
  -1.5                  -8.0636e-06           -6e-14                3e-13                 8.0298e-06           
  -1.6                  -8.0738e-06           -1.4e-13              4.6e-13               8.0758e-06           
  -1.7                  -8.1368e-06           -1.2e-13              4.2e-13               8.1216e-06           
  -1.8                  -8.162e-06            -6e-14                3.4e-13               8.1614e-06           
  -1.9                  -8.2098e-06           2e-14                 2.8e-13               8.2376e-06           
  -2                    -8.2638e-06           -6e-14                3e-13                 8.2428e-06           
  -2.1                  -8.2912e-06           -2e-14                3.4e-13               8.2842e-06           
  -2.2                  -8.3588e-06           -4e-14                4.2e-13               8.3624e-06           
  -2.3                  -8.3566e-06           -2e-14                7e-13                 8.3592e-06           
  -2.4                  -8.3926e-06           -2e-14                1.08e-12              8.437e-06            
  -2.5                  -8.4278e-06           -4e-14                2.14e-12              8.4322e-06           
  -2.6                  -8.4648e-06           -1.4e-13              4.72e-12              8.468e-06            
  -2.7                  -8.537e-06            -6e-14                1.01e-11              8.497e-06            
  -2.8                  -8.5296e-06           -2e-14                2.104e-11             8.5328e-06           
  -2.9                  -8.5636e-06           -1e-13                4.254e-11             8.5672e-06           
  -3                    -8.598e-06            0                     8.248e-11             8.608e-06            
  -3.1                  -8.6336e-06           2e-14                 1.5514e-10            8.636e-06            
  -3.2                  -8.667e-06            -1e-13                2.8434e-10            8.6682e-06           
  -3.3                  -8.6978e-06           -1.8e-13              5.0524e-10            8.7038e-06           
  -3.4                  -8.7328e-06           2e-14                 8.8752e-10            8.7356e-06           
  -3.5                  -8.809e-06            2e-14                 1.5182e-09            8.782e-06            
  -3.6                  -8.796e-06            6e-14                 2.5324e-09            8.8402e-06           
END_DB

BEGIN_DB
 ICCAP_VAR vg         -2.74          
 ICCAP_VAR vb         3.6            
 ICCAP_VAR vs         -0             

 #vd                    id                    ig                    ib                    is                   
  -0                    1.5216e-09            -2.4e-13              1.8e-13               -1.3246e-09          
  -0.1                  -4.2444e-06           -2.8e-13              1e-13                 4.2482e-06           
  -0.2                  -7.9982e-06           -1.8e-13              2.6e-13               8.0076e-06           
  -0.3                  -1.12446e-05          -2.2e-13              2.6e-13               1.12532e-05          
  -0.4                  -1.3958e-05           -1.6e-13              3.2e-13               1.3978e-05           
  -0.5                  -1.6172e-05           -2.4e-13              2.8e-13               1.6182e-05           
  -0.6                  -1.7934e-05           -2.2e-13              2e-13                 1.7954e-05           
  -0.7                  -1.9224e-05           -6e-14                2.8e-13               1.9246e-05           
  -0.8                  -2.0202e-05           -2e-14                1.8e-13               2.0208e-05           
  -0.9                  -2.0884e-05           -8e-14                2.6e-13               2.0904e-05           
  -1                    -2.1364e-05           -1.4e-13              2e-13                 2.1384e-05           
  -1.1                  -2.1718e-05           -1.6e-13              2.8e-13               2.1738e-05           
  -1.2                  -2.199e-05            -6e-14                2.4e-13               2.2008e-05           
  -1.3                  -2.2204e-05           -1.2e-13              2.4e-13               2.2218e-05           
  -1.4                  -2.2382e-05           -6e-14                3e-13                 2.2382e-05           
  -1.5                  -2.252e-05            -1e-13                2.2e-13               2.2554e-05           
  -1.6                  -2.2652e-05           -4e-14                2.8e-13               2.268e-05            
  -1.7                  -2.2788e-05           -2e-13                2.2e-13               2.2824e-05           
  -1.8                  -2.2912e-05           0                     1.8e-13               2.2946e-05           
  -1.9                  -2.3042e-05           4e-14                 3.6e-13               2.3062e-05           
  -2                    -2.315e-05            -4e-14                3.4e-13               2.3168e-05           
  -2.1                  -2.3248e-05           -1e-13                1.2e-13               2.327e-05            
  -2.2                  -2.3346e-05           -8e-14                2.2e-13               2.3384e-05           
  -2.3                  -2.3432e-05           -8e-14                3.4e-13               2.3444e-05           
  -2.4                  -2.3514e-05           -8e-14                3.4e-13               2.3534e-05           
  -2.5                  -2.3596e-05           -8e-14                5.2e-13               2.3622e-05           
  -2.6                  -2.3668e-05           -6e-14                1.18e-12              2.3688e-05           
  -2.7                  -2.3772e-05           0                     2.64e-12              2.3788e-05           
  -2.8                  -2.3856e-05           -1e-13                6.02e-12              2.3876e-05           
  -2.9                  -2.3938e-05           -2e-14                1.362e-11             2.3946e-05           
  -3                    -2.4014e-05           1e-13                 2.938e-11             2.403e-05            
  -3.1                  -2.4088e-05           2e-14                 6.066e-11             2.4094e-05           
  -3.2                  -2.4144e-05           -6e-14                1.2144e-10            2.4186e-05           
  -3.3                  -2.4256e-05           4e-14                 2.3478e-10            2.4278e-05           
  -3.4                  -2.4312e-05           2e-14                 4.4076e-10            2.4326e-05           
  -3.5                  -2.437e-05            4e-14                 7.9962e-10            2.438e-05            
  -3.6                  -2.442e-05            -1e-13                1.4226e-09            2.4456e-05           
END_DB

BEGIN_DB
 ICCAP_VAR vg         -3.17          
 ICCAP_VAR vb         3.6            
 ICCAP_VAR vs         -0             

 #vd                    id                    ig                    ib                    is                   
  -0                    1.823e-09             -2.8e-13              1.6e-13               -1.8176e-09          
  -0.1                  -5.7852e-06           -1.8e-13              1.6e-13               5.7858e-06           
  -0.2                  -1.11372e-05          -1.2e-13              2.6e-13               1.11532e-05          
  -0.3                  -1.6038e-05           -2e-13                1.8e-13               1.605e-05            
  -0.4                  -2.0424e-05           -8e-14                2e-13                 2.0444e-05           
  -0.5                  -2.4358e-05           -1.6e-13              2.2e-13               2.4366e-05           
  -0.6                  -2.7816e-05           -1.8e-13              1.6e-13               2.7812e-05           
  -0.7                  -3.0738e-05           -1.2e-13              1.8e-13               3.0774e-05           
  -0.8                  -3.3252e-05           -1.4e-13              2.6e-13               3.328e-05            
  -0.9                  -3.5308e-05           -1e-13                2e-13                 3.5346e-05           
  -1                    -3.698e-05            -1e-13                2e-13                 3.6992e-05           
  -1.1                  -3.8312e-05           -1.6e-13              1.6e-13               3.8334e-05           
  -1.2                  -3.9366e-05           -2e-13                2.2e-13               3.9352e-05           
  -1.3                  -4.0178e-05           -8e-14                3e-13                 4.0202e-05           
  -1.4                  -4.0772e-05           -2e-14                1.6e-13               4.0788e-05           
  -1.5                  -4.1272e-05           -6e-14                1.2e-13               4.127e-05            
  -1.6                  -4.1668e-05           -2e-14                2.2e-13               4.1688e-05           
  -1.7                  -4.1996e-05           -1e-13                2.2e-13               4.2016e-05           
  -1.8                  -4.226e-05            -1.2e-13              1.2e-13               4.228e-05            
  -1.9                  -4.2508e-05           -1.8e-13              4e-14                 4.2554e-05           
  -2                    -4.2776e-05           -4e-14                2.4e-13               4.2802e-05           
  -2.1                  -4.2926e-05           0                     1.4e-13               4.2964e-05           
  -2.2                  -4.3164e-05           -1.2e-13              1.2e-13               4.3174e-05           
  -2.3                  -4.3356e-05           0                     1.6e-13               4.3356e-05           
  -2.4                  -4.3482e-05           -4e-14                2e-13                 4.35e-05             
  -2.5                  -4.3642e-05           4e-14                 2.2e-13               4.3684e-05           
  -2.6                  -4.38e-05             -1.6e-13              3.6e-13               4.3836e-05           
  -2.7                  -4.3968e-05           1.2e-13               5.4e-13               4.3988e-05           
  -2.8                  -4.4098e-05           0                     1.2e-12               4.4132e-05           
  -2.9                  -4.4232e-05           -4e-14                2.8e-12               4.4296e-05           
  -3                    -4.4406e-05           -4e-14                6.46e-12              4.4406e-05           
  -3.1                  -4.4514e-05           8e-14                 1.476e-11             4.4536e-05           
  -3.2                  -4.4638e-05           1e-13                 3.204e-11             4.4628e-05           
  -3.3                  -4.474e-05            -8e-14                6.73e-11              4.4798e-05           
  -3.4                  -4.4914e-05           -1e-13                1.3594e-10            4.4938e-05           
  -3.5                  -4.5008e-05           -2e-14                2.652e-10             4.5022e-05           
  -3.6                  -4.513e-05            -2e-14                5.0474e-10            4.5158e-05           
END_DB

BEGIN_DB
 ICCAP_VAR vg         -3.6           
 ICCAP_VAR vb         3.6            
 ICCAP_VAR vs         -0             

 #vd                    id                    ig                    ib                    is                   
  -0                    2.1348e-09            -2.4e-13              1.2e-13               -1.9748e-09          
  -0.1                  -7.112e-06            -2.2e-13              4e-14                 7.1164e-06           
  -0.2                  -1.384e-05            -1.6e-13              6e-14                 1.3852e-05           
  -0.3                  -2.0134e-05           -1.4e-13              8e-14                 2.0166e-05           
  -0.4                  -2.6004e-05           -2.4e-13              2.2e-13               2.6024e-05           
  -0.5                  -3.1416e-05           -1e-13                1.8e-13               3.144e-05            
  -0.6                  -3.638e-05            -1.4e-13              8e-14                 3.6406e-05           
  -0.7                  -4.0884e-05           -1.2e-13              8e-14                 4.0908e-05           
  -0.8                  -4.4886e-05           -1.2e-13              1.2e-13               4.4916e-05           
