! VERSION = 6.00
BEGIN_HEADER
 ICCAP_INPUTS
  vd         V  D GROUND SMU1 0.1 LIN        1    -0         -3.6       37   -0.1      
  vg         V  G GROUND SMU2 0.001 LIN        2    -2.024     -3.6       5    -0.394    
  vb         V  B GROUND SMU4 0.1 CON        3.6
  vs         V  S GROUND SMU3 0.1 CON        -0
 ICCAP_OUTPUTS
  id         I  D GROUND SMU1 B
  ig         I  G GROUND SMU2 B
  ib         I  B GROUND SMU4 B
  is         I  S GROUND SMU3 B
 ICCAP_VALUES
  MASTER_SETUP_TYPE "~dc_idvd~"
  LINVT_VALUE "|idvg|100.0n|100.0m|1.000m|5|3.600|"
  LISTVT_VALUE ""
  TYPE "-1"
  TEMP "-40.0000 "
  IS_TNOM " 0.00000 "
  MAIN.W "2.000u"
  MAIN.L "1.200u"
  MAIN.AD "680.0f"
  MAIN.AS "680.0f"
  MAIN.PD "4.680u"
  MAIN.PS "4.680u"
  MAIN.NF "1.000"
  MAIN.M "1"
  MAIN.NRD "0.000"
  MAIN.NRS "0.000"
  MAIN.LDRIFT1 "1E-06"
  MAIN.LDRIFT2 "1E-06"
  MAIN.SA "0.000"
  MAIN.SB "0.000"
  MAIN.SD "0.000"
  MAIN.SCA "0.000"
  MAIN.SCB "0.000"
  MAIN.SCC "0.000"
  MAIN.SC "0.000"
  MODULE "S563"
  PIN_D "16"
  PIN_G "5"
  PIN_S "6"
  PIN_B "15"
  PIN_E ""
  PIN_6 ""
  XY_ID ""
  FUNC "LW Scale"
  STI "SA ref"
  WPE "WPE ref"
  COMMENT ""
  DIS_MEAS ""
  TypeTCI "10"
END_HEADER

BEGIN_DB
 ICCAP_VAR vg         -2.024         
 ICCAP_VAR vb         3.6            
 ICCAP_VAR vs         -0             

 #vd                    id                    ig                    ib                    is                   
  -0                    2.6696e-10            -9e-13                1.06e-12              -3.6258e-10          
  -0.1                  -5.6842e-07           -4.4e-13              1.02e-12              5.6842e-07           
  -0.2                  -6.9868e-07           -3.6e-13              9.6e-13               6.9828e-07           
  -0.3                  -7.1338e-07           -5.4e-13              9e-13                 7.136e-07            
  -0.4                  -7.165e-07            -5.2e-13              8.4e-13               7.1724e-07           
  -0.5                  -7.1944e-07           -5e-13                7.8e-13               7.1946e-07           
  -0.6                  -7.2058e-07           -4.2e-13              8e-13                 7.2086e-07           
  -0.7                  -7.2182e-07           -3.4e-13              8.6e-13               7.2194e-07           
  -0.8                  -7.2282e-07           -4e-13                8.2e-13               7.2306e-07           
  -0.9                  -7.2384e-07           -4e-14                7.8e-13               7.2416e-07           
  -1                    -7.2474e-07           -3.6e-13              8e-13                 7.2472e-07           
  -1.1                  -7.2552e-07           -3.6e-13              7e-13                 7.2556e-07           
  -1.2                  -7.2602e-07           1.6e-13               7.4e-13               7.2612e-07           
  -1.3                  -7.2658e-07           -2e-14                6.8e-13               7.2694e-07           
  -1.4                  -7.2718e-07           -2.2e-13              6.8e-13               7.2758e-07           
  -1.5                  -7.2796e-07           -1.8e-13              7.2e-13               7.2812e-07           
  -1.6                  -7.285e-07            -8e-14                5.8e-13               7.2874e-07           
  -1.7                  -7.2884e-07           0                     6.2e-13               7.2928e-07           
  -1.8                  -7.2944e-07           -1.8e-13              5.2e-13               7.2974e-07           
  -1.9                  -7.3044e-07           6e-14                 5.6e-13               7.3058e-07           
  -2                    -7.3104e-07           -8e-14                4.4e-13               7.3086e-07           
  -2.1                  -7.3102e-07           2e-14                 6e-13                 7.3142e-07           
  -2.2                  -7.3178e-07           -2e-13                5.2e-13               7.319e-07            
  -2.3                  -7.325e-07            -1.6e-13              5.8e-13               7.3242e-07           
  -2.4                  -7.328e-07            -2.6e-13              7.6e-13               7.3272e-07           
  -2.5                  -7.3318e-07           -8e-14                1.12e-12              7.3338e-07           
  -2.6                  -7.3358e-07           -6e-14                1.88e-12              7.3392e-07           
  -2.7                  -7.3404e-07           1.2e-13               3.72e-12              7.3434e-07           
  -2.8                  -7.344e-07            1.8e-13               7e-12                 7.3474e-07           
  -2.9                  -7.3484e-07           -6.2e-13              1.33e-11              7.3518e-07           
  -3                    -7.352e-07            1e-13                 2.514e-11             7.3564e-07           
  -3.1                  -7.3598e-07           4e-14                 4.652e-11             7.3606e-07           
  -3.2                  -7.3634e-07           -2.2e-13              8.374e-11             7.3652e-07           
  -3.3                  -7.3696e-07           4e-14                 1.4652e-10            7.3698e-07           
  -3.4                  -7.3716e-07           -6e-14                2.5114e-10            7.3748e-07           
  -3.5                  -7.38e-07             -1.2e-13              4.2128e-10            7.378e-07            
  -3.6                  -7.3896e-07           4e-14                 6.9146e-10            7.3854e-07           
END_DB

BEGIN_DB
 ICCAP_VAR vg         -2.418         
 ICCAP_VAR vb         3.6            
 ICCAP_VAR vs         -0             

 #vd                    id                    ig                    ib                    is                   
  -0                    1.0958e-09            4e-14                 1e-13                 -1.0474e-09          
  -0.1                  -2.969e-06            1.8e-13               8e-14                 2.972e-06            
  -0.2                  -5.1724e-06           -8e-14                2.8e-13               5.1768e-06           
  -0.3                  -6.6398e-06           4e-14                 2.2e-13               6.6438e-06           
  -0.4                  -7.4702e-06           -1.6e-13              1.6e-13               7.4756e-06           
  -0.5                  -7.8486e-06           0                     2.4e-13               7.847e-06            
  -0.6                  -7.9882e-06           -3.6e-13              2.4e-13               7.9922e-06           
  -0.7                  -8.049e-06            -1.6e-13              3.2e-13               8.0514e-06           
  -0.8                  -8.0764e-06           -8e-14                3.8e-13               8.08e-06             
  -0.9                  -8.1002e-06           -2e-13                3.6e-13               8.105e-06            
  -1                    -8.1168e-06           -3e-13                3.2e-13               8.1192e-06           
  -1.1                  -8.1352e-06           -4e-13                2.8e-13               8.1368e-06           
  -1.2                  -8.1464e-06           0                     2e-13                 8.1476e-06           
  -1.3                  -8.1616e-06           -1.2e-13              2e-13                 8.164e-06            
  -1.4                  -8.17e-06             4.6e-13               2.6e-13               8.175e-06            
  -1.5                  -8.1798e-06           -8e-14                2.2e-13               8.1814e-06           
  -1.6                  -8.1906e-06           1.8e-13               2.2e-13               8.1956e-06           
  -1.7                  -8.1992e-06           1.2e-13               2.4e-13               8.2018e-06           
  -1.8                  -8.2036e-06           -6.4e-13              3e-13                 8.211e-06            
  -1.9                  -8.2144e-06           -8e-14                2e-13                 8.2196e-06           
  -2                    -8.2202e-06           -2e-14                1.2e-13               8.223e-06            
  -2.1                  -8.2302e-06           1.2e-13               2e-13                 8.2302e-06           
  -2.2                  -8.2344e-06           -6e-14                2.2e-13               8.2388e-06           
  -2.3                  -8.2402e-06           -3.4e-13              3.6e-13               8.2498e-06           
  -2.4                  -8.2498e-06           2.6e-13               3.8e-13               8.249e-06            
  -2.5                  -8.2534e-06           1.2e-13               6.2e-13               8.2554e-06           
  -2.6                  -8.2622e-06           2.2e-13               1.14e-12              8.2662e-06           
  -2.7                  -8.269e-06            -1.2e-13              2.58e-12              8.2696e-06           
  -2.8                  -8.271e-06            -1e-13                5.9e-12               8.2724e-06           
  -2.9                  -8.2762e-06           8e-14                 1.294e-11             8.2792e-06           
  -3                    -8.2842e-06           -1.6e-13              2.818e-11             8.2854e-06           
  -3.1                  -8.2896e-06           2.2e-13               5.878e-11             8.2934e-06           
  -3.2                  -8.2958e-06           -4e-13                1.1784e-10            8.3018e-06           
  -3.3                  -8.3016e-06           1.2e-13               2.2958e-10            8.3044e-06           
  -3.4                  -8.3068e-06           4e-14                 4.3184e-10            8.3096e-06           
  -3.5                  -8.3156e-06           -2.4e-13              7.911e-10             8.3182e-06           
  -3.6                  -8.322e-06            -6e-14                1.4156e-09            8.3264e-06           
END_DB

BEGIN_DB
 ICCAP_VAR vg         -2.812         
 ICCAP_VAR vb         3.6            
 ICCAP_VAR vs         -0             

 #vd                    id                    ig                    ib                    is                   
  -0                    1.5756e-09            6e-14                 1e-13                 -1.361e-09           
  -0.1                  -5.251e-06            -4e-14                4e-14                 5.2544e-06           
  -0.2                  -9.8012e-06           1.6e-13               8e-14                 9.8062e-06           
  -0.3                  -1.362e-05            4e-14                 8e-14                 1.3636e-05           
  -0.4                  -1.6722e-05           -6e-14                1e-13                 1.674e-05            
  -0.5                  -1.9128e-05           2e-14                 2.2e-13               1.9144e-05           
  -0.6                  -2.0866e-05           -3.2e-13              1.6e-13               2.0882e-05           
  -0.7                  -2.2014e-05           3.2e-13               2e-14                 2.203e-05            
  -0.8                  -2.2696e-05           -5.4e-13              1.8e-13               2.2712e-05           
  -0.9                  -2.3066e-05           2e-14                 1.4e-13               2.308e-05            
  -1                    -2.3264e-05           -2e-14                1e-13                 2.3278e-05           
  -1.1                  -2.3376e-05           -2.2e-13              2e-13                 2.3394e-05           
  -1.2                  -2.345e-05            1.2e-13               1.6e-13               2.3468e-05           
  -1.3                  -2.3508e-05           1e-13                 6e-14                 2.3526e-05           
  -1.4                  -2.356e-05            0                     1.2e-13               2.3576e-05           
  -1.5                  -2.3596e-05           -4.2e-13              8e-14                 2.3616e-05           
  -1.6                  -2.3634e-05           -1.4e-13              2.4e-13               2.3654e-05           
  -1.7                  -2.3674e-05           0                     2e-13                 2.3692e-05           
  -1.8                  -2.3702e-05           -8e-14                1.6e-13               2.3718e-05           
  -1.9                  -2.3726e-05           4e-14                 1e-13                 2.3744e-05           
  -2                    -2.3752e-05           -3.4e-13              1.8e-13               2.3774e-05           
  -2.1                  -2.3778e-05           8e-14                 1.6e-13               2.3796e-05           
  -2.2                  -2.3804e-05           2.4e-13               1.4e-13               2.3824e-05           
  -2.3                  -2.3828e-05           1e-13                 1.8e-13               2.385e-05            
  -2.4                  -2.3858e-05           -1.2e-13              2.4e-13               2.3874e-05           
  -2.5                  -2.387e-05            -1.4e-13              1e-13                 2.389e-05            
  -2.6                  -2.3892e-05           3e-13                 2.2e-13               2.391e-05            
  -2.7                  -2.3912e-05           8e-14                 4e-13                 2.393e-05            
  -2.8                  -2.393e-05            -1.8e-13              9.2e-13               2.395e-05            
  -2.9                  -2.3952e-05           -1.6e-13              2.42e-12              2.3974e-05           
  -3                    -2.3974e-05           -1e-13                5.96e-12              2.3992e-05           
  -3.1                  -2.399e-05            1.4e-13               1.402e-11             2.4004e-05           
  -3.2                  -2.4004e-05           -4e-14                3.198e-11             2.4026e-05           
  -3.3                  -2.4022e-05           4e-14                 7.004e-11             2.404e-05            
  -3.4                  -2.404e-05            -4.8e-13              1.4722e-10            2.406e-05            
  -3.5                  -2.4056e-05           -8e-14                2.9762e-10            2.4076e-05           
  -3.6                  -2.4076e-05           6e-14                 5.8548e-10            2.4096e-05           
END_DB

BEGIN_DB
 ICCAP_VAR vg         -3.206         
 ICCAP_VAR vb         3.6            
 ICCAP_VAR vs         -0             

 #vd                    id                    ig                    ib                    is                   
  -0                    1.6914e-09            -2e-14                0                     -1.6992e-09          
  -0.1                  -7.2306e-06           -1e-13                1.2e-13               7.236e-06            
  -0.2                  -1.3832e-05           -1.6e-13              1.2e-13               1.385e-05            
  -0.3                  -1.978e-05            0                     1e-13                 1.9802e-05           
  -0.4                  -2.5054e-05           -2e-14                1.6e-13               2.507e-05            
  -0.5                  -2.9668e-05           -2.6e-13              -2e-14                2.9678e-05           
  -0.6                  -3.3596e-05           -1.2e-13              6e-14                 3.3616e-05           
  -0.7                  -3.6864e-05           8e-14                 1.2e-13               3.6878e-05           
  -0.8                  -3.949e-05            4e-14                 1e-13                 3.9504e-05           
  -0.9                  -4.1496e-05           -2.4e-13              1.2e-13               4.1518e-05           
  -1                    -4.2952e-05           -1.6e-13              1.8e-13               4.2966e-05           
  -1.1                  -4.3926e-05           -4e-14                1e-13                 4.3944e-05           
  -1.2                  -4.456e-05            4e-14                 1e-13                 4.4578e-05           
  -1.3                  -4.4946e-05           -1e-13                1.4e-13               4.497e-05            
  -1.4                  -4.52e-05             -1.8e-13              1e-13                 4.5222e-05           
  -1.5                  -4.537e-05            2.4e-13               1.4e-13               4.539e-05            
  -1.6                  -4.5494e-05           2.2e-13               1.4e-13               4.5508e-05           
  -1.7                  -4.5598e-05           -6e-14                1.6e-13               4.5612e-05           
  -1.8                  -4.5682e-05           -1.8e-13              8e-14                 4.5696e-05           
  -1.9                  -4.5754e-05           -2.2e-13              8e-14                 4.5776e-05           
  -2                    -4.5826e-05           3e-13                 1.6e-13               4.5844e-05           
  -2.1                  -4.5886e-05           -1e-13                8e-14                 4.5906e-05           
  -2.2                  -4.5942e-05           -3.4e-13              1e-13                 4.596e-05            
  -2.3                  -4.5996e-05           -8e-14                4e-14                 4.601e-05            
  -2.4                  -4.604e-05            1.4e-13               2.4e-13               4.6062e-05           
  -2.5                  -4.6088e-05           2.6e-13               8e-14                 4.6104e-05           
  -2.6                  -4.6126e-05           -2.4e-13              1.8e-13               4.615e-05            
  -2.7                  -4.618e-05            -2e-14                1.8e-13               4.6198e-05           
  -2.8                  -4.622e-05            1.6e-13               1.6e-13               4.624e-05            
  -2.9                  -4.6254e-05           -1.6e-13              2.6e-13               4.6274e-05           
  -3                    -4.6294e-05           1.2e-13               6e-13                 4.631e-05            
  -3.1                  -4.633e-05            0                     1.78e-12              4.6354e-05           
  -3.2                  -4.6368e-05           -1e-13                4.34e-12              4.6386e-05           
  -3.3                  -4.6404e-05           -1e-13                1.062e-11             4.642e-05            
  -3.4                  -4.6434e-05           2e-14                 2.52e-11              4.6456e-05           
  -3.5                  -4.6474e-05           -2.2e-13              5.748e-11             4.6494e-05           
  -3.6                  -4.6508e-05           -1.8e-13              1.2544e-10            4.6526e-05           
END_DB

BEGIN_DB
 ICCAP_VAR vg         -3.6           
 ICCAP_VAR vb         3.6            
 ICCAP_VAR vs         -0             

 #vd                    id                    ig                    ib                    is                   
  -0                    1.7826e-09            1.4e-13               2e-14                 -2.0324e-09          
  -0.1                  -8.9548e-06           -1.6e-13              2e-14                 8.9576e-06           
  -0.2                  -1.7346e-05           -2e-13                0                     1.7362e-05           
  -0.3                  -2.5148e-05           6e-14                 4e-14                 2.5162e-05           
  -0.4                  -3.2324e-05           2e-14                 2e-14                 3.2342e-05           
  -0.5                  -3.889e-05            -2.4e-13              1e-13                 3.8912e-05           
  -0.6                  -4.484e-05            1.4e-13               1e-13                 4.486e-05            
  -0.7                  -5.0148e-05           -2e-13                2e-14                 5.0162e-05           
  -0.8                  -5.4824e-05           6e-14                 2e-14                 5.4856e-05           
