! VERSION = 6.00
BEGIN_HEADER
 ICCAP_INPUTS
  vd         V  D GROUND SMU1 0.1 LIN        1    -0         -3.6       37   -0.1      
  vg         V  G GROUND SMU2 0.001 LIST       2 3 -1.69 -1.89 -2.09
  vb         V  B GROUND SMU4 0.1 CON        3.6
  vs         V  S GROUND SMU3 0.1 CON        -0
 ICCAP_OUTPUTS
  id         I  D GROUND SMU1 B
  ig         I  G GROUND SMU2 B
  ib         I  B GROUND SMU4 B
  is         I  S GROUND SMU3 B
 ICCAP_VALUES
  MASTER_SETUP_TYPE "~dc_idvd~"
  LINVT_VALUE ""
  LISTVT_VALUE "|idvg|100.0n|-200.0m|1.000m|3|200.0m|200.0m|"
  TYPE "-1"
  TEMP " 27.0000 "
  IS_TNOM " 1.00000 "
  MAIN.W "5.000u"
  MAIN.L "5.000u"
  MAIN.AD "1.700p"
  MAIN.AS "1.700p"
  MAIN.PD "10.68u"
  MAIN.PS "10.68u"
  MAIN.NF "1.000"
  MAIN.M "1"
  MAIN.NRD "0.000"
  MAIN.NRS "0.000"
  MAIN.LDRIFT1 "1E-06"
  MAIN.LDRIFT2 "1E-06"
  MAIN.SA "0.000"
  MAIN.SB "0.000"
  MAIN.SD "0.000"
  MAIN.SCA "0.000"
  MAIN.SCB "0.000"
  MAIN.SCC "0.000"
  MAIN.SC "0.000"
  MODULE "S562"
  PIN_D "12"
  PIN_G "9"
  PIN_S "10"
  PIN_B "11"
  PIN_E ""
  PIN_6 ""
  XY_ID ""
  FUNC "LW Scale"
  STI "SA ref"
  WPE "WPE ref"
  COMMENT ""
  DIS_MEAS ""
  TypeTCI "10"
END_HEADER

BEGIN_DB
 ICCAP_VAR vg         -1.69          
 ICCAP_VAR vb         3.6            
 ICCAP_VAR vs         -0             

 #vd                    id                    ig                    ib                    is                   
  -0                    1.38e-12              -2e-14                5.4e-13               -2.6e-12             
  -0.1                  -1.0152e-09           0                     3.2e-13               1.0159e-09           
  -0.2                  -1.0386e-09           4e-14                 6.4e-13               1.03902e-09          
  -0.3                  -1.04e-09             1.2e-13               4e-13                 1.04016e-09          
  -0.4                  -1.0406e-09           -2e-14                3.2e-13               1.0408e-09           
  -0.5                  -1.0412e-09           0                     4.6e-13               1.0417e-09           
  -0.6                  -1.0416e-09           -2e-14                3.4e-13               1.04208e-09          
  -0.7                  -1.0422e-09           -2e-14                2.4e-13               1.04214e-09          
  -0.8                  -1.0422e-09           2e-14                 3e-13                 1.0424e-09           
  -0.9                  -1.0428e-09           1e-13                 3.2e-13               1.04288e-09          
  -1                    -1.0428e-09           4e-14                 3.4e-13               1.04314e-09          
  -1.1                  -1.0436e-09           1.2e-13               2.8e-13               1.04342e-09          
  -1.2                  -1.0438e-09           1.4e-13               2.6e-13               1.04354e-09          
  -1.3                  -1.0442e-09           2.8e-13               2.4e-13               1.04376e-09          
  -1.4                  -1.0442e-09           8e-14                 2.2e-13               1.04404e-09          
  -1.5                  -1.044e-09            2.6e-13               2.8e-13               1.04394e-09          
  -1.6                  -1.0448e-09           1.8e-13               3.2e-13               1.04426e-09          
  -1.7                  -1.0448e-09           2e-13                 2.8e-13               1.0443e-09           
  -1.8                  -1.0452e-09           -8e-14                3e-13                 1.04492e-09          
  -1.9                  -1.045e-09            2e-13                 2.2e-13               1.04458e-09          
  -2                    -1.0454e-09           1e-13                 2.2e-13               1.04502e-09          
  -2.1                  -1.0456e-09           -6e-14                2.4e-13               1.04532e-09          
  -2.2                  -1.0462e-09           1.4e-13               1.4e-13               1.04552e-09          
  -2.3                  -1.0458e-09           -6e-14                1e-13                 1.04556e-09          
  -2.4                  -1.046e-09            1e-13                 1.8e-13               1.04598e-09          
  -2.5                  -1.0462e-09           4e-14                 2.6e-13               1.04582e-09          
  -2.6                  -1.0466e-09           8e-14                 1e-13                 1.04646e-09          
  -2.7                  -1.0468e-09           4e-14                 2.2e-13               1.0458e-09           
  -2.8                  -1.0466e-09           6e-14                 1e-13                 1.0459e-09           
  -2.9                  -1.0468e-09           1e-13                 3.8e-13               1.04616e-09          
  -3                    -1.0472e-09           -4e-14                3.2e-13               1.04658e-09          
  -3.1                  -1.0476e-09           1.6e-13               4.2e-13               1.04634e-09          
  -3.2                  -1.0476e-09           8e-14                 8e-13                 1.04656e-09          
  -3.3                  -1.0482e-09           2e-14                 8.2e-13               1.04698e-09          
  -3.4                  -1.0488e-09           1.2e-13               1.44e-12              1.04686e-09          
  -3.5                  -1.0498e-09           -1e-13                1.92e-12              1.0472e-09           
  -3.6                  -1.0508e-09           -6e-14                3.06e-12              1.04728e-09          
END_DB

BEGIN_DB
 ICCAP_VAR vg         -1.89          
 ICCAP_VAR vb         3.6            
 ICCAP_VAR vs         -0             

 #vd                    id                    ig                    ib                    is                   
  -0                    1.213e-10             4e-14                 1.2e-13               -1.1844e-10          
  -0.1                  -9.552e-08            -6e-14                1.4e-13               9.5568e-08           
  -0.2                  -1.0434e-07           1e-13                 0                     1.04454e-07          
  -0.3                  -1.0472e-07           1.4e-13               6e-14                 1.0485e-07           
  -0.4                  -1.0476e-07           8e-14                 0                     1.04902e-07          
  -0.5                  -1.0482e-07           4e-14                 1.4e-13               1.04938e-07          
  -0.6                  -1.0484e-07           -2e-14                1.4e-13               1.04982e-07          
  -0.7                  -1.0488e-07           -4e-14                1.8e-13               1.04996e-07          
  -0.8                  -1.0492e-07           -8e-14                1.8e-13               1.05044e-07          
  -0.9                  -1.0494e-07           -8e-14                1.6e-13               1.05072e-07          
  -1                    -1.0494e-07           -1.4e-13              2.6e-13               1.0506e-07           
  -1.1                  -1.0498e-07           6e-14                 2e-13                 1.05088e-07          
  -1.2                  -1.05e-07             -6e-14                1.4e-13               1.05126e-07          
  -1.3                  -1.0502e-07           -4e-14                1.2e-13               1.0514e-07           
  -1.4                  -1.0504e-07           -4e-14                1e-13                 1.05152e-07          
  -1.5                  -1.0506e-07           -6e-14                1.2e-13               1.05196e-07          
  -1.6                  -1.051e-07            1.2e-13               4e-14                 1.052e-07            
  -1.7                  -1.0508e-07           6e-14                 8e-14                 1.05196e-07          
  -1.8                  -1.0512e-07           2e-14                 1e-13                 1.05242e-07          
  -1.9                  -1.0512e-07           4e-14                 1.6e-13               1.05244e-07          
  -2                    -1.0514e-07           2e-14                 2e-13                 1.05262e-07          
  -2.1                  -1.0514e-07           -6e-14                2.2e-13               1.05284e-07          
  -2.2                  -1.0516e-07           -6e-14                1.8e-13               1.05282e-07          
  -2.3                  -1.0518e-07           -2e-14                1.4e-13               1.0531e-07           
  -2.4                  -1.0522e-07           0                     2.6e-13               1.0534e-07           
  -2.5                  -1.0522e-07           6e-14                 4.2e-13               1.05336e-07          
  -2.6                  -1.0524e-07           -2e-14                7.6e-13               1.05372e-07          
  -2.7                  -1.0524e-07           0                     1.16e-12              1.05382e-07          
  -2.8                  -1.0524e-07           8e-14                 2.12e-12              1.05392e-07          
  -2.9                  -1.0526e-07           1e-13                 3.88e-12              1.0537e-07           
  -3                    -1.0528e-07           -4e-14                6.9e-12               1.0543e-07           
  -3.1                  -1.053e-07            6e-14                 1.196e-11             1.0542e-07           
  -3.2                  -1.0532e-07           2e-14                 2.034e-11             1.0544e-07           
  -3.3                  -1.0536e-07           2e-14                 3.372e-11             1.05438e-07          
  -3.4                  -1.0536e-07           8e-14                 5.512e-11             1.05444e-07          
  -3.5                  -1.0542e-07           2e-14                 8.846e-11             1.05452e-07          
  -3.6                  -1.0548e-07           -2e-13                1.3924e-10            1.05452e-07          
END_DB

BEGIN_DB
 ICCAP_VAR vg         -2.09          
 ICCAP_VAR vb         3.6            
 ICCAP_VAR vs         -0             

 #vd                    id                    ig                    ib                    is                   
  -0                    4.0206e-10            0                     4e-14                 -4.0066e-10          
  -0.1                  -5.128e-07            -1.2e-13              -2e-14                5.1304e-07           
  -0.2                  -7.3768e-07           -1.2e-13              2e-14                 7.3814e-07           
  -0.3                  -7.8722e-07           4e-14                 1e-13                 7.8754e-07           
  -0.4                  -7.9196e-07           -1.2e-13              0                     7.9218e-07           
  -0.5                  -7.928e-07            -2e-14                -4e-14                7.9308e-07           
  -0.6                  -7.932e-07            1.8e-13               1.6e-13               7.9356e-07           
  -0.7                  -7.9356e-07           -1.8e-13              8e-14                 7.939e-07            
  -0.8                  -7.9378e-07           -2.8e-13              1e-13                 7.9406e-07           
  -0.9                  -7.9412e-07           -4e-14                4e-14                 7.943e-07            
  -1                    -7.9432e-07           -2e-13                0                     7.9462e-07           
  -1.1                  -7.9462e-07           -8e-14                1.8e-13               7.9484e-07           
  -1.2                  -7.9474e-07           2e-14                 4e-14                 7.9506e-07           
  -1.3                  -7.9488e-07           -1e-13                1e-13                 7.9524e-07           
  -1.4                  -7.9506e-07           4e-14                 1.2e-13               7.9538e-07           
  -1.5                  -7.9518e-07           -2e-14                1.4e-13               7.9544e-07           
  -1.6                  -7.953e-07            -1.2e-13              1.4e-13               7.9562e-07           
  -1.7                  -7.9552e-07           8e-14                 2.6e-13               7.9578e-07           
  -1.8                  -7.956e-07            1.6e-13               1.6e-13               7.9594e-07           
  -1.9                  -7.9578e-07           2e-14                 8e-14                 7.9594e-07           
  -2                    -7.9588e-07           -6e-14                8e-14                 7.9618e-07           
  -2.1                  -7.9606e-07           0                     1.2e-13               7.9634e-07           
  -2.2                  -7.9622e-07           -6e-14                1.4e-13               7.965e-07            
  -2.3                  -7.9628e-07           1.2e-13               3e-13                 7.9648e-07           
  -2.4                  -7.9638e-07           -8e-14                4.6e-13               7.9666e-07           
  -2.5                  -7.964e-07            -1.2e-13              8e-13                 7.9668e-07           
  -2.6                  -7.966e-07            2e-14                 1.42e-12              7.9686e-07           
  -2.7                  -7.967e-07            -6e-14                2.54e-12              7.9696e-07           
  -2.8                  -7.9688e-07           0                     5.02e-12              7.972e-07            
  -2.9                  -7.9708e-07           -2e-14                9.78e-12              7.9728e-07           
  -3                    -7.9718e-07           6e-14                 1.834e-11             7.9728e-07           
  -3.1                  -7.971e-07            1.4e-13               3.358e-11             7.9746e-07           
  -3.2                  -7.9734e-07           1.8e-13               5.976e-11             7.975e-07            
  -3.3                  -7.9742e-07           -2e-14                1.0396e-10            7.9768e-07           
  -3.4                  -7.9758e-07           0                     1.7646e-10            7.9766e-07           
  -3.5                  -7.978e-07            4e-14                 2.9376e-10            7.9778e-07           
  -3.6                  -7.9794e-07           0                     4.7922e-10            7.9786e-07           
END_DB

