! VERSION = 6.00
BEGIN_HEADER
 ICCAP_INPUTS
  vd         V  D GROUND SMU1 0.1 LIN        1    -0         -3.6       37   -0.1      
  vg         V  G GROUND SMU2 0.001 LIN        2    -1.464     -3.6       5    -0.534    
  vb         V  B GROUND SMU4 0.1 CON        3.6
  vs         V  S GROUND SMU3 0.1 CON        -0
 ICCAP_OUTPUTS
  id         I  D GROUND SMU1 B
  ig         I  G GROUND SMU2 B
  ib         I  B GROUND SMU4 B
  is         I  S GROUND SMU3 B
 ICCAP_VALUES
  MASTER_SETUP_TYPE "~dc_idvd~"
  LINVT_VALUE "|idvg|100.0n|100.0m|1.000m|5|3.600|"
  LISTVT_VALUE ""
  TYPE "-1"
  TEMP " 27.0000 "
  IS_TNOM " 1.00000 "
  MAIN.W "300.0n"
  MAIN.L "300.0n"
  MAIN.AD "102.0f"
  MAIN.AS "102.0f"
  MAIN.PD "1.280u"
  MAIN.PS "1.280u"
  MAIN.NF "1.000"
  MAIN.M "1"
  MAIN.NRD "0.000"
  MAIN.NRS "0.000"
  MAIN.LDRIFT1 "1E-06"
  MAIN.LDRIFT2 "1E-06"
  MAIN.SA "0.000"
  MAIN.SB "0.000"
  MAIN.SD "0.000"
  MAIN.SCA "0.000"
  MAIN.SCB "0.000"
  MAIN.SCC "0.000"
  MAIN.SC "0.000"
  MODULE "S565"
  PIN_D "20"
  PIN_G "1"
  PIN_S "2"
  PIN_B "19"
  PIN_E ""
  PIN_6 ""
  XY_ID ""
  FUNC "Additional"
  STI "SA ref"
  WPE "WPE ref"
  COMMENT ""
  DIS_MEAS ""
  TypeTCI "10"
END_HEADER

BEGIN_DB
 ICCAP_VAR vg         -1.464         
 ICCAP_VAR vb         3.6            
 ICCAP_VAR vs         -0             

 #vd                    id                    ig                    ib                    is                   
  -0                    9.344e-11             -4.8e-13              1.62e-12              -1.2252e-10          
  -0.1                  -1.0554e-07           -2.8e-13              1.52e-12              1.0606e-07           
  -0.2                  -1.4258e-07           -3.6e-13              1.38e-12              1.4354e-07           
  -0.3                  -1.7102e-07           -3.4e-13              1.38e-12              1.7016e-07           
  -0.4                  -1.964e-07            -4.4e-13              1.28e-12              1.9814e-07           
  -0.5                  -2.204e-07            -3.4e-13              1.28e-12              2.2256e-07           
  -0.6                  -2.481e-07            -2.6e-13              1.22e-12              2.4794e-07           
  -0.7                  -2.7228e-07           -2e-13                1.08e-12              2.72e-07             
  -0.8                  -2.9906e-07           -2e-13                1.1e-12               2.9828e-07           
  -0.9                  -3.2612e-07           -2.2e-13              1.1e-12               3.2572e-07           
  -1                    -3.561e-07            -3.6e-13              1.16e-12              3.5446e-07           
  -1.1                  -3.8682e-07           -1e-13                7.8e-13               3.8646e-07           
  -1.2                  -4.1326e-07           -3.4e-13              8.4e-13               4.1746e-07           
  -1.3                  -4.4842e-07           -3e-13                7.6e-13               4.4602e-07           
  -1.4                  -4.775e-07            -1.8e-13              8.4e-13               4.794e-07            
  -1.5                  -5.1268e-07           -1.8e-13              7.6e-13               5.1588e-07           
  -1.6                  -5.488e-07            -3e-13                8e-13                 5.5294e-07           
  -1.7                  -5.8192e-07           -2.4e-13              7.8e-13               5.8646e-07           
  -1.8                  -6.2036e-07           -1.8e-13              8.6e-13               6.2468e-07           
  -1.9                  -6.619e-07            -1.6e-13              1.02e-12              6.6624e-07           
  -2                    -7.0476e-07           -2.6e-13              1.02e-12              7.0524e-07           
  -2.1                  -7.4398e-07           -1.8e-13              1.62e-12              7.451e-07            
  -2.2                  -7.8768e-07           -1.6e-13              2.78e-12              7.886e-07            
  -2.3                  -8.3602e-07           -2.2e-13              4.94e-12              8.3222e-07           
  -2.4                  -8.8062e-07           -1.6e-13              9.46e-12              8.8148e-07           
  -2.5                  -9.3466e-07           -2.2e-13              1.76e-11              9.349e-07            
  -2.6                  -9.8066e-07           -2.4e-13              3.318e-11             9.7876e-07           
  -2.7                  -1.03926e-06          -1.6e-13              6.034e-11             1.03368e-06          
  -2.8                  -1.08496e-06          -2.6e-13              1.0716e-10            1.0909e-06           
  -2.9                  -1.1395e-06           -1.8e-13              1.8718e-10            1.1396e-06           
  -3                    -1.1942e-06           -1e-13                3.1976e-10            1.2028e-06           
  -3.1                  -1.2578e-06           -3e-13                5.3616e-10            1.2592e-06           
  -3.2                  -1.3178e-06           -2e-13                8.8238e-10            1.3196e-06           
  -3.3                  -1.3822e-06           -1.2e-13              1.4292e-09            1.3866e-06           
  -3.4                  -1.445e-06            -1.2e-13              2.2572e-09            1.4446e-06           
  -3.5                  -1.5146e-06           -2.2e-13              3.5196e-09            1.5126e-06           
  -3.6                  -1.585e-06            -1.2e-13              5.4162e-09            1.5834e-06           
END_DB

BEGIN_DB
 ICCAP_VAR vg         -1.998         
 ICCAP_VAR vb         3.6            
 ICCAP_VAR vs         -0             

 #vd                    id                    ig                    ib                    is                   
  -0                    1.4842e-09            -2.2e-13              3.2e-13               -1.272e-09           
  -0.1                  -2.4612e-06           -1.8e-13              2.4e-13               2.4654e-06           
  -0.2                  -4.4004e-06           -1.4e-13              2.8e-13               4.4042e-06           
  -0.3                  -5.8462e-06           -3e-13                4e-13                 5.847e-06            
  -0.4                  -6.8764e-06           -2.2e-13              2.8e-13               6.8876e-06           
  -0.5                  -7.6388e-06           -2e-13                3e-13                 7.6594e-06           
  -0.6                  -8.218e-06            -2.2e-13              3.6e-13               8.2302e-06           
  -0.7                  -8.6928e-06           -2e-13                3.4e-13               8.6684e-06           
  -0.8                  -9.0528e-06           -1e-13                3.2e-13               9.0368e-06           
  -0.9                  -9.3842e-06           -2.6e-13              3.4e-13               9.363e-06            
  -1                    -9.6724e-06           -3.2e-13              3.2e-13               9.6962e-06           
  -1.1                  -9.9666e-06           -1.8e-13              3.6e-13               9.978e-06            
  -1.2                  -1.02462e-05          -2e-13                3.2e-13               1.02366e-05          
  -1.3                  -1.04906e-05          -1.6e-13              2.6e-13               1.04954e-05          
  -1.4                  -1.0736e-05           -2.4e-13              2.8e-13               1.07356e-05          
  -1.5                  -1.0984e-05           -1.6e-13              3.8e-13               1.09922e-05          
  -1.6                  -1.1224e-05           -1.6e-13              3.6e-13               1.12282e-05          
  -1.7                  -1.1456e-05           -2.4e-13              3.4e-13               1.1464e-05           
  -1.8                  -1.1686e-05           -2.4e-13              3.4e-13               1.1716e-05           
  -1.9                  -1.1932e-05           -1.8e-13              3.8e-13               1.1934e-05           
  -2                    -1.2146e-05           -2e-13                7e-13                 1.2162e-05           
  -2.1                  -1.236e-05            -1.2e-13              1.56e-12              1.2404e-05           
  -2.2                  -1.2606e-05           -2.2e-13              3.44e-12              1.2618e-05           
  -2.3                  -1.2834e-05           -1.6e-13              7.68e-12              1.2856e-05           
  -2.4                  -1.3048e-05           -2.2e-13              1.654e-11             1.307e-05            
  -2.5                  -1.327e-05            -2.4e-13              3.384e-11             1.3288e-05           
  -2.6                  -1.3504e-05           -2.4e-13              6.708e-11             1.3518e-05           
  -2.7                  -1.372e-05            -2.6e-13              1.2748e-10            1.3698e-05           
  -2.8                  -1.3888e-05           -2e-13                2.3622e-10            1.391e-05            
  -2.9                  -1.4098e-05           -2e-13                4.258e-10             1.412e-05            
  -3                    -1.4328e-05           -1.6e-13              7.4498e-10            1.434e-05            
  -3.1                  -1.4538e-05           -8e-14                1.276e-09             1.4564e-05           
  -3.2                  -1.4754e-05           -1.8e-13              2.1362e-09            1.4766e-05           
  -3.3                  -1.4982e-05           -1e-13                3.528e-09             1.5e-05              
  -3.4                  -1.519e-05            -1.8e-13              5.6872e-09            1.5218e-05           
  -3.5                  -1.542e-05            -2e-13                9.027e-09             1.5442e-05           
  -3.6                  -1.5624e-05           -8e-14                1.394e-08             1.5618e-05           
END_DB

BEGIN_DB
 ICCAP_VAR vg         -2.532         
 ICCAP_VAR vb         3.6            
 ICCAP_VAR vs         -0             

 #vd                    id                    ig                    ib                    is                   
  -0                    2.2774e-09            -2.4e-13              1.2e-13               -2.1006e-09          
  -0.1                  -4.6424e-06           -1.2e-13              2.8e-13               4.6486e-06           
  -0.2                  -8.8394e-06           -2.6e-13              2.2e-13               8.8548e-06           
  -0.3                  -1.2506e-05           -2.6e-13              1.6e-13               1.2534e-05           
  -0.4                  -1.5666e-05           -2e-13                1.6e-13               1.5686e-05           
  -0.5                  -1.832e-05            -1.8e-13              2.4e-13               1.8338e-05           
  -0.6                  -2.0474e-05           -2.4e-13              2.2e-13               2.0534e-05           
  -0.7                  -2.231e-05            -2.6e-13              3e-13                 2.2324e-05           
  -0.8                  -2.3762e-05           -2e-13                2.4e-13               2.3788e-05           
  -0.9                  -2.4962e-05           -1.4e-13              1.6e-13               2.4986e-05           
  -1                    -2.5958e-05           -2.2e-13              1e-13                 2.5978e-05           
  -1.1                  -2.6836e-05           -1.4e-13              2.6e-13               2.6886e-05           
  -1.2                  -2.7552e-05           -2.4e-13              2.2e-13               2.7594e-05           
  -1.3                  -2.8216e-05           -1.6e-13              1.4e-13               2.8232e-05           
  -1.4                  -2.8774e-05           -2.2e-13              0                     2.8836e-05           
  -1.5                  -2.9336e-05           -2e-13                1.6e-13               2.9382e-05           
  -1.6                  -2.986e-05            -1.6e-13              2.2e-13               2.9876e-05           
  -1.7                  -3.0336e-05           -1.8e-13              2e-13                 3.0356e-05           
  -1.8                  -3.0812e-05           -2.2e-13              2.8e-13               3.0814e-05           
  -1.9                  -3.1254e-05           -2.4e-13              2e-13                 3.127e-05            
  -2                    -3.167e-05            -2e-13                2e-13                 3.1686e-05           
  -2.1                  -3.2044e-05           -1.8e-13              3.4e-13               3.2088e-05           
  -2.2                  -3.2456e-05           -2.6e-13              1.04e-12              3.251e-05            
  -2.3                  -3.2856e-05           -2.6e-13              2.58e-12              3.2908e-05           
  -2.4                  -3.3254e-05           -2.4e-13              5.98e-12              3.3294e-05           
  -2.5                  -3.3628e-05           -2.2e-13              1.326e-11             3.3636e-05           
  -2.6                  -3.3992e-05           -2.8e-13              2.842e-11             3.4034e-05           
  -2.7                  -3.4356e-05           -1.8e-13              5.742e-11             3.4422e-05           
  -2.8                  -3.4634e-05           -2.6e-13              1.1262e-10            3.4692e-05           
  -2.9                  -3.5096e-05           -1.8e-13              2.1284e-10            3.5158e-05           
  -3                    -3.5536e-05           -2.2e-13              3.9216e-10            3.5556e-05           
  -3.1                  -3.5788e-05           -2.4e-13              7.0254e-10            3.5812e-05           
  -3.2                  -3.6132e-05           -1e-13                1.2162e-09            3.6226e-05           
  -3.3                  -3.6534e-05           -2.2e-13              2.0766e-09            3.6554e-05           
  -3.4                  -3.6868e-05           -2.4e-13              3.4658e-09            3.6886e-05           
  -3.5                  -3.72e-05             -1.2e-13              5.7244e-09            3.7116e-05           
  -3.6                  -3.7474e-05           -2.4e-13              9.301e-09             3.753e-05            
END_DB

BEGIN_DB
 ICCAP_VAR vg         -3.066         
 ICCAP_VAR vb         3.6            
 ICCAP_VAR vs         -0             

 #vd                    id                    ig                    ib                    is                   
  -0                    2.6196e-09            -3e-13                2e-14                 -2.7154e-09          
  -0.1                  -6.3636e-06           -2.4e-13              2e-14                 6.3654e-06           
  -0.2                  -1.2334e-05           -2.2e-13              1e-13                 1.2354e-05           
  -0.3                  -1.7854e-05           -2.4e-13              2.4e-13               1.7872e-05           
  -0.4                  -2.2868e-05           -1.8e-13              1e-13                 2.2886e-05           
  -0.5                  -2.7392e-05           -2.4e-13              1.6e-13               2.7402e-05           
  -0.6                  -3.1396e-05           -2.4e-13              2.2e-13               3.1416e-05           
  -0.7                  -3.4894e-05           -3.6e-13              1.8e-13               3.4912e-05           
  -0.8                  -3.7944e-05           -1.2e-13              6e-14                 3.7966e-05           
  -0.9                  -4.0578e-05           -2.4e-13              6e-14                 4.06e-05             
  -1                    -4.2844e-05           -2.4e-13              1.6e-13               4.2848e-05           
  -1.1                  -4.4772e-05           -2.4e-13              6e-14                 4.4794e-05           
  -1.2                  -4.6452e-05           -2.6e-13              1e-13                 4.6472e-05           
  -1.3                  -4.7918e-05           -2.4e-13              1.4e-13               4.7934e-05           
  -1.4                  -4.9168e-05           -2e-13                1.8e-13               4.9184e-05           
  -1.5                  -5.0276e-05           -1.8e-13              1.6e-13               5.0316e-05           
  -1.6                  -5.1278e-05           -2.2e-13              8e-14                 5.1306e-05           
  -1.7                  -5.2198e-05           -2.6e-13              1.8e-13               5.2234e-05           
  -1.8                  -5.3006e-05           -2.6e-13              2e-13                 5.3026e-05           
  -1.9                  -5.3784e-05           -3e-13                6e-14                 5.3782e-05           
  -2                    -5.448e-05            -1.6e-13              8e-14                 5.451e-05            
  -2.1                  -5.5142e-05           -2.8e-13              1.6e-13               5.5162e-05           
  -2.2                  -5.5764e-05           -2.6e-13              2.4e-13               5.5786e-05           
  -2.3                  -5.637e-05            -1.8e-13              6e-13                 5.6382e-05           
  -2.4                  -5.6936e-05           -3e-13                1.58e-12              5.696e-05            
  -2.5                  -5.7482e-05           -2.4e-13              3.68e-12              5.7506e-05           
  -2.6                  -5.8016e-05           -2.4e-13              8.34e-12              5.8046e-05           
  -2.7                  -5.8556e-05           -2e-13                1.878e-11             5.8556e-05           
  -2.8                  -5.9188e-05           -2.6e-13              3.994e-11             5.9078e-05           
  -2.9                  -5.9592e-05           -2.6e-13              8.214e-11             5.955e-05            
  -3                    -6.0018e-05           -2.6e-13              1.5882e-10            6.0024e-05           
  -3.1                  -6.0358e-05           -2.8e-13              2.9326e-10            6.0476e-05           
  -3.2                  -6.0818e-05           -2.4e-13              5.3084e-10            6.0802e-05           
  -3.3                  -6.119e-05            -2.6e-13              9.3152e-10            6.126e-05            
  -3.4                  -6.1532e-05           -1.2e-13              1.623e-09             6.1688e-05           
  -3.5                  -6.2176e-05           -1e-13                2.7266e-09            6.22e-05             
  -3.6                  -6.257e-05            -2.8e-13              4.5338e-09            6.2516e-05           
END_DB

BEGIN_DB
 ICCAP_VAR vg         -3.6           
 ICCAP_VAR vb         3.6            
 ICCAP_VAR vs         -0             

 #vd                    id                    ig                    ib                    is                   
  -0                    2.926e-09             -1.4e-13              -2e-14                -3.1406e-09          
  -0.1                  -7.7548e-06           -2.6e-13              1e-13                 7.7594e-06           
  -0.2                  -1.5166e-05           -2e-13                1.4e-13               1.519e-05            
  -0.3                  -2.2162e-05           -3e-13                1.6e-13               2.2196e-05           
  -0.4                  -2.87e-05             -2.8e-13              1e-13                 2.8718e-05           
  -0.5                  -3.4744e-05           -3.2e-13              4e-14                 3.4758e-05           
  -0.6                  -4.0282e-05           -8e-14                1e-13                 4.0294e-05           
  -0.7                  -4.5304e-05           -2.2e-13              1.2e-13               4.532e-05            
  -0.8                  -4.9854e-05           -3.2e-13              1.4e-13               4.9872e-05           
