! VERSION = 6.00
BEGIN_HEADER
 ICCAP_INPUTS
  vd         V  D GROUND SMU1 0.1 LIN        1    -0         -3.6       37   -0.1      
  vg         V  G GROUND SMU2 0.001 LIST       2 3 -1.625 -1.825 -2.025
  vb         V  B GROUND SMU4 0.1 CON        3.6
  vs         V  S GROUND SMU3 0.1 CON        -0
 ICCAP_OUTPUTS
  id         I  D GROUND SMU1 B
  ig         I  G GROUND SMU2 B
  ib         I  B GROUND SMU4 B
  is         I  S GROUND SMU3 B
 ICCAP_VALUES
  MASTER_SETUP_TYPE "~dc_idvd~"
  LINVT_VALUE ""
  LISTVT_VALUE "|idvg|100.0n|-200.0m|1.000m|3|200.0m|200.0m|"
  TYPE "-1"
  TEMP " 125.000 "
  IS_TNOM " 0.00000 "
  MAIN.W "10.00u"
  MAIN.L "10.00u"
  MAIN.AD "3.400p"
  MAIN.AS "3.400p"
  MAIN.PD "20.68u"
  MAIN.PS "20.68u"
  MAIN.NF "1.000"
  MAIN.M "1"
  MAIN.NRD "0.000"
  MAIN.NRS "0.000"
  MAIN.LDRIFT1 "1E-06"
  MAIN.LDRIFT2 "1E-06"
  MAIN.SA "0.000"
  MAIN.SB "0.000"
  MAIN.SD "0.000"
  MAIN.SCA "0.000"
  MAIN.SCB "0.000"
  MAIN.SCC "0.000"
  MAIN.SC "0.000"
  MODULE "S562"
  PIN_D "16"
  PIN_G "5"
  PIN_S "6"
  PIN_B "15"
  PIN_E ""
  PIN_6 ""
  XY_ID ""
  FUNC "Large"
  STI "SA ref"
  WPE "WPE ref"
  COMMENT ""
  DIS_MEAS ""
  TypeTCI "10"
END_HEADER

BEGIN_DB
 ICCAP_VAR vg         -1.625         
 ICCAP_VAR vb         3.6            
 ICCAP_VAR vs         -0             

 #vd                    id                    ig                    ib                    is                   
  -0                    -8.98e-12             -5.42e-12             4.063e-09             -1.168e-11           
  -0.1                  -2.8436e-09           -5.04e-12             3.9512e-09            2.826e-09            
  -0.2                  -3.0086e-09           -4.96e-12             3.8832e-09            2.9912e-09           
  -0.3                  -3.0184e-09           -4.76e-12             3.806e-09             3.0004e-09           
  -0.4                  -3.0198e-09           -4.76e-12             3.641e-09             3.0022e-09           
  -0.5                  -3.0198e-09           -2.58e-12             2.4536e-10            3.007e-09            
  -0.6                  -3.0146e-09           -2.6e-13              1.2038e-10            3.009e-09            
  -0.7                  -3.0154e-09           -1.8e-13              1.005e-10             3.0102e-09           
  -0.8                  -3.0164e-09           -1.4e-13              8.786e-11             3.0108e-09           
  -0.9                  -3.0168e-09           -2.2e-13              7.946e-11             3.0114e-09           
  -1                    -3.0176e-09           -4e-14                7.242e-11             3.0126e-09           
  -1.1                  -3.0184e-09           -6e-14                6.688e-11             3.0128e-09           
  -1.2                  -3.0188e-09           -2e-13                6.224e-11             3.0132e-09           
  -1.3                  -3.0194e-09           -8e-14                5.848e-11             3.0138e-09           
  -1.4                  -3.0202e-09           -4e-14                5.528e-11             3.0142e-09           
  -1.5                  -3.021e-09            0                     5.28e-11              3.0146e-09           
  -1.6                  -3.0206e-09           -1e-13                4.986e-11             3.0144e-09           
  -1.7                  -3.0212e-09           -6e-14                4.858e-11             3.015e-09            
  -1.8                  -3.0222e-09           0                     4.636e-11             3.0154e-09           
  -1.9                  -3.0222e-09           -1.2e-13              4.458e-11             3.0158e-09           
  -2                    -3.0222e-09           -2e-14                4.336e-11             3.0158e-09           
  -2.1                  -3.0232e-09           -2e-14                4.196e-11             3.0164e-09           
  -2.2                  -3.0238e-09           -6e-14                4.088e-11             3.0166e-09           
  -2.3                  -3.0246e-09           -4e-14                4.034e-11             3.017e-09            
  -2.4                  -3.0248e-09           -2e-14                3.966e-11             3.0172e-09           
  -2.5                  -3.026e-09            -4e-14                3.878e-11             3.0178e-09           
  -2.6                  -3.0274e-09           -1.8e-13              3.87e-11              3.018e-09            
  -2.7                  -3.0278e-09           -8e-14                3.872e-11             3.0192e-09           
  -2.8                  -3.029e-09            0                     3.834e-11             3.0184e-09           
  -2.9                  -3.0294e-09           -1e-13                3.824e-11             3.0188e-09           
  -3                    -3.031e-09            -8e-14                3.826e-11             3.0194e-09           
  -3.1                  -3.0322e-09           -4e-14                3.89e-11              3.0192e-09           
  -3.2                  -3.0334e-09           -1.2e-13              3.958e-11             3.0196e-09           
  -3.3                  -3.0358e-09           -6e-14                4.098e-11             3.0198e-09           
  -3.4                  -3.0378e-09           -4e-14                4.246e-11             3.0204e-09           
  -3.5                  -3.041e-09            -6e-14                4.492e-11             3.0206e-09           
  -3.6                  -3.0454e-09           -8e-14                4.81e-11              3.0206e-09           
END_DB

BEGIN_DB
 ICCAP_VAR vg         -1.825         
 ICCAP_VAR vb         3.6            
 ICCAP_VAR vs         -0             

 #vd                    id                    ig                    ib                    is                   
  -0                    5.36e-11              -3.6e-13              2.548e-11             -5.708e-11           
  -0.1                  -9.0612e-08           -3.8e-13              2.436e-11             9.0632e-08           
  -0.2                  -1.0422e-07           -2.6e-13              2.598e-11             1.0428e-07           
  -0.3                  -1.0524e-07           -3e-13                2.628e-11             1.05296e-07          
  -0.4                  -1.0534e-07           -3.6e-13              2.698e-11             1.05386e-07          
  -0.5                  -1.0538e-07           -2.8e-13              2.664e-11             1.05436e-07          
  -0.6                  -1.0538e-07           -2.6e-13              2.642e-11             1.05442e-07          
  -0.7                  -1.0542e-07           -2.4e-13              2.696e-11             1.05466e-07          
  -0.8                  -1.0544e-07           -2.2e-13              2.652e-11             1.05496e-07          
  -0.9                  -1.0546e-07           -2.2e-13              2.648e-11             1.0551e-07           
  -1                    -1.0546e-07           -1.8e-13              2.654e-11             1.05526e-07          
  -1.1                  -1.055e-07            -4.2e-13              2.618e-11             1.0553e-07           
  -1.2                  -1.055e-07            -2.8e-13              2.658e-11             1.0554e-07           
  -1.3                  -1.055e-07            -2.6e-13              2.642e-11             1.05556e-07          
  -1.4                  -1.0552e-07           -1.6e-13              2.638e-11             1.05566e-07          
  -1.5                  -1.0554e-07           -2.4e-13              2.646e-11             1.05584e-07          
  -1.6                  -1.0554e-07           -2.4e-13              2.632e-11             1.05598e-07          
  -1.7                  -1.0556e-07           -1.4e-13              2.668e-11             1.05604e-07          
  -1.8                  -1.0556e-07           -2e-13                2.626e-11             1.05612e-07          
  -1.9                  -1.0558e-07           -3.2e-13              2.604e-11             1.05634e-07          
  -2                    -1.056e-07            -2.6e-13              2.67e-11              1.05648e-07          
  -2.1                  -1.056e-07            -2.4e-13              2.652e-11             1.05644e-07          
  -2.2                  -1.0562e-07           -1.6e-13              2.658e-11             1.0566e-07           
  -2.3                  -1.0562e-07           -1.8e-13              2.644e-11             1.05666e-07          
  -2.4                  -1.0564e-07           -1.2e-13              2.682e-11             1.05678e-07          
  -2.5                  -1.0564e-07           -2e-13                2.736e-11             1.05688e-07          
  -2.6                  -1.0564e-07           -2e-13                2.794e-11             1.05692e-07          
  -2.7                  -1.0566e-07           -3e-13                2.864e-11             1.05706e-07          
  -2.8                  -1.0566e-07           -3e-13                3.086e-11             1.05704e-07          
  -2.9                  -1.0568e-07           -3e-13                3.286e-11             1.05714e-07          
  -3                    -1.0568e-07           -2.8e-13              3.656e-11             1.05718e-07          
  -3.1                  -1.0568e-07           -1.8e-13              4.224e-11             1.05718e-07          
  -3.2                  -1.0572e-07           -2e-13                5.122e-11             1.05736e-07          
  -3.3                  -1.0574e-07           -1e-13                6.512e-11             1.0574e-07           
  -3.4                  -1.0576e-07           -2e-13                8.496e-11             1.05752e-07          
  -3.5                  -1.058e-07            -1.8e-13              1.1504e-10            1.0577e-07           
  -3.6                  -1.0586e-07           -1e-13                1.606e-10             1.05758e-07          
END_DB

BEGIN_DB
 ICCAP_VAR vg         -2.025         
 ICCAP_VAR vb         3.6            
 ICCAP_VAR vs         -0             

 #vd                    id                    ig                    ib                    is                   
  -0                    1.4554e-10            -4.8e-13              2.062e-11             -1.5308e-10          
  -0.1                  -4.0252e-07           -4.2e-13              1.986e-11             4.0262e-07           
  -0.2                  -5.9024e-07           -3.4e-13              2.254e-11             5.9042e-07           
  -0.3                  -6.399e-07            -2.8e-13              2.304e-11             6.4004e-07           
  -0.4                  -6.4602e-07           -3.4e-13              2.34e-11              6.4612e-07           
  -0.5                  -6.4674e-07           -3.6e-13              2.274e-11             6.4688e-07           
  -0.6                  -6.47e-07             -4.2e-13              2.284e-11             6.4712e-07           
  -0.7                  -6.4716e-07           -4.2e-13              2.306e-11             6.473e-07            
  -0.8                  -6.4732e-07           -4e-13                2.32e-11              6.4744e-07           
  -0.9                  -6.4746e-07           -3.4e-13              2.358e-11             6.4756e-07           
  -1                    -6.4756e-07           -3.4e-13              2.302e-11             6.477e-07            
  -1.1                  -6.4766e-07           -2.8e-13              2.306e-11             6.4776e-07           
  -1.2                  -6.477e-07            -3.4e-13              2.316e-11             6.4782e-07           
  -1.3                  -6.4778e-07           -3.4e-13              2.33e-11              6.4794e-07           
  -1.4                  -6.4788e-07           -3e-13                2.342e-11             6.4802e-07           
  -1.5                  -6.4796e-07           -4.8e-13              2.368e-11             6.4808e-07           
  -1.6                  -6.4798e-07           -2.8e-13              2.344e-11             6.4814e-07           
  -1.7                  -6.4806e-07           -2.8e-13              2.328e-11             6.4818e-07           
  -1.8                  -6.4818e-07           -2.8e-13              2.32e-11              6.4826e-07           
  -1.9                  -6.4822e-07           -2.4e-13              2.332e-11             6.4836e-07           
  -2                    -6.4828e-07           -4e-13                2.308e-11             6.4834e-07           
  -2.1                  -6.4832e-07           -3.2e-13              2.366e-11             6.4844e-07           
  -2.2                  -6.4838e-07           -2.6e-13              2.414e-11             6.4844e-07           
  -2.3                  -6.484e-07            -4.2e-13              2.388e-11             6.4858e-07           
  -2.4                  -6.4848e-07           -2.8e-13              2.432e-11             6.4858e-07           
  -2.5                  -6.4852e-07           -3.2e-13              2.444e-11             6.4864e-07           
  -2.6                  -6.4856e-07           -2.2e-13              2.552e-11             6.4866e-07           
  -2.7                  -6.4866e-07           -2.2e-13              2.728e-11             6.4878e-07           
  -2.8                  -6.4878e-07           -2.8e-13              3.048e-11             6.4884e-07           
  -2.9                  -6.488e-07            -3.4e-13              3.58e-11              6.4888e-07           
  -3                    -6.4884e-07           -2.2e-13              4.484e-11             6.4896e-07           
  -3.1                  -6.4894e-07           -2.4e-13              5.892e-11             6.49e-07             
  -3.2                  -6.4898e-07           -1e-13                8.204e-11             6.4902e-07           
  -3.3                  -6.4908e-07           -1.8e-13              1.1998e-10            6.491e-07            
  -3.4                  -6.492e-07            -2e-13                1.783e-10             6.4914e-07           
  -3.5                  -6.4942e-07           -2.4e-13              2.6826e-10            6.492e-07            
  -3.6                  -6.4952e-07           -2.2e-13              4.0552e-10            6.4922e-07           
END_DB

