! VERSION = 6.00
BEGIN_HEADER
 ICCAP_INPUTS
  vd         V  D GROUND SMU1 0.1 LIN        1    -0         -3.6       37   -0.1      
  vg         V  G GROUND SMU2 0.001 LIN        2    -1.548     -3.6       5    -0.513    
  vb         V  B GROUND SMU4 0.1 CON        3.6
  vs         V  S GROUND SMU3 0.1 CON        -0
 ICCAP_OUTPUTS
  id         I  D GROUND SMU1 B
  ig         I  G GROUND SMU2 B
  ib         I  B GROUND SMU4 B
  is         I  S GROUND SMU3 B
 ICCAP_VALUES
  MASTER_SETUP_TYPE "~dc_idvd~"
  LINVT_VALUE "|idvg|100.0n|100.0m|1.000m|5|3.600|"
  LISTVT_VALUE ""
  TYPE "-1"
  TEMP " 27.0000 "
  IS_TNOM " 1.00000 "
  MAIN.W "150.0n"
  MAIN.L "330.0n"
  MAIN.AD "100.5f"
  MAIN.AS "100.5f"
  MAIN.PD "1.340u"
  MAIN.PS "1.340u"
  MAIN.NF "1.000"
  MAIN.M "1"
  MAIN.NRD "0.000"
  MAIN.NRS "0.000"
  MAIN.LDRIFT1 "1E-06"
  MAIN.LDRIFT2 "1E-06"
  MAIN.SA "0.000"
  MAIN.SB "0.000"
  MAIN.SD "0.000"
  MAIN.SCA "0.000"
  MAIN.SCB "0.000"
  MAIN.SCC "0.000"
  MAIN.SC "0.000"
  MODULE "S555"
  PIN_D "12"
  PIN_G "9"
  PIN_S "10"
  PIN_B "11"
  PIN_E ""
  PIN_6 ""
  XY_ID ""
  FUNC "Additional"
  STI "SA ref"
  WPE "WPE ref"
  COMMENT ""
  DIS_MEAS ""
  TypeTCI "10"
END_HEADER

BEGIN_DB
 ICCAP_VAR vg         -1.548         
 ICCAP_VAR vb         3.6            
 ICCAP_VAR vs         -0             

 #vd                    id                    ig                    ib                    is                   
  -0                    4.372e-11             -6e-13                1.3e-12               -6.304e-11           
  -0.1                  -5.486e-08            -4.4e-13              1.12e-12              5.488e-08            
  -0.2                  -7.251e-08            -4.4e-13              1.16e-12              7.253e-08            
  -0.3                  -8.5636e-08           -3.6e-13              1.08e-12              8.563e-08            
  -0.4                  -9.8244e-08           -3e-13                9.8e-13               9.8238e-08           
  -0.5                  -1.1098e-07           -2.6e-13              8.2e-13               1.10994e-07          
  -0.6                  -1.2408e-07           -3.8e-13              8.4e-13               1.2436e-07           
  -0.7                  -1.3812e-07           -2.8e-13              8.2e-13               1.3828e-07           
  -0.8                  -1.5272e-07           -2e-13                8e-13                 1.529e-07            
  -0.9                  -1.6802e-07           -1.6e-13              8e-13                 1.6814e-07           
  -1                    -1.8402e-07           -2.6e-13              6.6e-13               1.8436e-07           
  -1.1                  -2.011e-07            -1.8e-13              7.2e-13               2.012e-07            
  -1.2                  -2.1878e-07           -6e-14                6.8e-13               2.1892e-07           
  -1.3                  -2.3688e-07           -1.8e-13              7.6e-13               2.3728e-07           
  -1.4                  -2.5604e-07           -2.8e-13              8e-13                 2.5606e-07           
  -1.5                  -2.756e-07            -1.6e-13              8.4e-13               2.7596e-07           
  -1.6                  -3.0338e-07           -1.6e-13              7.6e-13               3.0378e-07           
  -1.7                  -3.2486e-07           -2.8e-13              6.8e-13               3.2516e-07           
  -1.8                  -3.4662e-07           -1.2e-13              5.8e-13               3.47e-07             
  -1.9                  -3.6938e-07           -3.2e-13              7.4e-13               3.6968e-07           
  -2                    -3.9258e-07           -1.2e-13              6.6e-13               3.9326e-07           
  -2.1                  -4.1686e-07           -1.8e-13              8.6e-13               4.1712e-07           
  -2.2                  -4.4148e-07           -2.2e-13              1.32e-12              4.4162e-07           
  -2.3                  -4.6654e-07           -1.8e-13              2.08e-12              4.6676e-07           
  -2.4                  -4.9234e-07           -8e-14                3.68e-12              4.927e-07            
  -2.5                  -5.187e-07            -2e-13                6.5e-12               5.191e-07            
  -2.6                  -5.4598e-07           -1e-13                1.182e-11             5.4596e-07           
  -2.7                  -5.7348e-07           -2.8e-13              2.118e-11             5.7384e-07           
  -2.8                  -6.021e-07            -1.6e-13              3.728e-11             6.0236e-07           
  -2.9                  -6.3126e-07           0                     6.48e-11              6.316e-07            
  -3                    -6.618e-07            -4e-14                1.1054e-10            6.6164e-07           
  -3.1                  -6.9266e-07           -1.4e-13              1.8462e-10            6.922e-07            
  -3.2                  -7.2406e-07           -4e-14                3.021e-10             7.2422e-07           
  -3.3                  -7.5662e-07           -1.4e-13              4.867e-10             7.5608e-07           
  -3.4                  -7.8856e-07           -1.4e-13              7.7188e-10            7.8788e-07           
  -3.5                  -8.2612e-07           1e-13                 1.2126e-09            8.24e-07             
  -3.6                  -8.5986e-07           -2e-13                1.8594e-09            8.5868e-07           
END_DB

BEGIN_DB
 ICCAP_VAR vg         -2.061         
 ICCAP_VAR vb         3.6            
 ICCAP_VAR vs         -0             

 #vd                    id                    ig                    ib                    is                   
  -0                    7.8566e-10            -2.8e-13              2.2e-13               -8.2072e-10          
  -0.1                  -1.2336e-06           -1.2e-13              3e-13                 1.2374e-06           
  -0.2                  -2.2006e-06           -2.4e-13              2.6e-13               2.2042e-06           
  -0.3                  -2.9182e-06           -1.6e-13              2.8e-13               2.922e-06            
  -0.4                  -3.4322e-06           -2.4e-13              3.4e-13               3.4358e-06           
  -0.5                  -3.8014e-06           -2.8e-13              4.4e-13               3.8032e-06           
  -0.6                  -4.0688e-06           -2.6e-13              3.2e-13               4.0728e-06           
  -0.7                  -4.2774e-06           -1.6e-13              3.8e-13               4.2814e-06           
  -0.8                  -4.4526e-06           -1.8e-13              1.8e-13               4.4562e-06           
  -0.9                  -4.6078e-06           -2e-13                2.4e-13               4.6118e-06           
  -1                    -4.7508e-06           -1e-13                3e-13                 4.7546e-06           
  -1.1                  -4.8864e-06           -1.2e-13              4e-13                 4.8894e-06           
  -1.2                  -5.0158e-06           -2.2e-13              3.8e-13               5.0194e-06           
  -1.3                  -5.1404e-06           -8e-14                3e-13                 5.145e-06            
  -1.4                  -5.2628e-06           -1.8e-13              2.6e-13               5.266e-06            
  -1.5                  -5.382e-06            -2.2e-13              2.6e-13               5.386e-06            
  -1.6                  -5.4994e-06           -1e-13                2.8e-13               5.5028e-06           
  -1.7                  -5.615e-06            -1.4e-13              3.6e-13               5.6194e-06           
  -1.8                  -5.7288e-06           -1.4e-13              3.6e-13               5.7312e-06           
  -1.9                  -5.8396e-06           -6e-14                3.4e-13               5.8422e-06           
  -2                    -5.9486e-06           -1.8e-13              3.8e-13               5.953e-06            
  -2.1                  -6.0572e-06           -1.2e-13              5e-13                 6.061e-06            
  -2.2                  -6.1656e-06           -1.2e-13              9.6e-13               6.1682e-06           
  -2.3                  -6.2722e-06           -4e-14                1.94e-12              6.2752e-06           
  -2.4                  -6.379e-06            -1.2e-13              4.08e-12              6.3818e-06           
  -2.5                  -6.4836e-06           -4e-14                8.42e-12              6.4876e-06           
  -2.6                  -6.5884e-06           -6e-14                1.678e-11             6.592e-06            
  -2.7                  -6.693e-06            -4e-14                3.248e-11             6.6972e-06           
  -2.8                  -6.7984e-06           -1.8e-13              6.122e-11             6.8018e-06           
  -2.9                  -6.9022e-06           -2e-13                1.1174e-10            6.9074e-06           
  -3                    -7.0076e-06           -6e-14                1.9794e-10            7.011e-06            
  -3.1                  -7.1122e-06           -4e-14                3.4354e-10            7.1148e-06           
  -3.2                  -7.2168e-06           -2e-13                5.8224e-10            7.22e-06             
  -3.3                  -7.3218e-06           -6e-14                9.6604e-10            7.3016e-06           
  -3.4                  -7.4318e-06           -1.2e-13              1.5804e-09            7.4322e-06           
  -3.5                  -7.537e-06            -2.2e-13              2.5314e-09            7.5426e-06           
  -3.6                  -7.6456e-06           -1.6e-13              3.9936e-09            7.6466e-06           
END_DB

BEGIN_DB
 ICCAP_VAR vg         -2.574         
 ICCAP_VAR vb         3.6            
 ICCAP_VAR vs         -0             

 #vd                    id                    ig                    ib                    is                   
  -0                    1.388e-09             -3e-13                8e-14                 -1.2124e-09          
  -0.1                  -2.3896e-06           -1.8e-13              4e-14                 2.3926e-06           
  -0.2                  -4.5322e-06           -3e-13                1.8e-13               4.5342e-06           
  -0.3                  -6.395e-06            -3e-13                1.6e-13               6.3938e-06           
  -0.4                  -7.9762e-06           -2.8e-13              1.6e-13               7.98e-06             
  -0.5                  -9.2928e-06           -3.8e-13              3.2e-13               9.2962e-06           
  -0.6                  -1.03694e-05          -2.2e-13              2.6e-13               1.03744e-05          
  -0.7                  -1.1242e-05           -1.6e-13              1.8e-13               1.12438e-05          
  -0.8                  -1.1942e-05           -2e-13                1.4e-13               1.1956e-05           
  -0.9                  -1.2502e-05           -2e-13                1e-13                 1.2526e-05           
  -1                    -1.2972e-05           -1.6e-13              2.6e-13               1.2992e-05           
  -1.1                  -1.3288e-05           -1.8e-13              2.6e-13               1.3308e-05           
  -1.2                  -1.3624e-05           -1.4e-13              2e-13                 1.3654e-05           
  -1.3                  -1.3922e-05           -8e-14                2.4e-13               1.3942e-05           
  -1.4                  -1.4196e-05           -1e-13                1.6e-13               1.4214e-05           
  -1.5                  -1.4446e-05           -2.2e-13              3.6e-13               1.4468e-05           
  -1.6                  -1.4682e-05           -1.8e-13              2.2e-13               1.4704e-05           
  -1.7                  -1.4908e-05           -8e-14                2.4e-13               1.493e-05            
  -1.8                  -1.5124e-05           -8e-14                1.6e-13               1.5142e-05           
  -1.9                  -1.5326e-05           -4e-14                2.6e-13               1.534e-05            
  -2                    -1.5524e-05           -2e-14                2.4e-13               1.5556e-05           
  -2.1                  -1.5728e-05           -1.2e-13              3.8e-13               1.575e-05            
  -2.2                  -1.5932e-05           -1.4e-13              3.4e-13               1.6008e-05           
  -2.3                  -1.617e-05            -1.4e-13              5.6e-13               1.6192e-05           
  -2.4                  -1.6352e-05           -8e-14                1.36e-12              1.6376e-05           
  -2.5                  -1.653e-05            -2e-13                3.12e-12              1.6552e-05           
  -2.6                  -1.6712e-05           -1.2e-13              6.4e-12               1.6728e-05           
  -2.7                  -1.688e-05            -1e-13                1.354e-11             1.6904e-05           
  -2.8                  -1.7058e-05           -1e-13                2.75e-11              1.708e-05            
  -2.9                  -1.7228e-05           -1.6e-13              5.348e-11             1.7246e-05           
  -3                    -1.7394e-05           -2.2e-13              1.007e-10             1.7412e-05           
  -3.1                  -1.7558e-05           -1.2e-13              1.8298e-10            1.7578e-05           
  -3.2                  -1.7726e-05           -2e-14                3.2446e-10            1.7742e-05           
  -3.3                  -1.7884e-05           -1.4e-13              5.7092e-10            1.7896e-05           
  -3.4                  -1.8038e-05           -2.4e-13              9.646e-10             1.8058e-05           
  -3.5                  -1.8214e-05           0                     1.5786e-09            1.8226e-05           
  -3.6                  -1.837e-05            6e-14                 2.5746e-09            1.839e-05            
END_DB

BEGIN_DB
 ICCAP_VAR vg         -3.087         
 ICCAP_VAR vb         3.6            
 ICCAP_VAR vs         -0             

 #vd                    id                    ig                    ib                    is                   
  -0                    1.8458e-09            -3.4e-13              1e-13                 -1.5444e-09          
  -0.1                  -3.3454e-06           -4.4e-13              6e-14                 3.3512e-06           
  -0.2                  -6.4686e-06           -4.2e-13              1e-13                 6.464e-06            
  -0.3                  -9.3168e-06           -2.6e-13              8e-14                 9.3214e-06           
  -0.4                  -1.1878e-05           -1e-13                1.2e-13               1.1898e-05           
  -0.5                  -1.4124e-05           -2.8e-13              1.4e-13               1.4178e-05           
  -0.6                  -1.6148e-05           -2.4e-13              1.4e-13               1.6174e-05           
  -0.7                  -1.7872e-05           -2.8e-13              1.6e-13               1.7894e-05           
  -0.8                  -1.9356e-05           -2.2e-13              1e-13                 1.936e-05            
  -0.9                  -2.0612e-05           -2.4e-13              1.2e-13               2.0644e-05           
  -1                    -2.1706e-05           -3.2e-13              2.4e-13               2.1714e-05           
  -1.1                  -2.2624e-05           -2.6e-13              1.4e-13               2.265e-05            
  -1.2                  -2.341e-05            -8e-14                1.8e-13               2.343e-05            
  -1.3                  -2.4068e-05           -2.8e-13              1.6e-13               2.4102e-05           
  -1.4                  -2.4648e-05           -2e-13                1.8e-13               2.4632e-05           
  -1.5                  -2.516e-05            -1.2e-13              1.8e-13               2.5182e-05           
  -1.6                  -2.5608e-05           -2.2e-13              2.4e-13               2.5582e-05           
  -1.7                  -2.6006e-05           -2e-13                2.6e-13               2.605e-05            
  -1.8                  -2.6386e-05           -2.6e-13              2.2e-13               2.645e-05            
  -1.9                  -2.6752e-05           -3e-13                2.2e-13               2.6792e-05           
  -2                    -2.6978e-05           -2.8e-13              2.2e-13               2.7036e-05           
  -2.1                  -2.735e-05            -3.2e-13              1.6e-13               2.7418e-05           
  -2.2                  -2.7706e-05           -2.2e-13              2.6e-13               2.7696e-05           
  -2.3                  -2.7986e-05           -3.4e-13              3.2e-13               2.8016e-05           
  -2.4                  -2.8262e-05           -8e-14                4.2e-13               2.8252e-05           
  -2.5                  -2.853e-05            -1.2e-13              8.6e-13               2.854e-05            
  -2.6                  -2.8788e-05           -1.8e-13              1.96e-12              2.8808e-05           
  -2.7                  -2.8994e-05           -1.8e-13              4.2e-12               2.9006e-05           
  -2.8                  -2.9234e-05           -4e-14                9.2e-12               2.9294e-05           
  -2.9                  -2.952e-05            -1e-13                1.948e-11             2.9604e-05           
  -3                    -2.9828e-05           -1e-13                3.952e-11             2.983e-05            
  -3.1                  -2.9996e-05           -8e-14                7.578e-11             3.0054e-05           
  -3.2                  -3.0258e-05           -1e-13                1.4008e-10            3.0254e-05           
  -3.3                  -3.0448e-05           -1.2e-13              2.564e-10             3.0404e-05           
  -3.4                  -3.0608e-05           -6e-14                4.455e-10             3.0634e-05           
  -3.5                  -3.0894e-05           -4e-14                7.5748e-10            3.0836e-05           
  -3.6                  -3.1128e-05           -1.6e-13              1.2664e-09            3.1108e-05           
END_DB

BEGIN_DB
 ICCAP_VAR vg         -3.6           
 ICCAP_VAR vb         3.6            
 ICCAP_VAR vs         -0             

 #vd                    id                    ig                    ib                    is                   
  -0                    2.11e-09              -3.6e-13              6e-14                 -1.8796e-09          
  -0.1                  -4.1338e-06           -3.4e-13              4e-14                 4.1394e-06           
  -0.2                  -8.0746e-06           -3.6e-13              6e-14                 8.0664e-06           
  -0.3                  -1.1746e-05           -2e-13                1.8e-13               1.1766e-05           
  -0.4                  -1.5142e-05           -3.6e-13              2e-14                 1.5162e-05           
  -0.5                  -1.8264e-05           -2.8e-13              1.4e-13               1.8264e-05           
  -0.6                  -2.1004e-05           -2.2e-13              1e-13                 2.1084e-05           
  -0.7                  -2.3578e-05           -3.6e-13              1.4e-13               2.3592e-05           
  -0.8                  -2.5826e-05           -2.6e-13              1e-13                 2.5876e-05           
