! VERSION = 6.00
BEGIN_HEADER
 ICCAP_INPUTS
  vd         V  D GROUND SMU1 0.1 LIN        1    -0         -3.6       37   -0.1      
  vg         V  G GROUND SMU2 0.001 LIN        2    -1.976     -3.6       5    -0.406    
  vb         V  B GROUND SMU4 0.1 CON        3.6
  vs         V  S GROUND SMU3 0.1 CON        -0
 ICCAP_OUTPUTS
  id         I  D GROUND SMU1 B
  ig         I  G GROUND SMU2 B
  ib         I  B GROUND SMU4 B
  is         I  S GROUND SMU3 B
 ICCAP_VALUES
  MASTER_SETUP_TYPE "~dc_idvd~"
  LINVT_VALUE "|idvg|100.0n|100.0m|1.000m|5|3.600|"
  LISTVT_VALUE ""
  TYPE "-1"
  TEMP " 27.0000 "
  IS_TNOM " 1.00000 "
  MAIN.W "2.000u"
  MAIN.L "1.200u"
  MAIN.AD "680.0f"
  MAIN.AS "680.0f"
  MAIN.PD "4.680u"
  MAIN.PS "4.680u"
  MAIN.NF "1.000"
  MAIN.M "1"
  MAIN.NRD "0.000"
  MAIN.NRS "0.000"
  MAIN.LDRIFT1 "1E-06"
  MAIN.LDRIFT2 "1E-06"
  MAIN.SA "0.000"
  MAIN.SB "0.000"
  MAIN.SD "0.000"
  MAIN.SCA "0.000"
  MAIN.SCB "0.000"
  MAIN.SCC "0.000"
  MAIN.SC "0.000"
  MODULE "S563"
  PIN_D "16"
  PIN_G "5"
  PIN_S "6"
  PIN_B "15"
  PIN_E ""
  PIN_6 ""
  XY_ID ""
  FUNC "LW Scale"
  STI "SA ref"
  WPE "WPE ref"
  COMMENT ""
  DIS_MEAS ""
  TypeTCI "10"
END_HEADER

BEGIN_DB
 ICCAP_VAR vg         -1.976         
 ICCAP_VAR vb         3.6            
 ICCAP_VAR vs         -0             

 #vd                    id                    ig                    ib                    is                   
  -0                    2.97e-10              -6e-13                1.34e-12              -3.5636e-10          
  -0.1                  -4.9674e-07           -4e-13                1.48e-12              4.9718e-07           
  -0.2                  -6.2624e-07           -4.6e-13              1.32e-12              6.2632e-07           
  -0.3                  -6.4352e-07           -3.4e-13              1.2e-12               6.4374e-07           
  -0.4                  -6.4676e-07           -2.4e-13              1.28e-12              6.4728e-07           
  -0.5                  -6.4848e-07           -3.4e-13              1.14e-12              6.488e-07            
  -0.6                  -6.4986e-07           -2.6e-13              1.1e-12               6.5006e-07           
  -0.7                  -6.5078e-07           -3e-13                1.16e-12              6.5124e-07           
  -0.8                  -6.5156e-07           -3.2e-13              1.1e-12               6.5202e-07           
  -0.9                  -6.5224e-07           -1.4e-13              1.06e-12              6.5268e-07           
  -1                    -6.532e-07            -1.4e-13              1e-12                 6.5352e-07           
  -1.1                  -6.5414e-07           -2e-13                7.6e-13               6.5444e-07           
  -1.2                  -6.548e-07            -1.6e-13              8.2e-13               6.5508e-07           
  -1.3                  -6.5524e-07           -1.6e-13              7.2e-13               6.5544e-07           
  -1.4                  -6.563e-07            -2.4e-13              7.2e-13               6.5614e-07           
  -1.5                  -6.5626e-07           -2.4e-13              8e-13                 6.5656e-07           
  -1.6                  -6.5648e-07           -1e-13                8e-13                 6.567e-07            
  -1.7                  -6.5692e-07           -1.8e-13              7.4e-13               6.572e-07            
  -1.8                  -6.5744e-07           -1e-13                8e-13                 6.5776e-07           
  -1.9                  -6.5792e-07           -4e-14                6.6e-13               6.5814e-07           
  -2                    -6.5834e-07           -1.4e-13              6e-13                 6.5892e-07           
  -2.1                  -6.5888e-07           -2e-14                7.8e-13               6.5912e-07           
  -2.2                  -6.5918e-07           2e-14                 8e-13                 6.593e-07            
  -2.3                  -6.595e-07            -6e-14                8.6e-13               6.6016e-07           
  -2.4                  -6.6038e-07           0                     1.12e-12              6.604e-07            
  -2.5                  -6.6054e-07           -6e-14                1.42e-12              6.6084e-07           
  -2.6                  -6.6102e-07           -4e-14                2.52e-12              6.6126e-07           
  -2.7                  -6.6162e-07           0                     4.46e-12              6.6164e-07           
  -2.8                  -6.6178e-07           -1.2e-13              7.8e-12               6.621e-07            
  -2.9                  -6.6228e-07           -1e-13                1.424e-11             6.6252e-07           
  -3                    -6.6316e-07           -4e-14                2.576e-11             6.6338e-07           
  -3.1                  -6.6354e-07           -4e-14                4.554e-11             6.6372e-07           
  -3.2                  -6.6388e-07           -4e-14                7.894e-11             6.6382e-07           
  -3.3                  -6.6406e-07           -2e-14                1.3408e-10            6.6428e-07           
  -3.4                  -6.6486e-07           2e-14                 2.2284e-10            6.6468e-07           
  -3.5                  -6.6516e-07           0                     3.6362e-10            6.6506e-07           
  -3.6                  -6.6578e-07           -2e-14                5.806e-10             6.6524e-07           
END_DB

BEGIN_DB
 ICCAP_VAR vg         -2.382         
 ICCAP_VAR vb         3.6            
 ICCAP_VAR vs         -0             

 #vd                    id                    ig                    ib                    is                   
  -0                    1.0436e-09            -3e-13                4.2e-13               -1.07178e-09         
  -0.1                  -2.4882e-06           -1e-13                2.4e-13               2.4924e-06           
  -0.2                  -4.3648e-06           -1.8e-13              3.2e-13               4.3694e-06           
  -0.3                  -5.6454e-06           -2.8e-13              3.4e-13               5.649e-06            
  -0.4                  -6.397e-06            -2e-13                3.6e-13               6.4008e-06           
  -0.5                  -6.7588e-06           -1.2e-13              3.6e-13               6.7614e-06           
  -0.6                  -6.8986e-06           -8e-14                3.8e-13               6.9016e-06           
  -0.7                  -6.9534e-06           -1.6e-13              3.2e-13               6.9568e-06           
  -0.8                  -6.9834e-06           -2e-13                2.4e-13               6.9856e-06           
  -0.9                  -7.0026e-06           -2.8e-13              3.2e-13               7.0066e-06           
  -1                    -7.019e-06            -1e-13                4.2e-13               7.0208e-06           
  -1.1                  -7.0302e-06           -2e-14                3.6e-13               7.0336e-06           
  -1.2                  -7.04e-06             -1.8e-13              2.2e-13               7.0438e-06           
  -1.3                  -7.0506e-06           -1e-13                3.2e-13               7.054e-06            
  -1.4                  -7.0608e-06           -1e-13                4.2e-13               7.064e-06            
  -1.5                  -7.0678e-06           -2.2e-13              2.8e-13               7.0736e-06           
  -1.6                  -7.0764e-06           -1.2e-13              3.4e-13               7.0802e-06           
  -1.7                  -7.0812e-06           0                     4.2e-13               7.0852e-06           
  -1.8                  -7.0914e-06           -2e-14                3.4e-13               7.0956e-06           
  -1.9                  -7.1e-06              -1e-13                3.4e-13               7.103e-06            
  -2                    -7.1062e-06           -2e-14                3.4e-13               7.109e-06            
  -2.1                  -7.1114e-06           -2e-14                3.8e-13               7.116e-06            
  -2.2                  -7.1166e-06           -2e-14                4e-13                 7.121e-06            
  -2.3                  -7.1248e-06           1e-13                 4.6e-13               7.1278e-06           
  -2.4                  -7.1306e-06           0                     5e-13                 7.1344e-06           
  -2.5                  -7.136e-06            2e-14                 8.4e-13               7.1388e-06           
  -2.6                  -7.1404e-06           -6e-14                1.62e-12              7.1432e-06           
  -2.7                  -7.1462e-06           -4e-14                3.36e-12              7.1496e-06           
  -2.8                  -7.1508e-06           2e-14                 7.02e-12              7.1536e-06           
  -2.9                  -7.1534e-06           1e-13                 1.478e-11             7.1578e-06           
  -3                    -7.16e-06             0                     2.988e-11             7.1636e-06           
  -3.1                  -7.1662e-06           -4e-14                5.908e-11             7.1696e-06           
  -3.2                  -7.172e-06            -4e-14                1.1358e-10            7.176e-06            
  -3.3                  -7.1764e-06           6e-14                 2.1168e-10            7.1796e-06           
  -3.4                  -7.1814e-06           -1.4e-13              3.8368e-10            7.185e-06            
  -3.5                  -7.186e-06            4e-14                 6.7908e-10            7.1882e-06           
  -3.6                  -7.1872e-06           4e-14                 1.1728e-09            7.1896e-06           
END_DB

BEGIN_DB
 ICCAP_VAR vg         -2.788         
 ICCAP_VAR vb         3.6            
 ICCAP_VAR vs         -0             

 #vd                    id                    ig                    ib                    is                   
  -0                    1.67e-09              -2.6e-13              1.6e-13               -1.4356e-09          
  -0.1                  -4.3936e-06           -1.4e-13              2.6e-13               4.3978e-06           
  -0.2                  -8.2222e-06           -8e-14                8e-14                 8.226e-06            
  -0.3                  -1.14714e-05          -2.2e-13              8e-14                 1.14704e-05          
  -0.4                  -1.4118e-05           -1.8e-13              2.4e-13               1.4138e-05           
  -0.5                  -1.6212e-05           -8e-14                2.4e-13               1.6234e-05           
  -0.6                  -1.7768e-05           -1.6e-13              -2e-14                1.779e-05            
  -0.7                  -1.883e-05            -1.6e-13              1.8e-13               1.885e-05            
  -0.8                  -1.948e-05            -1e-13                2.2e-13               1.9502e-05           
  -0.9                  -1.9844e-05           -1.2e-13              2.4e-13               1.9868e-05           
  -1                    -2.0042e-05           2e-14                 3e-13                 2.0066e-05           
  -1.1                  -2.0156e-05           -8e-14                3.2e-13               2.0176e-05           
  -1.2                  -2.0222e-05           -1.6e-13              3.2e-13               2.0248e-05           
  -1.3                  -2.028e-05            -4e-14                3.2e-13               2.0292e-05           
  -1.4                  -2.0314e-05           0                     2.2e-13               2.0336e-05           
  -1.5                  -2.035e-05            -4e-14                2.8e-13               2.0366e-05           
  -1.6                  -2.038e-05            8e-14                 4.2e-13               2.0398e-05           
  -1.7                  -2.041e-05            4e-14                 3e-13                 2.0432e-05           
  -1.8                  -2.0442e-05           -2e-14                2.4e-13               2.046e-05            
  -1.9                  -2.0468e-05           0                     1.4e-13               2.0492e-05           
  -2                    -2.0492e-05           -8e-14                2.6e-13               2.0512e-05           
  -2.1                  -2.0516e-05           -1.2e-13              2.6e-13               2.0532e-05           
  -2.2                  -2.0534e-05           -1.2e-13              2.2e-13               2.0552e-05           
  -2.3                  -2.0554e-05           2e-14                 1.6e-13               2.057e-05            
  -2.4                  -2.057e-05            0                     2e-13                 2.0594e-05           
  -2.5                  -2.0594e-05           -1e-13                2.6e-13               2.0608e-05           
  -2.6                  -2.0608e-05           4e-14                 4e-13                 2.063e-05            
  -2.7                  -2.0628e-05           2e-14                 7e-13                 2.0646e-05           
  -2.8                  -2.0644e-05           -4e-14                1.24e-12              2.0664e-05           
  -2.9                  -2.0658e-05           -6e-14                3.02e-12              2.0676e-05           
  -3                    -2.0672e-05           0                     6.94e-12              2.0696e-05           
  -3.1                  -2.0692e-05           -4e-14                1.532e-11             2.071e-05            
  -3.2                  -2.0702e-05           6e-14                 3.278e-11             2.0726e-05           
  -3.3                  -2.072e-05            -2e-14                6.794e-11             2.0742e-05           
  -3.4                  -2.0738e-05           -1.2e-13              1.358e-10             2.0758e-05           
  -3.5                  -2.0756e-05           0                     2.6464e-10            2.0772e-05           
  -3.6                  -2.0768e-05           -1e-13                4.9914e-10            2.0788e-05           
END_DB

BEGIN_DB
 ICCAP_VAR vg         -3.194         
 ICCAP_VAR vb         3.6            
 ICCAP_VAR vs         -0             

 #vd                    id                    ig                    ib                    is                   
  -0                    2.0174e-09            -2.2e-13              1.2e-13               -1.8672e-09          
  -0.1                  -6.0782e-06           -2.2e-13              3e-13                 6.083e-06            
  -0.2                  -1.1638e-05           -2.8e-13              1e-13                 1.1656e-05           
  -0.3                  -1.6666e-05           -6e-14                1.4e-13               1.6686e-05           
  -0.4                  -2.1144e-05           -1.8e-13              1.8e-13               2.1164e-05           
  -0.5                  -2.5098e-05           -1.8e-13              -2e-14                2.5122e-05           
  -0.6                  -2.8502e-05           -1.2e-13              2e-13                 2.8522e-05           
  -0.7                  -3.1358e-05           -4e-14                2.4e-13               3.137e-05            
  -0.8                  -3.3688e-05           -1.2e-13              4e-14                 3.371e-05            
  -0.9                  -3.551e-05            -1e-13                1.2e-13               3.5528e-05           
  -1                    -3.6862e-05           -6e-14                3.4e-13               3.6894e-05           
  -1.1                  -3.7822e-05           -1.8e-13              2e-13                 3.784e-05            
  -1.2                  -3.8442e-05           -1e-13                0                     3.8462e-05           
  -1.3                  -3.8838e-05           -1.4e-13              1.8e-13               3.8862e-05           
  -1.4                  -3.9098e-05           -2e-14                2.4e-13               3.9112e-05           
  -1.5                  -3.9252e-05           -2e-14                2e-13                 3.928e-05            
  -1.6                  -3.9374e-05           -1.2e-13              2.2e-13               3.9402e-05           
  -1.7                  -3.947e-05            -8e-14                1.4e-13               3.9496e-05           
  -1.8                  -3.9558e-05           -6e-14                1.2e-13               3.957e-05            
  -1.9                  -3.9616e-05           -1e-13                2e-13                 3.9646e-05           
  -2                    -3.968e-05            -1.2e-13              2.6e-13               3.9692e-05           
  -2.1                  -3.9728e-05           8e-14                 2e-13                 3.9748e-05           
  -2.2                  -3.9786e-05           -4e-14                1.6e-13               3.9816e-05           
  -2.3                  -3.984e-05            -2e-14                1.2e-13               3.9862e-05           
  -2.4                  -3.9884e-05           -6e-14                1e-13                 3.991e-05            
  -2.5                  -3.992e-05            -2e-14                1.4e-13               3.9944e-05           
  -2.6                  -3.9964e-05           0                     2e-13                 3.9984e-05           
  -2.7                  -4e-05                -1e-13                1.6e-13               4.002e-05            
  -2.8                  -4.0034e-05           -6e-14                2e-13                 4.0052e-05           
  -2.9                  -4.0076e-05           -1.4e-13              4.4e-13               4.0094e-05           
  -3                    -4.0104e-05           1e-13                 8.6e-13               4.0128e-05           
  -3.1                  -4.014e-05            0                     2.02e-12              4.0158e-05           
  -3.2                  -4.0172e-05           1e-13                 4.82e-12              4.0194e-05           
  -3.3                  -4.02e-05             -4e-14                1.128e-11             4.023e-05            
  -3.4                  -4.0234e-05           -1e-13                2.494e-11             4.0262e-05           
  -3.5                  -4.0266e-05           -8e-14                5.352e-11             4.0282e-05           
  -3.6                  -4.0296e-05           -6e-14                1.1158e-10            4.032e-05            
END_DB

BEGIN_DB
 ICCAP_VAR vg         -3.6           
 ICCAP_VAR vb         3.6            
 ICCAP_VAR vs         -0             

 #vd                    id                    ig                    ib                    is                   
  -0                    2.099e-09             -2.6e-13              1.8e-13               -2.1578e-09          
  -0.1                  -7.5658e-06           -1.4e-13              1.2e-13               7.569e-06            
  -0.2                  -1.4658e-05           -6e-14                0                     1.468e-05            
  -0.3                  -2.1274e-05           -3.2e-13              0                     2.1296e-05           
  -0.4                  -2.7374e-05           -1.6e-13              1.2e-13               2.7394e-05           
  -0.5                  -3.2992e-05           -4e-14                8e-14                 3.3012e-05           
  -0.6                  -3.809e-05            -1.6e-13              1.2e-13               3.8116e-05           
  -0.7                  -4.2676e-05           -1.6e-13              1.2e-13               4.27e-05             
  -0.8                  -4.6766e-05           -2.2e-13              1.2e-13               4.6786e-05           
