! VERSION = 6.00
BEGIN_HEADER
 ICCAP_INPUTS
  vg         V  G GROUND SMU2 0.001 LIN        1    0.5        -3.6       83   -0.05     
  vb         V  B GROUND SMU4 0.1 LIN        2    0          3.6        5    0.9       
  vd         V  D GROUND SMU1 0.1 LIN        3    -0.1       -3.3       3    -1.6      
  vs         V  S GROUND SMU3 0.1 CON        -0
 ICCAP_OUTPUTS
  id         I  D GROUND SMU1 B
  ig         I  G GROUND SMU2 B
  ib         I  B GROUND SMU4 B
  is         I  S GROUND SMU3 B
 ICCAP_VALUES
  MASTER_SETUP_TYPE "~dc_idvg~"
  LINVT_VALUE ""
  LISTVT_VALUE ""
  TYPE "-1"
  TEMP " 27.0000 "
  IS_TNOM " 1.00000 "
  MAIN.W "300.0n"
  MAIN.L "1.200u"
  MAIN.AD "102.0f"
  MAIN.AS "102.0f"
  MAIN.PD "1.280u"
  MAIN.PS "1.280u"
  MAIN.NF "1.000"
  MAIN.M "1"
  MAIN.NRD "0.000"
  MAIN.NRS "0.000"
  MAIN.LDRIFT1 "1E-06"
  MAIN.LDRIFT2 "1E-06"
  MAIN.SA "0.000"
  MAIN.SB "0.000"
  MAIN.SD "0.000"
  MAIN.SCA "0.000"
  MAIN.SCB "0.000"
  MAIN.SCC "0.000"
  MAIN.SC "0.000"
  MODULE "S565"
  PIN_D "12"
  PIN_G "9"
  PIN_S "10"
  PIN_B "11"
  PIN_E ""
  PIN_6 ""
  XY_ID ""
  FUNC "LW Scale"
  STI "SA ref"
  WPE "WPE ref"
  COMMENT ""
  DIS_MEAS ""
  TypeTCI "10"
END_HEADER

BEGIN_DB
 ICCAP_VAR vb         0              
 ICCAP_VAR vd         -0.1           
 ICCAP_VAR vs         -0             

 #vg                    id                    ig                    ib                    is                   
  0.5                   -8e-14                2.006e-11             -5.72e-12             1.8e-13              
  0.45                  -2e-14                3.38e-12              -1.18e-12             1.4e-13              
  0.4                   -8e-14                7.6e-13               -2.8e-13              1e-13                
  0.35                  -1e-13                6e-14                 -1.2e-13              1.6e-13              
  0.3                   0                     -4e-14                -4e-14                1.2e-13              
  0.25                  -1.4e-13              -1.2e-13              -4e-14                1.6e-13              
  0.2                   2e-14                 -6e-14                -2e-14                2.4e-13              
  0.15                  -6e-14                -2.2e-13              -1e-13                2e-13                
  0.1                   -1.2e-13              -1.6e-13              0                     8e-14                
  0.05                  -1e-13                -2.2e-13              -1.4e-13              2.8e-13              
  0                     2e-14                 -2.2e-13              -1e-13                6e-14                
  -0.05                 -2e-13                -2.4e-13              -6e-14                1.4e-13              
  -0.1                  0                     -2.4e-13              -1.2e-13              2e-14                
  -0.15                 -1.8e-13              -2.4e-13              2e-14                 0                    
  -0.2                  -1e-13                -3.8e-13              -1e-13                2.4e-13              
  -0.25                 -8.2e-13              -2.4e-13              -2e-14                7.6e-13              
  -0.3                  -2.44e-12             -5e-13                -1.8e-13              2.6e-12              
  -0.35                 -8.74e-12             -4.8e-13              6e-14                 8.42e-12             
  -0.4                  -2.928e-11            -4e-13                0                     2.942e-11            
  -0.45                 -1.0212e-10           -4.4e-13              -1.4e-13              1.0232e-10           
  -0.5                  -3.5772e-10           -4.4e-13              -4e-14                3.5774e-10           
  -0.55                 -1.2408e-09           -2.8e-13              2e-14                 1.2424e-09           
  -0.6                  -4.0638e-09           -3.6e-13              -4e-14                4.065e-09            
  -0.65                 -1.1734e-08           -5e-13                -6e-14                1.1756e-08           
  -0.7                  -2.8356e-08           -4.6e-13              -4e-14                2.8378e-08           
  -0.75                 -5.698e-08            -4.4e-13              -2e-14                5.7012e-08           
  -0.8                  -9.729e-08            -4.6e-13              0                     9.732e-08            
  -0.85                 -1.4684e-07           -5e-13                -6e-14                1.4708e-07           
  -0.9                  -2.024e-07            -5.2e-13              -1.4e-13              2.026e-07            
  -0.95                 -2.6166e-07           -5.2e-13              -6e-14                2.6186e-07           
  -1                    -3.2256e-07           -5.2e-13              -1.6e-13              3.2284e-07           
  -1.05                 -3.8472e-07           -6.2e-13              0                     3.849e-07            
  -1.1                  -4.468e-07            -6e-13                -1.4e-13              4.4702e-07           
  -1.15                 -5.09e-07             -6.4e-13              2e-14                 5.0926e-07           
  -1.2                  -5.7052e-07           -5.8e-13              -4e-14                5.7082e-07           
  -1.25                 -6.318e-07            -6.4e-13              0                     6.3206e-07           
  -1.3                  -6.924e-07            -5.4e-13              -1.6e-13              6.9272e-07           
  -1.35                 -7.521e-07            -6.2e-13              -1.6e-13              7.524e-07            
  -1.4                  -8.1124e-07           -5.2e-13              -8e-14                8.1154e-07           
  -1.45                 -8.6938e-07           -6.4e-13              -2e-14                8.6968e-07           
  -1.5                  -9.2694e-07           -6.8e-13              -1e-13                9.2724e-07           
  -1.55                 -9.8346e-07           -5.4e-13              -2e-14                9.8382e-07           
  -1.6                  -1.03954e-06          -5.2e-13              -4e-14                1.03986e-06          
  -1.65                 -1.0945e-06           -6.2e-13              -2e-14                1.09482e-06          
  -1.7                  -1.14872e-06          -5.4e-13              -1.6e-13              1.14904e-06          
  -1.75                 -1.2006e-06           -8.6e-13              0                     1.2044e-06           
  -1.8                  -1.2534e-06           -7.6e-13              -4e-14                1.257e-06            
  -1.85                 -1.305e-06            -5.6e-13              -2e-14                1.309e-06            
  -1.9                  -1.3556e-06           -5.2e-13              0                     1.3596e-06           
  -1.95                 -1.406e-06            -7e-13                -4e-14                1.4098e-06           
  -2                    -1.4556e-06           -6e-13                2e-14                 1.4594e-06           
  -2.05                 -1.5044e-06           -6.6e-13              0                     1.5084e-06           
  -2.1                  -1.5526e-06           -7e-13                -8e-14                1.5564e-06           
  -2.15                 -1.5998e-06           -7.2e-13              -1.8e-13              1.6034e-06           
  -2.2                  -1.6448e-06           -7e-13                -2e-14                1.6486e-06           
  -2.25                 -1.692e-06            -6.6e-13              -6e-14                1.6948e-06           
  -2.3                  -1.736e-06            -7.4e-13              4e-14                 1.74e-06             
  -2.35                 -1.7804e-06           -8.2e-13              -1.4e-13              1.7846e-06           
  -2.4                  -1.8226e-06           -7.4e-13              0                     1.8268e-06           
  -2.45                 -1.866e-06            -8.8e-13              -1e-13                1.8694e-06           
  -2.5                  -1.9078e-06           -6.8e-13              -4e-14                1.9112e-06           
  -2.55                 -1.9504e-06           -7.2e-13              -8e-14                1.9528e-06           
  -2.6                  -1.99e-06             -9e-13                -6e-14                1.9952e-06           
  -2.65                 -2.0314e-06           -7.4e-13              -8e-14                2.0352e-06           
  -2.7                  -2.0712e-06           -7.8e-13              -8e-14                2.0754e-06           
  -2.75                 -2.1092e-06           -7.4e-13              -8e-14                2.1128e-06           
  -2.8                  -2.1478e-06           -8.2e-13              -4e-14                2.1518e-06           
  -2.85                 -2.1844e-06           -7.2e-13              -4e-14                2.1894e-06           
  -2.9                  -2.2226e-06           -8.4e-13              2e-14                 2.2258e-06           
  -2.95                 -2.2592e-06           -7.6e-13              -1e-13                2.2628e-06           
  -3                    -2.2952e-06           -8.6e-13              -8e-14                2.298e-06            
  -3.05                 -2.329e-06            -7.4e-13              0                     2.3334e-06           
  -3.1                  -2.3644e-06           -8.2e-13              0                     2.3682e-06           
  -3.15                 -2.3992e-06           -6.6e-13              6e-14                 2.4028e-06           
  -3.2                  -2.4326e-06           -8.4e-13              -2e-14                2.4356e-06           
  -3.25                 -2.4644e-06           -6.4e-13              -4e-14                2.4688e-06           
  -3.3                  -2.4966e-06           -8.6e-13              -2e-14                2.5e-06              
  -3.35                 -2.5282e-06           -8.6e-13              0                     2.5316e-06           
  -3.4                  -2.5604e-06           -9.6e-13              0                     2.5628e-06           
  -3.45                 -2.591e-06            -9.4e-13              -1e-13                2.5956e-06           
  -3.5                  -2.6212e-06           -7.2e-13              -6e-14                2.6254e-06           
  -3.55                 -2.6518e-06           -1.02e-12             -1.6e-13              2.6554e-06           
  -3.6                  -2.6818e-06           -7.4e-13              1e-13                 2.6852e-06           
END_DB

BEGIN_DB
 ICCAP_VAR vb         0.9            
 ICCAP_VAR vd         -0.1           
 ICCAP_VAR vs         -0             

 #vg                    id                    ig                    ib                    is                   
  0.5                   0                     5.6e-13               2.8e-13               6e-14                
  0.45                  2e-14                 3.4e-13               1.8e-13               1.6e-13              
  0.4                   -1.4e-13              4.6e-13               3.2e-13               4e-14                
  0.35                  1e-13                 3e-13                 8e-14                 1.8e-13              
  0.3                   -2e-14                2.6e-13               2.6e-13               8e-14                
  0.25                  4e-14                 1.6e-13               2e-13                 -6e-14               
  0.2                   -2e-14                8e-14                 1.2e-13               2.8e-13              
  0.15                  -4e-14                -6e-14                1.8e-13               4e-14                
  0.1                   2e-14                 2e-14                 2e-13                 2.2e-13              
  0.05                  -4e-14                2e-14                 2e-14                 1.4e-13              
  0                     -6e-14                -1.4e-13              4e-14                 1.4e-13              
  -0.05                 6e-14                 -1.2e-13              6e-14                 1e-13                
  -0.1                  2e-14                 -2e-14                8e-14                 0                    
  -0.15                 4e-14                 -3.4e-13              0                     3.4e-13              
  -0.2                  -2.2e-13              -6e-14                8e-14                 -1.6e-13             
  -0.25                 1.4e-13               -2.2e-13              1.8e-13               1.2e-13              
  -0.3                  1.2e-13               -2.2e-13              -2e-14                6e-14                
  -0.35                 -1e-13                -2e-13                6e-14                 -4e-14               
  -0.4                  0                     -2.2e-13              2e-14                 0                    
  -0.45                 -1.2e-13              -2.4e-13              8e-14                 1.8e-13              
  -0.5                  2e-14                 -2.8e-13              1.2e-13               0                    
  -0.55                 -1e-13                -3.6e-13              6e-14                 2e-13                
  -0.6                  -1e-13                -3.4e-13              0                     1.8e-13              
  -0.65                 -5.6e-13              -3.4e-13              -2e-14                7.6e-13              
  -0.7                  -1.84e-12             -4.2e-13              1.4e-13               1.92e-12             
  -0.75                 -7.74e-12             -5.4e-13              2e-14                 7.84e-12             
  -0.8                  -3.04e-11             -4.2e-13              1e-13                 3.058e-11            
  -0.85                 -1.2356e-10           -3e-13                2e-14                 1.2336e-10           
  -0.9                  -4.9064e-10           -5.8e-13              6e-14                 4.9056e-10           
  -0.95                 -1.8772e-09           -3.8e-13              6e-14                 1.8802e-09           
  -1                    -6.3704e-09           -6.2e-13              1.2e-13               6.3712e-09           
  -1.05                 -1.7748e-08           -4.6e-13              6e-14                 1.7778e-08           
  -1.1                  -3.9372e-08           -5.8e-13              0                     3.9412e-08           
  -1.15                 -7.1998e-08           -2.8e-13              1e-13                 7.2038e-08           
  -1.2                  -1.13244e-07          -4.8e-13              0                     1.13306e-07          
  -1.25                 -1.6052e-07           -4.2e-13              4e-14                 1.6072e-07           
  -1.3                  -2.1142e-07           -4.6e-13              1.6e-13               2.1168e-07           
  -1.35                 -2.642e-07            -4e-13                6e-14                 2.6442e-07           
  -1.4                  -3.1822e-07           -5.4e-13              6e-14                 3.1844e-07           
  -1.45                 -3.7248e-07           -5e-13                4e-14                 3.7272e-07           
  -1.5                  -4.2706e-07           -5.2e-13              1.2e-13               4.273e-07            
  -1.55                 -4.8126e-07           -5.8e-13              -2e-14                4.8148e-07           
  -1.6                  -5.355e-07            -6.4e-13              1e-13                 5.3574e-07           
  -1.65                 -5.8908e-07           -6e-13                -1.4e-13              5.8936e-07           
  -1.7                  -6.4226e-07           -6.6e-13              1e-13                 6.4244e-07           
  -1.75                 -6.95e-07             -5.8e-13              -1e-13                6.9528e-07           
  -1.8                  -7.4704e-07           -5.4e-13              2e-14                 7.4732e-07           
  -1.85                 -7.9852e-07           -7.2e-13              0                     7.9888e-07           
  -1.9                  -8.4946e-07           -6.6e-13              8e-14                 8.4976e-07           
  -1.95                 -9e-07                -5.8e-13              -6e-14                9.0026e-07           
  -2                    -9.4972e-07           -6.6e-13              -2e-14                9.5e-07              
  -2.05                 -9.985e-07            -7.4e-13              4e-14                 9.9886e-07           
  -2.1                  -1.04732e-06          -8.2e-13              2e-14                 1.04778e-06          
  -2.15                 -1.09454e-06          -6e-13                2e-14                 1.0956e-06           
  -2.2                  -1.14268e-06          -7e-13                -2e-14                1.14288e-06          
  -2.25                 -1.1872e-06           -7.4e-13              4e-14                 1.1912e-06           
  -2.3                  -1.2338e-06           -6.8e-13              6e-14                 1.2376e-06           
  -2.35                 -1.2792e-06           -5.2e-13              2e-14                 1.2828e-06           
  -2.4                  -1.3246e-06           -6.2e-13              2e-14                 1.3282e-06           
  -2.45                 -1.3688e-06           -6.8e-13              0                     1.3724e-06           
  -2.5                  -1.4122e-06           -7.2e-13              2e-14                 1.4156e-06           
  -2.55                 -1.4548e-06           -7e-13                -2e-14                1.4588e-06           
  -2.6                  -1.4974e-06           -8e-13                -6e-14                1.5012e-06           
  -2.65                 -1.5396e-06           -6e-13                8e-14                 1.5428e-06           
  -2.7                  -1.5806e-06           -7.2e-13              0                     1.5832e-06           
  -2.75                 -1.6198e-06           -7.6e-13              2e-14                 1.6232e-06           
  -2.8                  -1.66e-06             -6.4e-13              6e-14                 1.664e-06            
  -2.85                 -1.7004e-06           -8e-13                -1e-13                1.7042e-06           
  -2.9                  -1.7396e-06           -8e-13                6e-14                 1.742e-06            
  -2.95                 -1.7758e-06           -8.2e-13              2e-14                 1.7796e-06           
  -3                    -1.814e-06            -8e-13                0                     1.818e-06            
  -3.05                 -1.852e-06            -7.8e-13              0                     1.8572e-06           
  -3.1                  -1.8898e-06           -9e-13                -1e-13                1.8924e-06           
  -3.15                 -1.9234e-06           -6.8e-13              -4e-14                1.9274e-06           
  -3.2                  -1.9598e-06           -8.4e-13              -4e-14                1.9622e-06           
  -3.25                 -1.9936e-06           -7.8e-13              -4e-14                1.9974e-06           
  -3.3                  -2.0278e-06           -7.2e-13              4e-14                 2.0318e-06           
  -3.35                 -2.0614e-06           -9.6e-13              -8e-14                2.066e-06            
  -3.4                  -2.0958e-06           -7.4e-13              2e-14                 2.0986e-06           
  -3.45                 -2.1278e-06           -7.6e-13              -2e-14                2.1318e-06           
