! VERSION = 6.00
BEGIN_HEADER
 ICCAP_INPUTS
  vg         V  G GROUND SMU2 0.001 LIN        1    0.5        -3.6       83   -0.05     
  vb         V  B GROUND SMU4 0.1 LIN        2    0          3.6        5    0.9       
  vd         V  D GROUND SMU1 0.1 LIN        3    -0.1       -3.3       3    -1.6      
  vs         V  S GROUND SMU3 0.1 CON        -0
 ICCAP_OUTPUTS
  id         I  D GROUND SMU1 B
  ig         I  G GROUND SMU2 B
  ib         I  B GROUND SMU4 B
  is         I  S GROUND SMU3 B
 ICCAP_VALUES
  MASTER_SETUP_TYPE "~dc_idvg~"
  LINVT_VALUE ""
  LISTVT_VALUE ""
  TYPE "-1"
  TEMP " 27.0000 "
  IS_TNOM " 1.00000 "
  MAIN.W "5.000u"
  MAIN.L "10.00u"
  MAIN.AD "1.700p"
  MAIN.AS "1.700p"
  MAIN.PD "10.68u"
  MAIN.PS "10.68u"
  MAIN.NF "1.000"
  MAIN.M "1"
  MAIN.NRD "0.000"
  MAIN.NRS "0.000"
  MAIN.LDRIFT1 "1E-06"
  MAIN.LDRIFT2 "1E-06"
  MAIN.SA "0.000"
  MAIN.SB "0.000"
  MAIN.SD "0.000"
  MAIN.SCA "0.000"
  MAIN.SCB "0.000"
  MAIN.SCC "0.000"
  MAIN.SC "0.000"
  MODULE "S563"
  PIN_D "20"
  PIN_G "1"
  PIN_S "2"
  PIN_B "19"
  PIN_E ""
  PIN_6 ""
  XY_ID ""
  FUNC "W Scale"
  STI "SA ref"
  WPE "WPE ref"
  COMMENT ""
  DIS_MEAS ""
  TypeTCI "10"
END_HEADER

BEGIN_DB
 ICCAP_VAR vb         0              
 ICCAP_VAR vd         -0.1           
 ICCAP_VAR vs         -0             

 #vg                    id                    ig                    ib                    is                   
  0.5                   -2e-14                1.81e-11              -4.1e-12              2e-13                
  0.45                  2e-14                 2.68e-12              -6.2e-13              1.2e-13              
  0.4                   -1e-13                3.6e-13               -2e-13                1e-13                
  0.35                  -6e-14                2e-14                 -8e-14                1.8e-13              
  0.3                   0                     0                     -1.4e-13              6e-14                
  0.25                  -6e-14                -1.8e-13              -6e-14                6e-14                
  0.2                   -1.2e-13              -3.2e-13              6e-14                 8e-14                
  0.15                  -6e-14                -2.4e-13              -6e-14                2e-14                
  0.1                   0                     -2.6e-13              0                     1.6e-13              
  0.05                  -1.2e-13              -3.2e-13              8e-14                 -2e-14               
  0                     6e-14                 -3.2e-13              0                     8e-14                
  -0.05                 -4e-14                -4.2e-13              -1.2e-13              1.2e-13              
  -0.1                  -1.4e-13              -4.2e-13              2e-14                 2e-14                
  -0.15                 -1.4e-13              -3.8e-13              -1e-13                2.8e-13              
  -0.2                  -4.4e-13              -3.8e-13              0                     4.6e-13              
  -0.25                 -1.46e-12             -5.4e-13              -1.2e-13              1.5e-12              
  -0.3                  -4.78e-12             -5e-13                -2e-14                4.88e-12             
  -0.35                 -1.666e-11            -5e-13                -1.4e-13              1.674e-11            
  -0.4                  -5.78e-11             -5.2e-13              -8e-14                5.796e-11            
  -0.45                 -2.0328e-10           -5.2e-13              -1.8e-13              2.0324e-10           
  -0.5                  -7.1318e-10           -4.8e-13              0                     7.1294e-10           
  -0.55                 -2.4558e-09           -3.8e-13              0                     2.4566e-09           
  -0.6                  -7.8506e-09           -4.4e-13              -1.6e-13              7.8506e-09           
  -0.65                 -2.191e-08            -4.6e-13              -2e-14                2.1934e-08           
  -0.7                  -5.1262e-08           -5.8e-13              -1.2e-13              5.1294e-08           
  -0.75                 -1.00758e-07          -6.2e-13              -6e-14                1.00784e-07          
  -0.8                  -1.6966e-07           -5.4e-13              0                     1.6986e-07           
  -0.85                 -2.5418e-07           -6e-13                4e-14                 2.544e-07            
  -0.9                  -3.482e-07            -6.8e-13              -1.4e-13              3.4842e-07           
  -0.95                 -4.48e-07             -5.8e-13              0                     4.4826e-07           
  -1                    -5.5016e-07           -6e-13                -1.2e-13              5.504e-07            
  -1.05                 -6.5372e-07           -6.8e-13              0                     6.5398e-07           
  -1.1                  -7.5686e-07           -6.2e-13              -1.8e-13              7.5712e-07           
  -1.15                 -8.5982e-07           -6e-13                -4e-14                8.601e-07            
  -1.2                  -9.6146e-07           -6e-13                0                     9.6174e-07           
  -1.25                 -1.06226e-06          -6.8e-13              -2.6e-13              1.06262e-06          
  -1.3                  -1.1602e-06           -5.6e-13              -1.8e-13              1.164e-06            
  -1.35                 -1.258e-06            -4.4e-13              -8e-14                1.2618e-06           
  -1.4                  -1.3546e-06           -7.4e-13              -4e-14                1.3584e-06           
  -1.45                 -1.4496e-06           -6.6e-13              -2e-14                1.4534e-06           
  -1.5                  -1.5434e-06           -6.2e-13              -1.8e-13              1.5472e-06           
  -1.55                 -1.6354e-06           -6e-13                4e-14                 1.6392e-06           
  -1.6                  -1.7264e-06           -6.8e-13              -1.4e-13              1.7302e-06           
  -1.65                 -1.8156e-06           -5.8e-13              -2e-14                1.8192e-06           
  -1.7                  -1.9034e-06           -6.8e-13              -2.4e-13              1.9072e-06           
  -1.75                 -1.99e-06             -6.6e-13              -2e-14                1.9938e-06           
  -1.8                  -2.075e-06            -6.6e-13              -1.4e-13              2.0788e-06           
  -1.85                 -2.1586e-06           -7.8e-13              -1e-13                2.1624e-06           
  -1.9                  -2.241e-06            -7.2e-13              -4e-14                2.2446e-06           
  -1.95                 -2.3222e-06           -6.4e-13              -1.2e-13              2.3258e-06           
  -2                    -2.4018e-06           -7e-13                -1.6e-13              2.4056e-06           
  -2.05                 -2.4802e-06           -7.6e-13              0                     2.4838e-06           
  -2.1                  -2.5574e-06           -7.2e-13              -2.2e-13              2.5612e-06           
  -2.15                 -2.6332e-06           -6.8e-13              -8e-14                2.637e-06            
  -2.2                  -2.708e-06            -7.2e-13              -6e-14                2.7116e-06           
  -2.25                 -2.7814e-06           -6.6e-13              -6e-14                2.7852e-06           
  -2.3                  -2.854e-06            -7.4e-13              -4e-14                2.8576e-06           
  -2.35                 -2.925e-06            -7e-13                -2e-14                2.9288e-06           
  -2.4                  -2.9952e-06           -7.2e-13              -1e-13                2.999e-06            
  -2.45                 -3.064e-06            -7.8e-13              1e-13                 3.0678e-06           
  -2.5                  -3.132e-06            -7.8e-13              -1.6e-13              3.1356e-06           
  -2.55                 -3.1984e-06           -7.4e-13              -2e-14                3.2022e-06           
  -2.6                  -3.2642e-06           -7.6e-13              -6e-14                3.268e-06            
  -2.65                 -3.329e-06            -7e-13                0                     3.3328e-06           
  -2.7                  -3.3924e-06           -7.2e-13              -8e-14                3.396e-06            
  -2.75                 -3.455e-06            -7.6e-13              -1e-13                3.4586e-06           
  -2.8                  -3.5168e-06           -7.4e-13              -1.4e-13              3.5204e-06           
  -2.85                 -3.577e-06            -7.4e-13              -1e-13                3.5808e-06           
  -2.9                  -3.6368e-06           -8.2e-13              -6e-14                3.6404e-06           
  -2.95                 -3.6952e-06           -7.6e-13              -1.2e-13              3.699e-06            
  -3                    -3.753e-06            -6.8e-13              -1e-13                3.7566e-06           
  -3.05                 -3.8098e-06           -7.8e-13              -1.2e-13              3.8134e-06           
  -3.1                  -3.8654e-06           -9.2e-13              1.4e-13               3.8692e-06           
  -3.15                 -3.9206e-06           -7.6e-13              -2.6e-13              3.9242e-06           
  -3.2                  -3.9746e-06           -8.4e-13              -4e-14                3.9782e-06           
  -3.25                 -4.0276e-06           -7.6e-13              -1.2e-13              4.0314e-06           
  -3.3                  -4.0802e-06           -7.4e-13              0                     4.0836e-06           
  -3.35                 -4.1318e-06           -8.6e-13              -6e-14                4.1354e-06           
  -3.4                  -4.1824e-06           -8.2e-13              -2e-14                4.1858e-06           
  -3.45                 -4.232e-06            -8e-13                -4e-14                4.2356e-06           
  -3.5                  -4.281e-06            -8.2e-13              -4e-14                4.2846e-06           
  -3.55                 -4.3294e-06           -8.4e-13              -2e-14                4.333e-06            
  -3.6                  -4.3768e-06           -7.8e-13              -1.2e-13              4.3804e-06           
END_DB

BEGIN_DB
 ICCAP_VAR vb         0.9            
 ICCAP_VAR vd         -0.1           
 ICCAP_VAR vs         -0             

 #vg                    id                    ig                    ib                    is                   
  0.5                   6e-14                 7.6e-13               4.8e-13               2e-14                
  0.45                  4e-14                 4.8e-13               4.6e-13               1.2e-13              
  0.4                   6e-14                 3.2e-13               2.2e-13               1.6e-13              
  0.35                  -2e-14                2e-13                 4.2e-13               4e-14                
  0.3                   1e-13                 2e-14                 2e-13                 1.4e-13              
  0.25                  4e-14                 1e-13                 3e-13                 4e-14                
  0.2                   2e-14                 -6e-14                2.6e-13               8e-14                
  0.15                  4e-14                 -4e-14                1.8e-13               1.2e-13              
  0.1                   1.2e-13               -1.2e-13              1.2e-13               1.8e-13              
  0.05                  -2e-14                -1e-13                4e-14                 1.6e-13              
  0                     2e-14                 -1.2e-13              8e-14                 1.6e-13              
  -0.05                 4e-14                 -2.4e-13              1.2e-13               6e-14                
  -0.1                  6e-14                 -2.6e-13              8e-14                 6e-14                
  -0.15                 0                     -2.6e-13              8e-14                 1.8e-13              
  -0.2                  -4e-14                -3.2e-13              8e-14                 4e-14                
  -0.25                 0                     -3.4e-13              1.2e-13               6e-14                
  -0.3                  0                     -2.2e-13              8e-14                 1.2e-13              
  -0.35                 -6e-14                -3e-13                1.6e-13               4e-14                
  -0.4                  4e-14                 -2.6e-13              1.2e-13               8e-14                
  -0.45                 6e-14                 -4.6e-13              1.2e-13               4e-14                
  -0.5                  -2e-14                -4.6e-13              0                     4e-14                
  -0.55                 -2e-14                -4.4e-13              1e-13                 1.4e-13              
  -0.6                  -1.8e-13              -4.2e-13              0                     3.8e-13              
  -0.65                 -8.4e-13              -4.2e-13              8e-14                 1.1e-12              
  -0.7                  -3.54e-12             -4e-13                -2e-14                3.78e-12             
  -0.75                 -1.45e-11             -4.4e-13              1e-13                 1.468e-11            
  -0.8                  -5.834e-11            -5e-13                4e-14                 5.844e-11            
  -0.85                 -2.3486e-10           -5.8e-13              6e-14                 2.35e-10             
  -0.9                  -9.2648e-10           -4.8e-13              6e-14                 9.2626e-10           
  -0.95                 -3.4612e-09           -3.8e-13              -2e-14                3.4602e-09           
  -1                    -1.12746e-08          -3.8e-13              4e-14                 1.12708e-08          
  -1.05                 -3.0242e-08           -3.8e-13              2e-14                 3.0266e-08           
  -1.1                  -6.562e-08            -5e-13                0                     6.5654e-08           
  -1.15                 -1.1896e-07           -5.2e-13              -2e-14                1.1912e-07           
  -1.2                  -1.8682e-07           -5.6e-13              2e-14                 1.87e-07             
  -1.25                 -2.6486e-07           -6e-13                4e-14                 2.6508e-07           
  -1.3                  -3.4878e-07           -5.8e-13              6e-14                 3.4898e-07           
  -1.35                 -4.355e-07            -6.4e-13              0                     4.3576e-07           
  -1.4                  -5.2414e-07           -6.2e-13              4e-14                 5.244e-07            
  -1.45                 -6.1298e-07           -5.8e-13              0                     6.132e-07            
  -1.5                  -7.0202e-07           -6e-13                -6e-14                7.0226e-07           
  -1.55                 -7.9024e-07           -5.6e-13              1.2e-13               7.905e-07            
  -1.6                  -8.7822e-07           -6.4e-13              8e-14                 8.7848e-07           
  -1.65                 -9.65e-07             -5.6e-13              -4e-14                9.653e-07            
  -1.7                  -1.05086e-06          -6e-13                8e-14                 1.05116e-06          
  -1.75                 -1.1359e-06           -6e-13                6e-14                 1.13618e-06          
  -1.8                  -1.218e-06            -4.6e-13              1e-13                 1.2218e-06           
  -1.85                 -1.3006e-06           -6.6e-13              -6e-14                1.3044e-06           
  -1.9                  -1.3822e-06           -7e-13                6e-14                 1.3858e-06           
  -1.95                 -1.4628e-06           -7e-13                -2e-14                1.4666e-06           
  -2                    -1.542e-06            -6.4e-13              0                     1.5458e-06           
  -2.05                 -1.6202e-06           -6.8e-13              -4e-14                1.6238e-06           
  -2.1                  -1.6974e-06           -6.6e-13              6e-14                 1.7012e-06           
  -2.15                 -1.7732e-06           -7.4e-13              -1.4e-13              1.777e-06            
  -2.2                  -1.8482e-06           -9.2e-13              0                     1.8518e-06           
  -2.25                 -1.9218e-06           -6e-13                -8e-14                1.9254e-06           
  -2.3                  -1.9946e-06           -7.2e-13              1e-13                 1.9984e-06           
  -2.35                 -2.0662e-06           -6.6e-13              -1e-13                2.0698e-06           
  -2.4                  -2.137e-06            -6.6e-13              0                     2.1406e-06           
  -2.45                 -2.2064e-06           -5.8e-13              2e-14                 2.21e-06             
  -2.5                  -2.2748e-06           -7.4e-13              -4e-14                2.2786e-06           
  -2.55                 -2.3422e-06           -7.6e-13              0                     2.3458e-06           
  -2.6                  -2.4088e-06           -7.8e-13              0                     2.4124e-06           
  -2.65                 -2.4744e-06           -6.8e-13              -2e-14                2.4782e-06           
  -2.7                  -2.5388e-06           -7.4e-13              0                     2.5426e-06           
  -2.75                 -2.6026e-06           -8e-13                -4e-14                2.6062e-06           
  -2.8                  -2.6652e-06           -8e-13                2e-14                 2.669e-06            
  -2.85                 -2.7268e-06           -7.6e-13              4e-14                 2.7306e-06           
  -2.9                  -2.7878e-06           -7.4e-13              -2e-14                2.7914e-06           
  -2.95                 -2.8474e-06           -7.6e-13              2e-14                 2.8512e-06           
  -3                    -2.9066e-06           -7.8e-13              -2e-14                2.9102e-06           
  -3.05                 -2.9646e-06           -7.2e-13              8e-14                 2.9684e-06           
  -3.1                  -3.0218e-06           -8.2e-13              -4e-14                3.0252e-06           
  -3.15                 -3.0782e-06           -7.8e-13              -2e-14                3.0818e-06           
  -3.2                  -3.1336e-06           -7.6e-13              -8e-14                3.1374e-06           
  -3.25                 -3.1882e-06           -6.4e-13              -6e-14                3.1918e-06           
  -3.3                  -3.2422e-06           -7.6e-13              -1e-13                3.2458e-06           
  -3.35                 -3.2954e-06           -7.8e-13              6e-14                 3.2988e-06           
  -3.4                  -3.3474e-06           -7.8e-13              -2e-13                3.351e-06            
  -3.45                 -3.3988e-06           -8.4e-13              -4e-14                3.4024e-06           
