! VERSION = 6.00
BEGIN_HEADER
 ICCAP_INPUTS
  vd         V  D GROUND SMU1 0.1 LIN        1    -0         -3.6       37   -0.1      
  vg         V  G GROUND SMU2 0.001 LIN        2    -1.496     -3.6       5    -0.526    
  vb         V  B GROUND SMU4 0.1 CON        3.6
  vs         V  S GROUND SMU3 0.1 CON        -0
 ICCAP_OUTPUTS
  id         I  D GROUND SMU1 B
  ig         I  G GROUND SMU2 B
  ib         I  B GROUND SMU4 B
  is         I  S GROUND SMU3 B
 ICCAP_VALUES
  MASTER_SETUP_TYPE "~dc_idvd~"
  LINVT_VALUE "|idvg|100.0n|100.0m|1.000m|5|3.600|"
  LISTVT_VALUE ""
  TYPE "-1"
  TEMP " 27.0000 "
  IS_TNOM " 1.00000 "
  MAIN.W "10.00u"
  MAIN.L "300.0n"
  MAIN.AD "3.400p"
  MAIN.AS "3.400p"
  MAIN.PD "20.68u"
  MAIN.PS "20.68u"
  MAIN.NF "1.000"
  MAIN.M "1"
  MAIN.NRD "0.000"
  MAIN.NRS "0.000"
  MAIN.LDRIFT1 "1E-06"
  MAIN.LDRIFT2 "1E-06"
  MAIN.SA "0.000"
  MAIN.SB "0.000"
  MAIN.SD "0.000"
  MAIN.SCA "0.000"
  MAIN.SCB "0.000"
  MAIN.SCC "0.000"
  MAIN.SC "0.000"
  MODULE "S561"
  PIN_D "20"
  PIN_G "1"
  PIN_S "2"
  PIN_B "19"
  PIN_E ""
  PIN_6 ""
  XY_ID ""
  FUNC "Additional"
  STI "SA ref"
  WPE "WPE ref"
  COMMENT ""
  DIS_MEAS ""
  TypeTCI "10"
END_HEADER

BEGIN_DB
 ICCAP_VAR vg         -1.496         
 ICCAP_VAR vb         3.6            
 ICCAP_VAR vs         -0             

 #vd                    id                    ig                    ib                    is                   
  -0                    2.036e-09             -6.2e-13              1.6e-12               -2.5036e-09          
  -0.1                  -3.418e-06            -3.8e-13              1.28e-12              3.4206e-06           
  -0.2                  -4.6914e-06           -3.4e-13              1.44e-12              4.704e-06            
  -0.3                  -5.6742e-06           -3.4e-13              1.16e-12              5.6804e-06           
  -0.4                  -6.5892e-06           -3e-13                1.22e-12              6.5862e-06           
  -0.5                  -7.475e-06            -3.4e-13              1.18e-12              7.4938e-06           
  -0.6                  -8.3702e-06           -2.2e-13              1.08e-12              8.372e-06            
  -0.7                  -9.243e-06            -2.4e-13              9.2e-13               9.227e-06            
  -0.8                  -1.01252e-05          -2.6e-13              1.04e-12              1.01082e-05          
  -0.9                  -1.098e-05            -2e-13                9.8e-13               1.099e-05            
  -1                    -1.1874e-05           -2.6e-13              9.4e-13               1.1886e-05           
  -1.1                  -1.278e-05            -2.4e-13              9.4e-13               1.2802e-05           
  -1.2                  -1.3748e-05           -2.4e-13              7.6e-13               1.3744e-05           
  -1.3                  -1.4682e-05           -2.4e-13              8.4e-13               1.47e-05             
  -1.4                  -1.5642e-05           -3.4e-13              8.6e-13               1.5694e-05           
  -1.5                  -1.6626e-05           -2.6e-13              7.6e-13               1.6668e-05           
  -1.6                  -1.7686e-05           -1.8e-13              8.2e-13               1.7688e-05           
  -1.7                  -1.869e-05            -1.8e-13              1.26e-12              1.8712e-05           
  -1.8                  -1.9754e-05           -2.6e-13              2.3e-12               1.978e-05            
  -1.9                  -2.0902e-05           -2.8e-13              4.78e-12              2.0912e-05           
  -2                    -2.202e-05            -2.4e-13              1.09e-11              2.2038e-05           
  -2.1                  -2.3188e-05           -2.8e-13              2.526e-11             2.3164e-05           
  -2.2                  -2.434e-05            -2.6e-13              5.65e-11              2.437e-05            
  -2.3                  -2.5622e-05           -2.4e-13              1.2148e-10            2.5608e-05           
  -2.4                  -2.6858e-05           -3.6e-13              2.5054e-10            2.6884e-05           
  -2.5                  -2.815e-05            -1.6e-13              4.9866e-10            2.8186e-05           
  -2.6                  -2.9524e-05           -4e-13                9.6012e-10            2.9536e-05           
  -2.7                  -3.0924e-05           -3e-13                1.7966e-09            3.0946e-05           
  -2.8                  -3.2426e-05           -1.2e-13              3.2588e-09            3.2388e-05           
  -2.9                  -3.3858e-05           -2e-13                5.791e-09             3.3932e-05           
  -3                    -3.5408e-05           -3e-13                1.003e-08             3.5412e-05           
  -3.1                  -3.7008e-05           -2e-14                1.6952e-08            3.6938e-05           
  -3.2                  -3.8596e-05           -1.6e-13              2.817e-08             3.8572e-05           
  -3.3                  -4.0274e-05           -1e-13                4.5818e-08            4.0178e-05           
  -3.4                  -4.2026e-05           -1.4e-13              7.325e-08             4.1938e-05           
  -3.5                  -4.3842e-05           -1.6e-13              1.1528e-07            4.3746e-05           
  -3.6                  -4.5774e-05           -1.8e-13              1.7758e-07            4.567e-05            
END_DB

BEGIN_DB
 ICCAP_VAR vg         -2.022         
 ICCAP_VAR vb         3.6            
 ICCAP_VAR vs         -0             

 #vd                    id                    ig                    ib                    is                   
  -0                    4.6886e-08            -2e-13                2.8e-13               -4.3838e-08          
  -0.1                  -7.0598e-05           -2.8e-13              3.4e-13               7.0646e-05           
  -0.2                  -0.0001269            -2.4e-13              4e-13                 0.00012728           
  -0.3                  -0.00016964           -2.4e-13              3.4e-13               0.00017002           
  -0.4                  -0.00020052           -3e-13                2.2e-13               0.0002009            
  -0.5                  -0.00022288           -2.8e-13              4.2e-13               0.0002233            
  -0.6                  -0.00023944           -1.8e-13              3.8e-13               0.0002398            
  -0.7                  -0.00025234           -3e-13                4e-13                 0.0002528            
  -0.8                  -0.00026312           -2.6e-13              3.4e-13               0.00026354           
  -0.9                  -0.0002726            -2e-13                3.6e-13               0.00027288           
  -1                    -0.00028096           -2e-13                3.8e-13               0.0002814            
  -1.1                  -0.00028886           -8e-14                2.6e-13               0.00028912           
  -1.2                  -0.0002961            -1.4e-13              3e-13                 0.00029654           
  -1.3                  -0.0003031            -2e-13                3.6e-13               0.0003034            
  -1.4                  -0.0003097            -2.4e-13              3.2e-13               0.00031008           
  -1.5                  -0.00031626           -2.4e-13              2.8e-13               0.0003165            
  -1.6                  -0.00032252           -2e-13                4.4e-13               0.00032292           
  -1.7                  -0.00032864           -2.6e-13              5e-13                 0.00032906           
  -1.8                  -0.00033464           -2e-13                1.1e-12               0.00033504           
  -1.9                  -0.00034044           -2.4e-13              2.74e-12              0.00034088           
  -2                    -0.00034632           -1.8e-13              7.54e-12              0.00034652           
  -2.1                  -0.00035208           -1.8e-13              2.044e-11             0.00035244           
  -2.2                  -0.00035776           -2e-13                5.236e-11             0.00035808           
  -2.3                  -0.00036318           -2.2e-13              1.2616e-10            0.0003637            
  -2.4                  -0.00036886           -2.4e-13              2.8776e-10            0.00036912           
  -2.5                  -0.00037452           -2.6e-13              6.27e-10              0.00037492           
  -2.6                  -0.00038004           -2e-13                1.305e-09             0.00038052           
  -2.7                  -0.00038578           -2e-13                2.6094e-09            0.0003861            
  -2.8                  -0.00039142           -1.6e-13              5.0456e-09            0.00039188           
  -2.9                  -0.00039714           -1.2e-13              9.4458e-09            0.00039764           
  -3                    -0.00040302           -1.4e-13              1.721e-08             0.0004034            
  -3.1                  -0.00040878           -1.2e-13              3.0554e-08            0.00040924           
  -3.2                  -0.00041466           -2.8e-13              5.301e-08             0.00041508           
  -3.3                  -0.00042054           -1.8e-13              9.0004e-08            0.00042086           
  -3.4                  -0.00042664           -4e-14                1.4962e-07            0.00042648           
  -3.5                  -0.00043232           -1.4e-13              2.4368e-07            0.0004322            
  -3.6                  -0.00043816           -2.4e-13              3.8982e-07            0.00043782           
END_DB

BEGIN_DB
 ICCAP_VAR vg         -2.548         
 ICCAP_VAR vb         3.6            
 ICCAP_VAR vs         -0             

 #vd                    id                    ig                    ib                    is                   
  -0                    7.475e-08             -1.4e-13              2e-13                 -6.5522e-08          
  -0.1                  -0.0001257            -1.6e-13              1.4e-13               0.00012606           
  -0.2                  -0.0002406            -2.2e-13              2.8e-13               0.00024094           
  -0.3                  -0.00034334           -3.8e-13              2.6e-13               0.0003437            
  -0.4                  -0.00043336           -1.8e-13              2e-13                 0.00043376           
  -0.5                  -0.00051098           -2.8e-13              3.2e-13               0.00051122           
  -0.6                  -0.00057634           -2.8e-13              3e-13                 0.00057678           
  -0.7                  -0.00063048           -3e-13                2e-13                 0.00063078           
  -0.8                  -0.00067474           -2.2e-13              1.2e-13               0.00067526           
  -0.9                  -0.0007111            -2.6e-13              3.4e-13               0.00071144           
  -1                    -0.00074072           -2.6e-13              2.4e-13               0.00074114           
  -1.1                  -0.00076554           -2.8e-13              2e-13                 0.0007659            
  -1.2                  -0.00078664           -2e-13                2.2e-13               0.00078692           
  -1.3                  -0.00080522           -2.2e-13              2.2e-13               0.00080558           
  -1.4                  -0.00082152           -2.2e-13              1.8e-13               0.0008219            
  -1.5                  -0.00083636           -2.6e-13              1.6e-13               0.00083662           
  -1.6                  -0.00085034           -2.4e-13              1.8e-13               0.00085064           
  -1.7                  -0.00086316           -1.8e-13              1.6e-13               0.00086358           
  -1.8                  -0.0008754            -2.2e-13              2.6e-13               0.00087568           
  -1.9                  -0.0008872            -2.4e-13              4.8e-13               0.00088736           
  -2                    -0.00089814           -2.6e-13              1.34e-12              0.00089862           
  -2.1                  -0.00090898           -3.2e-13              3.94e-12              0.00090936           
  -2.2                  -0.00091936           -2.2e-13              1.108e-11             0.00091992           
  -2.3                  -0.00092974           -2e-13                3.006e-11             0.00092996           
  -2.4                  -0.00093964           -2e-13                7.668e-11             0.00093994           
  -2.5                  -0.00094918           -1.6e-13              1.8346e-10            0.00094968           
  -2.6                  -0.00095876           -2.6e-13              4.1598e-10            0.00095934           
  -2.7                  -0.00096804           -2.4e-13              8.9768e-10            0.00096856           
  -2.8                  -0.00097762           -2.2e-13              1.8598e-09            0.0009781            
  -2.9                  -0.00098692           -3e-13                3.7082e-09            0.00098714           
  -3                    -0.00099614           -2e-13                7.1518e-09            0.0009965            
  -3.1                  -0.00100516           -1.4e-13              1.3406e-08            0.0010062            
  -3.2                  -0.00101444           -1.8e-13              2.4484e-08            0.0010156            
  -3.3                  -0.00102354           -2.2e-13              4.3626e-08            0.0010246            
  -3.4                  -0.00103266           -2e-13                7.5926e-08            0.0010334            
  -3.5                  -0.00104132           -1.2e-13              1.2984e-07            0.0010418            
  -3.6                  -0.0010507            -1.8e-13              2.1714e-07            0.0010512            
END_DB

BEGIN_DB
 ICCAP_VAR vg         -3.074         
 ICCAP_VAR vb         3.6            
 ICCAP_VAR vs         -0             

 #vd                    id                    ig                    ib                    is                   
  -0                    9.795e-08             -3.2e-13              1.6e-13               -8.4022e-08          
  -0.1                  -0.00016714           -3.4e-13              2e-13                 0.00016752           
  -0.2                  -0.00032558           -2.2e-13              2.2e-13               0.00032596           
  -0.3                  -0.00047378           -2e-13                1.4e-13               0.00047424           
  -0.4                  -0.00061064           -2.4e-13              1e-13                 0.0006109            
  -0.5                  -0.00073632           -2.8e-13              1e-13                 0.00073676           
  -0.6                  -0.00085028           -2e-13                1.6e-13               0.0008506            
  -0.7                  -0.00095222           -2.4e-13              2.2e-13               0.00095264           
  -0.8                  -0.0010428            -2.4e-13              8e-14                 0.00104316           
  -0.9                  -0.00112238           -2.4e-13              1.4e-13               0.00112278           
  -1                    -0.0011908            -1.2e-13              1e-13                 0.0011928            
  -1.1                  -0.001251             -2e-13                2.2e-13               0.001253             
  -1.2                  -0.0013026            -2.6e-13              2.6e-13               0.0013044            
  -1.3                  -0.001347             -2e-13                4e-14                 0.0013488            
  -1.4                  -0.001385             -2.6e-13              4e-14                 0.0013868            
  -1.5                  -0.0014186            -2.4e-13              1.8e-13               0.0014208            
  -1.6                  -0.0014488            -2.4e-13              8e-14                 0.0014506            
  -1.7                  -0.001475             -1.8e-13              1.2e-13               0.0014766            
  -1.8                  -0.001498             -2e-13                1.6e-13               0.0015               
  -1.9                  -0.0015196            -2e-13                2.8e-13               0.0015218            
  -2                    -0.0015398            -3e-13                2.8e-13               0.0015418            
  -2.1                  -0.0015586            -8e-14                6.6e-13               0.0015606            
  -2.2                  -0.0015762            -2.4e-13              1.9e-12               0.001578             
  -2.3                  -0.0015922            -1.6e-13              5.4e-12               0.0015942            
  -2.4                  -0.001608             -3e-13                1.518e-11             0.00161              
  -2.5                  -0.001623             -2.8e-13              4.056e-11             0.001625             
  -2.6                  -0.0016376            -1e-13                1.0142e-10            0.0016394            
  -2.7                  -0.0016516            -2.8e-13              2.39e-10              0.0016534            
  -2.8                  -0.001665             -2.4e-13              5.336e-10             0.0016668            
  -2.9                  -0.0016784            -1.6e-13              1.13494e-09           0.0016802            
  -3                    -0.001691             -1.8e-13              2.3138e-09            0.0016934            
  -3.1                  -0.0017038            -3.4e-13              4.548e-09             0.0017058            
  -3.2                  -0.001716             -2.4e-13              8.6456e-09            0.0017184            
  -3.3                  -0.0017288            -1e-13                1.6062e-08            0.0017306            
  -3.4                  -0.0017404            -2e-13                2.896e-08             0.001742             
  -3.5                  -0.001752             -2e-13                5.1212e-08            0.0017536            
  -3.6                  -0.0017632            -1.2e-13              8.8846e-08            0.0017652            
END_DB

BEGIN_DB
 ICCAP_VAR vg         -3.6           
 ICCAP_VAR vb         3.6            
 ICCAP_VAR vs         -0             

 #vd                    id                    ig                    ib                    is                   
  -0                    1.14474e-07           -3.2e-13              2.4e-13               -9.5022e-08          
  -0.1                  -0.0002001            -2.8e-13              2.4e-13               0.00020048           
  -0.2                  -0.00039304           -3.2e-13              1.6e-13               0.0003934            
  -0.3                  -0.00057704           -2.8e-13              1.2e-13               0.00057742           
  -0.4                  -0.00075088           -2.6e-13              1.2e-13               0.00075128           
  -0.5                  -0.0009148            -2.2e-13              1.6e-13               0.00091534           
  -0.6                  -0.00106826           -3.6e-13              1.4e-13               0.00106852           
  -0.7                  -0.001209             -2.4e-13              2.6e-13               0.001211             
  -0.8                  -0.00134              -3e-13                1.6e-13               0.001342             
