! VERSION = 6.00
BEGIN_HEADER
 ICCAP_INPUTS
  vd         V  D GROUND SMU1 0.1 LIN        1    -0         -3.6       37   -0.1      
  vg         V  G GROUND SMU2 0.001 LIST       2 3 -0.492 -0.692 -0.892
  vb         V  B GROUND SMU4 0.1 CON        -0
  vs         V  S GROUND SMU3 0.1 CON        -0
 ICCAP_OUTPUTS
  id         I  D GROUND SMU1 B
  ig         I  G GROUND SMU2 B
  ib         I  B GROUND SMU4 B
  is         I  S GROUND SMU3 B
 ICCAP_VALUES
  MASTER_SETUP_TYPE "~dc_idvd~"
  LINVT_VALUE ""
  LISTVT_VALUE "|idvg|100.0n|-200.0m|1.000m|3|200.0m|200.0m|"
  TYPE "-1"
  TEMP " 27.0000 "
  IS_TNOM " 1.00000 "
  MAIN.W "2.000u"
  MAIN.L "3.000u"
  MAIN.AD "680.0f"
  MAIN.AS "680.0f"
  MAIN.PD "4.680u"
  MAIN.PS "4.680u"
  MAIN.NF "1.000"
  MAIN.M "1"
  MAIN.NRD "0.000"
  MAIN.NRS "0.000"
  MAIN.LDRIFT1 "1E-06"
  MAIN.LDRIFT2 "1E-06"
  MAIN.SA "0.000"
  MAIN.SB "0.000"
  MAIN.SD "0.000"
  MAIN.SCA "0.000"
  MAIN.SCB "0.000"
  MAIN.SCC "0.000"
  MAIN.SC "0.000"
  MODULE "S563"
  PIN_D "14"
  PIN_G "7"
  PIN_S "8"
  PIN_B "13"
  PIN_E ""
  PIN_6 ""
  XY_ID ""
  FUNC "LW Scale"
  STI "SA ref"
  WPE "WPE ref"
  COMMENT ""
  DIS_MEAS ""
  TypeTCI "10"
END_HEADER

BEGIN_DB
 ICCAP_VAR vg         -0.492         
 ICCAP_VAR vb         -0             
 ICCAP_VAR vs         -0             

 #vd                    id                    ig                    ib                    is                   
  -0                    7e-13                 5.2e-13               -4.4e-13              -1.46e-12            
  -0.1                  -8.4626e-10           3.6e-13               -5e-13                8.4576e-10           
  -0.2                  -8.654e-10            4e-13                 -4.8e-13              8.6514e-10           
  -0.3                  -8.6662e-10           5.2e-13               -4.8e-13              8.6612e-10           
  -0.4                  -8.6738e-10           3.2e-13               -5e-13                8.6728e-10           
  -0.5                  -8.6828e-10           3.4e-13               -5e-13                8.6772e-10           
  -0.6                  -8.6888e-10           3.2e-13               -5.4e-13              8.686e-10            
  -0.7                  -8.692e-10            1.2e-13               -6e-13                8.693e-10            
  -0.8                  -8.7014e-10           5.4e-13               -5.2e-13              8.6944e-10           
  -0.9                  -8.7038e-10           5.4e-13               -5.8e-13              8.7006e-10           
  -1                    -8.7086e-10           3.4e-13               -4.8e-13              8.7028e-10           
  -1.1                  -8.7124e-10           5.6e-13               -5.2e-13              8.7038e-10           
  -1.2                  -8.714e-10            -2e-14                -6.2e-13              8.7078e-10           
  -1.3                  -8.717e-10            1e-13                 -5e-13                8.709e-10            
  -1.4                  -8.7224e-10           2.6e-13               -5.6e-13              8.711e-10            
  -1.5                  -8.7222e-10           2.4e-13               -5.8e-13              8.7136e-10           
  -1.6                  -8.7278e-10           1.8e-13               -4.8e-13              8.7172e-10           
  -1.7                  -8.736e-10            4.4e-13               -5.2e-13              8.7236e-10           
  -1.8                  -8.736e-10            1.4e-13               -5.4e-13              8.7284e-10           
  -1.9                  -8.7406e-10           1e-13                 -4.6e-13              8.7296e-10           
  -2                    -8.7418e-10           1.8e-13               -5.2e-13              8.7306e-10           
  -2.1                  -8.7446e-10           2.4e-13               -4.6e-13              8.734e-10            
  -2.2                  -8.7466e-10           3e-13                 -5.2e-13              8.7342e-10           
  -2.3                  -8.7472e-10           3e-13                 -5.2e-13              8.737e-10            
  -2.4                  -8.7522e-10           1.2e-13               -4.6e-13              8.7418e-10           
  -2.5                  -8.7558e-10           1.4e-13               -3.6e-13              8.7442e-10           
  -2.6                  -8.757e-10            2.6e-13               -3.8e-13              8.743e-10            
  -2.7                  -8.7682e-10           2.6e-13               -3.8e-13              8.7518e-10           
  -2.8                  -8.7672e-10           4.2e-13               -1e-13                8.7496e-10           
  -2.9                  -8.7742e-10           2.2e-13               1e-13                 8.7574e-10           
  -3                    -8.78e-10             6e-14                 3.4e-13               8.761e-10            
  -3.1                  -8.7854e-10           0                     9e-13                 8.757e-10            
  -3.2                  -8.792e-10            -8e-14                1.48e-12              8.7606e-10           
  -3.3                  -8.8036e-10           2e-14                 2.34e-12              8.7616e-10           
  -3.4                  -8.818e-10            2.6e-13               3.52e-12              8.763e-10            
  -3.5                  -8.8352e-10           1.6e-13               4.94e-12              8.7674e-10           
  -3.6                  -8.8576e-10           4e-14                 6.9e-12               8.7702e-10           
END_DB

BEGIN_DB
 ICCAP_VAR vg         -0.692         
 ICCAP_VAR vb         -0             
 ICCAP_VAR vs         -0             

 #vd                    id                    ig                    ib                    is                   
  -0                    8.748e-11             0                     -3.8e-13              -8.884e-11           
  -0.1                  -6.4228e-08           1e-13                 -5.2e-13              6.4258e-08           
  -0.2                  -6.7364e-08           2.8e-13               -5.4e-13              6.7386e-08           
  -0.3                  -6.7526e-08           0                     -5.6e-13              6.756e-08            
  -0.4                  -6.758e-08            4e-14                 -4.6e-13              6.7608e-08           
  -0.5                  -6.7646e-08           0                     -4.4e-13              6.768e-08            
  -0.6                  -6.7676e-08           6e-14                 -5.2e-13              6.7696e-08           
  -0.7                  -6.7698e-08           2.2e-13               -4.6e-13              6.7742e-08           
  -0.8                  -6.7754e-08           1e-13                 -5e-13                6.777e-08            
  -0.9                  -6.7758e-08           -1e-13                -5.4e-13              6.7794e-08           
  -1                    -6.7786e-08           2e-14                 -6.2e-13              6.7836e-08           
  -1.1                  -6.783e-08            1.8e-13               -5.8e-13              6.7858e-08           
  -1.2                  -6.7858e-08           6e-14                 -6e-13                6.789e-08            
  -1.3                  -6.7862e-08           6e-14                 -5.4e-13              6.7904e-08           
  -1.4                  -6.7886e-08           2e-14                 -4.2e-13              6.7914e-08           
  -1.5                  -6.7912e-08           -6e-14                -7e-13                6.793e-08            
  -1.6                  -6.7934e-08           0                     -6.2e-13              6.7956e-08           
  -1.7                  -6.7946e-08           4e-14                 -6.4e-13              6.7994e-08           
  -1.8                  -6.8002e-08           -8e-14                -5.8e-13              6.803e-08            
  -1.9                  -6.8064e-08           1.6e-13               -4.6e-13              6.807e-08            
  -2                    -6.8044e-08           8e-14                 -4.2e-13              6.8078e-08           
  -2.1                  -6.8062e-08           1.8e-13               -2.4e-13              6.8082e-08           
  -2.2                  -6.807e-08            1.8e-13               -4e-14                6.8104e-08           
  -2.3                  -6.8096e-08           0                     5.2e-13               6.8116e-08           
  -2.4                  -6.8114e-08           2.6e-13               1.34e-12              6.8146e-08           
  -2.5                  -6.814e-08            3.2e-13               2.7e-12               6.8158e-08           
  -2.6                  -6.8154e-08           8e-14                 4.96e-12              6.818e-08            
  -2.7                  -6.817e-08            2.8e-13               8.64e-12              6.8182e-08           
  -2.8                  -6.819e-08            2e-14                 1.442e-11             6.8202e-08           
  -2.9                  -6.823e-08            -6e-14                2.322e-11             6.8218e-08           
  -3                    -6.8244e-08           1.8e-13               3.64e-11              6.8244e-08           
  -3.1                  -6.8296e-08           1.6e-13               5.576e-11             6.826e-08            
  -3.2                  -6.834e-08            1.4e-13               8.38e-11              6.828e-08            
  -3.3                  -6.8398e-08           -2e-14                1.236e-10             6.8298e-08           
  -3.4                  -6.8476e-08           6e-14                 1.7884e-10            6.8328e-08           
  -3.5                  -6.8576e-08           2.4e-13               2.548e-10             6.8338e-08           
  -3.6                  -6.8682e-08           3.6e-13               3.5708e-10            6.8348e-08           
END_DB

BEGIN_DB
 ICCAP_VAR vg         -0.892         
 ICCAP_VAR vb         -0             
 ICCAP_VAR vs         -0             

 #vd                    id                    ig                    ib                    is                   
  -0                    3.5994e-10            2.2e-13               -3.8e-13              -3.5892e-10          
  -0.1                  -4.6448e-07           -2.4e-13              -4.6e-13              4.6474e-07           
  -0.2                  -5.9884e-07           -2e-14                -5.4e-13              5.9916e-07           
  -0.3                  -6.1266e-07           2e-14                 -5.8e-13              6.1294e-07           
  -0.4                  -6.1416e-07           0                     -4.4e-13              6.1444e-07           
  -0.5                  -6.1488e-07           1.2e-13               -4.8e-13              6.151e-07            
  -0.6                  -6.1532e-07           -4e-14                -5.2e-13              6.1556e-07           
  -0.7                  -6.1572e-07           1.2e-13               -5.2e-13              6.1606e-07           
  -0.8                  -6.1604e-07           3.4e-13               -5.6e-13              6.1644e-07           
  -0.9                  -6.1654e-07           1.8e-13               -5.6e-13              6.168e-07            
  -1                    -6.1678e-07           -2e-14                -5.2e-13              6.17e-07             
  -1.1                  -6.171e-07            -2e-14                -4.6e-13              6.173e-07            
  -1.2                  -6.1708e-07           -2e-14                -6.6e-13              6.1744e-07           
  -1.3                  -6.173e-07            -2e-14                -5.6e-13              6.176e-07            
  -1.4                  -6.175e-07            6e-14                 -5.2e-13              6.1792e-07           
  -1.5                  -6.1778e-07           -2.6e-13              -6e-13                6.1796e-07           
  -1.6                  -6.1794e-07           -2e-14                -5.4e-13              6.182e-07            
  -1.7                  -6.1814e-07           0                     -5.4e-13              6.1848e-07           
  -1.8                  -6.1842e-07           -2.6e-13              -5.8e-13              6.1876e-07           
  -1.9                  -6.1858e-07           0                     -4.4e-13              6.1888e-07           
  -2                    -6.1866e-07           3.4e-13               -2.4e-13              6.1884e-07           
  -2.1                  -6.1886e-07           2.6e-13               1.6e-13               6.1914e-07           
  -2.2                  -6.19e-07             2.8e-13               1.1e-12               6.1918e-07           
  -2.3                  -6.1914e-07           4e-14                 2.88e-12              6.1936e-07           
  -2.4                  -6.194e-07            0                     5.88e-12              6.1972e-07           
  -2.5                  -6.1956e-07           4e-14                 1.146e-11             6.1986e-07           
  -2.6                  -6.1976e-07           2.6e-13               2.084e-11             6.2002e-07           
  -2.7                  -6.1982e-07           -2e-14                3.656e-11             6.2004e-07           
  -2.8                  -6.2006e-07           2e-14                 6.218e-11             6.2034e-07           
  -2.9                  -6.2028e-07           1.6e-13               1.0268e-10            6.2052e-07           
  -3                    -6.204e-07            1.8e-13               1.655e-10             6.2058e-07           
  -3.1                  -6.207e-07            2.6e-13               2.6086e-10            6.207e-07            
  -3.2                  -6.2098e-07           1.2e-13               4.0338e-10            6.2096e-07           
  -3.3                  -6.2148e-07           -4e-14                6.1182e-10            6.2114e-07           
  -3.4                  -6.219e-07            2.2e-13               9.1002e-10            6.2124e-07           
  -3.5                  -6.2234e-07           1.8e-13               1.3324e-09            6.213e-07            
  -3.6                  -6.2296e-07           -2e-14                1.9164e-09            6.2146e-07           
END_DB

