! VERSION = 6.00
BEGIN_HEADER
 ICCAP_INPUTS
  vd         V  D GROUND SMU1 0.1 LIN        1    -0         -3.6       37   -0.1      
  vg         V  G GROUND SMU2 0.001 LIN        2    -1.752     -3.6       5    -0.462    
  vb         V  B GROUND SMU4 0.1 CON        3.6
  vs         V  S GROUND SMU3 0.1 CON        -0
 ICCAP_OUTPUTS
  id         I  D GROUND SMU1 B
  ig         I  G GROUND SMU2 B
  ib         I  B GROUND SMU4 B
  is         I  S GROUND SMU3 B
 ICCAP_VALUES
  MASTER_SETUP_TYPE "~dc_idvd~"
  LINVT_VALUE "|idvg|100.0n|100.0m|1.000m|5|3.600|"
  LISTVT_VALUE ""
  TYPE "-1"
  TEMP "-40.0000 "
  IS_TNOM " 0.00000 "
  MAIN.W "10.00u"
  MAIN.L "350.0n"
  MAIN.AD "3.400p"
  MAIN.AS "3.400p"
  MAIN.PD "20.68u"
  MAIN.PS "20.68u"
  MAIN.NF "1.000"
  MAIN.M "1"
  MAIN.NRD "0.000"
  MAIN.NRS "0.000"
  MAIN.LDRIFT1 "1E-06"
  MAIN.LDRIFT2 "1E-06"
  MAIN.SA "0.000"
  MAIN.SB "0.000"
  MAIN.SD "0.000"
  MAIN.SCA "0.000"
  MAIN.SCB "0.000"
  MAIN.SCC "0.000"
  MAIN.SC "0.000"
  MODULE "S561"
  PIN_D "16"
  PIN_G "5"
  PIN_S "6"
  PIN_B "15"
  PIN_E ""
  PIN_6 ""
  XY_ID ""
  FUNC "Short"
  STI "SA ref"
  WPE "WPE ref"
  COMMENT ""
  DIS_MEAS ""
  TypeTCI "10"
END_HEADER

BEGIN_DB
 ICCAP_VAR vg         -1.752         
 ICCAP_VAR vb         3.6            
 ICCAP_VAR vs         -0             

 #vd                    id                    ig                    ib                    is                   
  -0                    1.6058e-09            -6e-13                1e-12                 -2.6086e-09          
  -0.1                  -5.2186e-06           -8e-14                9.2e-13               5.2208e-06           
  -0.2                  -6.9358e-06           -2e-13                9e-13                 6.9518e-06           
  -0.3                  -8.0656e-06           -3.8e-13              9.4e-13               8.0558e-06           
  -0.4                  -8.9574e-06           -1e-13                8e-13                 8.961e-06            
  -0.5                  -9.767e-06            -1.8e-13              8.8e-13               9.7734e-06           
  -0.6                  -1.05408e-05          -5e-13                8.4e-13               1.0543e-05           
  -0.7                  -1.1246e-05           -1.6e-13              7.8e-13               1.12532e-05          
  -0.8                  -1.1922e-05           -3.6e-13              7.4e-13               1.1932e-05           
  -0.9                  -1.2582e-05           0                     7.8e-13               1.26e-05             
  -1                    -1.3226e-05           2.6e-13               7.4e-13               1.3246e-05           
  -1.1                  -1.3866e-05           -1.8e-13              6.4e-13               1.3886e-05           
  -1.2                  -1.451e-05            1.2e-13               6.6e-13               1.4528e-05           
  -1.3                  -1.5142e-05           -6e-13                5.2e-13               1.5162e-05           
  -1.4                  -1.5794e-05           3.2e-13               6.2e-13               1.5784e-05           
  -1.5                  -1.6392e-05           8e-14                 6.6e-13               1.6414e-05           
  -1.6                  -1.7012e-05           -1e-13                6e-13                 1.7032e-05           
  -1.7                  -1.7638e-05           -3e-13                7e-13                 1.7658e-05           
  -1.8                  -1.8264e-05           -2e-14                6.6e-13               1.8242e-05           
  -1.9                  -1.8852e-05           -8e-14                1e-12                 1.8864e-05           
  -2                    -1.9482e-05           8e-14                 2.14e-12              1.9498e-05           
  -2.1                  -2.012e-05            -2.4e-13              5.14e-12              2.0134e-05           
  -2.2                  -2.076e-05            8e-14                 1.208e-11             2.0772e-05           
  -2.3                  -2.1404e-05           1e-13                 2.83e-11              2.1418e-05           
  -2.4                  -2.2066e-05           -6e-14                6.388e-11             2.209e-05            
  -2.5                  -2.2736e-05           1.2e-13               1.3766e-10            2.2754e-05           
  -2.6                  -2.3408e-05           -8e-14                2.8548e-10            2.3424e-05           
  -2.7                  -2.4082e-05           2.4e-13               5.7026e-10            2.4096e-05           
  -2.8                  -2.4764e-05           2.4e-13               1.10322e-09           2.4784e-05           
  -2.9                  -2.548e-05            0                     2.07e-09              2.551e-05            
  -3                    -2.62e-05             -6e-14                3.7774e-09            2.6202e-05           
  -3.1                  -2.6898e-05           2e-14                 6.711e-09             2.6888e-05           
  -3.2                  -2.7592e-05           -2e-13                1.1636e-08            2.7586e-05           
  -3.3                  -2.8338e-05           2e-14                 1.9756e-08            2.8302e-05           
  -3.4                  -2.9024e-05           4e-14                 3.2772e-08            2.9e-05              
  -3.5                  -2.9748e-05           -3e-13                5.3216e-08            2.9684e-05           
  -3.6                  -3.0492e-05           1.4e-13               8.5024e-08            3.038e-05            
END_DB

BEGIN_DB
 ICCAP_VAR vg         -2.214         
 ICCAP_VAR vb         3.6            
 ICCAP_VAR vs         -0             

 #vd                    id                    ig                    ib                    is                   
  -0                    3.0888e-08            -1.4e-13              2.4e-13               -2.9688e-08          
  -0.1                  -6.7084e-05           -5.2e-13              1.8e-13               6.7114e-05           
  -0.2                  -0.00011906           -2e-14                1.4e-13               0.0001194            
  -0.3                  -0.00015698           -1e-13                1.6e-13               0.00015738           
  -0.4                  -0.0001831            -5e-13                2.4e-13               0.00018342           
  -0.5                  -0.00020084           -1.4e-13              2e-13                 0.0002012            
  -0.6                  -0.00021326           2.2e-13               2e-13                 0.00021364           
  -0.7                  -0.00022244           -2e-13                4e-13                 0.00022288           
  -0.8                  -0.0002299            -2e-14                2.4e-13               0.00023022           
  -0.9                  -0.00023604           -4.6e-13              2.2e-13               0.00023638           
  -1                    -0.00024134           8e-14                 2.6e-13               0.00024174           
  -1.1                  -0.00024624           1.8e-13               2.4e-13               0.00024656           
  -1.2                  -0.0002507            -4e-13                2.4e-13               0.00025104           
  -1.3                  -0.00025482           -1.6e-13              2.2e-13               0.00025518           
  -1.4                  -0.0002587            -4.4e-13              3.4e-13               0.000259             
  -1.5                  -0.00026256           4e-14                 3e-13                 0.00026288           
  -1.6                  -0.00026616           4e-13                 2.8e-13               0.00026662           
  -1.7                  -0.00026986           -4.6e-13              3e-13                 0.00027024           
  -1.8                  -0.00027334           -8e-14                2.6e-13               0.00027368           
  -1.9                  -0.00027662           -6e-14                4.6e-13               0.000277             
  -2                    -0.00027986           -6e-14                1.14e-12              0.00028014           
  -2.1                  -0.00028296           5e-13                 3.12e-12              0.0002833            
  -2.2                  -0.00028612           -1.2e-13              8.84e-12              0.00028646           
  -2.3                  -0.00028922           -1.6e-13              2.442e-11             0.0002896            
  -2.4                  -0.00029222           -8e-14                6.31e-11              0.00029248           
  -2.5                  -0.00029512           2e-13                 1.534e-10             0.0002955            
  -2.6                  -0.00029804           1.4e-13               3.5374e-10            0.00029848           
  -2.7                  -0.00030106           -2.4e-13              7.7744e-10            0.00030134           
  -2.8                  -0.00030402           -3e-13                1.6378e-09            0.00030456           
  -2.9                  -0.000307             -4e-14                3.3178e-09            0.00030736           
  -3                    -0.00030996           0                     6.4972e-09            0.00031024           
  -3.1                  -0.0003127            2e-14                 1.2296e-08            0.00031286           
  -3.2                  -0.00031526           -6e-14                2.27e-08              0.0003156            
  -3.3                  -0.00031806           2.8e-13               4.0856e-08            0.000318             
  -3.4                  -0.00032024           1.8e-13               7.1582e-08            0.00032016           
  -3.5                  -0.00032236           3.4e-13               1.2326e-07            0.000322             
  -3.6                  -0.0003243            -1.4e-13              2.0744e-07            0.00032366           
END_DB

BEGIN_DB
 ICCAP_VAR vg         -2.676         
 ICCAP_VAR vb         3.6            
 ICCAP_VAR vs         -0             

 #vd                    id                    ig                    ib                    is                   
  -0                    5.2492e-08            -1e-13                0                     -4.5128e-08          
  -0.1                  -0.0001161            -1.4e-13              1.4e-13               0.00011644           
  -0.2                  -0.0002204            -2.2e-13              2e-13                 0.00022074           
  -0.3                  -0.00031164           -2.2e-13              1.8e-13               0.00031196           
  -0.4                  -0.00038922           -1.2e-13              2.4e-13               0.00038958           
  -0.5                  -0.00045384           3e-13                 1.2e-13               0.0004542            
  -0.6                  -0.0005062            -3.6e-13              4e-14                 0.00050654           
  -0.7                  -0.00054736           -3.4e-13              1.4e-13               0.00054768           
  -0.8                  -0.00057966           -8e-14                2e-13                 0.00058002           
  -0.9                  -0.00060464           1e-13                 1.6e-13               0.00060498           
  -1                    -0.0006243            1.6e-13               8e-14                 0.0006248            
  -1.1                  -0.0006404            -2.6e-13              2e-13                 0.00064072           
  -1.2                  -0.00065352           -3.2e-13              1.2e-13               0.00065388           
  -1.3                  -0.0006648            -2e-13                1.8e-13               0.00066524           
  -1.4                  -0.00067458           -3.4e-13              1.8e-13               0.0006749            
  -1.5                  -0.00068344           -4e-14                2.2e-13               0.00068366           
  -1.6                  -0.00069158           -2.8e-13              2e-13                 0.00069194           
  -1.7                  -0.00069912           -2.4e-13              1.4e-13               0.00069964           
  -1.8                  -0.00070614           -8e-14                1.4e-13               0.0007065            
  -1.9                  -0.0007132            -1.2e-13              1e-13                 0.0007134            
  -2                    -0.00071942           6e-14                 2.4e-13               0.00071972           
  -2.1                  -0.00072548           4.4e-13               6.6e-13               0.00072596           
  -2.2                  -0.00073158           -3e-13                1.62e-12              0.00073192           
  -2.3                  -0.00073722           -1.8e-13              4.86e-12              0.00073746           
  -2.4                  -0.00074258           2.2e-13               1.452e-11             0.00074296           
  -2.5                  -0.00074788           1e-13                 3.99e-11              0.0007483            
  -2.6                  -0.00075324           -3.6e-13              1.0252e-10            0.00075346           
  -2.7                  -0.00075818           -2e-14                2.4844e-10            0.0007584            
  -2.8                  -0.00076318           -2.6e-13              5.6794e-10            0.00076352           
  -2.9                  -0.00076824           -1.4e-13              1.244e-09             0.00076872           
  -3                    -0.00077298           8e-14                 2.604e-09             0.00077334           
  -3.1                  -0.0007779            6e-14                 5.26e-09              0.00077828           
  -3.2                  -0.00078266           -1.2e-13              1.03054e-08           0.00078292           
  -3.3                  -0.0007874            -2.2e-13              1.9662e-08            0.0007872            
  -3.4                  -0.00079126           -4e-13                3.649e-08             0.00079092           
  -3.5                  -0.00079482           -1e-13                6.6212e-08            0.00079454           
  -3.6                  -0.00079662           -3.4e-13              1.184e-07             0.00079406           
END_DB

BEGIN_DB
 ICCAP_VAR vg         -3.138         
 ICCAP_VAR vb         3.6            
 ICCAP_VAR vs         -0             

 #vd                    id                    ig                    ib                    is                   
  -0                    6.8282e-08            -1.8e-13              1e-13                 -5.6474e-08          
  -0.1                  -0.00015326           -1e-13                6e-14                 0.0001536            
  -0.2                  -0.00029684           0                     8e-14                 0.00029722           
  -0.3                  -0.0004292            -7.4e-13              8e-14                 0.00042956           
  -0.4                  -0.00054932           -4.2e-13              1.4e-13               0.00054972           
  -0.5                  -0.00065736           1e-13                 2e-13                 0.00065766           
  -0.6                  -0.00075274           -1.8e-13              2e-13                 0.00075316           
  -0.7                  -0.00083558           -5.8e-13              1.4e-13               0.00083606           
  -0.8                  -0.00090714           -2.2e-13              2e-13                 0.00090744           
  -0.9                  -0.00096752           -5.6e-13              1.8e-13               0.0009679            
  -1                    -0.00101794           1.6e-13               1.2e-13               0.00101822           
  -1.1                  -0.00105968           6e-14                 2e-14                 0.00106006           
  -1.2                  -0.00109468           -1.6e-13              1.2e-13               0.00109494           
  -1.3                  -0.00112358           -1e-13                4e-14                 0.00112366           
  -1.4                  -0.00114714           -2e-13                1e-13                 0.00114748           
  -1.5                  -0.0011668            -2.8e-13              1e-13                 0.0011686            
  -1.6                  -0.0011846            -2e-14                2.2e-13               0.0011862            
  -1.7                  -0.0011996            3.4e-13               1.4e-13               0.0012012            
  -1.8                  -0.0012132            1.6e-13               2e-13                 0.001215             
  -1.9                  -0.0012258            -8e-14                1.8e-13               0.0012274            
  -2                    -0.0012374            -1.8e-13              1.6e-13               0.001239             
  -2.1                  -0.0012478            -5.2e-13              2.4e-13               0.0012496            
  -2.2                  -0.0012576            -8e-14                3.4e-13               0.0012592            
  -2.3                  -0.001267             0                     7.2e-13               0.0012686            
  -2.4                  -0.0012754            -4e-14                2.36e-12              0.001277             
  -2.5                  -0.0012838            -2.4e-13              7.46e-12              0.0012858            
  -2.6                  -0.0012922            -2e-13                2.142e-11             0.0012934            
  -2.7                  -0.0012996            -4e-14                5.812e-11             0.001301             
  -2.8                  -0.001307             3.8e-13               1.4642e-10            0.0013088            
  -2.9                  -0.0013144            -3.8e-13              3.4786e-10            0.001316             
  -3                    -0.0013214            4e-14                 7.8312e-10            0.0013234            
  -3.1                  -0.0013286            -1.2e-13              1.681e-09             0.0013302            
  -3.2                  -0.0013346            1e-13                 3.4754e-09            0.0013362            
  -3.3                  -0.0013416            1.4e-13               6.9508e-09            0.0013432            
  -3.4                  -0.0013474            -4e-13                1.3518e-08            0.0013488            
  -3.5                  -0.001353             2e-14                 2.5636e-08            0.001354             
  -3.6                  -0.0013578            1.2e-13               4.744e-08             0.0013584            
END_DB

BEGIN_DB
 ICCAP_VAR vg         -3.6           
 ICCAP_VAR vb         3.6            
 ICCAP_VAR vs         -0             

 #vd                    id                    ig                    ib                    is                   
  -0                    7.96e-08              -4.4e-13              -8e-14                -6.4988e-08          
  -0.1                  -0.00018306           -5.6e-13              8e-14                 0.00018344           
  -0.2                  -0.00035804           2.6e-13               4e-14                 0.0003584            
  -0.3                  -0.0005232            -2.6e-13              2e-14                 0.0005236            
  -0.4                  -0.00067746           -3e-13                0                     0.00067774           
  -0.5                  -0.00082072           -1.8e-13              4e-14                 0.00082104           
  -0.6                  -0.0009523            -2.6e-13              0                     0.00095258           
  -0.7                  -0.00107186           4e-14                 4e-14                 0.00107222           
  -0.8                  -0.0011792            1e-13                 2e-14                 0.0011808            
