! VERSION = 6.00
BEGIN_HEADER
 ICCAP_INPUTS
  vg         V  G GROUND SMU2 0.001 LIN        1    0.5        -3.6       83   -0.05     
  vb         V  B GROUND SMU4 0.1 LIN        2    0          3.6        5    0.9       
  vd         V  D GROUND SMU1 0.1 LIN        3    -0.1       -3.3       3    -1.6      
  vs         V  S GROUND SMU3 0.1 CON        -0
 ICCAP_OUTPUTS
  id         I  D GROUND SMU1 B
  ig         I  G GROUND SMU2 B
  ib         I  B GROUND SMU4 B
  is         I  S GROUND SMU3 B
 ICCAP_VALUES
  MASTER_SETUP_TYPE "~dc_idvg~"
  LINVT_VALUE ""
  LISTVT_VALUE ""
  TYPE "-1"
  TEMP "-40.0000 "
  IS_TNOM " 0.00000 "
  MAIN.W "600.0n"
  MAIN.L "500.0n"
  MAIN.AD "204.0f"
  MAIN.AS "204.0f"
  MAIN.PD "1.880u"
  MAIN.PS "1.880u"
  MAIN.NF "1.000"
  MAIN.M "1"
  MAIN.NRD "0.000"
  MAIN.NRS "0.000"
  MAIN.LDRIFT1 "1E-06"
  MAIN.LDRIFT2 "1E-06"
  MAIN.SA "0.000"
  MAIN.SB "0.000"
  MAIN.SD "0.000"
  MAIN.SCA "0.000"
  MAIN.SCB "0.000"
  MAIN.SCC "0.000"
  MAIN.SC "0.000"
  MODULE "S564"
  PIN_D "16"
  PIN_G "5"
  PIN_S "6"
  PIN_B "15"
  PIN_E ""
  PIN_6 ""
  XY_ID ""
  FUNC "LW Scale"
  STI "SA ref"
  WPE "WPE ref"
  COMMENT ""
  DIS_MEAS ""
  TypeTCI "10"
END_HEADER

BEGIN_DB
 ICCAP_VAR vb         0              
 ICCAP_VAR vd         -0.1           
 ICCAP_VAR vs         -0             

 #vg                    id                    ig                    ib                    is                   
  0.5                   0                     8.2e-13               -2.4e-13              1.4e-13              
  0.45                  1.4e-13               4.4e-13               -2e-13                1.6e-13              
  0.4                   1.2e-13               6e-14                 -2.4e-13              1.8e-13              
  0.35                  1e-13                 -4e-14                -1.4e-13              -1e-13               
  0.3                   8e-14                 -1.4e-13              -1.6e-13              1.4e-13              
  0.25                  0                     8e-14                 -2.4e-13              -6e-14               
  0.2                   1.6e-13               1e-13                 -2.6e-13              1e-13                
  0.15                  1.8e-13               6e-14                 -2.4e-13              4e-14                
  0.1                   1.2e-13               -5.2e-13              -1.2e-13              4e-14                
  0.05                  1.6e-13               2.2e-13               -2.6e-13              8e-14                
  0                     1.6e-13               -1e-13                -1.8e-13              2.2e-13              
  -0.05                 2.4e-13               -4e-14                -2.4e-13              2e-13                
  -0.1                  6e-14                 -6e-14                -1.8e-13              4e-14                
  -0.15                 1e-13                 -2.6e-13              -3.4e-13              2.8e-13              
  -0.2                  8e-14                 -2.4e-13              -2.2e-13              8e-14                
  -0.25                 2e-14                 -6e-14                -1.8e-13              2e-13                
  -0.3                  -1e-13                -2.2e-13              -1.8e-13              2.4e-13              
  -0.35                 -7.8e-13              8e-14                 -1.2e-13              9.6e-13              
  -0.4                  -4.16e-12             0                     -2.4e-13              4.38e-12             
  -0.45                 -2.188e-11            -3.2e-13              -8e-14                2.202e-11            
  -0.5                  -1.1384e-10           -4.4e-13              -2e-13                1.1418e-10           
  -0.55                 -5.9434e-10           -4.6e-13              -1.6e-13              5.946e-10            
  -0.6                  -3.0142e-09           -4.2e-13              -1.2e-13              3.0186e-09           
  -0.65                 -1.4146e-08           -5e-13                -6e-14                1.418e-08            
  -0.7                  -5.5604e-08           -1.2e-13              -1.6e-13              5.5704e-08           
  -0.75                 -1.6846e-07           1.2e-13               -8e-14                1.6854e-07           
  -0.8                  -3.8456e-07           -2e-13                -1.8e-13              3.848e-07            
  -0.85                 -7.0354e-07           -5.2e-13              -1.4e-13              7.0396e-07           
  -0.9                  -1.09308e-06          -3.8e-13              -2.2e-13              1.0932e-06           
  -0.95                 -1.519e-06            -5.2e-13              -1.8e-13              1.5226e-06           
  -1                    -1.9576e-06           -4.2e-13              -2.2e-13              1.961e-06            
  -1.05                 -2.397e-06            -4.4e-13              -1e-13                2.4008e-06           
  -1.1                  -2.8286e-06           -5.8e-13              -1.4e-13              2.832e-06            
  -1.15                 -3.2522e-06           -3.4e-13              -1.4e-13              3.2558e-06           
  -1.2                  -3.6634e-06           -4e-13                -1e-13                3.6668e-06           
  -1.25                 -4.0652e-06           -6.6e-13              -1.8e-13              4.0688e-06           
  -1.3                  -4.456e-06            -4.2e-13              -1.6e-13              4.4594e-06           
  -1.35                 -4.8348e-06           -7.8e-13              -1.4e-13              4.838e-06            
  -1.4                  -5.2044e-06           -7.6e-13              -2e-13                5.208e-06            
  -1.45                 -5.563e-06            -4.8e-13              -1.6e-13              5.5666e-06           
  -1.5                  -5.9134e-06           -3.6e-13              -2.6e-13              5.917e-06            
  -1.55                 -6.2538e-06           -3.6e-13              -2.4e-13              6.2574e-06           
  -1.6                  -6.5874e-06           -6.8e-13              -2.2e-13              6.5908e-06           
  -1.65                 -6.911e-06            -5.2e-13              -2.4e-13              6.9146e-06           
  -1.7                  -7.2266e-06           -4e-13                -1.2e-13              7.2302e-06           
  -1.75                 -7.5348e-06           -7.6e-13              -3e-13                7.5382e-06           
  -1.8                  -7.8356e-06           -8.2e-13              -1e-13                7.8394e-06           
  -1.85                 -8.1274e-06           -5e-13                -2.2e-13              8.1308e-06           
  -1.9                  -8.4126e-06           -5e-13                -1.8e-13              8.4164e-06           
  -1.95                 -8.6898e-06           -6e-13                -2.2e-13              8.6948e-06           
  -2                    -8.9626e-06           -5.4e-13              -2e-13                8.9662e-06           
  -2.05                 -9.2278e-06           -5.8e-13              -2e-13                9.231e-06            
  -2.1                  -9.4856e-06           -6e-13                -4e-14                9.4906e-06           
  -2.15                 -9.737e-06            -2e-13                -1.4e-13              9.7412e-06           
  -2.2                  -9.9852e-06           -5.4e-13              -1.2e-13              9.9866e-06           
  -2.25                 -1.02244e-05          -6.8e-13              -1.4e-13              1.02268e-05          
  -2.3                  -1.046e-05            -1.04e-12             -1e-13                1.04624e-05          
  -2.35                 -1.0689e-05           -7.2e-13              -2e-13                1.06922e-05          
  -2.4                  -1.09138e-05          -2.6e-13              -1.2e-13              1.09178e-05          
  -2.45                 -1.11318e-05          -5.6e-13              -1.2e-13              1.11352e-05          
  -2.5                  -1.1346e-05           -6.6e-13              -4e-14                1.13502e-05          
  -2.55                 -1.1548e-05           -2.8e-13              -2.8e-13              1.1566e-05           
  -2.6                  -1.1754e-05           -7e-13                -8e-14                1.177e-05            
  -2.65                 -1.1954e-05           -4.8e-13              -1.4e-13              1.197e-05            
  -2.7                  -1.2148e-05           -5.4e-13              -1.4e-13              1.2166e-05           
  -2.75                 -1.2342e-05           -2e-13                -4e-14                1.236e-05            
  -2.8                  -1.253e-05            -3.8e-13              -3.4e-13              1.2546e-05           
  -2.85                 -1.271e-05            -8e-13                -1.6e-13              1.2726e-05           
  -2.9                  -1.289e-05            -9.6e-13              -4e-14                1.2906e-05           
  -2.95                 -1.3064e-05           -3.4e-13              -1.4e-13              1.3078e-05           
  -3                    -1.3236e-05           -4.2e-13              -8e-14                1.3254e-05           
  -3.05                 -1.3404e-05           -7.8e-13              -1.2e-13              1.3422e-05           
  -3.1                  -1.357e-05            -4.2e-13              -1.2e-13              1.3586e-05           
  -3.15                 -1.3728e-05           -5.2e-13              -1.4e-13              1.3744e-05           
  -3.2                  -1.3886e-05           -4.2e-13              -8e-14                1.3902e-05           
  -3.25                 -1.4038e-05           -9e-13                -6e-14                1.4056e-05           
  -3.3                  -1.4188e-05           -6.8e-13              -1.8e-13              1.4206e-05           
  -3.35                 -1.4338e-05           -5.6e-13              -1e-13                1.4354e-05           
  -3.4                  -1.4482e-05           -7.2e-13              -2e-13                1.4498e-05           
  -3.45                 -1.4622e-05           -2.6e-13              -1.6e-13              1.4638e-05           
  -3.5                  -1.4758e-05           -6.8e-13              -8e-14                1.4774e-05           
  -3.55                 -1.4894e-05           -1e-12                -2.2e-13              1.491e-05            
  -3.6                  -1.5028e-05           -6.8e-13              -1e-13                1.5042e-05           
END_DB

BEGIN_DB
 ICCAP_VAR vb         0.9            
 ICCAP_VAR vd         -0.1           
 ICCAP_VAR vs         -0             

 #vg                    id                    ig                    ib                    is                   
  0.5                   -6e-14                7.4e-13               2.6e-13               2e-13                
  0.45                  -2e-14                4e-13                 2.8e-13               -2e-14               
  0.4                   8e-14                 2.8e-13               1.8e-13               6e-14                
  0.35                  6e-14                 4e-13                 -4e-14                1e-13                
  0.3                   4e-14                 4e-13                 1.4e-13               -2e-14               
  0.25                  1.2e-13               8e-14                 0                     4e-13                
  0.2                   0                     -3.4e-13              1.4e-13               1.2e-13              
  0.15                  1.8e-13               -2e-14                -2e-14                3.8e-13              
  0.1                   4e-14                 4e-14                 0                     1.8e-13              
  0.05                  8e-14                 1e-13                 1e-13                 1.2e-13              
  0                     0                     2.2e-13               6e-14                 1.2e-13              
  -0.05                 0                     -2e-14                -6e-14                2e-13                
  -0.1                  1.4e-13               -3.2e-13              0                     1e-13                
  -0.15                 -2e-14                8e-14                 1e-13                 1.6e-13              
  -0.2                  1.2e-13               -1.2e-13              4e-14                 0                    
  -0.25                 8e-14                 -3e-13                0                     2e-14                
  -0.3                  1e-13                 -1.8e-13              4e-14                 4e-14                
  -0.35                 2e-13                 -2.8e-13              8e-14                 0                    
  -0.4                  6e-14                 -5e-13                1e-13                 1e-13                
  -0.45                 8e-14                 -3.4e-13              8e-14                 0                    
  -0.5                  2.2e-13               -1.4e-13              1e-13                 1e-13                
  -0.55                 8e-14                 -4e-14                -6e-14                1e-13                
  -0.6                  1.6e-13               -2.4e-13              4e-14                 2.2e-13              
  -0.65                 1.8e-13               -3.8e-13              2e-14                 2.6e-13              
  -0.7                  -1.8e-13              -4.4e-13              -4e-14                5e-13                
  -0.75                 -1.3e-12              -4.4e-13              0                     1.48e-12             
  -0.8                  -8.38e-12             1e-13                 -2e-14                8.54e-12             
  -0.85                 -5.116e-11            -2e-14                -1.4e-13              5.16e-11             
  -0.9                  -3.066e-10            -4.6e-13              2e-14                 3.0712e-10           
  -0.95                 -1.799e-09            -1e-13                0                     1.8018e-09           
  -1                    -9.6476e-09           -5.2e-13              -4e-14                9.6476e-09           
  -1.05                 -4.2636e-08           -3.2e-13              -1.2e-13              4.2636e-08           
  -1.1                  -1.3836e-07           -7.6e-13              -8e-14                1.3858e-07           
  -1.15                 -3.2986e-07           -4.6e-13              0                     3.2994e-07           
  -1.2                  -6.1246e-07           -2.2e-13              -8e-14                6.1264e-07           
  -1.25                 -9.6048e-07           -4.6e-13              -4e-14                9.61e-07             
  -1.3                  -1.3408e-06           8e-14                 -1e-13                1.3442e-06           
  -1.35                 -1.7324e-06           -6.4e-13              -8e-14                1.7358e-06           
  -1.4                  -2.126e-06            -4.2e-13              -2e-14                2.1294e-06           
  -1.45                 -2.5126e-06           -5.8e-13              -1.6e-13              2.5162e-06           
  -1.5                  -2.8932e-06           -4.6e-13              0                     2.8966e-06           
  -1.55                 -3.263e-06            -6.2e-13              -1.2e-13              3.2668e-06           
  -1.6                  -3.6262e-06           -5.2e-13              -4e-14                3.6296e-06           
  -1.65                 -3.9782e-06           -6e-13                -1e-13                3.982e-06            
  -1.7                  -4.3216e-06           -4.6e-13              -8e-14                4.3252e-06           
  -1.75                 -4.6568e-06           0                     2e-14                 4.6604e-06           
  -1.8                  -4.9818e-06           -7.4e-13              -8e-14                4.986e-06            
  -1.85                 -5.2994e-06           -8.6e-13              -6e-14                5.303e-06            
  -1.9                  -5.6084e-06           -2.8e-13              -1e-13                5.612e-06            
  -1.95                 -5.9106e-06           -3e-13                -1e-13                5.9146e-06           
  -2                    -6.2056e-06           -7e-13                8e-14                 6.21e-06             
  -2.05                 -6.4936e-06           -5.8e-13              -1.2e-13              6.4972e-06           
  -2.1                  -6.7758e-06           -4.6e-13              -2e-14                6.7794e-06           
  -2.15                 -7.0508e-06           -5.4e-13              -6e-14                7.0546e-06           
  -2.2                  -7.319e-06            -4.8e-13              -1e-13                7.3224e-06           
  -2.25                 -7.5812e-06           -4.4e-13              -1.2e-13              7.5846e-06           
  -2.3                  -7.8388e-06           -4.8e-13              4e-14                 7.8426e-06           
  -2.35                 -8.0896e-06           -6.6e-13              -1e-13                8.093e-06            
  -2.4                  -8.3354e-06           -5e-13                -6e-14                8.339e-06            
  -2.45                 -8.5738e-06           -3.4e-13              -1.4e-13              8.5762e-06           
  -2.5                  -8.8092e-06           -7.8e-13              -2e-14                8.8112e-06           
  -2.55                 -9.0348e-06           -8.2e-13              -4e-14                9.0378e-06           
  -2.6                  -9.2622e-06           -1e-13                -6e-14                9.265e-06            
  -2.65                 -9.4798e-06           -4.2e-13              -1e-13                9.4818e-06           
  -2.7                  -9.6918e-06           -8.4e-13              -4e-14                9.6954e-06           
  -2.75                 -9.902e-06            -7.4e-13              0                     9.9054e-06           
  -2.8                  -1.01074e-05          -4.4e-13              0                     1.01106e-05          
  -2.85                 -1.03082e-05          -5.6e-13              0                     1.03114e-05          
  -2.9                  -1.0504e-05           -1.02e-12             -2e-14                1.05072e-05          
  -2.95                 -1.06958e-05          -6.4e-13              -1.2e-13              1.06988e-05          
  -3                    -1.0884e-05           -6.8e-13              -2e-14                1.08874e-05          
  -3.05                 -1.10684e-05          -5.4e-13              -4e-14                1.1072e-05           
  -3.1                  -1.12456e-05          -4.6e-13              6e-14                 1.12492e-05          
  -3.15                 -1.14232e-05          -8e-13                -1e-13                1.14268e-05          
  -3.2                  -1.1588e-05           -6.2e-13              -6e-14                1.1602e-05           
  -3.25                 -1.1752e-05           -3.4e-13              -1.6e-13              1.1768e-05           
  -3.3                  -1.1916e-05           -8.4e-13              0                     1.1934e-05           
  -3.35                 -1.208e-05            -7.2e-13              -2e-13                1.2098e-05           
  -3.4                  -1.2238e-05           -5.4e-13              -1.4e-13              1.2254e-05           
  -3.45                 -1.2392e-05           -3.8e-13              -8e-14                1.2408e-05           
