! VERSION = 6.00
BEGIN_HEADER
 ICCAP_INPUTS
  vd         V  D GROUND SMU1 0.1 LIN        1    -0         -3.6       37   -0.1      
  vg         V  G GROUND SMU2 0.001 LIN        2    -0.8       -3.6       5    -0.7      
  vb         V  B GROUND SMU4 0.1 CON        -0
  vs         V  S GROUND SMU3 0.1 CON        -0
 ICCAP_OUTPUTS
  id         I  D GROUND SMU1 B
  ig         I  G GROUND SMU2 B
  ib         I  B GROUND SMU4 B
  is         I  S GROUND SMU3 B
 ICCAP_VALUES
  MASTER_SETUP_TYPE "~dc_idvd~"
  LINVT_VALUE "|idvg|100.0n|100.0m|1.000m|5|3.600|"
  LISTVT_VALUE ""
  TYPE "-1"
  TEMP " 27.0000 "
  IS_TNOM " 1.00000 "
  MAIN.W "10.00u"
  MAIN.L "10.00u"
  MAIN.AD "3.400p"
  MAIN.AS "3.400p"
  MAIN.PD "20.68u"
  MAIN.PS "20.68u"
  MAIN.NF "1.000"
  MAIN.M "1"
  MAIN.NRD "0.000"
  MAIN.NRS "0.000"
  MAIN.LDRIFT1 "1E-06"
  MAIN.LDRIFT2 "1E-06"
  MAIN.SA "0.000"
  MAIN.SB "0.000"
  MAIN.SD "0.000"
  MAIN.SCA "0.000"
  MAIN.SCB "0.000"
  MAIN.SCC "0.000"
  MAIN.SC "0.000"
  MODULE "S562"
  PIN_D "16"
  PIN_G "5"
  PIN_S "6"
  PIN_B "15"
  PIN_E ""
  PIN_6 ""
  XY_ID ""
  FUNC "Large"
  STI "SA ref"
  WPE "WPE ref"
  COMMENT ""
  DIS_MEAS ""
  TypeTCI "10"
END_HEADER

BEGIN_DB
 ICCAP_VAR vg         -0.8           
 ICCAP_VAR vb         -0             
 ICCAP_VAR vs         -0             

 #vd                    id                    ig                    ib                    is                   
  -0                    2.1098e-10            -6e-14                -6.6e-13              -2.5308e-10          
  -0.1                  -3.3216e-07           -1e-13                -7e-13                3.324e-07            
  -0.2                  -3.772e-07            0                     -6.8e-13              3.7744e-07           
  -0.3                  -3.7904e-07           1.4e-13               -6.8e-13              3.7926e-07           
  -0.4                  -3.7926e-07           -4e-14                -6.6e-13              3.7948e-07           
  -0.5                  -3.7936e-07           1e-13                 -5.6e-13              3.7956e-07           
  -0.6                  -3.7946e-07           1.4e-13               -5.2e-13              3.7968e-07           
  -0.7                  -3.7954e-07           2e-14                 -6e-13                3.7976e-07           
  -0.8                  -3.796e-07            6e-14                 -4.4e-13              3.7984e-07           
  -0.9                  -3.7964e-07           6e-14                 -5.8e-13              3.7988e-07           
  -1                    -3.797e-07            1.8e-13               -4.8e-13              3.7996e-07           
  -1.1                  -3.7976e-07           -2e-14                -5.8e-13              3.8e-07              
  -1.2                  -3.7982e-07           6e-14                 -5e-13                3.8006e-07           
  -1.3                  -3.7986e-07           1.4e-13               -4.4e-13              3.8008e-07           
  -1.4                  -3.7992e-07           1.8e-13               -4e-13                3.8014e-07           
  -1.5                  -3.7992e-07           4e-14                 -3.2e-13              3.8016e-07           
  -1.6                  -3.7996e-07           1.6e-13               -4.4e-13              3.802e-07            
  -1.7                  -3.8002e-07           1.8e-13               -3.4e-13              3.8026e-07           
  -1.8                  -3.8006e-07           1.8e-13               -2.8e-13              3.8028e-07           
  -1.9                  -3.8008e-07           1.2e-13               -1.4e-13              3.8032e-07           
  -2                    -3.801e-07            4e-14                 2e-14                 3.8036e-07           
  -2.1                  -3.8018e-07           1.4e-13               4.2e-13               3.8042e-07           
  -2.2                  -3.8022e-07           1.6e-13               1.34e-12              3.8044e-07           
  -2.3                  -3.8024e-07           2e-13                 3.02e-12              3.8046e-07           
  -2.4                  -3.8026e-07           1e-13                 5.88e-12              3.8048e-07           
  -2.5                  -3.803e-07            6e-14                 1.092e-11             3.8054e-07           
  -2.6                  -3.8034e-07           1.2e-13               1.924e-11             3.8056e-07           
  -2.7                  -3.8038e-07           1.4e-13               3.296e-11             3.806e-07            
  -2.8                  -3.8044e-07           8e-14                 5.476e-11             3.8062e-07           
  -2.9                  -3.805e-07            0                     8.88e-11              3.8064e-07           
  -3                    -3.8056e-07           -6e-14                1.4084e-10            3.8066e-07           
  -3.1                  -3.8068e-07           8e-14                 2.1856e-10            3.807e-07            
  -3.2                  -3.8084e-07           1.6e-13               3.3288e-10            3.8074e-07           
  -3.3                  -3.8102e-07           4e-14                 4.9776e-10            3.8076e-07           
  -3.4                  -3.8128e-07           8e-14                 7.3094e-10            3.8078e-07           
  -3.5                  -3.8162e-07           3e-13                 1.0559e-09            3.808e-07            
  -3.6                  -3.8212e-07           1e-13                 1.5008e-09            3.8082e-07           
END_DB

BEGIN_DB
 ICCAP_VAR vg         -1.5           
 ICCAP_VAR vb         -0             
 ICCAP_VAR vs         -0             

 #vd                    id                    ig                    ib                    is                   
  -0                    1.3804e-09            -3.4e-13              -3.6e-13              -1.1486e-09          
  -0.1                  -3.0142e-06           -2.4e-13              -2.2e-13              3.018e-06            
  -0.2                  -5.4436e-06           -1.2e-13              -1.4e-13              5.4476e-06           
  -0.3                  -7.2866e-06           -1e-13                -1.8e-13              7.2906e-06           
  -0.4                  -8.5532e-06           -1.8e-13              -2e-13                8.557e-06            
  -0.5                  -9.2796e-06           -1.8e-13              -2.2e-13              9.2838e-06           
  -0.6                  -9.5582e-06           -2e-14                -1.6e-13              9.562e-06            
  -0.7                  -9.6118e-06           -8e-14                -2.4e-13              9.6154e-06           
  -0.8                  -9.621e-06            -8e-14                -6e-14                9.6248e-06           
  -0.9                  -9.6256e-06           -8e-14                -2e-13                9.6292e-06           
  -1                    -9.6282e-06           -1.2e-13              -2e-13                9.6322e-06           
  -1.1                  -9.6304e-06           -6e-14                -1.6e-13              9.6344e-06           
  -1.2                  -9.6324e-06           -2e-14                -6e-14                9.6362e-06           
  -1.3                  -9.6342e-06           -4e-14                -1e-13                9.638e-06            
  -1.4                  -9.6358e-06           0                     -1.8e-13              9.6396e-06           
  -1.5                  -9.6372e-06           4e-14                 -6e-14                9.6408e-06           
  -1.6                  -9.6382e-06           -2e-14                -1.4e-13              9.6424e-06           
  -1.7                  -9.6398e-06           -6e-14                -1e-13                9.6434e-06           
  -1.8                  -9.6408e-06           2e-14                 2e-14                 9.6446e-06           
  -1.9                  -9.6418e-06           2e-14                 -2e-14                9.6456e-06           
  -2                    -9.6428e-06           1.4e-13               -1.2e-13              9.6466e-06           
  -2.1                  -9.644e-06            8e-14                 -2e-14                9.6476e-06           
  -2.2                  -9.6448e-06           0                     1.4e-13               9.6486e-06           
  -2.3                  -9.6456e-06           6e-14                 6.6e-13               9.6494e-06           
  -2.4                  -9.6466e-06           -1.6e-13              2.06e-12              9.6506e-06           
  -2.5                  -9.6474e-06           2e-14                 5.28e-12              9.6514e-06           
  -2.6                  -9.6484e-06           2e-14                 1.228e-11             9.652e-06            
  -2.7                  -9.6494e-06           6e-14                 2.654e-11             9.653e-06            
  -2.8                  -9.6502e-06           -2e-14                5.388e-11             9.654e-06            
  -2.9                  -9.6512e-06           -2e-14                1.0406e-10            9.6546e-06           
  -3                    -9.652e-06            2e-14                 1.9322e-10            9.6556e-06           
  -3.1                  -9.6528e-06           2e-14                 3.459e-10             9.6564e-06           
  -3.2                  -9.654e-06            8e-14                 6.0172e-10            9.6568e-06           
  -3.3                  -9.655e-06            1e-13                 1.01912e-09           9.6574e-06           
  -3.4                  -9.6564e-06           -6e-14                1.6838e-09            9.6582e-06           
  -3.5                  -9.6584e-06           2e-14                 2.7204e-09            9.659e-06            
  -3.6                  -9.6606e-06           2e-14                 4.3018e-09            9.6598e-06           
END_DB

BEGIN_DB
 ICCAP_VAR vg         -2.2           
 ICCAP_VAR vb         -0             
 ICCAP_VAR vs         -0             

 #vd                    id                    ig                    ib                    is                   
  -0                    1.8876e-09            -2.8e-13              0                     -1.796e-09           
  -0.1                  -5.283e-06            -3e-13                -1.4e-13              5.2866e-06           
  -0.2                  -1.00586e-05          -2.6e-13              -1e-13                1.00624e-05          
  -0.3                  -1.4306e-05           -2.2e-13              -6e-14                1.4326e-05           
  -0.4                  -1.8038e-05           -3e-13                -2.4e-13              1.8058e-05           
  -0.5                  -2.1266e-05           -2e-13                -6e-14                2.1286e-05           
  -0.6                  -2.398e-05            -6e-14                -1.2e-13              2.4002e-05           
  -0.7                  -2.6178e-05           -6e-14                0                     2.62e-05             
  -0.8                  -2.7874e-05           -1.6e-13              -6e-14                2.7894e-05           
  -0.9                  -2.9072e-05           -1.4e-13              -4e-14                2.9092e-05           
  -1                    -2.9796e-05           -6e-14                -4e-14                2.9818e-05           
  -1.1                  -3.013e-05            -2e-14                -1e-13                3.015e-05            
  -1.2                  -3.0234e-05           0                     0                     3.0254e-05           
  -1.3                  -3.0266e-05           -1.4e-13              1.2e-13               3.0286e-05           
  -1.4                  -3.028e-05            -1.2e-13              0                     3.0302e-05           
  -1.5                  -3.029e-05            -1e-13                0                     3.031e-05            
  -1.6                  -3.0298e-05           -2e-14                0                     3.0318e-05           
  -1.7                  -3.0304e-05           -1e-13                0                     3.0324e-05           
  -1.8                  -3.031e-05            -1.2e-13              1e-13                 3.033e-05            
  -1.9                  -3.0314e-05           -4e-14                6e-14                 3.0334e-05           
  -2                    -3.0318e-05           0                     -4e-14                3.0338e-05           
  -2.1                  -3.0324e-05           0                     -6e-14                3.0344e-05           
  -2.2                  -3.0326e-05           2e-14                 -4e-14                3.0348e-05           
  -2.3                  -3.033e-05            -8e-14                -4e-14                3.0352e-05           
  -2.4                  -3.0334e-05           -2e-14                -8e-14                3.0354e-05           
  -2.5                  -3.0338e-05           0                     0                     3.0356e-05           
  -2.6                  -3.034e-05            -1.2e-13              1.4e-13               3.036e-05            
  -2.7                  -3.0342e-05           -8e-14                2e-13                 3.0364e-05           
  -2.8                  -3.0346e-05           0                     1.02e-12              3.0366e-05           
  -2.9                  -3.0348e-05           2e-14                 3.32e-12              3.037e-05            
  -3                    -3.0352e-05           -8e-14                8.5e-12               3.0372e-05           
  -3.1                  -3.0354e-05           -6e-14                2.074e-11             3.0374e-05           
  -3.2                  -3.0356e-05           2e-14                 4.662e-11             3.0376e-05           
  -3.3                  -3.036e-05            -4e-14                9.848e-11             3.038e-05            
  -3.4                  -3.0362e-05           -1e-13                1.9716e-10            3.0382e-05           
  -3.5                  -3.0364e-05           -8e-14                3.7854e-10            3.0386e-05           
  -3.6                  -3.0368e-05           -2e-14                6.9998e-10            3.0388e-05           
END_DB

BEGIN_DB
 ICCAP_VAR vg         -2.9           
 ICCAP_VAR vb         -0             
 ICCAP_VAR vs         -0             

 #vd                    id                    ig                    ib                    is                   
  -0                    2.1378e-09            -3e-13                -1.4e-13              -2.3454e-09          
  -0.1                  -7.0902e-06           -2.8e-13              -2e-13                7.094e-06            
  -0.2                  -1.3732e-05           -3.4e-13              0                     1.3752e-05           
  -0.3                  -1.9926e-05           -2.6e-13              0                     1.9946e-05           
  -0.4                  -2.5656e-05           -1.6e-13              -1.2e-13              2.5676e-05           
  -0.5                  -3.0946e-05           -2.2e-13              -4e-14                3.0968e-05           
  -0.6                  -3.5788e-05           -2.4e-13              -1.4e-13              3.581e-05            
  -0.7                  -4.017e-05            -2.4e-13              -6e-14                4.019e-05            
  -0.8                  -4.4108e-05           -2.2e-13              6e-14                 4.4128e-05           
  -0.9                  -4.759e-05            -1e-13                2e-14                 4.7612e-05           
  -1                    -5.0616e-05           -1e-13                -2e-14                5.0638e-05           
  -1.1                  -5.3192e-05           -1e-13                0                     5.3212e-05           
  -1.2                  -5.531e-05            -1.2e-13              4e-14                 5.5332e-05           
  -1.3                  -5.698e-05            -2.2e-13              2e-14                 5.7002e-05           
  -1.4                  -5.8204e-05           2e-14                 1.2e-13               5.8226e-05           
  -1.5                  -5.901e-05            -2e-14                0                     5.903e-05            
  -1.6                  -5.945e-05            -6e-14                -8e-14                5.9472e-05           
  -1.7                  -5.9642e-05           0                     -4e-14                5.9664e-05           
  -1.8                  -5.9714e-05           -1.4e-13              -8e-14                5.9736e-05           
  -1.9                  -5.9752e-05           -1.8e-13              -8e-14                5.9772e-05           
  -2                    -5.9774e-05           -4e-14                2e-14                 5.9794e-05           
  -2.1                  -5.9788e-05           -2e-14                -2e-14                5.9808e-05           
  -2.2                  -5.9802e-05           -2e-13                -1e-13                5.9822e-05           
  -2.3                  -5.9814e-05           -4e-14                -6e-14                5.9834e-05           
  -2.4                  -5.9822e-05           -2e-14                4e-14                 5.9844e-05           
  -2.5                  -5.983e-05            -1e-13                -4e-14                5.985e-05            
  -2.6                  -5.984e-05            -6e-14                0                     5.986e-05            
  -2.7                  -5.9848e-05           2e-14                 6e-14                 5.9868e-05           
  -2.8                  -5.9854e-05           0                     0                     5.9874e-05           
  -2.9                  -5.9862e-05           -1.2e-13              0                     5.9882e-05           
  -3                    -5.9868e-05           -8e-14                -6e-14                5.9886e-05           
  -3.1                  -5.9874e-05           -8e-14                1e-13                 5.9896e-05           
  -3.2                  -5.988e-05            2e-14                 3.4e-13               5.9898e-05           
  -3.3                  -5.9884e-05           -1e-13                9.2e-13               5.9904e-05           
  -3.4                  -5.989e-05            0                     2.76e-12              5.991e-05            
  -3.5                  -5.9894e-05           -2e-14                7.94e-12              5.9916e-05           
  -3.6                  -5.99e-05             -1.4e-13              2.014e-11             5.992e-05            
END_DB

BEGIN_DB
 ICCAP_VAR vg         -3.6           
 ICCAP_VAR vb         -0             
 ICCAP_VAR vs         -0             

 #vd                    id                    ig                    ib                    is                   
  -0                    2.5542e-09            -4.8e-13              -1e-13                -2.6116e-09          
  -0.1                  -8.5304e-06           -3.8e-13              -6e-14                8.534e-06            
  -0.2                  -1.6668e-05           -2.8e-13              2e-14                 1.6688e-05           
  -0.3                  -2.4412e-05           -2.8e-13              0                     2.4434e-05           
  -0.4                  -3.1742e-05           -2.8e-13              -6e-14                3.1764e-05           
  -0.5                  -3.8694e-05           -1e-13                -4e-14                3.8714e-05           
  -0.6                  -4.5248e-05           -1.4e-13              0                     4.527e-05            
  -0.7                  -5.1394e-05           -2.4e-13              -1e-13                5.1416e-05           
  -0.8                  -5.7156e-05           -3e-13                -6e-14                5.7178e-05           
