! VERSION = 6.00
BEGIN_HEADER
 ICCAP_INPUTS
  vd         V  D GROUND SMU1 0.1 LIN        1    -0         -3.6       37   -0.1      
  vg         V  G GROUND SMU2 0.001 LIST       2 3 -1.383 -1.583 -1.783
  vb         V  B GROUND SMU4 0.1 CON        3.6
  vs         V  S GROUND SMU3 0.1 CON        -0
 ICCAP_OUTPUTS
  id         I  D GROUND SMU1 B
  ig         I  G GROUND SMU2 B
  ib         I  B GROUND SMU4 B
  is         I  S GROUND SMU3 B
 ICCAP_VALUES
  MASTER_SETUP_TYPE "~dc_idvd~"
  LINVT_VALUE ""
  LISTVT_VALUE "|idvg|100.0n|-200.0m|1.000m|3|200.0m|200.0m|"
  TYPE "-1"
  TEMP " 27.0000 "
  IS_TNOM " 1.00000 "
  MAIN.W "600.0n"
  MAIN.L "350.0n"
  MAIN.AD "204.0f"
  MAIN.AS "204.0f"
  MAIN.PD "1.880u"
  MAIN.PS "1.880u"
  MAIN.NF "1.000"
  MAIN.M "1"
  MAIN.NRD "0.000"
  MAIN.NRS "0.000"
  MAIN.LDRIFT1 "1E-06"
  MAIN.LDRIFT2 "1E-06"
  MAIN.SA "0.000"
  MAIN.SB "0.000"
  MAIN.SD "0.000"
  MAIN.SCA "0.000"
  MAIN.SCB "0.000"
  MAIN.SCC "0.000"
  MAIN.SC "0.000"
  MODULE "S564"
  PIN_D "18"
  PIN_G "3"
  PIN_S "4"
  PIN_B "17"
  PIN_E ""
  PIN_6 ""
  XY_ID ""
  FUNC "LW Scale"
  STI "SA ref"
  WPE "WPE ref"
  COMMENT ""
  DIS_MEAS ""
  TypeTCI "10"
END_HEADER

BEGIN_DB
 ICCAP_VAR vg         -1.383         
 ICCAP_VAR vb         3.6            
 ICCAP_VAR vs         -0             

 #vd                    id                    ig                    ib                    is                   
  -0                    6.8e-13               4e-14                 6.2e-13               -3.8e-13             
  -0.1                  -2.1556e-10           1.8e-13               7.6e-13               2.1608e-10           
  -0.2                  -2.5534e-10           2e-14                 3.8e-13               2.5572e-10           
  -0.3                  -2.9248e-10           1.4e-13               4.2e-13               2.9402e-10           
  -0.4                  -3.321e-10            1e-13                 5.6e-13               3.3216e-10           
  -0.5                  -3.7284e-10           8e-14                 4.8e-13               3.7214e-10           
  -0.6                  -4.1584e-10           6e-14                 4.4e-13               4.122e-10            
  -0.7                  -4.572e-10            1.2e-13               5.4e-13               4.5758e-10           
  -0.8                  -5.0864e-10           1.4e-13               3e-13                 5.0844e-10           
  -0.9                  -5.5902e-10           8e-14                 2.8e-13               5.597e-10            
  -1                    -6.1478e-10           2.4e-13               2.6e-13               6.1348e-10           
  -1.1                  -6.6658e-10           2.8e-13               2.2e-13               6.7098e-10           
  -1.2                  -7.3004e-10           1.6e-13               1.8e-13               7.2562e-10           
  -1.3                  -7.9024e-10           1.6e-13               1.6e-13               7.9188e-10           
  -1.4                  -8.6266e-10           2e-13                 2.4e-13               8.598e-10            
  -1.5                  -9.3364e-10           2e-13                 1.8e-13               9.3252e-10           
  -1.6                  -1.0186e-09           2e-13                 2e-13                 1.02262e-09          
  -1.7                  -1.1082e-09           1.2e-13               1.6e-13               1.10602e-09          
  -1.8                  -1.1996e-09           4e-14                 2e-13                 1.1902e-09           
  -1.9                  -1.2842e-09           1.6e-13               1.4e-13               1.2876e-09           
  -2                    -1.3938e-09           1.4e-13               8e-14                 1.3926e-09           
  -2.1                  -1.502e-09            1.4e-13               2.4e-13               1.5026e-09           
  -2.2                  -1.625e-09            2e-13                 8e-14                 1.6232e-09           
  -2.3                  -1.754e-09            1e-13                 2.6e-13               1.7506e-09           
  -2.4                  -1.8994e-09           1.6e-13               2.6e-13               1.8964e-09           
  -2.5                  -2.0478e-09           2e-13                 3.4e-13               2.0466e-09           
  -2.6                  -2.209e-09            1.4e-13               4.6e-13               2.212e-09            
  -2.7                  -2.3838e-09           1.6e-13               4.8e-13               2.3748e-09           
  -2.8                  -2.5474e-09           1e-13                 7.2e-13               2.5462e-09           
  -2.9                  -2.7432e-09           1.4e-13               1.3e-12               2.7372e-09           
  -3                    -2.95e-09             2.2e-13               1.8e-12               2.9704e-09           
  -3.1                  -3.196e-09            8e-14                 3.16e-12              3.1944e-09           
  -3.2                  -3.4474e-09           1.4e-13               4.84e-12              3.4184e-09           
  -3.3                  -3.6796e-09           1.2e-13               7.84e-12              3.672e-09            
  -3.4                  -3.9524e-09           1.4e-13               1.254e-11             3.9488e-09           
  -3.5                  -4.2628e-09           0                     1.976e-11             4.2506e-09           
  -3.6                  -4.5932e-09           8e-14                 3.074e-11             4.557e-09            
END_DB

BEGIN_DB
 ICCAP_VAR vg         -1.583         
 ICCAP_VAR vb         3.6            
 ICCAP_VAR vs         -0             

 #vd                    id                    ig                    ib                    is                   
  -0                    7.344e-11             -1e-13                6e-14                 -7.086e-11           
  -0.1                  -4.5958e-08           -1.2e-13              -4e-14                4.6246e-08           
  -0.2                  -5.7344e-08           4e-14                 6e-14                 5.7358e-08           
  -0.3                  -6.5532e-08           -2e-14                -8e-14                6.5632e-08           
  -0.4                  -7.3172e-08           6e-14                 1.2e-13               7.331e-08            
  -0.5                  -8.0758e-08           1e-13                 2.8e-13               8.0882e-08           
  -0.6                  -8.7416e-08           0                     2e-13                 8.8282e-08           
  -0.7                  -9.5042e-08           1e-13                 1.8e-13               9.554e-08            
  -0.8                  -1.0239e-07           1.8e-13               8e-14                 1.03168e-07          
  -0.9                  -1.1132e-07           -6e-14                1.2e-13               1.10022e-07          
  -1                    -1.1884e-07           0                     2.2e-13               1.1854e-07           
  -1.1                  -1.2746e-07           -2e-14                1.6e-13               1.2682e-07           
  -1.2                  -1.3502e-07           8e-14                 1.8e-13               1.3498e-07           
  -1.3                  -1.4422e-07           1.4e-13               2.2e-13               1.4276e-07           
  -1.4                  -1.522e-07            1e-13                 1.8e-13               1.5226e-07           
  -1.5                  -1.6208e-07           1e-13                 6e-14                 1.6118e-07           
  -1.6                  -1.6868e-07           2e-14                 1.6e-13               1.7e-07              
  -1.7                  -1.7988e-07           2.2e-13               1.6e-13               1.791e-07            
  -1.8                  -1.8804e-07           1.2e-13               2e-13                 1.8874e-07           
  -1.9                  -1.9762e-07           2e-14                 1.8e-13               1.9892e-07           
  -2                    -2.0934e-07           8e-14                 2.6e-13               2.1084e-07           
  -2.1                  -2.1944e-07           1.8e-13               3e-13                 2.1864e-07           
  -2.2                  -2.3032e-07           1.4e-13               5.2e-13               2.308e-07            
  -2.3                  -2.4262e-07           8e-14                 1.24e-12              2.4194e-07           
  -2.4                  -2.521e-07            6e-14                 2.36e-12              2.5596e-07           
  -2.5                  -2.648e-07            4e-14                 4.32e-12              2.6532e-07           
  -2.6                  -2.778e-07            2e-13                 8.16e-12              2.778e-07            
  -2.7                  -2.933e-07            1.6e-13               1.508e-11             2.9074e-07           
  -2.8                  -3.0652e-07           0                     2.71e-11              3.0332e-07           
  -2.9                  -3.1504e-07           1.4e-13               4.794e-11             3.156e-07            
  -3                    -3.3354e-07           1.6e-13               8.288e-11             3.3068e-07           
  -3.1                  -3.438e-07            1e-13                 1.402e-10             3.4972e-07           
  -3.2                  -3.6166e-07           1.4e-13               2.3378e-10            3.6082e-07           
  -3.3                  -3.7348e-07           8e-14                 3.8764e-10            3.749e-07            
  -3.4                  -3.9764e-07           1.2e-13               6.1046e-10            3.9198e-07           
  -3.5                  -4.0628e-07           6e-14                 9.6794e-10            4.0648e-07           
  -3.6                  -4.26e-07             6e-14                 1.5224e-09            4.239e-07            
END_DB

BEGIN_DB
 ICCAP_VAR vg         -1.783         
 ICCAP_VAR vb         3.6            
 ICCAP_VAR vs         -0             

 #vd                    id                    ig                    ib                    is                   
  -0                    6.5974e-10            0                     6e-14                 -6.6746e-10          
  -0.1                  -8.2156e-07           -1.4e-13              1.2e-13               8.2198e-07           
  -0.2                  -1.158e-06            -2e-14                0                     1.161e-06            
  -0.3                  -1.323e-06            4e-14                 1.4e-13               1.3246e-06           
  -0.4                  -1.4344e-06           -8e-14                1e-13                 1.4392e-06           
  -0.5                  -1.5272e-06           -4e-14                2e-14                 1.5308e-06           
  -0.6                  -1.6098e-06           -6e-14                1.4e-13               1.6126e-06           
  -0.7                  -1.687e-06            4e-14                 2e-13                 1.6902e-06           
  -0.8                  -1.759e-06            0                     4e-14                 1.7642e-06           
  -0.9                  -1.8304e-06           -8e-14                4e-14                 1.8328e-06           
  -1                    -1.898e-06            1e-13                 1.8e-13               1.901e-06            
  -1.1                  -1.9648e-06           8e-14                 1.2e-13               1.9672e-06           
  -1.2                  -2.0294e-06           -8e-14                0                     2.0362e-06           
  -1.3                  -2.0972e-06           0                     2e-14                 2.1008e-06           
  -1.4                  -2.16e-06             1e-13                 1.2e-13               2.1644e-06           
  -1.5                  -2.2216e-06           2e-14                 2e-14                 2.2256e-06           
  -1.6                  -2.2842e-06           0                     1.6e-13               2.289e-06            
  -1.7                  -2.346e-06            2e-14                 2e-13                 2.3514e-06           
  -1.8                  -2.4088e-06           8e-14                 1.8e-13               2.4124e-06           
  -1.9                  -2.472e-06            6e-14                 1.4e-13               2.4778e-06           
  -2                    -2.5346e-06           6e-14                 2.6e-13               2.5368e-06           
  -2.1                  -2.5932e-06           2e-14                 8e-13                 2.597e-06            
  -2.2                  -2.6564e-06           4e-14                 2e-12                 2.66e-06             
  -2.3                  -2.7178e-06           2e-14                 3.96e-12              2.7228e-06           
  -2.4                  -2.7814e-06           2e-14                 8.22e-12              2.7854e-06           
  -2.5                  -2.845e-06            0                     1.668e-11             2.8474e-06           
  -2.6                  -2.9094e-06           -8e-14                3.268e-11             2.9144e-06           
  -2.7                  -2.975e-06            0                     6.17e-11              2.9752e-06           
  -2.8                  -3.0358e-06           4e-14                 1.1326e-10            3.0432e-06           
  -2.9                  -3.1044e-06           2e-14                 2.0272e-10            3.1048e-06           
  -3                    -3.167e-06            1.4e-13               3.55e-10              3.1698e-06           
  -3.1                  -3.236e-06            2e-13                 6.0812e-10            3.2382e-06           
  -3.2                  -3.3032e-06           1.2e-13               1.02302e-09           3.3056e-06           
  -3.3                  -3.3702e-06           -6e-14                1.6852e-09            3.3656e-06           
  -3.4                  -3.4356e-06           1.2e-13               2.728e-09             3.4354e-06           
  -3.5                  -3.5064e-06           8e-14                 4.3458e-09            3.51e-06             
  -3.6                  -3.5826e-06           4e-14                 6.802e-09             3.5804e-06           
END_DB

