! VERSION = 6.00
BEGIN_HEADER
 ICCAP_INPUTS
  vg         V  G GROUND SMU2 0.001 LIN        1    0.5        -3.6       83   -0.05     
  vb         V  B GROUND SMU4 0.1 LIN        2    0          3.6        5    0.9       
  vd         V  D GROUND SMU1 0.1 LIN        3    -0.1       -3.3       3    -1.6      
  vs         V  S GROUND SMU3 0.1 CON        -0
 ICCAP_OUTPUTS
  id         I  D GROUND SMU1 B
  ig         I  G GROUND SMU2 B
  ib         I  B GROUND SMU4 B
  is         I  S GROUND SMU3 B
 ICCAP_VALUES
  MASTER_SETUP_TYPE "~dc_idvg~"
  LINVT_VALUE ""
  LISTVT_VALUE ""
  TYPE "-1"
  TEMP " 27.0000 "
  IS_TNOM " 1.00000 "
  MAIN.W "300.0n"
  MAIN.L "350.0n"
  MAIN.AD "102.0f"
  MAIN.AS "102.0f"
  MAIN.PD "1.280u"
  MAIN.PS "1.280u"
  MAIN.NF "1.000"
  MAIN.M "1"
  MAIN.NRD "0.000"
  MAIN.NRS "0.000"
  MAIN.LDRIFT1 "1E-06"
  MAIN.LDRIFT2 "1E-06"
  MAIN.SA "0.000"
  MAIN.SB "0.000"
  MAIN.SD "0.000"
  MAIN.SCA "0.000"
  MAIN.SCB "0.000"
  MAIN.SCC "0.000"
  MAIN.SC "0.000"
  MODULE "S565"
  PIN_D "16"
  PIN_G "5"
  PIN_S "6"
  PIN_B "15"
  PIN_E ""
  PIN_6 ""
  XY_ID ""
  FUNC "Small"
  STI "SA ref"
  WPE "WPE ref"
  COMMENT ""
  DIS_MEAS ""
  TypeTCI "10"
END_HEADER

BEGIN_DB
 ICCAP_VAR vb         0              
 ICCAP_VAR vd         -0.1           
 ICCAP_VAR vs         -0             

 #vg                    id                    ig                    ib                    is                   
  0.5                   2e-14                 1.838e-11             -4.28e-12             8e-14                
  0.45                  -4e-14                2.82e-12              -8.2e-13              2.6e-13              
  0.4                   -6e-14                4.2e-13               -2.6e-13              8e-14                
  0.35                  0                     1.4e-13               4e-14                 0                    
  0.3                   2e-14                 -2e-14                -8e-14                1.2e-13              
  0.25                  -2e-14                -1e-13                0                     4e-14                
  0.2                   1e-13                 -3e-13                -1e-13                1.4e-13              
  0.15                  2e-14                 -1.4e-13              -1e-13                2e-14                
  0.1                   4e-14                 -2e-13                -4e-14                2e-14                
  0.05                  1.2e-13               -2.8e-13              -1.2e-13              3e-13                
  0                     -6e-14                -3.2e-13              -8e-14                1e-13                
  -0.05                 -1.2e-13              -2.2e-13              -2.2e-13              4e-13                
  -0.1                  -6e-14                -3.6e-13              -1e-13                2.8e-13              
  -0.15                 -4.2e-13              -3.8e-13              -6e-14                8e-13                
  -0.2                  -1.98e-12             -2.8e-13              -1.2e-13              2.1e-12              
  -0.25                 -6.7e-12              -3.2e-13              0                     6.76e-12             
  -0.3                  -2.262e-11            -4.2e-13              -1.2e-13              2.282e-11            
  -0.35                 -7.794e-11            -5e-13                -8e-14                7.792e-11            
  -0.4                  -2.6558e-10           -4.2e-13              -4e-14                2.6546e-10           
  -0.45                 -9.0328e-10           -4.4e-13              -8e-14                9.0364e-10           
  -0.5                  -3.046e-09            -3.2e-13              -4e-14                3.0582e-09           
  -0.55                 -1.00218e-08          -4.6e-13              -4e-14                9.983e-09            
  -0.6                  -3.043e-08            -4e-13                -2e-14                3.0514e-08           
  -0.65                 -8.0964e-08           -4.8e-13              -2e-14                8.1036e-08           
  -0.7                  -1.8104e-07           -4e-13                -2e-14                1.811e-07            
  -0.75                 -3.397e-07            -5.8e-13              -1.2e-13              3.4e-07              
  -0.8                  -5.4752e-07           -4e-13                2e-14                 5.477e-07            
  -0.85                 -7.866e-07            -4.6e-13              -1e-13                7.8766e-07           
  -0.9                  -1.04026e-06          -6.2e-13              -4e-14                1.04074e-06          
  -0.95                 -1.2952e-06           -4e-13                6e-14                 1.3e-06              
  -1                    -1.551e-06            -5.2e-13              -6e-14                1.5548e-06           
  -1.05                 -1.8022e-06           -4.2e-13              -1e-13                1.806e-06            
  -1.1                  -2.0472e-06           -5.8e-13              2e-14                 2.0512e-06           
  -1.15                 -2.2864e-06           -5.2e-13              0                     2.2902e-06           
  -1.2                  -2.5186e-06           -5e-13                -2e-14                2.5224e-06           
  -1.25                 -2.745e-06            -5.6e-13              0                     2.7484e-06           
  -1.3                  -2.9656e-06           -5.8e-13              0                     2.9694e-06           
  -1.35                 -3.1792e-06           -4.6e-13              2e-14                 3.1832e-06           
  -1.4                  -3.3882e-06           -6.2e-13              -1.2e-13              3.392e-06            
  -1.45                 -3.5892e-06           -6e-13                -6e-14                3.592e-06            
  -1.5                  -3.7862e-06           -6.2e-13              2e-14                 3.7906e-06           
  -1.55                 -3.9786e-06           -5.2e-13              2e-14                 3.983e-06            
  -1.6                  -4.1682e-06           -5.2e-13              -1e-13                4.1706e-06           
  -1.65                 -4.351e-06            -6.8e-13              -2e-14                4.354e-06            
  -1.7                  -4.5306e-06           -6.6e-13              -6e-14                4.5344e-06           
  -1.75                 -4.7068e-06           -6.8e-13              -6e-14                4.7102e-06           
  -1.8                  -4.8782e-06           -5.8e-13              -6e-14                4.8828e-06           
  -1.85                 -5.0472e-06           -5.6e-13              -6e-14                5.0512e-06           
  -1.9                  -5.2122e-06           -7e-13                -6e-14                5.2158e-06           
  -1.95                 -5.3732e-06           -5.4e-13              1e-13                 5.3772e-06           
  -2                    -5.5302e-06           -6.8e-13              -6e-14                5.5346e-06           
  -2.05                 -5.6852e-06           -6.6e-13              4e-14                 5.6838e-06           
  -2.1                  -5.8374e-06           -6e-13                1.2e-13               5.8414e-06           
  -2.15                 -5.9828e-06           -7e-13                -1.2e-13              5.9896e-06           
  -2.2                  -6.1312e-06           -5.2e-13              4e-14                 6.1348e-06           
  -2.25                 -6.2714e-06           -6.8e-13              -1.2e-13              6.2748e-06           
  -2.3                  -6.4092e-06           -6.8e-13              -2e-14                6.4106e-06           
  -2.35                 -6.545e-06            -6.6e-13              -2e-14                6.5428e-06           
  -2.4                  -6.6808e-06           -7e-13                -4e-14                6.674e-06            
  -2.45                 -6.8114e-06           -7.2e-13              0                     6.8088e-06           
  -2.5                  -6.9344e-06           -6.4e-13              -1.2e-13              6.9456e-06           
  -2.55                 -7.0558e-06           -7.4e-13              -2e-14                7.0634e-06           
  -2.6                  -7.1878e-06           -7.6e-13              -2e-14                7.185e-06            
  -2.65                 -7.3068e-06           -7.6e-13              -1.6e-13              7.3092e-06           
  -2.7                  -7.4236e-06           -6.4e-13              1e-13                 7.422e-06            
  -2.75                 -7.537e-06            -8.2e-13              -1.8e-13              7.541e-06            
  -2.8                  -7.6582e-06           -6.4e-13              4e-14                 7.6572e-06           
  -2.85                 -7.7672e-06           -7.4e-13              -1.4e-13              7.7704e-06           
  -2.9                  -7.8794e-06           -7e-13                0                     7.877e-06            
  -2.95                 -7.9908e-06           -6.6e-13              0                     7.9936e-06           
  -3                    -8.096e-06            -6.8e-13              8e-14                 8.0984e-06           
  -3.05                 -8.1988e-06           -7.8e-13              -8e-14                8.2056e-06           
  -3.1                  -8.3074e-06           -6.4e-13              2e-14                 8.3108e-06           
  -3.15                 -8.4112e-06           -7.6e-13              -8e-14                8.414e-06            
  -3.2                  -8.5116e-06           -7.2e-13              -4e-14                8.5172e-06           
  -3.25                 -8.6132e-06           -8.4e-13              0                     8.6172e-06           
  -3.3                  -8.7122e-06           -7.6e-13              -6e-14                8.7154e-06           
  -3.35                 -8.8096e-06           -7.2e-13              0                     8.8132e-06           
  -3.4                  -8.9046e-06           -7.2e-13              -1e-13                8.9086e-06           
  -3.45                 -8.9976e-06           -8.8e-13              8e-14                 9.004e-06            
  -3.5                  -9.0888e-06           -7e-13                -1e-13                9.0936e-06           
  -3.55                 -9.1822e-06           -7.8e-13              -2e-14                9.1856e-06           
  -3.6                  -9.2702e-06           -7.6e-13              -2e-14                9.2714e-06           
END_DB

BEGIN_DB
 ICCAP_VAR vb         0.9            
 ICCAP_VAR vd         -0.1           
 ICCAP_VAR vs         -0             

 #vg                    id                    ig                    ib                    is                   
  0.5                   -4e-14                5e-13                 4.4e-13               2.2e-13              
  0.45                  -8e-14                4e-13                 3.6e-13               2.8e-13              
  0.4                   -6e-14                3.2e-13               4.2e-13               -6e-14               
  0.35                  -2e-14                2e-13                 2.2e-13               2.2e-13              
  0.3                   2e-14                 1.8e-13               3.2e-13               0                    
  0.25                  2e-14                 1e-13                 1.8e-13               2.4e-13              
  0.2                   2e-14                 2.2e-13               3.2e-13               4e-14                
  0.15                  6e-14                 2e-14                 1.2e-13               2e-13                
  0.1                   1.2e-13               -4e-14                2e-13                 3.4e-13              
  0.05                  -2e-14                2e-14                 2.8e-13               -1e-13               
  0                     6e-14                 -8e-14                8e-14                 4e-13                
  -0.05                 -6e-14                -8e-14                2e-13                 8e-14                
  -0.1                  4e-14                 -2e-14                8e-14                 2e-13                
  -0.15                 4e-14                 -2.6e-13              1.4e-13               8e-14                
  -0.2                  0                     -8e-14                2e-13                 6e-14                
  -0.25                 0                     -8e-14                1.8e-13               4e-14                
  -0.3                  2e-14                 -1.8e-13              2e-13                 1.2e-13              
  -0.35                 6e-14                 -3e-13                1.6e-13               1.2e-13              
  -0.4                  0                     -2.8e-13              1.4e-13               1.2e-13              
  -0.45                 -2e-14                -1.8e-13              1.6e-13               8e-14                
  -0.5                  -2e-13                -2.6e-13              1e-13                 2.2e-13              
  -0.55                 -6.4e-13              -3.4e-13              8e-14                 7.8e-13              
  -0.6                  -2.86e-12             -4.2e-13              8e-14                 3.2e-12              
  -0.65                 -1.186e-11            -2.6e-13              1e-13                 1.186e-11            
  -0.7                  -4.594e-11            -3.4e-13              6e-14                 4.606e-11            
  -0.75                 -1.7772e-10           -3.6e-13              1e-13                 1.7778e-10           
  -0.8                  -6.8396e-10           -3.8e-13              -2e-14                6.8316e-10           
  -0.85                 -2.5966e-09           -3e-13                1e-13                 2.5968e-09           
  -0.9                  -9.324e-09            -4e-13                1e-13                 9.3136e-09           
  -0.95                 -3.0116e-08           -4.2e-13              -6e-14                3.0098e-08           
  -1                    -8.1428e-08           -3.2e-13              4e-14                 8.1532e-08           
  -1.05                 -1.8086e-07           -4.6e-13              2.6e-13               1.8122e-07           
  -1.1                  -3.3346e-07           -4.2e-13              -6e-14                3.34e-07             
  -1.15                 -5.307e-07            -3.6e-13              1.2e-13               5.309e-07            
  -1.2                  -7.541e-07            -5.2e-13              -6e-14                7.5398e-07           
  -1.25                 -9.9108e-07           -5.2e-13              0                     9.9078e-07           
  -1.3                  -1.23e-06             -3.2e-13              -2e-14                1.2334e-06           
  -1.35                 -1.4684e-06           -4.4e-13              -8e-14                1.4722e-06           
  -1.4                  -1.7036e-06           -4e-13                8e-14                 1.7072e-06           
  -1.45                 -1.933e-06            -6e-13                -4e-14                1.936e-06            
  -1.5                  -2.1574e-06           -3.6e-13              1.6e-13               2.1614e-06           
  -1.55                 -2.375e-06            -5e-13                -2e-14                2.378e-06            
  -1.6                  -2.5876e-06           -5.8e-13              1.2e-13               2.5908e-06           
  -1.65                 -2.792e-06            -4.4e-13              1.4e-13               2.7962e-06           
  -1.7                  -2.9932e-06           -5e-13                1.2e-13               2.9966e-06           
  -1.75                 -3.1892e-06           -5.4e-13              6e-14                 3.1922e-06           
  -1.8                  -3.3798e-06           -5.4e-13              1.2e-13               3.383e-06            
  -1.85                 -3.565e-06            -5.8e-13              8e-14                 3.569e-06            
  -1.9                  -3.746e-06            -6.6e-13              4e-14                 3.7492e-06           
  -1.95                 -3.923e-06            -5.4e-13              0                     3.9266e-06           
  -2                    -4.0954e-06           -6.2e-13              -2e-14                4.0992e-06           
  -2.05                 -4.2638e-06           -4.6e-13              1.2e-13               4.2664e-06           
  -2.1                  -4.4296e-06           -6e-13                4e-14                 4.4332e-06           
  -2.15                 -4.5906e-06           -5.4e-13              2e-14                 4.5946e-06           
  -2.2                  -4.7488e-06           -6e-13                -1.2e-13              4.7524e-06           
  -2.25                 -4.9034e-06           -6.2e-13              8e-14                 4.907e-06            
  -2.3                  -5.055e-06            -6e-13                2e-14                 5.0552e-06           
  -2.35                 -5.2038e-06           -6.6e-13              2e-14                 5.2064e-06           
  -2.4                  -5.3478e-06           -6.6e-13              1e-13                 5.3532e-06           
  -2.45                 -5.4918e-06           -6.4e-13              -4e-14                5.4942e-06           
  -2.5                  -5.6308e-06           -6.6e-13              1e-13                 5.6346e-06           
  -2.55                 -5.7678e-06           -6e-13                6e-14                 5.7718e-06           
  -2.6                  -5.8986e-06           -6.4e-13              2e-14                 5.9036e-06           
  -2.65                 -6.0334e-06           -6.4e-13              6e-14                 6.0372e-06           
  -2.7                  -6.1634e-06           -5.2e-13              6e-14                 6.1608e-06           
  -2.75                 -6.2842e-06           -5.8e-13              6e-14                 6.2952e-06           
  -2.8                  -6.4144e-06           -7.6e-13              2e-14                 6.4196e-06           
  -2.85                 -6.5292e-06           -4.6e-13              6e-14                 6.5422e-06           
  -2.9                  -6.647e-06            -7.2e-13              6e-14                 6.653e-06            
  -2.95                 -6.7648e-06           -6.4e-13              -2e-14                6.777e-06            
  -3                    -6.8784e-06           -6.6e-13              -2e-14                6.881e-06            
  -3.05                 -6.9916e-06           -6.6e-13              1.2e-13               6.9956e-06           
  -3.1                  -7.105e-06            -7.6e-13              -2e-14                7.1072e-06           
  -3.15                 -7.2148e-06           -7e-13                6e-14                 7.2186e-06           
  -3.2                  -7.3252e-06           -7.4e-13              8e-14                 7.3278e-06           
  -3.25                 -7.4302e-06           -6.8e-13              -2e-14                7.428e-06            
  -3.3                  -7.5356e-06           -8.8e-13              1e-13                 7.5338e-06           
  -3.35                 -7.6338e-06           -5e-13                0                     7.6334e-06           
  -3.4                  -7.733e-06            -7.6e-13              -2e-14                7.74e-06             
  -3.45                 -7.8352e-06           -6.8e-13              -1e-13                7.838e-06            
