! VERSION = 6.00
BEGIN_HEADER
 ICCAP_INPUTS
  vg         V  G GROUND SMU2 0.001 LIN        1    0.5        -3.6       83   -0.05     
  vb         V  B GROUND SMU4 0.1 LIN        2    0          3.6        5    0.9       
  vd         V  D GROUND SMU1 0.1 LIN        3    -0.1       -3.3       3    -1.6      
  vs         V  S GROUND SMU3 0.1 CON        -0
 ICCAP_OUTPUTS
  id         I  D GROUND SMU1 B
  ig         I  G GROUND SMU2 B
  ib         I  B GROUND SMU4 B
  is         I  S GROUND SMU3 B
 ICCAP_VALUES
  MASTER_SETUP_TYPE "~dc_idvg~"
  LINVT_VALUE ""
  LISTVT_VALUE ""
  TYPE "-1"
  TEMP "-40.0000 "
  IS_TNOM " 0.00000 "
  MAIN.W "10.00u"
  MAIN.L "350.0n"
  MAIN.AD "3.400p"
  MAIN.AS "3.400p"
  MAIN.PD "20.68u"
  MAIN.PS "20.68u"
  MAIN.NF "1.000"
  MAIN.M "1"
  MAIN.NRD "0.000"
  MAIN.NRS "0.000"
  MAIN.LDRIFT1 "1E-06"
  MAIN.LDRIFT2 "1E-06"
  MAIN.SA "0.000"
  MAIN.SB "0.000"
  MAIN.SD "0.000"
  MAIN.SCA "0.000"
  MAIN.SCB "0.000"
  MAIN.SCC "0.000"
  MAIN.SC "0.000"
  MODULE "S561"
  PIN_D "16"
  PIN_G "5"
  PIN_S "6"
  PIN_B "15"
  PIN_E ""
  PIN_6 ""
  XY_ID ""
  FUNC "Short"
  STI "SA ref"
  WPE "WPE ref"
  COMMENT ""
  DIS_MEAS ""
  TypeTCI "10"
END_HEADER

BEGIN_DB
 ICCAP_VAR vb         0              
 ICCAP_VAR vd         -0.1           
 ICCAP_VAR vs         -0             

 #vg                    id                    ig                    ib                    is                   
  0.5                   1e-13                 7.4e-13               -2e-14                1e-13                
  0.45                  1e-13                 -2e-14                0                     8e-14                
  0.4                   1.6e-13               -3.4e-13              0                     2.4e-13              
  0.35                  0                     0                     2e-14                 2.2e-13              
  0.3                   1.4e-13               -8e-14                0                     1.4e-13              
  0.25                  1e-13                 1.8e-13               2e-14                 1e-13                
  0.2                   2e-13                 -1.8e-13              1.2e-13               0                    
  0.15                  -2e-14                2e-14                 -4e-14                2.2e-13              
  0.1                   8e-14                 -4e-13                0                     2e-14                
  0.05                  8e-14                 -4e-13                0                     2e-14                
  0                     6e-14                 -2e-13                -8e-14                8e-14                
  -0.05                 0                     -1e-13                2e-14                 1e-13                
  -0.1                  6e-14                 -1.8e-13              1.8e-13               4e-14                
  -0.15                 2e-14                 -4.4e-13              2e-14                 0                    
  -0.2                  -2.6e-13              -5.8e-13              -2e-14                5.2e-13              
  -0.25                 -1.6e-12              -6e-13                -2e-14                1.64e-12             
  -0.3                  -7.82e-12             -1.2e-13              0                     8.14e-12             
  -0.35                 -4.096e-11            -3.4e-13              4e-14                 4.118e-11            
  -0.4                  -2.102e-10            6e-14                 1.2e-13               2.1032e-10           
  -0.45                 -1.0813e-09           -7.8e-13              4e-14                 1.08064e-09          
  -0.5                  -5.5574e-09           -2.2e-13              -4e-14                5.555e-09            
  -0.55                 -2.8206e-08           -1.2e-13              -2e-14                2.8244e-08           
  -0.6                  -1.348e-07            -1.8e-13              4e-14                 1.3482e-07           
  -0.65                 -5.686e-07            -7e-13                -8e-14                5.6858e-07           
  -0.7                  -1.9502e-06           -6e-14                6e-14                 1.9524e-06           
  -0.75                 -5.1922e-06           -7.2e-13              -6e-14                5.1964e-06           
  -0.8                  -1.08022e-05          -3.8e-13              8e-14                 1.0803e-05           
  -0.85                 -1.8516e-05           -2e-14                -1.2e-13              1.852e-05            
  -0.9                  -2.7472e-05           -2.2e-13              1e-13                 2.7478e-05           
  -0.95                 -3.6984e-05           -3.2e-13              -4e-14                3.6982e-05           
  -1                    -4.6486e-05           -4.8e-13              6e-14                 4.6476e-05           
  -1.05                 -5.5818e-05           -6.2e-13              4e-14                 5.5832e-05           
  -1.1                  -6.4828e-05           -4.4e-13              0                     6.4848e-05           
  -1.15                 -7.3528e-05           -8.8e-13              8e-14                 7.354e-05            
  -1.2                  -8.1864e-05           -1.6e-13              0                     8.1882e-05           
  -1.25                 -8.9928e-05           -2.6e-13              0                     8.9942e-05           
  -1.3                  -9.7678e-05           -6.4e-13              2e-14                 9.7692e-05           
  -1.35                 -0.000105104          -5.8e-13              -4e-14                0.000105124          
  -1.4                  -0.00011229           -5.6e-13              -6e-14                0.000112296          
  -1.45                 -0.00011902           -5e-13                -6e-14                0.00011936           
  -1.5                  -0.00012572           -3.4e-13              4e-14                 0.00012608           
  -1.55                 -0.00013218           -4.2e-13              -8e-14                0.00013252           
  -1.6                  -0.00013846           -1.04e-12             2e-14                 0.0001388            
  -1.65                 -0.0001445            -5.8e-13              2e-14                 0.00014484           
  -1.7                  -0.00015038           -4.6e-13              -6e-14                0.0001507            
  -1.75                 -0.00015606           -5.2e-13              0                     0.0001564            
  -1.8                  -0.00016158           -8e-13                -2e-14                0.00016192           
  -1.85                 -0.00016696           -6.2e-13              0                     0.0001673            
  -1.9                  -0.00017214           -3.2e-13              0                     0.0001725            
  -1.95                 -0.00017722           -9e-13                -8e-14                0.00017758           
  -2                    -0.00018214           -7.2e-13              6e-14                 0.00018248           
  -2.05                 -0.00018692           -1.1e-12              -1.4e-13              0.00018726           
  -2.1                  -0.00019158           -6.8e-13              1.4e-13               0.00019192           
  -2.15                 -0.0001961            -6.2e-13              -4e-14                0.00019644           
  -2.2                  -0.0002005            -4.4e-13              -8e-14                0.00020084           
  -2.25                 -0.00020478           -8.2e-13              -4e-14                0.00020512           
  -2.3                  -0.00020898           -9.4e-13              0                     0.00020934           
  -2.35                 -0.00021306           -8.2e-13              -2e-14                0.0002134            
  -2.4                  -0.00021702           -4.6e-13              2e-14                 0.00021736           
  -2.45                 -0.00022088           -8.8e-13              -1e-13                0.00022122           
  -2.5                  -0.00022466           -7.8e-13              4e-14                 0.000225             
  -2.55                 -0.00022834           -4.4e-13              8e-14                 0.00022868           
  -2.6                  -0.00023192           -4.8e-13              -4e-14                0.00023226           
  -2.65                 -0.00023542           -6.8e-13              8e-14                 0.00023578           
  -2.7                  -0.00023884           -7.4e-13              -1e-13                0.00023918           
  -2.75                 -0.00024218           -6.8e-13              4e-14                 0.00024254           
  -2.8                  -0.00024546           -6.2e-13              -1.2e-13              0.0002458            
  -2.85                 -0.00024862           -7.8e-13              0                     0.00024896           
  -2.9                  -0.00025174           -4e-13                0                     0.00025206           
  -2.95                 -0.00025476           -7.4e-13              -6e-14                0.0002551            
  -3                    -0.00025772           -7e-13                -2e-14                0.00025808           
  -3.05                 -0.00026062           -3.4e-13              -6e-14                0.00026096           
  -3.1                  -0.00026344           -6e-13                0                     0.0002638            
  -3.15                 -0.00026624           -5.2e-13              8e-14                 0.00026658           
  -3.2                  -0.00026894           -8.6e-13              -4e-14                0.00026928           
  -3.25                 -0.00027156           -4e-13                0                     0.0002719            
  -3.3                  -0.00027416           -8.2e-13              -1.2e-13              0.00027448           
  -3.35                 -0.00027668           -8.6e-13              -1.2e-13              0.00027702           
  -3.4                  -0.00027916           -6.4e-13              4e-14                 0.00027952           
  -3.45                 -0.00028156           -4.6e-13              -6e-14                0.00028192           
  -3.5                  -0.00028394           -7e-13                1.2e-13               0.00028428           
  -3.55                 -0.00028628           -4.8e-13              -2e-14                0.00028662           
  -3.6                  -0.0002885            -6.2e-13              1.4e-13               0.00028888           
END_DB

BEGIN_DB
 ICCAP_VAR vb         0.9            
 ICCAP_VAR vd         -0.1           
 ICCAP_VAR vs         -0             

 #vg                    id                    ig                    ib                    is                   
  0.5                   -2e-14                6.8e-13               3.2e-13               1.8e-13              
  0.45                  -4e-14                4.4e-13               2e-13                 1.6e-13              
  0.4                   0                     4.6e-13               2.4e-13               1e-13                
  0.35                  1.4e-13               2e-14                 2.2e-13               1.8e-13              
  0.3                   6e-14                 4e-14                 2.4e-13               1.6e-13              
  0.25                  -2e-14                -6e-14                1.8e-13               4e-14                
  0.2                   6e-14                 1.2e-13               8e-14                 2.4e-13              
  0.15                  6e-14                 2.6e-13               1.4e-13               2e-14                
  0.1                   0                     -6e-14                1.2e-13               1.8e-13              
  0.05                  -6e-14                -1.4e-13              1.8e-13               8e-14                
  0                     -8e-14                2e-14                 1.8e-13               0                    
  -0.05                 4e-14                 1.8e-13               2.4e-13               6e-14                
  -0.1                  8e-14                 2.2e-13               1.4e-13               0                    
  -0.15                 0                     4e-14                 1.4e-13               0                    
  -0.2                  0                     -6e-14                1e-13                 2e-14                
  -0.25                 1e-13                 -2.4e-13              8e-14                 8e-14                
  -0.3                  2e-14                 4e-14                 2e-13                 6e-14                
  -0.35                 6e-14                 -1.4e-13              1.6e-13               2e-13                
  -0.4                  1e-13                 -2.8e-13              1.6e-13               1.6e-13              
  -0.45                 -1.2e-13              -2.6e-13              1.2e-13               3e-13                
  -0.5                  8e-14                 -4e-13                6e-14                 3.2e-13              
  -0.55                 -1e-13                -2.6e-13              1.6e-13               3e-13                
  -0.6                  -7.6e-13              -4.2e-13              2e-14                 9.4e-13              
  -0.65                 -5.32e-12             -1.2e-13              4e-14                 5.42e-12             
  -0.7                  -3.14e-11             -3.6e-13              -6e-14                3.172e-11            
  -0.75                 -1.8824e-10           -2.2e-13              6e-14                 1.8802e-10           
  -0.8                  -1.10958e-09          -2.4e-13              0                     1.10936e-09          
  -0.85                 -6.4714e-09           -8e-14                -2e-14                6.4664e-09           
  -0.9                  -3.5852e-08           -1.2e-13              -4e-14                3.5886e-08           
  -0.95                 -1.8098e-07           -3.4e-13              8e-14                 1.8098e-07           
  -1                    -7.5988e-07           -4e-13                0                     7.594e-07            
  -1.05                 -2.4834e-06           -2e-13                1.8e-13               2.4858e-06           
  -1.1                  -6.1488e-06           -5.2e-13              6e-14                 6.1516e-06           
  -1.15                 -1.2024e-05           -4e-13                6e-14                 1.2036e-05           
  -1.2                  -1.9564e-05           -5.6e-13              1e-13                 1.9586e-05           
  -1.25                 -2.8046e-05           -5e-13                4e-14                 2.8028e-05           
  -1.3                  -3.677e-05            -1e-13                6e-14                 3.6768e-05           
  -1.35                 -4.5402e-05           -3e-13                1e-13                 4.5418e-05           
  -1.4                  -5.3864e-05           -5.4e-13              4e-14                 5.3882e-05           
  -1.45                 -6.1994e-05           -5.2e-13              -4e-14                6.2014e-05           
  -1.5                  -6.9834e-05           -2.4e-13              8e-14                 6.9848e-05           
  -1.55                 -7.7352e-05           -4.8e-13              4e-14                 7.7374e-05           
  -1.6                  -8.4622e-05           -5.2e-13              2e-14                 8.4636e-05           
  -1.65                 -9.1582e-05           -5e-13                1.4e-13               9.1602e-05           
  -1.7                  -9.8298e-05           -3.6e-13              2e-14                 9.8304e-05           
  -1.75                 -0.000104792          -5.6e-13              8e-14                 0.000104806          
  -1.8                  -0.000111056          -8e-14                0                     0.00011107           
  -1.85                 -0.00011694           -5.8e-13              2e-14                 0.00011728           
  -1.9                  -0.00012278           -5.4e-13              -2e-14                0.00012314           
  -1.95                 -0.00012846           -7e-13                0                     0.0001288            
  -2                    -0.00013396           -6.6e-13              -1.4e-13              0.0001343            
  -2.05                 -0.0001393            -4.4e-13              6e-14                 0.00013964           
  -2.1                  -0.0001445            -5e-13                1.2e-13               0.00014484           
  -2.15                 -0.00014952           -4.8e-13              -1e-13                0.00014986           
  -2.2                  -0.0001544            -6.2e-13              1e-13                 0.00015474           
  -2.25                 -0.00015914           -3.8e-13              8e-14                 0.0001595            
  -2.3                  -0.00016378           -3.6e-13              -2e-14                0.00016414           
  -2.35                 -0.0001683            -6.2e-13              0                     0.00016862           
  -2.4                  -0.00017268           -4.8e-13              -2e-14                0.00017302           
  -2.45                 -0.00017694           -4.2e-13              1.2e-13               0.0001773            
  -2.5                  -0.00018112           -5.4e-13              6e-14                 0.00018146           
  -2.55                 -0.00018516           -6.2e-13              4e-14                 0.0001855            
  -2.6                  -0.00018912           -6e-13                6e-14                 0.00018948           
  -2.65                 -0.00019296           -8e-13                6e-14                 0.00019328           
  -2.7                  -0.0001967            -5.8e-13              1.4e-13               0.00019704           
  -2.75                 -0.00020038           -4e-13                2e-14                 0.00020072           
  -2.8                  -0.00020396           -5e-13                -8e-14                0.00020428           
  -2.85                 -0.00020746           -7.6e-13              1e-13                 0.0002078            
  -2.9                  -0.00021088           -8.2e-13              -6e-14                0.00021122           
  -2.95                 -0.0002142            -2e-13                -2e-14                0.00021452           
  -3                    -0.00021744           -5.6e-13              0                     0.00021778           
  -3.05                 -0.00022062           -9e-13                -1.2e-13              0.00022096           
  -3.1                  -0.00022374           -3.6e-13              -4e-14                0.00022408           
  -3.15                 -0.00022678           -8.4e-13              1.2e-13               0.00022712           
  -3.2                  -0.00022976           -5e-13                -8e-14                0.0002301            
  -3.25                 -0.00023266           -6e-13                4e-14                 0.00023298           
  -3.3                  -0.00023548           -6.6e-13              -2e-14                0.00023584           
  -3.35                 -0.00023828           -4.8e-13              -8e-14                0.00023862           
  -3.4                  -0.00024098           -6.8e-13              4e-14                 0.0002413            
  -3.45                 -0.00024364           -6e-13                -6e-14                0.00024398           
