! VERSION = 6.00
BEGIN_HEADER
 ICCAP_INPUTS
  vd         V  D GROUND SMU1 0.1 LIN        1    -0         -3.6       37   -0.1      
  vg         V  G GROUND SMU2 0.001 LIN        2    -0.716     -3.6       5    -0.721    
  vb         V  B GROUND SMU4 0.1 CON        -0
  vs         V  S GROUND SMU3 0.1 CON        -0
 ICCAP_OUTPUTS
  id         I  D GROUND SMU1 B
  ig         I  G GROUND SMU2 B
  ib         I  B GROUND SMU4 B
  is         I  S GROUND SMU3 B
 ICCAP_VALUES
  MASTER_SETUP_TYPE "~dc_idvd~"
  LINVT_VALUE "|idvg|100.0n|100.0m|1.000m|5|3.600|"
  LISTVT_VALUE ""
  TYPE "-1"
  TEMP " 27.0000 "
  IS_TNOM " 1.00000 "
  MAIN.W "10.00u"
  MAIN.L "330.0n"
  MAIN.AD "3.400p"
  MAIN.AS "3.400p"
  MAIN.PD "20.68u"
  MAIN.PS "20.68u"
  MAIN.NF "1.000"
  MAIN.M "1"
  MAIN.NRD "0.000"
  MAIN.NRS "0.000"
  MAIN.LDRIFT1 "1E-06"
  MAIN.LDRIFT2 "1E-06"
  MAIN.SA "0.000"
  MAIN.SB "0.000"
  MAIN.SD "0.000"
  MAIN.SCA "0.000"
  MAIN.SCB "0.000"
  MAIN.SCC "0.000"
  MAIN.SC "0.000"
  MODULE "S561"
  PIN_D "18"
  PIN_G "3"
  PIN_S "4"
  PIN_B "17"
  PIN_E ""
  PIN_6 ""
  XY_ID ""
  FUNC "Additional"
  STI "SA ref"
  WPE "WPE ref"
  COMMENT ""
  DIS_MEAS ""
  TypeTCI "10"
END_HEADER

BEGIN_DB
 ICCAP_VAR vg         -0.716         
 ICCAP_VAR vb         -0             
 ICCAP_VAR vs         -0             

 #vd                    id                    ig                    ib                    is                   
  -0                    2.0812e-09            -1.2e-13              -8.8e-13              -3.8408e-09          
  -0.1                  -8.7144e-06           8e-14                 -9.2e-13              8.7144e-06           
  -0.2                  -1.0377e-05           -4e-14                -8.6e-13              1.03782e-05          
  -0.3                  -1.0964e-05           6e-14                 -8e-13                1.09774e-05          
  -0.4                  -1.1366e-05           1.4e-13               -7.4e-13              1.13778e-05          
  -0.5                  -1.1696e-05           4e-14                 -8.4e-13              1.1714e-05           
  -0.6                  -1.1984e-05           1.8e-13               -6e-13                1.2004e-05           
  -0.7                  -1.2246e-05           1e-13                 -5.4e-13              1.2266e-05           
  -0.8                  -1.2486e-05           6e-14                 -5e-13                1.2504e-05           
  -0.9                  -1.2714e-05           1.6e-13               -7.4e-13              1.2734e-05           
  -1                    -1.2928e-05           2.2e-13               -7.6e-13              1.2948e-05           
  -1.1                  -1.3132e-05           1.2e-13               -5.2e-13              1.3156e-05           
  -1.2                  -1.3334e-05           1.4e-13               -5.8e-13              1.3356e-05           
  -1.3                  -1.3524e-05           1e-13                 -5e-13                1.3548e-05           
  -1.4                  -1.3724e-05           2e-13                 -4.4e-13              1.3744e-05           
  -1.5                  -1.392e-05            1.4e-13               -2.6e-13              1.3938e-05           
  -1.6                  -1.4108e-05           2e-13                 2.4e-13               1.4128e-05           
  -1.7                  -1.4294e-05           1.4e-13               1.46e-12              1.4316e-05           
  -1.8                  -1.4484e-05           1.2e-13               5e-12                 1.45e-05             
  -1.9                  -1.4664e-05           1.6e-13               1.274e-11             1.4686e-05           
  -2                    -1.4848e-05           1.2e-13               2.888e-11             1.487e-05            
  -2.1                  -1.5034e-05           1.4e-13               6.11e-11              1.5052e-05           
  -2.2                  -1.522e-05            2.2e-13               1.2162e-10            1.5238e-05           
  -2.3                  -1.54e-05             6e-14                 2.3074e-10            1.542e-05            
  -2.4                  -1.559e-05            2e-13                 4.2174e-10            1.561e-05            
  -2.5                  -1.578e-05            2.8e-13               7.4686e-10            1.5796e-05           
  -2.6                  -1.5972e-05           1.6e-13               1.2868e-09            1.6e-05              
  -2.7                  -1.6168e-05           8e-14                 2.1584e-09            1.6188e-05           
  -2.8                  -1.6362e-05           2e-13                 3.5366e-09            1.6382e-05           
  -2.9                  -1.6552e-05           1.4e-13               5.6728e-09            1.6564e-05           
  -3                    -1.6756e-05           1.6e-13               8.912e-09             1.6762e-05           
  -3.1                  -1.68e-05             -2e-14                1.3718e-08            1.6986e-05           
  -3.2                  -1.718e-05            6e-14                 2.0756e-08            1.7186e-05           
  -3.3                  -1.7396e-05           8e-14                 3.0844e-08            1.74e-05             
  -3.4                  -1.7626e-05           1.2e-13               4.4978e-08            1.7608e-05           
  -3.5                  -1.7864e-05           1e-13                 6.4708e-08            1.7864e-05           
  -3.6                  -1.8176e-05           1.2e-13               9.1832e-08            1.8134e-05           
END_DB

BEGIN_DB
 ICCAP_VAR vg         -1.437         
 ICCAP_VAR vb         -0             
 ICCAP_VAR vs         -0             

 #vd                    id                    ig                    ib                    is                   
  -0                    5.4504e-08            -2.6e-13              -1.6e-13              -4.679e-08           
  -0.1                  -0.00010704           -1.8e-13              -2.6e-13              0.0001074            
  -0.2                  -0.0001961            -2e-14                -1.2e-13              0.00019648           
  -0.3                  -0.0002663            -2e-13                -1.4e-13              0.00026668           
  -0.4                  -0.00031828           -1.4e-13              -2.2e-13              0.00031868           
  -0.5                  -0.00035432           -2e-14                -1.2e-13              0.0003547            
  -0.6                  -0.0003779            0                     -1e-13                0.0003783            
  -0.7                  -0.00039324           0                     -3.6e-13              0.00039364           
  -0.8                  -0.00040376           -1e-13                -2.6e-13              0.00040412           
  -0.9                  -0.00041154           4e-14                 -4e-14                0.00041192           
  -1                    -0.00041774           -8e-14                -1e-13                0.00041814           
  -1.1                  -0.00042294           4e-14                 -1.2e-13              0.0004233            
  -1.2                  -0.00042742           2e-14                 -2.4e-13              0.00042782           
  -1.3                  -0.00043142           2e-14                 -6e-14                0.0004318            
  -1.4                  -0.000435             -6e-14                -2.6e-13              0.00043536           
  -1.5                  -0.0004383            -1.2e-13              0                     0.00043866           
  -1.6                  -0.00044142           -2e-14                -4e-14                0.00044176           
  -1.7                  -0.00044432           -2e-14                1.6e-13               0.00044468           
  -1.8                  -0.00044706           -8e-14                9.2e-13               0.0004474            
  -1.9                  -0.00044966           -1.6e-13              3.62e-12              0.00045008           
  -2                    -0.00045226           -1.2e-13              1.256e-11             0.00045258           
  -2.1                  -0.00045474           -2e-14                3.632e-11             0.00045508           
  -2.2                  -0.00045712           -4e-14                9.564e-11             0.0004575            
  -2.3                  -0.0004595            -6e-14                2.3186e-10            0.00045998           
  -2.4                  -0.000462             -8e-14                5.2262e-10            0.00046238           
  -2.5                  -0.00046422           2e-14                 1.10928e-09           0.0004646            
  -2.6                  -0.0004665            2e-14                 2.2342e-09            0.00046686           
  -2.7                  -0.00046882           0                     4.298e-09             0.00046922           
  -2.8                  -0.0004711            -8e-14                7.9648e-09            0.00047154           
  -2.9                  -0.0004734            -1e-13                1.4274e-08            0.00047376           
  -3                    -0.00047556           -4e-14                2.4854e-08            0.00047596           
  -3.1                  -0.00047778           2e-14                 4.2114e-08            0.00047806           
  -3.2                  -0.00047986           1.2e-13               6.983e-08             0.0004802            
  -3.3                  -0.00048206           0                     1.132e-07             0.00048238           
  -3.4                  -0.00048436           -3.6e-13              1.797e-07             0.00048456           
  -3.5                  -0.00048664           -2.8e-13              2.796e-07             0.00048678           
  -3.6                  -0.000489             -1.2e-13              4.2686e-07            0.00048906           
END_DB

BEGIN_DB
 ICCAP_VAR vg         -2.158         
 ICCAP_VAR vb         -0             
 ICCAP_VAR vs         -0             

 #vd                    id                    ig                    ib                    is                   
  -0                    8.2616e-08            -3.6e-13              -1.8e-13              -7.3374e-08          
  -0.1                  -0.00017552           -2.2e-13              -1.2e-13              0.00017586           
  -0.2                  -0.00033718           -2.4e-13              -8e-14                0.00033754           
  -0.3                  -0.00048336           -2e-13                -1.6e-13              0.00048372           
  -0.4                  -0.00061316           -2.8e-13              -1.2e-13              0.00061356           
  -0.5                  -0.0007269            -2e-13                1.2e-13               0.00072726           
  -0.6                  -0.00082426           -8e-14                8e-14                 0.00082466           
  -0.7                  -0.0009058            -1.8e-13              -1.8e-13              0.00090616           
  -0.8                  -0.00097286           -1e-13                -1.2e-13              0.00097324           
  -0.9                  -0.00102682           -2e-13                2e-14                 0.00102712           
  -1                    -0.00106932           -2e-13                4e-14                 0.00106972           
  -1.1                  -0.0011027            -1e-13                4e-14                 0.00110314           
  -1.2                  -0.00112896           -1.8e-13              -2e-14                0.00112914           
  -1.3                  -0.00114972           -2.2e-13              -4e-14                0.0011508            
  -1.4                  -0.0011658            -2e-14                2e-14                 0.0011678            
  -1.5                  -0.00118              4e-14                 1e-13                 0.0011818            
  -1.6                  -0.001192             6e-14                 -1.8e-13              0.0011942            
  -1.7                  -0.0012026            4e-14                 -2e-14                0.0012046            
  -1.8                  -0.0012118            -1.8e-13              1.4e-13               0.0012138            
  -1.9                  -0.00122              -1.4e-13              3e-13                 0.001222             
  -2                    -0.0012276            -6e-14                5.4e-13               0.0012294            
  -2.1                  -0.0012344            -8e-14                2e-12                 0.0012364            
  -2.2                  -0.0012408            0                     6.36e-12              0.0012428            
  -2.3                  -0.0012468            -4e-14                1.882e-11             0.0012488            
  -2.4                  -0.0012526            -8e-14                5.216e-11             0.0012546            
  -2.5                  -0.001258             0                     1.33e-10              0.00126              
  -2.6                  -0.001263             -6e-14                3.1728e-10            0.0012652            
  -2.7                  -0.0012682            -1.2e-13              7.114e-10             0.00127              
  -2.8                  -0.001273             -8e-14                1.5182e-09            0.0012752            
  -2.9                  -0.001278             -4e-14                3.0856e-09            0.0012798            
  -3                    -0.0012826            -2e-14                6.0184e-09            0.0012846            
  -3.1                  -0.0012872            -2e-14                1.12918e-08           0.0012892            
  -3.2                  -0.0012916            4e-14                 2.0564e-08            0.0012936            
  -3.3                  -0.001296             2e-14                 3.6398e-08            0.001298             
  -3.4                  -0.0013004            8e-14                 6.2786e-08            0.0013024            
  -3.5                  -0.0013046            8e-14                 1.05702e-07           0.0013066            
  -3.6                  -0.0013092            -4.6e-13              1.7416e-07            0.001311             
END_DB

BEGIN_DB
 ICCAP_VAR vg         -2.879         
 ICCAP_VAR vb         -0             
 ICCAP_VAR vs         -0             

 #vd                    id                    ig                    ib                    is                   
  -0                    9.9028e-08            -3e-13                -4e-14                -8.4248e-08          
  -0.1                  -0.00022472           -3e-13                -6e-14                0.00022508           
  -0.2                  -0.00043822           -3.2e-13              -4e-14                0.00043858           
  -0.3                  -0.00063866           -2.8e-13              -2e-14                0.000639             
  -0.4                  -0.00082486           -1.8e-13              2e-14                 0.0008252            
  -0.5                  -0.00099692           -1.6e-13              2e-14                 0.00099732           
  -0.6                  -0.0011536            -3.2e-13              0                     0.0011554            
  -0.7                  -0.0012958            -1.4e-13              -1.8e-13              0.0012978            
  -0.8                  -0.0014236            -2e-13                -1.2e-13              0.0014254            
  -0.9                  -0.0015372            -1.2e-13              8e-14                 0.001539             
  -1                    -0.0016368            -1e-13                0                     0.0016388            
  -1.1                  -0.001724             -1.4e-13              0                     0.0017258            
  -1.2                  -0.001799             -1.4e-13              8e-14                 0.001801             
  -1.3                  -0.0018634            -1.2e-13              4e-14                 0.0018654            
  -1.4                  -0.001918             -1.6e-13              2e-14                 0.00192              
  -1.5                  -0.0019644            -1.6e-13              1.2e-13               0.0019664            
  -1.6                  -0.0020036            -1e-13                0                     0.0020056            
  -1.7                  -0.0020368            -1e-13                -6e-14                0.002039             
  -1.8                  -0.0020652            -4e-14                1.4e-13               0.0020672            
  -1.9                  -0.0020892            0                     1.6e-13               0.0020912            
  -2                    -0.0021102            -8e-14                1e-13                 0.002112             
  -2.1                  -0.0021282            0                     1.8e-13               0.0021302            
  -2.2                  -0.0021444            -2e-14                4.8e-13               0.0021464            
  -2.3                  -0.0021586            -1e-13                1.18e-12              0.0021606            
  -2.4                  -0.0021716            -8e-14                3.86e-12              0.0021734            
  -2.5                  -0.0021828            8e-14                 1.114e-11             0.0021852            
  -2.6                  -0.0021938            2e-14                 3.046e-11             0.0021958            
  -2.7                  -0.0022034            6e-14                 7.78e-11              0.0022056            
  -2.8                  -0.0022128            -4e-14                1.8688e-10            0.0022148            
  -2.9                  -0.0022212            -1e-13                4.2444e-10            0.0022232            
  -3                    -0.0022294            0                     9.169e-10             0.002231             
  -3.1                  -0.002237             -6e-14                1.8932e-09            0.0022388            
  -3.2                  -0.0022442            -6e-14                3.75e-09              0.0022462            
  -3.3                  -0.0022514            -8e-14                7.1704e-09            0.0022534            
  -3.4                  -0.0022584            -1.4e-13              1.3294e-08            0.0022604            
  -3.5                  -0.002265             -8e-14                2.3994e-08            0.002267             
  -3.6                  -0.0022716            -8e-14                4.2204e-08            0.0022734            
END_DB

BEGIN_DB
 ICCAP_VAR vg         -3.6           
 ICCAP_VAR vb         -0             
 ICCAP_VAR vs         -0             

 #vd                    id                    ig                    ib                    is                   
  -0                    1.12788e-07           -5.4e-13              -1.6e-13              -8.5046e-08          
  -0.1                  -0.00026166           -2.8e-13              -6e-14                0.00026202           
  -0.2                  -0.00051394           -3.2e-13              -8e-14                0.00051426           
  -0.3                  -0.00075486           -3.6e-13              -1.4e-13              0.00075522           
  -0.4                  -0.00098332           -3.8e-13              -1.2e-13              0.00098378           
  -0.5                  -0.0011988            -2.2e-13              0                     0.0012006            
  -0.6                  -0.0014016            -2.4e-13              -4e-14                0.0014038            
  -0.7                  -0.0015908            -2e-13                -4e-14                0.0015926            
  -0.8                  -0.0017666            -1.2e-13              6e-14                 0.0017686            
