! VERSION = 6.00
BEGIN_HEADER
 ICCAP_INPUTS
  vd         V  D GROUND SMU1 0.1 LIN        1    -0         -3.6       37   -0.1      
  vg         V  G GROUND SMU2 0.001 LIST       2 3 -0.445 -0.645 -0.845
  vb         V  B GROUND SMU4 0.1 CON        -0
  vs         V  S GROUND SMU3 0.1 CON        -0
 ICCAP_OUTPUTS
  id         I  D GROUND SMU1 B
  ig         I  G GROUND SMU2 B
  ib         I  B GROUND SMU4 B
  is         I  S GROUND SMU3 B
 ICCAP_VALUES
  MASTER_SETUP_TYPE "~dc_idvd~"
  LINVT_VALUE ""
  LISTVT_VALUE "|idvg|100.0n|-200.0m|1.000m|3|200.0m|200.0m|"
  TYPE "-1"
  TEMP " 27.0000 "
  IS_TNOM " 1.00000 "
  MAIN.W "150.0n"
  MAIN.L "330.0n"
  MAIN.AD "100.5f"
  MAIN.AS "100.5f"
  MAIN.PD "1.340u"
  MAIN.PS "1.340u"
  MAIN.NF "1.000"
  MAIN.M "1"
  MAIN.NRD "0.000"
  MAIN.NRS "0.000"
  MAIN.LDRIFT1 "1E-06"
  MAIN.LDRIFT2 "1E-06"
  MAIN.SA "0.000"
  MAIN.SB "0.000"
  MAIN.SD "0.000"
  MAIN.SCA "0.000"
  MAIN.SCB "0.000"
  MAIN.SCC "0.000"
  MAIN.SC "0.000"
  MODULE "S555"
  PIN_D "12"
  PIN_G "9"
  PIN_S "10"
  PIN_B "11"
  PIN_E ""
  PIN_6 ""
  XY_ID ""
  FUNC "Additional"
  STI "SA ref"
  WPE "WPE ref"
  COMMENT ""
  DIS_MEAS ""
  TypeTCI "10"
END_HEADER

BEGIN_DB
 ICCAP_VAR vg         -0.445         
 ICCAP_VAR vb         -0             
 ICCAP_VAR vs         -0             

 #vd                    id                    ig                    ib                    is                   
  -0                    7.4e-13               4e-13                 0                     -7.2e-13             
  -0.1                  -2.9392e-10           5e-13                 -4e-14                2.9408e-10           
  -0.2                  -3.109e-10            4.2e-13               -4e-14                3.1116e-10           
  -0.3                  -3.212e-10            4.2e-13               0                     3.2086e-10           
  -0.4                  -3.3076e-10           3.4e-13               -1.2e-13              3.3076e-10           
  -0.5                  -3.3958e-10           3.8e-13               -1.4e-13              3.4036e-10           
  -0.6                  -3.485e-10            2.6e-13               -1.2e-13              3.4818e-10           
  -0.7                  -3.5652e-10           4e-13                 0                     3.561e-10            
  -0.8                  -3.647e-10            3.4e-13               -2e-14                3.643e-10            
  -0.9                  -3.7272e-10           3.6e-13               4e-14                 3.7332e-10           
  -1                    -3.8302e-10           2.8e-13               -1e-13                3.8162e-10           
  -1.1                  -3.9078e-10           3.8e-13               -1.2e-13              3.9064e-10           
  -1.2                  -3.9916e-10           3.4e-13               -1.2e-13              3.9956e-10           
  -1.3                  -4.1054e-10           3.2e-13               -2e-14                4.0974e-10           
  -1.4                  -4.1772e-10           2.6e-13               -2e-14                4.182e-10            
  -1.5                  -4.2712e-10           1.8e-13               2e-14                 4.2804e-10           
  -1.6                  -4.3772e-10           1.4e-13               4e-14                 4.3592e-10           
  -1.7                  -4.4514e-10           2.2e-13               -2e-14                4.4386e-10           
  -1.8                  -4.5452e-10           3e-13                 -6e-14                4.5408e-10           
  -1.9                  -4.6532e-10           3.2e-13               -6e-14                4.6436e-10           
  -2                    -4.7544e-10           2.4e-13               -1.6e-13              4.7436e-10           
  -2.1                  -4.8546e-10           1.2e-13               -1e-13                4.8462e-10           
  -2.2                  -4.9556e-10           1.6e-13               -2e-14                4.9652e-10           
  -2.3                  -5.0844e-10           3.8e-13               0                     5.0672e-10           
  -2.4                  -5.2008e-10           1e-13                 0                     5.1794e-10           
  -2.5                  -5.3074e-10           1.2e-13               2e-14                 5.3074e-10           
  -2.6                  -5.4372e-10           2.2e-13               1.6e-13               5.4134e-10           
  -2.7                  -5.5532e-10           2.4e-13               6e-14                 5.5542e-10           
  -2.8                  -5.6904e-10           1.8e-13               2.2e-13               5.699e-10            
  -2.9                  -5.8196e-10           1.4e-13               4e-13                 5.823e-10            
  -3                    -5.9424e-10           1.4e-13               4.8e-13               5.9348e-10           
  -3.1                  -6.111e-10            8e-14                 9e-13                 6.0838e-10           
  -3.2                  -6.2442e-10           2.2e-13               1.36e-12              6.222e-10            
  -3.3                  -6.3932e-10           1e-13                 1.92e-12              6.3684e-10           
  -3.4                  -6.5514e-10           1.2e-13               2.9e-12               6.512e-10            
  -3.5                  -6.7146e-10           2.4e-13               3.98e-12              6.6654e-10           
  -3.6                  -6.871e-10            0                     5.34e-12              6.8298e-10           
END_DB

BEGIN_DB
 ICCAP_VAR vg         -0.645         
 ICCAP_VAR vb         -0             
 ICCAP_VAR vs         -0             

 #vd                    id                    ig                    ib                    is                   
  -0                    5.392e-11             0                     -8e-14                -5.782e-11           
  -0.1                  -3.0346e-08           4e-14                 -8e-14                3.0326e-08           
  -0.2                  -3.2874e-08           -8e-14                -8e-14                3.2886e-08           
  -0.3                  -3.413e-08            6e-14                 -8e-14                3.4044e-08           
  -0.4                  -3.5082e-08           1.8e-13               -4e-14                3.5102e-08           
  -0.5                  -3.6058e-08           -2e-14                0                     3.6108e-08           
  -0.6                  -3.7008e-08           -2e-14                4e-14                 3.7054e-08           
  -0.7                  -3.797e-08            1.2e-13               0                     3.8066e-08           
  -0.8                  -3.8902e-08           -2e-14                4e-14                 3.8934e-08           
  -0.9                  -3.9706e-08           6e-14                 -2e-14                3.9798e-08           
  -1                    -4.0636e-08           8e-14                 -4e-14                4.0558e-08           
  -1.1                  -4.1452e-08           -8e-14                4e-14                 4.1452e-08           
  -1.2                  -4.228e-08            0                     -4e-14                4.2354e-08           
  -1.3                  -4.3124e-08           -2e-14                -2e-14                4.3136e-08           
  -1.4                  -4.3992e-08           2e-14                 -6e-14                4.398e-08            
  -1.5                  -4.4798e-08           0                     2e-14                 4.4848e-08           
  -1.6                  -4.574e-08            8e-14                 0                     4.5736e-08           
  -1.7                  -4.6644e-08           1e-13                 0                     4.6668e-08           
  -1.8                  -4.758e-08            1.6e-13               6e-14                 4.7564e-08           
  -1.9                  -4.8504e-08           0                     1.6e-13               4.8568e-08           
  -2                    -4.9444e-08           2e-14                 2.6e-13               4.9492e-08           
  -2.1                  -5.034e-08            -2e-14                2.8e-13               5.0442e-08           
  -2.2                  -5.1222e-08           2e-14                 4.4e-13               5.1408e-08           
  -2.3                  -5.2248e-08           -2e-14                1.08e-12              5.2386e-08           
  -2.4                  -5.3278e-08           -2e-14                1.84e-12              5.3278e-08           
  -2.5                  -5.4292e-08           4e-14                 3.16e-12              5.4356e-08           
  -2.6                  -5.5354e-08           0                     5.26e-12              5.542e-08            
  -2.7                  -5.6386e-08           2e-14                 8.78e-12              5.6438e-08           
  -2.8                  -5.7512e-08           0                     1.418e-11             5.7446e-08           
  -2.9                  -5.8496e-08           2e-14                 2.22e-11              5.8712e-08           
  -3                    -5.9932e-08           1.2e-13               3.436e-11             5.9916e-08           
  -3.1                  -6.1056e-08           0                     5.23e-11              6.104e-08            
  -3.2                  -6.2222e-08           4e-14                 7.828e-11             6.2186e-08           
  -3.3                  -6.349e-08            -2e-14                1.1508e-10            6.3322e-08           
  -3.4                  -6.468e-08            2e-14                 1.671e-10             6.4634e-08           
  -3.5                  -6.5996e-08           4e-14                 2.3852e-10            6.5762e-08           
  -3.6                  -6.7282e-08           -6e-14                3.3554e-10            6.732e-08            
END_DB

BEGIN_DB
 ICCAP_VAR vg         -0.845         
 ICCAP_VAR vb         -0             
 ICCAP_VAR vs         -0             

 #vd                    id                    ig                    ib                    is                   
  -0                    3.44e-10              -6e-14                2e-14                 -3.5308e-10          
  -0.1                  -3.8886e-07           -4e-14                -2e-14                3.8906e-07           
  -0.2                  -5.0836e-07           2e-14                 4e-14                 5.0824e-07           
  -0.3                  -5.4062e-07           -1.2e-13              2e-14                 5.4088e-07           
  -0.4                  -5.5744e-07           -1e-13                2e-14                 5.5838e-07           
  -0.5                  -5.7136e-07           -8e-14                -8e-14                5.7168e-07           
  -0.6                  -5.8234e-07           1e-13                 -1e-13                5.8272e-07           
  -0.7                  -5.9282e-07           8e-14                 -1.2e-13              5.934e-07            
  -0.8                  -6.0296e-07           -2e-14                -4e-14                6.028e-07            
  -0.9                  -6.1174e-07           -2e-14                0                     6.1206e-07           
  -1                    -6.205e-07            -4e-14                6e-14                 6.2074e-07           
  -1.1                  -6.2922e-07           4e-14                 4e-14                 6.2958e-07           
  -1.2                  -6.372e-07            2e-14                 -2e-14                6.3764e-07           
  -1.3                  -6.4498e-07           4e-14                 4e-14                 6.4592e-07           
  -1.4                  -6.5344e-07           6e-14                 2e-14                 6.5294e-07           
  -1.5                  -6.6006e-07           0                     4e-14                 6.604e-07            
  -1.6                  -6.6768e-07           2e-14                 6e-14                 6.6774e-07           
  -1.7                  -6.7492e-07           1.2e-13               1.2e-13               6.7544e-07           
  -1.8                  -6.8274e-07           -2e-14                1.6e-13               6.8268e-07           
  -1.9                  -6.9034e-07           1.2e-13               3.8e-13               6.9078e-07           
  -2                    -6.9788e-07           1.6e-13               7e-13                 6.983e-07            
  -2.1                  -7.0512e-07           -4e-14                1.5e-12               7.0562e-07           
  -2.2                  -7.1234e-07           -6e-14                3.12e-12              7.128e-07            
  -2.3                  -7.197e-07            2e-14                 6.02e-12              7.2006e-07           
  -2.4                  -7.2692e-07           2e-14                 1.122e-11             7.2712e-07           
  -2.5                  -7.3552e-07           8e-14                 1.968e-11             7.3612e-07           
  -2.6                  -7.4354e-07           -2e-14                3.37e-11              7.4376e-07           
  -2.7                  -7.5116e-07           -1e-13                5.674e-11             7.5266e-07           
  -2.8                  -7.6012e-07           4e-14                 9.298e-11             7.6e-07              
  -2.9                  -7.6758e-07           1e-13                 1.5e-10               7.6798e-07           
  -3                    -7.7562e-07           -6e-14                2.3696e-10            7.7558e-07           
  -3.1                  -7.8358e-07           1e-13                 3.6712e-10            7.8338e-07           
  -3.2                  -7.9154e-07           2e-13                 5.603e-10             7.912e-07            
  -3.3                  -7.9966e-07           2e-14                 8.38e-10              7.9892e-07           
  -3.4                  -8.0802e-07           0                     1.2306e-09            8.0848e-07           
  -3.5                  -8.182e-07            0                     1.7844e-09            8.1646e-07           
  -3.6                  -8.267e-07            1.6e-13               2.5474e-09            8.2484e-07           
END_DB

