! VERSION = 6.00
BEGIN_HEADER
 ICCAP_INPUTS
  vg         V  G GROUND SMU2 0.001 LIN        1    0.5        -3.6       83   -0.05     
  vb         V  B GROUND SMU4 0.1 LIN        2    0          3.6        5    0.9       
  vd         V  D GROUND SMU1 0.1 LIN        3    -0.1       -3.3       3    -1.6      
  vs         V  S GROUND SMU3 0.1 CON        -0
 ICCAP_OUTPUTS
  id         I  D GROUND SMU1 B
  ig         I  G GROUND SMU2 B
  ib         I  B GROUND SMU4 B
  is         I  S GROUND SMU3 B
 ICCAP_VALUES
  MASTER_SETUP_TYPE "~dc_idvg~"
  LINVT_VALUE ""
  LISTVT_VALUE ""
  TYPE "-1"
  TEMP " 125.000 "
  IS_TNOM " 0.00000 "
  MAIN.W "300.0n"
  MAIN.L "350.0n"
  MAIN.AD "102.0f"
  MAIN.AS "102.0f"
  MAIN.PD "1.280u"
  MAIN.PS "1.280u"
  MAIN.NF "1.000"
  MAIN.M "1"
  MAIN.NRD "0.000"
  MAIN.NRS "0.000"
  MAIN.LDRIFT1 "1E-06"
  MAIN.LDRIFT2 "1E-06"
  MAIN.SA "0.000"
  MAIN.SB "0.000"
  MAIN.SD "0.000"
  MAIN.SCA "0.000"
  MAIN.SCB "0.000"
  MAIN.SCC "0.000"
  MAIN.SC "0.000"
  MODULE "S565"
  PIN_D "16"
  PIN_G "5"
  PIN_S "6"
  PIN_B "15"
  PIN_E ""
  PIN_6 ""
  XY_ID ""
  FUNC "Small"
  STI "SA ref"
  WPE "WPE ref"
  COMMENT ""
  DIS_MEAS ""
  TypeTCI "10"
END_HEADER

BEGIN_DB
 ICCAP_VAR vb         0              
 ICCAP_VAR vd         -0.1           
 ICCAP_VAR vs         -0             

 #vg                    id                    ig                    ib                    is                   
  0.5                   -1.6e-13              2.0852e-08            -2.0838e-08           8e-14                
  0.45                  6.46e-12              4.8914e-09            -4.9158e-09           1.2e-13              
  0.4                   6.6e-13               1.1426e-09            -1.1796e-09           2.2e-13              
  0.35                  4.6e-13               2.6836e-10            -2.9634e-10           1e-13                
  0.3                   -2e-14                6.284e-11             -9.15e-11             2.8e-13              
  0.25                  -6e-14                1.482e-11             -4.072e-11            3e-13                
  0.2                   -2.2e-13              3.46e-12              -2.76e-11             5e-13                
  0.15                  -7e-13                7.2e-13               -2.492e-11            1.04e-12             
  0.1                   -1.74e-12             1.6e-13               -2.29e-11             1.52e-12             
  0.05                  -3.7e-12              -2.2e-13              -2.226e-11            3.42e-12             
  0                     -8.14e-12             -8e-14                -2.16e-11             8.42e-12             
  -0.05                 -1.878e-11            -1.8e-13              -2.09e-11             1.928e-11            
  -0.1                  -4.492e-11            -2.6e-13              -2.082e-11            4.558e-11            
  -0.15                 -1.0832e-10           -2.6e-13              -2.074e-11            1.0864e-10           
  -0.2                  -2.6182e-10           -3e-13                -2.01e-11             2.6168e-10           
  -0.25                 -6.3434e-10           -4.4e-13              -1.976e-11            6.347e-10            
  -0.3                  -1.5386e-09           -2.6e-13              -1.954e-11            1.5384e-09           
  -0.35                 -3.7296e-09           -2.8e-13              -1.89e-11             3.7292e-09           
  -0.4                  -8.914e-09            -4.4e-13              -1.834e-11            8.9106e-09           
  -0.45                 -2.0742e-08           -4.8e-13              -1.902e-11            2.0796e-08           
  -0.5                  -4.592e-08            -5e-13                -1.808e-11            4.5908e-08           
  -0.55                 -9.3706e-08           -5e-13                -1.764e-11            9.3682e-08           
  -0.6                  -1.7154e-07           -6.2e-13              -1.79e-11             1.7168e-07           
  -0.65                 -2.8188e-07           -4.8e-13              -1.722e-11            2.82e-07             
  -0.7                  -4.1986e-07           -6.4e-13              -1.712e-11            4.2006e-07           
  -0.75                 -5.7826e-07           -5.8e-13              -1.662e-11            5.7834e-07           
  -0.8                  -7.4434e-07           -6.8e-13              -1.638e-11            7.439e-07            
  -0.85                 -9.1904e-07           -7.4e-13              -1.632e-11            9.1928e-07           
  -0.9                  -1.0958e-06           -6.2e-13              -1.602e-11            1.09588e-06          
  -0.95                 -1.2712e-06           -4.8e-13              -1.572e-11            1.2738e-06           
  -1                    -1.4444e-06           -7.4e-13              -1.566e-11            1.4476e-06           
  -1.05                 -1.6156e-06           -6.8e-13              -1.526e-11            1.6188e-06           
  -1.1                  -1.7828e-06           -6.4e-13              -1.544e-11            1.786e-06            
  -1.15                 -1.9472e-06           -7.2e-13              -1.534e-11            1.9502e-06           
  -1.2                  -2.107e-06            -7.4e-13              -1.446e-11            2.1102e-06           
  -1.25                 -2.2644e-06           -7.8e-13              -1.47e-11             2.2674e-06           
  -1.3                  -2.4178e-06           -7.6e-13              -1.446e-11            2.4208e-06           
  -1.35                 -2.5674e-06           -7.6e-13              -1.406e-11            2.5704e-06           
  -1.4                  -2.7142e-06           -8.2e-13              -1.388e-11            2.7176e-06           
  -1.45                 -2.8578e-06           -9e-13                -1.424e-11            2.8608e-06           
  -1.5                  -2.9988e-06           -7.6e-13              -1.398e-11            3.002e-06            
  -1.55                 -3.1366e-06           -9.4e-13              -1.346e-11            3.1398e-06           
  -1.6                  -3.2724e-06           -7.8e-13              -1.352e-11            3.2756e-06           
  -1.65                 -3.4052e-06           -9.2e-13              -1.336e-11            3.408e-06            
  -1.7                  -3.5356e-06           -9e-13                -1.306e-11            3.5386e-06           
  -1.75                 -3.6638e-06           -1.08e-12             -1.28e-11             3.667e-06            
  -1.8                  -3.7896e-06           -9.4e-13              -1.322e-11            3.7926e-06           
  -1.85                 -3.9128e-06           -9e-13                -1.304e-11            3.916e-06            
  -1.9                  -4.034e-06            -8.8e-13              -1.226e-11            4.0368e-06           
  -1.95                 -4.1536e-06           -1e-12                -1.274e-11            4.1566e-06           
  -2                    -4.271e-06            -9e-13                -1.274e-11            4.274e-06            
  -2.05                 -4.3862e-06           -1.02e-12             -1.224e-11            4.3894e-06           
  -2.1                  -4.5e-06              -9.8e-13              -1.204e-11            4.5032e-06           
  -2.15                 -4.6112e-06           -8.8e-13              -1.216e-11            4.6148e-06           
  -2.2                  -4.7216e-06           -1.02e-12             -1.21e-11             4.7246e-06           
  -2.25                 -4.8298e-06           -9e-13                -1.17e-11             4.8322e-06           
  -2.3                  -4.9362e-06           -1.02e-12             -1.214e-11            4.9394e-06           
  -2.35                 -5.041e-06            -1.04e-12             -1.166e-11            5.044e-06            
  -2.4                  -5.1436e-06           -1.06e-12             -1.17e-11             5.1476e-06           
  -2.45                 -5.2422e-06           -1e-12                -1.132e-11            5.2448e-06           
  -2.5                  -5.3426e-06           -1.16e-12             -1.128e-11            5.346e-06            
  -2.55                 -5.4412e-06           -1.08e-12             -1.162e-11            5.4426e-06           
  -2.6                  -5.5372e-06           -1.1e-12              -1.108e-11            5.5408e-06           
  -2.65                 -5.633e-06            -1e-12                -1.086e-11            5.6362e-06           
  -2.7                  -5.7272e-06           -1.04e-12             -1.138e-11            5.7226e-06           
  -2.75                 -5.8138e-06           -1e-12                -1.116e-11            5.8152e-06           
  -2.8                  -5.9092e-06           -1.16e-12             -1.096e-11            5.9114e-06           
  -2.85                 -6.0008e-06           -1.24e-12             -1.052e-11            6.0008e-06           
  -2.9                  -6.0832e-06           -1.14e-12             -1.068e-11            6.0866e-06           
  -2.95                 -6.1722e-06           -1.18e-12             -1.092e-11            6.1752e-06           
  -3                    -6.2596e-06           -1.04e-12             -1.032e-11            6.2616e-06           
  -3.05                 -6.344e-06            -1.3e-12              -1.044e-11            6.3482e-06           
  -3.1                  -6.4346e-06           -1.1e-12              -1.028e-11            6.4366e-06           
  -3.15                 -6.517e-06            -1.12e-12             -1.028e-11            6.5212e-06           
  -3.2                  -6.5974e-06           -1.2e-12              -1.012e-11            6.5976e-06           
  -3.25                 -6.6728e-06           -1.18e-12             -1.022e-11            6.6782e-06           
  -3.3                  -6.7554e-06           -1.26e-12             -1e-11                6.7552e-06           
  -3.35                 -6.832e-06            -1.12e-12             -1.014e-11            6.8322e-06           
  -3.4                  -6.9078e-06           -1.2e-12              -1.014e-11            6.9092e-06           
  -3.45                 -6.9836e-06           -1.28e-12             -9.86e-12             6.9856e-06           
  -3.5                  -7.0584e-06           -1.2e-12              -9.78e-12             7.0614e-06           
  -3.55                 -7.1326e-06           -1.28e-12             -9.7e-12              7.1372e-06           
  -3.6                  -7.209e-06            -1.3e-12              -9.4e-12              7.212e-06            
END_DB

BEGIN_DB
 ICCAP_VAR vb         0.9            
 ICCAP_VAR vd         -0.1           
 ICCAP_VAR vs         -0             

 #vg                    id                    ig                    ib                    is                   
  0.5                   -5.4e-12              3.8e-13               4.968e-11             8e-14                
  0.45                  -8e-14                5.8e-13               3.964e-11             1.4e-13              
  0.4                   -2e-14                5.2e-13               3.358e-11             0                    
  0.35                  -1.4e-13              4.6e-13               2.912e-11             1.6e-13              
  0.3                   -1.2e-13              4e-13                 2.572e-11             4e-14                
  0.25                  -1.6e-13              2.4e-13               2.31e-11              2e-13                
  0.2                   0                     8e-14                 2.072e-11             1.4e-13              
  0.15                  -6e-14                1.8e-13               1.88e-11              6e-14                
  0.1                   -6e-14                0                     1.718e-11             2.6e-13              
  0.05                  -4e-14                1e-13                 1.626e-11             0                    
  0                     -2e-14                4e-14                 1.462e-11             2e-14                
  -0.05                 -6e-14                -1.2e-13              1.392e-11             8e-14                
  -0.1                  -4e-14                -1e-13                1.302e-11             -4e-14               
  -0.15                 4e-14                 -2.6e-13              1.204e-11             2.2e-13              
  -0.2                  -1.4e-13              -3e-13                1.13e-11              -2e-14               
  -0.25                 -1.6e-13              -1e-13                1.02e-11              1e-13                
  -0.3                  -4.2e-13              -3e-13                9.58e-12              6.8e-13              
  -0.35                 -1.32e-12             -3.2e-13              9.52e-12              1.16e-12             
  -0.4                  -3.48e-12             -3.8e-13              8.84e-12              3.56e-12             
  -0.45                 -9.72e-12             -3.6e-13              8.34e-12              9.9e-12              
  -0.5                  -2.768e-11            -4.4e-13              8.02e-12              2.792e-11            
  -0.55                 -7.792e-11            -3.2e-13              7.84e-12              7.782e-11            
  -0.6                  -2.173e-10            -4.6e-13              6.98e-12              2.1758e-10           
  -0.65                 -6.0352e-10           -6e-13                6.96e-12              6.0316e-10           
  -0.7                  -1.6542e-09           -3.6e-13              5.72e-12              1.6538e-09           
  -0.75                 -4.4762e-09           -3.8e-13              6.44e-12              4.4734e-09           
  -0.8                  -1.1642e-08           -3.8e-13              4.92e-12              1.166e-08            
  -0.85                 -2.8658e-08           -4.6e-13              5.44e-12              2.8678e-08           
  -0.9                  -6.4002e-08           -6.4e-13              5.08e-12              6.3992e-08           
  -0.95                 -1.269e-07            -6e-13                4.68e-12              1.2692e-07           
  -1                    -2.2134e-07           -6e-13                4.58e-12              2.2152e-07           
  -1.05                 -3.4508e-07           -6.6e-13              4.56e-12              3.4514e-07           
  -1.1                  -4.8942e-07           -5.4e-13              4.32e-12              4.8946e-07           
  -1.15                 -6.4744e-07           -6e-13                3.94e-12              6.4736e-07           
  -1.2                  -8.1118e-07           -6.2e-13              3.9e-12               8.114e-07            
  -1.25                 -9.7832e-07           -6.6e-13              3.68e-12              9.783e-07            
  -1.3                  -1.14484e-06          -7e-13                3.36e-12              1.14508e-06          
  -1.35                 -1.3078e-06           -6.4e-13              3.28e-12              1.3108e-06           
  -1.4                  -1.469e-06            -7.6e-13              3.16e-12              1.4728e-06           
  -1.45                 -1.6278e-06           -7.2e-13              3.36e-12              1.631e-06            
  -1.5                  -1.7834e-06           -9e-13                3.4e-12               1.7864e-06           
  -1.55                 -1.9348e-06           -6.6e-13              2.66e-12              1.9378e-06           
  -1.6                  -2.0836e-06           -6.8e-13              2.56e-12              2.0868e-06           
  -1.65                 -2.2286e-06           -9.4e-13              2.82e-12              2.2318e-06           
  -1.7                  -2.3706e-06           -8e-13                2.9e-12               2.3736e-06           
  -1.75                 -2.5098e-06           -8.4e-13              2.52e-12              2.513e-06            
  -1.8                  -2.6458e-06           -8.4e-13              2.16e-12              2.649e-06            
  -1.85                 -2.779e-06            -8.8e-13              2.36e-12              2.782e-06            
  -1.9                  -2.9096e-06           -9.6e-13              2.06e-12              2.9126e-06           
  -1.95                 -3.038e-06            -9e-13                2.1e-12               3.041e-06            
  -2                    -3.1636e-06           -1e-12                2.14e-12              3.1664e-06           
  -2.05                 -3.2868e-06           -1e-12                2.06e-12              3.2898e-06           
  -2.1                  -3.4084e-06           -1e-12                1.54e-12              3.4114e-06           
  -2.15                 -3.5274e-06           -9.6e-13              1.8e-12               3.5304e-06           
  -2.2                  -3.6442e-06           -1.14e-12             2.1e-12               3.6472e-06           
  -2.25                 -3.759e-06            -9.4e-13              1.66e-12              3.7604e-06           
  -2.3                  -3.8722e-06           -1.12e-12             1.9e-12               3.8754e-06           
  -2.35                 -3.9834e-06           -1.02e-12             1.38e-12              3.9844e-06           
  -2.4                  -4.0882e-06           -1.02e-12             1.78e-12              4.0904e-06           
  -2.45                 -4.1958e-06           -1e-12                1.32e-12              4.1986e-06           
  -2.5                  -4.3018e-06           -1.02e-12             1.4e-12               4.3098e-06           
  -2.55                 -4.4114e-06           -1.14e-12             1.4e-12               4.414e-06            
  -2.6                  -4.5092e-06           -1.1e-12              1.56e-12              4.5128e-06           
  -2.65                 -4.6086e-06           -1e-12                1.56e-12              4.6102e-06           
  -2.7                  -4.705e-06            -1.16e-12             1.12e-12              4.7058e-06           
  -2.75                 -4.7978e-06           -9.2e-13              1.16e-12              4.801e-06            
  -2.8                  -4.8944e-06           -1.02e-12             1.18e-12              4.9e-06              
  -2.85                 -4.9934e-06           -1.22e-12             1.4e-12               4.9974e-06           
  -2.9                  -5.0914e-06           -1.14e-12             1.22e-12              5.09e-06             
  -2.95                 -5.175e-06            -1.14e-12             1.38e-12              5.1796e-06           
  -3                    -5.2632e-06           -1.16e-12             8.6e-13               5.2694e-06           
  -3.05                 -5.3568e-06           -1.2e-12              7e-13                 5.3578e-06           
  -3.1                  -5.4448e-06           -1.2e-12              1.24e-12              5.4472e-06           
  -3.15                 -5.529e-06            -1.14e-12             9.2e-13               5.532e-06            
  -3.2                  -5.615e-06            -1.24e-12             7.4e-13               5.6176e-06           
  -3.25                 -5.7e-06              -1.18e-12             9.8e-13               5.7008e-06           
  -3.3                  -5.7808e-06           -1.28e-12             6.4e-13               5.786e-06            
  -3.35                 -5.8618e-06           -1.24e-12             1.02e-12              5.8626e-06           
  -3.4                  -5.9426e-06           -1.32e-12             9e-13                 5.9438e-06           
  -3.45                 -6.0236e-06           -1.22e-12             7e-13                 6.0244e-06           
