! VERSION = 6.00
BEGIN_HEADER
 ICCAP_INPUTS
  vd         V  D GROUND SMU1 0.1 LIN        1    -0         -3.6       37   -0.1      
  vg         V  G GROUND SMU2 0.001 LIN        2    -0.792     -3.6       5    -0.702    
  vb         V  B GROUND SMU4 0.1 CON        -0
  vs         V  S GROUND SMU3 0.1 CON        -0
 ICCAP_OUTPUTS
  id         I  D GROUND SMU1 B
  ig         I  G GROUND SMU2 B
  ib         I  B GROUND SMU4 B
  is         I  S GROUND SMU3 B
 ICCAP_VALUES
  MASTER_SETUP_TYPE "~dc_idvd~"
  LINVT_VALUE "|idvg|100.0n|100.0m|1.000m|5|3.600|"
  LISTVT_VALUE ""
  TYPE "-1"
  TEMP " 27.0000 "
  IS_TNOM " 1.00000 "
  MAIN.W "600.0n"
  MAIN.L "1.200u"
  MAIN.AD "204.0f"
  MAIN.AS "204.0f"
  MAIN.PD "1.880u"
  MAIN.PS "1.880u"
  MAIN.NF "1.000"
  MAIN.M "1"
  MAIN.NRD "0.000"
  MAIN.NRS "0.000"
  MAIN.LDRIFT1 "1E-06"
  MAIN.LDRIFT2 "1E-06"
  MAIN.SA "0.000"
  MAIN.SB "0.000"
  MAIN.SD "0.000"
  MAIN.SCA "0.000"
  MAIN.SCB "0.000"
  MAIN.SCC "0.000"
  MAIN.SC "0.000"
  MODULE "S564"
  PIN_D "14"
  PIN_G "7"
  PIN_S "8"
  PIN_B "13"
  PIN_E ""
  PIN_6 ""
  XY_ID ""
  FUNC "LW Scale"
  STI "SA ref"
  WPE "WPE ref"
  COMMENT ""
  DIS_MEAS ""
  TypeTCI "10"
END_HEADER

BEGIN_DB
 ICCAP_VAR vg         -0.792         
 ICCAP_VAR vb         -0             
 ICCAP_VAR vs         -0             

 #vd                    id                    ig                    ib                    is                   
  -0                    1.2792e-10            -3.4e-13              -5.4e-13              -1.5604e-10          
  -0.1                  -1.7372e-07           -4e-14                -6.4e-13              1.7394e-07           
  -0.2                  -1.9632e-07           1.8e-13               -6.6e-13              1.9654e-07           
  -0.3                  -1.9848e-07           6e-14                 -5.6e-13              1.9864e-07           
  -0.4                  -1.9936e-07           0                     -5.4e-13              1.9954e-07           
  -0.5                  -2.0002e-07           1.2e-13               -5.4e-13              2.002e-07            
  -0.6                  -2.0056e-07           3.4e-13               -5.6e-13              2.0076e-07           
  -0.7                  -2.0104e-07           1.8e-13               -5.8e-13              2.0124e-07           
  -0.8                  -2.0152e-07           4e-14                 -5e-13                2.017e-07            
  -0.9                  -2.0174e-07           1e-13                 -5.4e-13              2.0194e-07           
  -1                    -2.0216e-07           2e-14                 -5.8e-13              2.0236e-07           
  -1.1                  -2.0248e-07           2e-13                 -5e-13                2.0268e-07           
  -1.2                  -2.0276e-07           2e-14                 -5.2e-13              2.03e-07             
  -1.3                  -2.0306e-07           -4e-14                -4.8e-13              2.0314e-07           
  -1.4                  -2.0326e-07           2e-14                 -5.6e-13              2.0348e-07           
  -1.5                  -2.0354e-07           3e-13                 -5.4e-13              2.037e-07            
  -1.6                  -2.0374e-07           1e-13                 -5.6e-13              2.0402e-07           
  -1.7                  -2.0404e-07           4e-14                 -4.6e-13              2.0426e-07           
  -1.8                  -2.0434e-07           0                     -4.6e-13              2.045e-07            
  -1.9                  -2.0448e-07           -2e-14                -4.2e-13              2.0462e-07           
  -2                    -2.0474e-07           1.6e-13               -2e-13                2.049e-07            
  -2.1                  -2.0492e-07           -8e-14                8e-14                 2.0512e-07           
  -2.2                  -2.0516e-07           4e-14                 5e-13                 2.0536e-07           
  -2.3                  -2.0542e-07           2.4e-13               1.4e-12               2.0562e-07           
  -2.4                  -2.0554e-07           1.6e-13               3.06e-12              2.0574e-07           
  -2.5                  -2.0578e-07           1.4e-13               6.12e-12              2.0604e-07           
  -2.6                  -2.0594e-07           -2e-14                1.1e-11               2.0618e-07           
  -2.7                  -2.0614e-07           -6e-14                1.892e-11             2.0636e-07           
  -2.8                  -2.0636e-07           1.2e-13               3.166e-11             2.0646e-07           
  -2.9                  -2.0648e-07           3e-13                 5.134e-11             2.0666e-07           
  -3                    -2.0668e-07           1e-13                 8.136e-11             2.0686e-07           
  -3.1                  -2.0694e-07           4e-14                 1.262e-10             2.0698e-07           
  -3.2                  -2.0706e-07           2e-14                 1.9192e-10            2.0716e-07           
  -3.3                  -2.0748e-07           -1.6e-13              2.8692e-10            2.074e-07            
  -3.4                  -2.0774e-07           -2e-14                4.2046e-10            2.0752e-07           
  -3.5                  -2.0802e-07           1.6e-13               6.0676e-10            2.077e-07            
  -3.6                  -2.0852e-07           -2e-14                8.6042e-10            2.0782e-07           
END_DB

BEGIN_DB
 ICCAP_VAR vg         -1.494         
 ICCAP_VAR vb         -0             
 ICCAP_VAR vs         -0             

 #vd                    id                    ig                    ib                    is                   
  -0                    9.724e-10             -3.8e-13              -2e-13                -9.426e-10           
  -0.1                  -1.7646e-06           -4.4e-13              -1e-13                1.7688e-06           
  -0.2                  -3.1886e-06           -1.8e-13              -2.4e-13              3.1926e-06           
  -0.3                  -4.2722e-06           -2e-14                -1.8e-13              4.2748e-06           
  -0.4                  -5.0266e-06           -1.8e-13              -2e-13                5.031e-06            
  -0.5                  -5.4846e-06           -1.4e-13              -2.6e-13              5.4882e-06           
  -0.6                  -5.7086e-06           0                     -2.2e-13              5.7108e-06           
  -0.7                  -5.7996e-06           -1.6e-13              -2.8e-13              5.8022e-06           
  -0.8                  -5.8402e-06           -2.8e-13              -2.8e-13              5.8444e-06           
  -0.9                  -5.8626e-06           -1.4e-13              -3e-13                5.8676e-06           
  -1                    -5.8818e-06           -1.6e-13              -3.6e-13              5.8852e-06           
  -1.1                  -5.8954e-06           -1e-13                -3.6e-13              5.8986e-06           
  -1.2                  -5.9066e-06           -2.8e-13              -3e-13                5.9104e-06           
  -1.3                  -5.9164e-06           -1.4e-13              -3.2e-13              5.9202e-06           
  -1.4                  -5.9264e-06           -1e-13                -3.6e-13              5.93e-06             
  -1.5                  -5.9346e-06           1e-13                 -3e-13                5.9378e-06           
  -1.6                  -5.9418e-06           -6e-14                -2.6e-13              5.946e-06            
  -1.7                  -5.9504e-06           -2e-14                -2.8e-13              5.953e-06            
  -1.8                  -5.9564e-06           0                     -3.2e-13              5.9608e-06           
  -1.9                  -5.9626e-06           0                     -2.6e-13              5.9662e-06           
  -2                    -5.9686e-06           -4e-14                -3e-13                5.9726e-06           
  -2.1                  -5.9744e-06           -1.4e-13              -2.8e-13              5.9784e-06           
  -2.2                  -5.9802e-06           2e-14                 -6e-14                5.9836e-06           
  -2.3                  -5.9866e-06           -8e-14                4.8e-13               5.9896e-06           
  -2.4                  -5.991e-06            4e-14                 1.6e-12               5.9942e-06           
  -2.5                  -5.9958e-06           -1.4e-13              4.32e-12              5.9998e-06           
  -2.6                  -6.0008e-06           -4e-14                9.98e-12              6.0046e-06           
  -2.7                  -6.0058e-06           -4e-14                2.114e-11             6.0094e-06           
  -2.8                  -6.0104e-06           1.4e-13               4.224e-11             6.0142e-06           
  -2.9                  -6.0154e-06           2e-14                 8.044e-11             6.0194e-06           
  -3                    -6.0198e-06           -1.2e-13              1.472e-10             6.0238e-06           
  -3.1                  -6.0248e-06           -1.6e-13              2.6008e-10            6.0288e-06           
  -3.2                  -6.029e-06            -6e-14                4.4748e-10            6.033e-06            
  -3.3                  -6.0344e-06           -1.6e-13              7.4928e-10            6.0368e-06           
  -3.4                  -6.0392e-06           -2e-14                1.2286e-09            6.0418e-06           
  -3.5                  -6.044e-06            2e-13                 1.9678e-09            6.045e-06            
  -3.6                  -6.049e-06            -1.8e-13              3.0884e-09            6.0498e-06           
END_DB

BEGIN_DB
 ICCAP_VAR vg         -2.196         
 ICCAP_VAR vb         -0             
 ICCAP_VAR vs         -0             

 #vd                    id                    ig                    ib                    is                   
  -0                    1.45e-09              -6.2e-13              -4e-14                -1.3144e-09          
  -0.1                  -3.0982e-06           -3.2e-13              -4e-14                3.1018e-06           
  -0.2                  -5.905e-06            -3.8e-13              -1.6e-13              5.9086e-06           
  -0.3                  -8.4096e-06           -4.6e-13              -2.6e-13              8.4136e-06           
  -0.4                  -1.061e-05            -2.6e-13              -2e-13                1.06148e-05          
  -0.5                  -1.251e-05            -4.2e-13              -1.8e-13              1.2528e-05           
  -0.6                  -1.4122e-05           -3.2e-13              -1.4e-13              1.4142e-05           
  -0.7                  -1.5438e-05           -1.4e-13              -1.6e-13              1.5458e-05           
  -0.8                  -1.6472e-05           -1.2e-13              -3.4e-13              1.6494e-05           
  -0.9                  -1.724e-05            1.2e-13               -2.4e-13              1.7264e-05           
  -1                    -1.7774e-05           -1e-13                -2.2e-13              1.779e-05            
  -1.1                  -1.8106e-05           -3e-13                -2e-13                1.8122e-05           
  -1.2                  -1.8298e-05           8e-14                 -2.4e-13              1.8324e-05           
  -1.3                  -1.8418e-05           0                     -2.2e-13              1.844e-05            
  -1.4                  -1.8498e-05           -2.4e-13              -2.4e-13              1.8522e-05           
  -1.5                  -1.8554e-05           -1e-13                -2.8e-13              1.8574e-05           
  -1.6                  -1.86e-05             2e-14                 -2.6e-13              1.8622e-05           
  -1.7                  -1.8634e-05           -2.2e-13              -3e-13                1.8654e-05           
  -1.8                  -1.8666e-05           -4.4e-13              -2.2e-13              1.8688e-05           
  -1.9                  -1.8694e-05           -1.4e-13              -3e-13                1.8714e-05           
  -2                    -1.8722e-05           -4e-14                -3.6e-13              1.8742e-05           
  -2.1                  -1.8746e-05           -6e-14                -2.6e-13              1.8762e-05           
  -2.2                  -1.8766e-05           -1.4e-13              -2.4e-13              1.8786e-05           
  -2.3                  -1.8788e-05           -1.4e-13              -4.2e-13              1.8804e-05           
  -2.4                  -1.8806e-05           -1e-13                -3.4e-13              1.8824e-05           
  -2.5                  -1.8826e-05           2e-14                 -1.8e-13              1.8846e-05           
  -2.6                  -1.8844e-05           8e-14                 -4e-14                1.8864e-05           
  -2.7                  -1.8856e-05           -6e-14                3.8e-13               1.888e-05            
  -2.8                  -1.8872e-05           -2.2e-13              1.74e-12              1.8892e-05           
  -2.9                  -1.8894e-05           -3.2e-13              4.8e-12               1.8904e-05           
  -3                    -1.8908e-05           -2.4e-13              1.156e-11             1.8922e-05           
  -3.1                  -1.8922e-05           6e-14                 2.602e-11             1.894e-05            
  -3.2                  -1.8936e-05           4e-14                 5.48e-11              1.8954e-05           
  -3.3                  -1.8952e-05           6e-14                 1.0948e-10            1.897e-05            
  -3.4                  -1.8958e-05           2e-14                 2.0888e-10            1.8978e-05           
  -3.5                  -1.8972e-05           -4e-14                3.8452e-10            1.8996e-05           
  -3.6                  -1.8994e-05           -2e-13                6.8708e-10            1.901e-05            
END_DB

BEGIN_DB
 ICCAP_VAR vg         -2.898         
 ICCAP_VAR vb         -0             
 ICCAP_VAR vs         -0             

 #vd                    id                    ig                    ib                    is                   
  -0                    1.7672e-09            -6.4e-13              -8e-14                -1.7272e-09          
  -0.1                  -4.1528e-06           -6e-13                0                     4.1562e-06           
  -0.2                  -8.0558e-06           -1e-13                -1.4e-13              8.059e-06            
  -0.3                  -1.1686e-05           -3e-13                -1e-13                1.1706e-05           
  -0.4                  -1.5056e-05           -4e-13                -1e-13                1.5076e-05           
  -0.5                  -1.817e-05            -3e-13                -2.2e-13              1.819e-05            
  -0.6                  -2.1016e-05           -3.2e-13              -2.2e-13              2.1038e-05           
  -0.7                  -2.3596e-05           -3.6e-13              -2e-13                2.362e-05            
  -0.8                  -2.5912e-05           -3e-13                -3.6e-13              2.5928e-05           
  -0.9                  -2.7964e-05           -4e-13                -1.6e-13              2.798e-05            
  -1                    -2.974e-05            -3.6e-13              -2e-13                2.9762e-05           
  -1.1                  -3.1268e-05           -3.6e-13              -2.6e-13              3.129e-05            
  -1.2                  -3.2548e-05           -8e-14                -2.8e-13              3.2566e-05           
  -1.3                  -3.358e-05            -1.8e-13              -2e-13                3.3602e-05           
  -1.4                  -3.4388e-05           -3.4e-13              -2.6e-13              3.4404e-05           
  -1.5                  -3.4992e-05           -3e-13                -2.6e-13              3.5012e-05           
  -1.6                  -3.5428e-05           -1e-13                -2.8e-13              3.5452e-05           
  -1.7                  -3.573e-05            -2.4e-13              -2e-13                3.5748e-05           
  -1.8                  -3.5934e-05           -2.2e-13              -2.8e-13              3.5954e-05           
  -1.9                  -3.6086e-05           -2e-14                -2.2e-13              3.6108e-05           
  -2                    -3.6198e-05           -1.6e-13              -3e-13                3.6216e-05           
  -2.1                  -3.6294e-05           -2.2e-13              -2.6e-13              3.631e-05            
  -2.2                  -3.637e-05            -3.2e-13              -1.6e-13              3.6394e-05           
  -2.3                  -3.6436e-05           2e-14                 -2.8e-13              3.6452e-05           
  -2.4                  -3.6488e-05           2e-14                 -3.6e-13              3.651e-05            
  -2.5                  -3.654e-05            -2.8e-13              -3.2e-13              3.6556e-05           
  -2.6                  -3.6586e-05           -3e-13                -3e-13                3.6604e-05           
  -2.7                  -3.6622e-05           -1.8e-13              -3.4e-13              3.664e-05            
  -2.8                  -3.666e-05            -8e-14                -3.4e-13              3.6684e-05           
  -2.9                  -3.6696e-05           -1e-13                -1.2e-13              3.6714e-05           
  -3                    -3.6724e-05           -4e-14                -1.2e-13              3.6748e-05           
  -3.1                  -3.6762e-05           -1.6e-13              2.2e-13               3.6776e-05           
  -3.2                  -3.6792e-05           -1.6e-13              1.12e-12              3.681e-05            
  -3.3                  -3.6818e-05           -2.8e-13              3.6e-12               3.684e-05            
  -3.4                  -3.6846e-05           -2.6e-13              8.98e-12              3.6868e-05           
  -3.5                  -3.6878e-05           -2.6e-13              2.126e-11             3.6896e-05           
  -3.6                  -3.6898e-05           -3.2e-13              4.648e-11             3.6922e-05           
END_DB

BEGIN_DB
 ICCAP_VAR vg         -3.6           
 ICCAP_VAR vb         -0             
 ICCAP_VAR vs         -0             

 #vd                    id                    ig                    ib                    is                   
  -0                    2.0378e-09            -4.2e-13              -6e-14                -1.9184e-09          
  -0.1                  -4.9864e-06           -5.6e-13              -8e-14                4.9902e-06           
  -0.2                  -9.759e-06            -3e-13                -1.2e-13              9.7622e-06           
  -0.3                  -1.429e-05            -5.2e-13              -8e-14                1.431e-05            
  -0.4                  -1.8594e-05           -3.8e-13              -2e-13                1.8616e-05           
  -0.5                  -2.2678e-05           -2.8e-13              -2.2e-13              2.2696e-05           
  -0.6                  -2.6522e-05           -4.4e-13              -1.4e-13              2.654e-05            
  -0.7                  -3.0128e-05           -3.8e-13              -2.6e-13              3.0148e-05           
  -0.8                  -3.3496e-05           -3.2e-13              -2.4e-13              3.3524e-05           
