! VERSION = 6.00
BEGIN_HEADER
 ICCAP_INPUTS
  vg         V  G GROUND SMU2 0.001 LIN        1    0.5        -3.6       83   -0.05     
  vb         V  B GROUND SMU4 0.1 LIN        2    0          3.6        5    0.9       
  vd         V  D GROUND SMU1 0.1 LIN        3    -0.1       -3.3       3    -1.6      
  vs         V  S GROUND SMU3 0.1 CON        -0
 ICCAP_OUTPUTS
  id         I  D GROUND SMU1 B
  ig         I  G GROUND SMU2 B
  ib         I  B GROUND SMU4 B
  is         I  S GROUND SMU3 B
 ICCAP_VALUES
  MASTER_SETUP_TYPE "~dc_idvg~"
  LINVT_VALUE ""
  LISTVT_VALUE ""
  TYPE "-1"
  TEMP " 27.0000 "
  IS_TNOM " 1.00000 "
  MAIN.W "300.0n"
  MAIN.L "300.0n"
  MAIN.AD "102.0f"
  MAIN.AS "102.0f"
  MAIN.PD "1.280u"
  MAIN.PS "1.280u"
  MAIN.NF "1.000"
  MAIN.M "1"
  MAIN.NRD "0.000"
  MAIN.NRS "0.000"
  MAIN.LDRIFT1 "1E-06"
  MAIN.LDRIFT2 "1E-06"
  MAIN.SA "0.000"
  MAIN.SB "0.000"
  MAIN.SD "0.000"
  MAIN.SCA "0.000"
  MAIN.SCB "0.000"
  MAIN.SCC "0.000"
  MAIN.SC "0.000"
  MODULE "S565"
  PIN_D "20"
  PIN_G "1"
  PIN_S "2"
  PIN_B "19"
  PIN_E ""
  PIN_6 ""
  XY_ID ""
  FUNC "Additional"
  STI "SA ref"
  WPE "WPE ref"
  COMMENT ""
  DIS_MEAS ""
  TypeTCI "10"
END_HEADER

BEGIN_DB
 ICCAP_VAR vb         0              
 ICCAP_VAR vd         -0.1           
 ICCAP_VAR vs         -0             

 #vg                    id                    ig                    ib                    is                   
  0.5                   -6e-14                1.904e-11             -4.64e-12             6e-14                
  0.45                  -8e-14                2.88e-12              -7.6e-13              4e-14                
  0.4                   -1.2e-13              4.6e-13               -3e-13                1.2e-13              
  0.35                  -6e-14                -4e-14                -8e-14                1e-13                
  0.3                   -6e-14                -2.2e-13              -4e-14                1.4e-13              
  0.25                  -1.8e-13              -1e-13                -4e-14                2e-14                
  0.2                   -1.2e-13              -3e-13                -1.8e-13              2.2e-13              
  0.15                  -6e-14                -3e-13                -1.2e-13              8e-14                
  0.1                   -1.2e-13              -3.4e-13              -8e-14                1e-13                
  0.05                  -8e-14                -3.4e-13              -8e-14                1.4e-13              
  0                     -2.2e-13              -4e-13                -1.4e-13              6e-14                
  -0.05                 -2.6e-13              -4.4e-13              -8e-14                2.6e-13              
  -0.1                  -7e-13                -3.8e-13              0                     4.2e-13              
  -0.15                 -1.8e-12              -4.2e-13              -2e-14                1.9e-12              
  -0.2                  -6.14e-12             -4.2e-13              -1.8e-13              6.02e-12             
  -0.25                 -2.068e-11            -4.6e-13              -4e-14                2.074e-11            
  -0.3                  -7.166e-11            -4.6e-13              -1.2e-13              7.176e-11            
  -0.35                 -2.476e-10            -5.2e-13              -6e-14                2.477e-10            
  -0.4                  -8.4644e-10           -5e-13                2e-14                 8.4548e-10           
  -0.45                 -2.8202e-09           -4.2e-13              -1.6e-13              2.8246e-09           
  -0.5                  -8.9956e-09           -5e-13                2e-14                 8.9882e-09           
  -0.55                 -2.6436e-08           -4.4e-13              -2e-13                2.6508e-08           
  -0.6                  -6.844e-08            -6e-13                -2e-14                6.8514e-08           
  -0.65                 -1.5228e-07           -4.8e-13              -4e-14                1.5248e-07           
  -0.7                  -2.9194e-07           -5.6e-13              -1e-13                2.9208e-07           
  -0.75                 -4.907e-07            -6e-13                -1.4e-13              4.9124e-07           
  -0.8                  -7.375e-07            -5.4e-13              -6e-14                7.3784e-07           
  -0.85                 -1.018e-06            -6e-13                -1e-13                1.01864e-06          
  -0.9                  -1.313e-06            -4.4e-13              -1.6e-13              1.3168e-06           
  -0.95                 -1.6172e-06           -5.8e-13              -1e-13                1.6202e-06           
  -1                    -1.9182e-06           -5.8e-13              -2e-13                1.922e-06            
  -1.05                 -2.2164e-06           -6e-13                -6e-14                2.2206e-06           
  -1.1                  -2.5074e-06           -6e-13                -1e-13                2.5072e-06           
  -1.15                 -2.7862e-06           -7.4e-13              -1.2e-13              2.7912e-06           
  -1.2                  -3.0578e-06           -5.8e-13              -1.4e-13              3.066e-06            
  -1.25                 -3.3298e-06           -6.6e-13              -1e-13                3.3352e-06           
  -1.3                  -3.5936e-06           -6.2e-13              -6e-14                3.5918e-06           
  -1.35                 -3.8386e-06           -6.2e-13              -6e-14                3.8508e-06           
  -1.4                  -4.0904e-06           -7.4e-13              -2.2e-13              4.0886e-06           
  -1.45                 -4.3294e-06           -7e-13                -8e-14                4.3372e-06           
  -1.5                  -4.5608e-06           -6.8e-13              -4e-14                4.5666e-06           
  -1.55                 -4.784e-06            -6.8e-13              -6e-14                4.792e-06            
  -1.6                  -5.0066e-06           -6.6e-13              -8e-14                5.0122e-06           
  -1.65                 -5.2234e-06           -6e-13                2e-14                 5.2272e-06           
  -1.7                  -5.435e-06            -7.2e-13              -2.2e-13              5.4374e-06           
  -1.75                 -5.6412e-06           -6.8e-13              2e-14                 5.6454e-06           
  -1.8                  -5.843e-06            -7.2e-13              -6e-14                5.8462e-06           
  -1.85                 -6.0294e-06           -7.2e-13              -4e-14                6.0418e-06           
  -1.9                  -6.2308e-06           -6.6e-13              -1.6e-13              6.2342e-06           
  -1.95                 -6.4196e-06           -7.6e-13              -2e-14                6.4136e-06           
  -2                    -6.596e-06            -7.2e-13              -2.6e-13              6.6064e-06           
  -2.05                 -6.783e-06            -6.8e-13              -2e-14                6.783e-06            
  -2.1                  -6.9558e-06           -7.4e-13              -2e-13                6.947e-06            
  -2.15                 -7.1162e-06           -7.8e-13              -1.4e-13              7.1286e-06           
  -2.2                  -7.2822e-06           -7.2e-13              -1.2e-13              7.2864e-06           
  -2.25                 -7.4488e-06           -7.2e-13              -1.8e-13              7.4568e-06           
  -2.3                  -7.6172e-06           -7.6e-13              -1.6e-13              7.6154e-06           
  -2.35                 -7.7714e-06           -7.4e-13              -1.2e-13              7.7782e-06           
  -2.4                  -7.9278e-06           -8e-13                -6e-14                7.9316e-06           
  -2.45                 -8.0806e-06           -7.2e-13              -1e-13                8.087e-06            
  -2.5                  -8.236e-06            -7.2e-13              -1e-13                8.2348e-06           
  -2.55                 -8.3786e-06           -8.4e-13              -1.2e-13              8.3828e-06           
  -2.6                  -8.5238e-06           -8.2e-13              -6e-14                8.5276e-06           
  -2.65                 -8.6658e-06           -6.8e-13              -6e-14                8.6718e-06           
  -2.7                  -8.8048e-06           -8e-13                -8e-14                8.8086e-06           
  -2.75                 -8.944e-06            -8.2e-13              -4e-14                8.9458e-06           
  -2.8                  -9.0768e-06           -7.6e-13              -4e-14                9.0804e-06           
  -2.85                 -9.2084e-06           -8.4e-13              -1.6e-13              9.2118e-06           
  -2.9                  -9.333e-06            -7.8e-13              -1e-13                9.3364e-06           
  -2.95                 -9.4588e-06           -8e-13                -8e-14                9.457e-06            
  -3                    -9.5788e-06           -8.4e-13              -1.4e-13              9.5768e-06           
  -3.05                 -9.6966e-06           -7.8e-13              0                     9.7e-06              
  -3.1                  -9.8174e-06           -8.2e-13              -8e-14                9.8202e-06           
  -3.15                 -9.9354e-06           -8.2e-13              -2.4e-13              9.9368e-06           
  -3.2                  -1.0048e-05           -8.2e-13              0                     1.00518e-05          
  -3.25                 -1.01606e-05          -8.4e-13              -2e-13                1.01612e-05          
  -3.3                  -1.0271e-05           -7.2e-13              -2.2e-13              1.02738e-05          
  -3.35                 -1.03812e-05          -8e-13                -1e-13                1.03824e-05          
  -3.4                  -1.0489e-05           -8e-13                -1.4e-13              1.04956e-05          
  -3.45                 -1.0595e-05           -8.4e-13              -1e-13                1.05954e-05          
  -3.5                  -1.0697e-05           -8.2e-13              -1.8e-13              1.07038e-05          
  -3.55                 -1.08042e-05          -9.6e-13              -1.2e-13              1.08072e-05          
  -3.6                  -1.0908e-05           -8.8e-13              -2e-14                1.09092e-05          
END_DB

BEGIN_DB
 ICCAP_VAR vb         0.9            
 ICCAP_VAR vd         -0.1           
 ICCAP_VAR vs         -0             

 #vg                    id                    ig                    ib                    is                   
  0.5                   1.8e-13               6.8e-13               4.6e-13               8e-14                
  0.45                  6e-14                 2.8e-13               3e-13                 1.2e-13              
  0.4                   6e-14                 2.6e-13               2.2e-13               1.6e-13              
  0.35                  6e-14                 1e-13                 2e-13                 6e-14                
  0.3                   6e-14                 1.6e-13               2.8e-13               1.6e-13              
  0.25                  4e-14                 6e-14                 2.2e-13               1.6e-13              
  0.2                   0                     -2e-14                3.2e-13               2e-14                
  0.15                  -4e-14                -6e-14                1.6e-13               1.2e-13              
  0.1                   -2e-14                -1e-13                2.6e-13               -2e-14               
  0.05                  6e-14                 -2e-14                1.6e-13               2e-14                
  0                     -2e-14                -1.6e-13              2e-13                 -6e-14               
  -0.05                 2e-14                 -1.4e-13              1e-13                 6e-14                
  -0.1                  1e-13                 -2.8e-13              2.4e-13               0                    
  -0.15                 -4e-14                -2.2e-13              1.4e-13               -4e-14               
  -0.2                  1.6e-13               -2.6e-13              8e-14                 2e-13                
  -0.25                 -2e-14                -2.6e-13              1.4e-13               2e-14                
  -0.3                  1e-13                 -3.2e-13              6e-14                 0                    
  -0.35                 -6e-14                -4e-13                1.6e-13               2e-14                
  -0.4                  -4e-14                -3.8e-13              -2e-14                2e-13                
  -0.45                 -4e-13                -2.6e-13              8e-14                 4.8e-13              
  -0.5                  -1.58e-12             -4.2e-13              2e-14                 1.52e-12             
  -0.55                 -5.92e-12             -4.4e-13              0                     6.02e-12             
  -0.6                  -2.364e-11            -4.4e-13              6e-14                 2.35e-11             
  -0.65                 -9.218e-11            -4.6e-13              2e-14                 9.238e-11            
  -0.7                  -3.5536e-10           -4.2e-13              1e-13                 3.5576e-10           
  -0.75                 -1.3362e-09           -3.4e-13              8e-14                 1.3384e-09           
  -0.8                  -4.766e-09            -4.6e-13              -2e-14                4.7668e-09           
  -0.85                 -1.5538e-08           -3.2e-13              1.2e-13               1.555e-08            
  -0.9                  -4.4094e-08           -4e-13                -2e-14                4.4188e-08           
  -0.95                 -1.06994e-07          -4.6e-13              4e-14                 1.07014e-07          
  -1                    -2.1878e-07           -5.4e-13              6e-14                 2.1892e-07           
  -1.05                 -3.8728e-07           -5.4e-13              -6e-14                3.8722e-07           
  -1.1                  -6.0588e-07           -6e-13                6e-14                 6.0668e-07           
  -1.15                 -8.6142e-07           -5.6e-13              -4e-14                8.6186e-07           
  -1.2                  -1.1381e-06           -4.2e-13              2e-14                 1.13772e-06          
  -1.25                 -1.4218e-06           -4.8e-13              0                     1.4246e-06           
  -1.3                  -1.7062e-06           -4.8e-13              4e-14                 1.7096e-06           
  -1.35                 -1.9854e-06           -5.4e-13              1.4e-13               1.9826e-06           
  -1.4                  -2.2586e-06           -5.4e-13              4e-14                 2.26e-06             
  -1.45                 -2.5202e-06           -5.4e-13              -4e-14                2.5226e-06           
  -1.5                  -2.7862e-06           -5.2e-13              -2e-14                2.784e-06            
  -1.55                 -3.034e-06            -5.2e-13              -4e-14                3.0388e-06           
  -1.6                  -3.2816e-06           -6e-13                8e-14                 3.2866e-06           
  -1.65                 -3.5248e-06           -5.6e-13              -4e-14                3.5252e-06           
  -1.7                  -3.7622e-06           -5.6e-13              -2e-14                3.7668e-06           
  -1.75                 -3.9932e-06           -7e-13                0                     3.9976e-06           
  -1.8                  -4.2158e-06           -6.4e-13              -4e-14                4.2196e-06           
  -1.85                 -4.4334e-06           -5e-13                6e-14                 4.4372e-06           
  -1.9                  -4.6452e-06           -6.6e-13              -1e-13                4.6492e-06           
  -1.95                 -4.8534e-06           -7.2e-13              0                     4.8526e-06           
  -2                    -5.0542e-06           -7.6e-13              -6e-14                5.0582e-06           
  -2.05                 -5.251e-06            -6.2e-13              -8e-14                5.2534e-06           
  -2.1                  -5.4372e-06           -7e-13                1e-13                 5.4314e-06           
  -2.15                 -5.6196e-06           -7.8e-13              -1.2e-13              5.6294e-06           
  -2.2                  -5.8042e-06           -8.6e-13              -2e-14                5.811e-06            
  -2.25                 -5.9892e-06           -6.8e-13              4e-14                 5.9912e-06           
  -2.3                  -6.163e-06            -7.8e-13              0                     6.162e-06            
  -2.35                 -6.3262e-06           -6.4e-13              0                     6.3408e-06           
  -2.4                  -6.5044e-06           -8e-13                -6e-14                6.509e-06            
  -2.45                 -6.6682e-06           -7.8e-13              2e-14                 6.676e-06            
  -2.5                  -6.8298e-06           -7.6e-13              -4e-14                6.8332e-06           
  -2.55                 -6.9878e-06           -6.8e-13              -4e-14                6.9914e-06           
  -2.6                  -7.1426e-06           -7.8e-13              0                     7.146e-06            
  -2.65                 -7.2956e-06           -7.4e-13              0                     7.302e-06            
  -2.7                  -7.4464e-06           -7.4e-13              -8e-14                7.4484e-06           
  -2.75                 -7.592e-06            -7.6e-13              0                     7.5956e-06           
  -2.8                  -7.7364e-06           -7.6e-13              -1.6e-13              7.7414e-06           
  -2.85                 -7.8732e-06           -7.4e-13              4e-14                 7.8768e-06           
  -2.9                  -8.0126e-06           -8.2e-13              -8e-14                8.0158e-06           
  -2.95                 -8.1394e-06           -8e-13                2e-14                 8.1444e-06           
  -3                    -8.2736e-06           -7.4e-13              -1e-13                8.278e-06            
  -3.05                 -8.406e-06            -8e-13                8e-14                 8.4094e-06           
  -3.1                  -8.531e-06            -7.8e-13              -1.6e-13              8.5318e-06           
  -3.15                 -8.655e-06            -7.2e-13              -4e-14                8.6584e-06           
  -3.2                  -8.7786e-06           -7.4e-13              -1e-13                8.7824e-06           
  -3.25                 -8.8998e-06           -7.2e-13              -8e-14                8.9028e-06           
  -3.3                  -9.018e-06            -8.8e-13              -2e-14                9.0252e-06           
  -3.35                 -9.137e-06            -8e-13                2e-14                 9.126e-06            
  -3.4                  -9.2332e-06           -8.4e-13              -1.2e-13              9.2362e-06           
  -3.45                 -9.3492e-06           -8.6e-13              6e-14                 9.3508e-06           
