! VERSION = 6.00
BEGIN_HEADER
 ICCAP_INPUTS
  vd         V  D GROUND SMU1 0.1 LIN        1    -0         -3.6       37   -0.1      
  vg         V  G GROUND SMU2 0.001 LIST       2 3 -1.549 -1.749 -1.949
  vb         V  B GROUND SMU4 0.1 CON        3.6
  vs         V  S GROUND SMU3 0.1 CON        -0
 ICCAP_OUTPUTS
  id         I  D GROUND SMU1 B
  ig         I  G GROUND SMU2 B
  ib         I  B GROUND SMU4 B
  is         I  S GROUND SMU3 B
 ICCAP_VALUES
  MASTER_SETUP_TYPE "~dc_idvd~"
  LINVT_VALUE ""
  LISTVT_VALUE "|idvg|100.0n|-200.0m|1.000m|3|200.0m|200.0m|"
  TYPE "-1"
  TEMP " 70.0000 "
  IS_TNOM " 0.00000 "
  MAIN.W "600.0n"
  MAIN.L "500.0n"
  MAIN.AD "204.0f"
  MAIN.AS "204.0f"
  MAIN.PD "1.880u"
  MAIN.PS "1.880u"
  MAIN.NF "1.000"
  MAIN.M "1"
  MAIN.NRD "0.000"
  MAIN.NRS "0.000"
  MAIN.LDRIFT1 "1E-06"
  MAIN.LDRIFT2 "1E-06"
  MAIN.SA "0.000"
  MAIN.SB "0.000"
  MAIN.SD "0.000"
  MAIN.SCA "0.000"
  MAIN.SCB "0.000"
  MAIN.SCC "0.000"
  MAIN.SC "0.000"
  MODULE "S564"
  PIN_D "16"
  PIN_G "5"
  PIN_S "6"
  PIN_B "15"
  PIN_E ""
  PIN_6 ""
  XY_ID ""
  FUNC "LW Scale"
  STI "SA ref"
  WPE "WPE ref"
  COMMENT ""
  DIS_MEAS ""
  TypeTCI "10"
END_HEADER

BEGIN_DB
 ICCAP_VAR vg         -1.549         
 ICCAP_VAR vb         3.6            
 ICCAP_VAR vs         -0             

 #vd                    id                    ig                    ib                    is                   
  -0                    9e-13                 -1.2e-13              1.052e-11             -1.3e-12             
  -0.1                  -9.1146e-10           1e-13                 1.036e-11             9.1204e-10           
  -0.2                  -9.8348e-10           2.6e-13               1.052e-11             9.8152e-10           
  -0.3                  -1.0172e-09           8e-14                 1.05e-11              1.01522e-09          
  -0.4                  -1.043e-09            8e-14                 1.05e-11              1.04504e-09          
  -0.5                  -1.0714e-09           6e-14                 1.058e-11             1.0682e-09           
  -0.6                  -1.0918e-09           4e-14                 1.052e-11             1.0926e-09           
  -0.7                  -1.119e-09            1.8e-13               1.054e-11             1.115e-09            
  -0.8                  -1.139e-09            8e-14                 1.062e-11             1.1384e-09           
  -0.9                  -1.1596e-09           6e-14                 1.056e-11             1.1888e-09           
  -1                    -1.2182e-09           2.8e-13               1.052e-11             1.2168e-09           
  -1.1                  -1.2358e-09           2e-14                 1.056e-11             1.2372e-09           
  -1.2                  -1.2552e-09           1.2e-13               1.054e-11             1.2554e-09           
  -1.3                  -1.2784e-09           6e-14                 1.06e-11              1.278e-09            
  -1.4                  -1.2958e-09           1.2e-13               1.07e-11              1.297e-09            
  -1.5                  -1.317e-09            1e-13                 1.054e-11             1.316e-09            
  -1.6                  -1.336e-09            8e-14                 1.064e-11             1.3326e-09           
  -1.7                  -1.3548e-09           1.2e-13               1.054e-11             1.3522e-09           
  -1.8                  -1.371e-09            8e-14                 1.054e-11             1.3712e-09           
  -1.9                  -1.3896e-09           1e-13                 1.062e-11             1.3894e-09           
  -2                    -1.4076e-09           1.2e-13               1.054e-11             1.4072e-09           
  -2.1                  -1.4308e-09           1e-13                 1.056e-11             1.426e-09            
  -2.2                  -1.4508e-09           1.4e-13               1.05e-11              1.4454e-09           
  -2.3                  -1.4684e-09           8e-14                 1.048e-11             1.4672e-09           
  -2.4                  -1.4878e-09           2e-13                 1.064e-11             1.4848e-09           
  -2.5                  -1.505e-09            1e-13                 1.046e-11             1.5018e-09           
  -2.6                  -1.5252e-09           -6e-14                1.052e-11             1.5232e-09           
  -2.7                  -1.5436e-09           1.2e-13               1.06e-11              1.5392e-09           
  -2.8                  -1.564e-09            4e-14                 1.076e-11             1.5612e-09           
  -2.9                  -1.5834e-09           0                     1.086e-11             1.5792e-09           
  -3                    -1.6026e-09           6e-14                 1.084e-11             1.6e-09              
  -3.1                  -1.6192e-09           -2e-14                1.138e-11             1.6192e-09           
  -3.2                  -1.6404e-09           1e-13                 1.176e-11             1.6356e-09           
  -3.3                  -1.6624e-09           8e-14                 1.234e-11             1.657e-09            
  -3.4                  -1.681e-09            1e-13                 1.332e-11             1.6754e-09           
  -3.5                  -1.702e-09            1.4e-13               1.482e-11             1.699e-09            
  -3.6                  -1.7262e-09           -2e-14                1.69e-11              1.719e-09            
END_DB

BEGIN_DB
 ICCAP_VAR vg         -1.749         
 ICCAP_VAR vb         3.6            
 ICCAP_VAR vs         -0             

 #vd                    id                    ig                    ib                    is                   
  -0                    7.842e-11             -1.8e-13              1.004e-11             -7.074e-11           
  -0.1                  -8.9126e-08           -1.4e-13              1.004e-11             8.9166e-08           
  -0.2                  -1.01532e-07          -2.6e-13              1.024e-11             1.0164e-07           
  -0.3                  -1.0586e-07           -2e-14                1.032e-11             1.05766e-07          
  -0.4                  -1.0872e-07           0                     1.038e-11             1.0881e-07           
  -0.5                  -1.111e-07            -1.6e-13              1.044e-11             1.11282e-07          
  -0.6                  -1.1348e-07           -4e-14                1.038e-11             1.13356e-07          
  -0.7                  -1.1528e-07           4e-14                 1.044e-11             1.1548e-07           
  -0.8                  -1.1714e-07           -6e-14                1.04e-11              1.172e-07            
  -0.9                  -1.1898e-07           6e-14                 1.038e-11             1.1888e-07           
  -1                    -1.2064e-07           -6e-14                1.046e-11             1.2074e-07           
  -1.1                  -1.2228e-07           -4e-14                1.042e-11             1.2234e-07           
  -1.2                  -1.238e-07            -1e-13                1.048e-11             1.2388e-07           
  -1.3                  -1.2534e-07           0                     1.05e-11              1.2528e-07           
  -1.4                  -1.2676e-07           2e-14                 1.052e-11             1.2676e-07           
  -1.5                  -1.2822e-07           -1.2e-13              1.042e-11             1.283e-07            
  -1.6                  -1.2962e-07           -6e-14                1.046e-11             1.298e-07            
  -1.7                  -1.3104e-07           -1.4e-13              1.046e-11             1.3124e-07           
  -1.8                  -1.324e-07            2e-14                 1.058e-11             1.3254e-07           
  -1.9                  -1.3386e-07           -8e-14                1.05e-11              1.339e-07            
  -2                    -1.3504e-07           6e-14                 1.064e-11             1.3522e-07           
  -2.1                  -1.3658e-07           1e-13                 1.062e-11             1.3662e-07           
  -2.2                  -1.38e-07             0                     1.062e-11             1.3806e-07           
  -2.3                  -1.3924e-07           4e-14                 1.074e-11             1.392e-07            
  -2.4                  -1.406e-07            2e-14                 1.102e-11             1.4062e-07           
  -2.5                  -1.4186e-07           0                     1.142e-11             1.4202e-07           
  -2.6                  -1.4318e-07           -2e-14                1.244e-11             1.4328e-07           
  -2.7                  -1.4452e-07           2e-14                 1.4e-11               1.4464e-07           
  -2.8                  -1.4594e-07           4e-14                 1.66e-11              1.458e-07            
  -2.9                  -1.4716e-07           1e-13                 2.108e-11             1.4724e-07           
  -3                    -1.4858e-07           2e-14                 2.854e-11             1.4844e-07           
  -3.1                  -1.4988e-07           -1.8e-13              4.054e-11             1.4984e-07           
  -3.2                  -1.5114e-07           -1e-13                5.96e-11              1.5108e-07           
  -3.3                  -1.5244e-07           -8e-14                8.952e-11             1.5258e-07           
  -3.4                  -1.5382e-07           2e-14                 1.3518e-10            1.54e-07             
  -3.5                  -1.5546e-07           6e-14                 2.0398e-10            1.5526e-07           
  -3.6                  -1.5672e-07           1e-13                 3.0624e-10            1.5662e-07           
END_DB

BEGIN_DB
 ICCAP_VAR vg         -1.949         
 ICCAP_VAR vb         3.6            
 ICCAP_VAR vs         -0             

 #vd                    id                    ig                    ib                    is                   
  -0                    3.1892e-10            -1.6e-13              1.002e-11             -3.0556e-10          
  -0.1                  -7.0618e-07           -2.4e-13              1.002e-11             7.0624e-07           
  -0.2                  -1.0162e-06           -1.2e-13              1.004e-11             1.01636e-06          
  -0.3                  -1.12602e-06          -4e-14                1.036e-11             1.12632e-06          
  -0.4                  -1.1706e-06           -2e-13                1.026e-11             1.1742e-06           
  -0.5                  -1.1992e-06           0                     1.03e-11              1.2022e-06           
  -0.6                  -1.2208e-06           -4e-14                1.034e-11             1.224e-06            
  -0.7                  -1.2384e-06           2e-14                 1.038e-11             1.2414e-06           
  -0.8                  -1.2538e-06           -4e-14                1.048e-11             1.2564e-06           
  -0.9                  -1.2676e-06           -1.6e-13              1.04e-11              1.2698e-06           
  -1                    -1.2796e-06           -2e-14                1.042e-11             1.283e-06            
  -1.1                  -1.2918e-06           -6e-14                1.056e-11             1.2948e-06           
  -1.2                  -1.3036e-06           6e-14                 1.04e-11              1.306e-06            
  -1.3                  -1.3148e-06           -1e-13                1.038e-11             1.3176e-06           
  -1.4                  -1.3248e-06           -4e-14                1.046e-11             1.3276e-06           
  -1.5                  -1.3352e-06           -4e-14                1.042e-11             1.3378e-06           
  -1.6                  -1.345e-06            -2e-14                1.048e-11             1.3482e-06           
  -1.7                  -1.3548e-06           0                     1.052e-11             1.3576e-06           
  -1.8                  -1.3642e-06           -1e-13                1.048e-11             1.3668e-06           
  -1.9                  -1.3732e-06           0                     1.044e-11             1.3766e-06           
  -2                    -1.3826e-06           -1.4e-13              1.048e-11             1.3856e-06           
  -2.1                  -1.3908e-06           -2.6e-13              1.06e-11              1.3938e-06           
  -2.2                  -1.4002e-06           -4e-14                1.078e-11             1.4034e-06           
  -2.3                  -1.4082e-06           -1.2e-13              1.112e-11             1.4114e-06           
  -2.4                  -1.417e-06            6e-14                 1.198e-11             1.42e-06             
  -2.5                  -1.4256e-06           0                     1.362e-11             1.4296e-06           
  -2.6                  -1.435e-06            -1e-13                1.692e-11             1.438e-06            
  -2.7                  -1.4424e-06           -2e-14                2.28e-11              1.446e-06            
  -2.8                  -1.452e-06            -2e-14                3.354e-11             1.4544e-06           
  -2.9                  -1.4598e-06           0                     5.204e-11             1.463e-06            
  -3                    -1.4682e-06           -6e-14                8.372e-11             1.4716e-06           
  -3.1                  -1.476e-06            -2.4e-13              1.3652e-10            1.4786e-06           
  -3.2                  -1.4848e-06           -2e-14                2.2282e-10            1.4874e-06           
  -3.3                  -1.493e-06            1e-13                 3.6158e-10            1.4956e-06           
  -3.4                  -1.5018e-06           1e-13                 5.7916e-10            1.504e-06            
  -3.5                  -1.5098e-06           1.2e-13               9.1696e-10            1.5114e-06           
  -3.6                  -1.5176e-06           -4e-14                1.4322e-09            1.5188e-06           
END_DB

