! VERSION = 6.00
BEGIN_HEADER
 ICCAP_INPUTS
  vd         V  D GROUND SMU1 0.1 LIN        1    -0         -3.6       37   -0.1      
  vg         V  G GROUND SMU2 0.001 LIN        2    -1.668     -3.6       5    -0.483    
  vb         V  B GROUND SMU4 0.1 CON        3.6
  vs         V  S GROUND SMU3 0.1 CON        -0
 ICCAP_OUTPUTS
  id         I  D GROUND SMU1 B
  ig         I  G GROUND SMU2 B
  ib         I  B GROUND SMU4 B
  is         I  S GROUND SMU3 B
 ICCAP_VALUES
  MASTER_SETUP_TYPE "~dc_idvd~"
  LINVT_VALUE "|idvg|100.0n|100.0m|1.000m|5|3.600|"
  LISTVT_VALUE ""
  TYPE "-1"
  TEMP " 27.0000 "
  IS_TNOM " 1.00000 "
  MAIN.W "300.0n"
  MAIN.L "350.0n"
  MAIN.AD "102.0f"
  MAIN.AS "102.0f"
  MAIN.PD "1.280u"
  MAIN.PS "1.280u"
  MAIN.NF "1.000"
  MAIN.M "1"
  MAIN.NRD "0.000"
  MAIN.NRS "0.000"
  MAIN.LDRIFT1 "1E-06"
  MAIN.LDRIFT2 "1E-06"
  MAIN.SA "0.000"
  MAIN.SB "0.000"
  MAIN.SD "0.000"
  MAIN.SCA "0.000"
  MAIN.SCB "0.000"
  MAIN.SCC "0.000"
  MAIN.SC "0.000"
  MODULE "S565"
  PIN_D "16"
  PIN_G "5"
  PIN_S "6"
  PIN_B "15"
  PIN_E ""
  PIN_6 ""
  XY_ID ""
  FUNC "Small"
  STI "SA ref"
  WPE "WPE ref"
  COMMENT ""
  DIS_MEAS ""
  TypeTCI "10"
END_HEADER

BEGIN_DB
 ICCAP_VAR vg         -1.668         
 ICCAP_VAR vb         3.6            
 ICCAP_VAR vs         -0             

 #vd                    id                    ig                    ib                    is                   
  -0                    1.0928e-10            -5.8e-13              1.42e-12              -1.3924e-10          
  -0.1                  -1.66e-07             -4.6e-13              1.3e-12               1.6616e-07           
  -0.2                  -2.163e-07            -3.2e-13              1.24e-12              2.1686e-07           
  -0.3                  -2.4564e-07           -2.6e-13              1.06e-12              2.4538e-07           
  -0.4                  -2.686e-07            -2.6e-13              1.1e-12               2.6938e-07           
  -0.5                  -2.9016e-07           -3.8e-13              1.06e-12              2.9034e-07           
  -0.6                  -3.0928e-07           -2.8e-13              9.4e-13               3.0926e-07           
  -0.7                  -3.2808e-07           -2.4e-13              1.06e-12              3.2822e-07           
  -0.8                  -3.4634e-07           -2.2e-13              1.08e-12              3.4628e-07           
  -0.9                  -3.6394e-07           -2e-13                9.6e-13               3.6446e-07           
  -1                    -3.823e-07            -1.2e-13              8.2e-13               3.8206e-07           
  -1.1                  -4.0132e-07           -1.4e-13              9.6e-13               4.0166e-07           
  -1.2                  -4.1908e-07           -1.6e-13              8.2e-13               4.2018e-07           
  -1.3                  -4.386e-07            -1.8e-13              8e-13                 4.3852e-07           
  -1.4                  -4.5794e-07           -1.6e-13              7.6e-13               4.5814e-07           
  -1.5                  -4.7708e-07           -1.4e-13              7.2e-13               4.777e-07            
  -1.6                  -4.9576e-07           -8e-14                7.8e-13               4.9634e-07           
  -1.7                  -5.1542e-07           6e-14                 8e-13                 5.1544e-07           
  -1.8                  -5.3472e-07           -8e-14                6.8e-13               5.3556e-07           
  -1.9                  -5.5548e-07           -1e-13                7.6e-13               5.5576e-07           
  -2                    -5.7498e-07           -4e-14                7.8e-13               5.7464e-07           
  -2.1                  -5.9622e-07           -6e-14                8.2e-13               5.9632e-07           
  -2.2                  -6.1662e-07           -4e-14                1.2e-12               6.1796e-07           
  -2.3                  -6.403e-07            -1.2e-13              1.92e-12              6.3934e-07           
  -2.4                  -6.596e-07            -2e-14                3.44e-12              6.6182e-07           
  -2.5                  -6.8322e-07           4e-14                 6.46e-12              6.8378e-07           
  -2.6                  -7.0772e-07           0                     1.212e-11             7.0432e-07           
  -2.7                  -7.2962e-07           -1e-13                2.25e-11              7.3138e-07           
  -2.8                  -7.551e-07            1e-13                 4.12e-11              7.5398e-07           
  -2.9                  -7.7788e-07           0                     7.366e-11             7.7818e-07           
  -3                    -8.041e-07            -6e-14                1.2864e-10            8.0276e-07           
  -3.1                  -8.2838e-07           4e-14                 2.2096e-10            8.2854e-07           
  -3.2                  -8.5548e-07           -2e-14                3.7166e-10            8.5546e-07           
  -3.3                  -8.82e-07             0                     6.115e-10             8.7956e-07           
  -3.4                  -9.0776e-07           -2e-14                9.897e-10             9.0894e-07           
  -3.5                  -9.373e-07            -2e-14                1.5706e-09            9.3486e-07           
  -3.6                  -9.66e-07             8e-14                 2.4528e-09            9.6532e-07           
END_DB

BEGIN_DB
 ICCAP_VAR vg         -2.151         
 ICCAP_VAR vb         3.6            
 ICCAP_VAR vs         -0             

 #vd                    id                    ig                    ib                    is                   
  -0                    9.1058e-10            -3.4e-13              2.2e-13               -9.098e-10           
  -0.1                  -2.0348e-06           -2e-13                2.2e-13               2.0394e-06           
  -0.2                  -3.619e-06            -1e-13                2.6e-13               3.6222e-06           
  -0.3                  -4.7766e-06           -2.6e-13              3.6e-13               4.7794e-06           
  -0.4                  -5.581e-06            -2.2e-13              2.8e-13               5.5862e-06           
  -0.5                  -6.1364e-06           -8e-14                4.4e-13               6.14e-06             
  -0.6                  -6.525e-06            -1e-13                4.2e-13               6.5278e-06           
  -0.7                  -6.812e-06            -8e-14                3e-13                 6.8144e-06           
  -0.8                  -7.0428e-06           -1.8e-13              3.4e-13               7.0444e-06           
  -0.9                  -7.2334e-06           -1.4e-13              3.2e-13               7.2364e-06           
  -1                    -7.4014e-06           -2e-13                3.4e-13               7.4046e-06           
  -1.1                  -7.5528e-06           4e-14                 3.4e-13               7.5574e-06           
  -1.2                  -7.6962e-06           -1.6e-13              2.8e-13               7.698e-06            
  -1.3                  -7.8326e-06           -1.2e-13              3e-13                 7.8364e-06           
  -1.4                  -7.9646e-06           -6e-14                4.6e-13               7.9694e-06           
  -1.5                  -8.0922e-06           -2e-13                4e-13                 8.0944e-06           
  -1.6                  -8.214e-06            -8e-14                3.8e-13               8.2164e-06           
  -1.7                  -8.333e-06            4e-14                 3e-13                 8.3386e-06           
  -1.8                  -8.449e-06            0                     4.4e-13               8.456e-06            
  -1.9                  -8.5698e-06           -6e-14                3.6e-13               8.5728e-06           
  -2                    -8.6784e-06           0                     4.4e-13               8.6862e-06           
  -2.1                  -8.7946e-06           8e-14                 6.2e-13               8.7956e-06           
  -2.2                  -8.9032e-06           0                     9e-13                 8.9056e-06           
  -2.3                  -9.0156e-06           -8e-14                1.74e-12              9.02e-06             
  -2.4                  -9.1232e-06           -2e-14                3.7e-12               9.1256e-06           
  -2.5                  -9.2286e-06           -6e-14                8.04e-12              9.2356e-06           
  -2.6                  -9.3378e-06           -1e-13                1.714e-11             9.3416e-06           
  -2.7                  -9.4462e-06           -8e-14                3.514e-11             9.4478e-06           
  -2.8                  -9.5514e-06           -6e-14                6.972e-11             9.5574e-06           
  -2.9                  -9.6578e-06           2e-14                 1.3356e-10            9.6604e-06           
  -3                    -9.7626e-06           6e-14                 2.514e-10             9.759e-06            
  -3.1                  -9.8652e-06           0                     4.5344e-10            9.8702e-06           
  -3.2                  -9.9752e-06           -4e-14                7.9364e-10            9.9766e-06           
  -3.3                  -1.0079e-05           -4e-14                1.3826e-09            1.0092e-05           
  -3.4                  -1.01918e-05          0                     2.3192e-09            1.0196e-05           
  -3.5                  -1.03118e-05          -6e-14                3.817e-09             1.0318e-05           
  -3.6                  -1.04246e-05          -2e-14                6.207e-09             1.0426e-05           
END_DB

BEGIN_DB
 ICCAP_VAR vg         -2.634         
 ICCAP_VAR vb         3.6            
 ICCAP_VAR vs         -0             

 #vd                    id                    ig                    ib                    is                   
  -0                    1.5306e-09            -2.8e-13              1.2e-13               -1.2656e-09          
  -0.1                  -3.7066e-06           -2.4e-13              1.4e-13               3.7096e-06           
  -0.2                  -7.0244e-06           -1.8e-13              1.4e-13               7.0292e-06           
  -0.3                  -9.9182e-06           -1.8e-13              2.4e-13               9.9176e-06           
  -0.4                  -1.2364e-05           -8e-14                1.6e-13               1.2372e-05           
  -0.5                  -1.4394e-05           -1.2e-13              1.8e-13               1.4412e-05           
  -0.6                  -1.6054e-05           0                     2.8e-13               1.608e-05            
  -0.7                  -1.7372e-05           -1.4e-13              2.6e-13               1.7388e-05           
  -0.8                  -1.842e-05            -1.4e-13              3.2e-13               1.8436e-05           
  -0.9                  -1.9244e-05           -2e-14                3e-13                 1.9262e-05           
  -1                    -1.9882e-05           4e-14                 2.8e-13               1.99e-05             
  -1.1                  -2.0412e-05           -1.2e-13              3e-13                 2.0432e-05           
  -1.2                  -2.0848e-05           -1.4e-13              2.8e-13               2.088e-05            
  -1.3                  -2.1232e-05           -4e-14                1.6e-13               2.1264e-05           
  -1.4                  -2.157e-05            -1.8e-13              2e-13                 2.1574e-05           
  -1.5                  -2.1856e-05           -6e-14                2.4e-13               2.1878e-05           
  -1.6                  -2.2142e-05           -1e-13                2e-13                 2.215e-05            
  -1.7                  -2.239e-05            -1.2e-13              1.8e-13               2.2416e-05           
  -1.8                  -2.264e-05            -6e-14                2e-13                 2.2686e-05           
  -1.9                  -2.29e-05             -2.4e-13              1.6e-13               2.289e-05            
  -2                    -2.3106e-05           -2e-14                2.2e-13               2.3136e-05           
  -2.1                  -2.3324e-05           1.2e-13               2.8e-13               2.3334e-05           
  -2.2                  -2.3538e-05           0                     3.8e-13               2.3574e-05           
  -2.3                  -2.3752e-05           -1.2e-13              5.2e-13               2.376e-05            
  -2.4                  -2.3926e-05           -8e-14                1.3e-12               2.3972e-05           
  -2.5                  -2.413e-05            -2e-14                2.76e-12              2.413e-05            
  -2.6                  -2.4216e-05           -2e-14                6.24e-12              2.4354e-05           
  -2.7                  -2.4512e-05           -8e-14                1.366e-11             2.4536e-05           
  -2.8                  -2.4704e-05           -6e-14                2.858e-11             2.4724e-05           
  -2.9                  -2.4874e-05           -2e-14                5.796e-11             2.4904e-05           
  -3                    -2.5088e-05           -2e-14                1.1384e-10            2.5096e-05           
  -3.1                  -2.5254e-05           -2e-14                2.1642e-10            2.525e-05            
  -3.2                  -2.5424e-05           -1e-13                4.0172e-10            2.5458e-05           
  -3.3                  -2.5592e-05           -4e-14                7.275e-10             2.5628e-05           
  -3.4                  -2.578e-05            8e-14                 1.287e-09             2.5816e-05           
  -3.5                  -2.5872e-05           -6e-14                2.2208e-09            2.5982e-05           
  -3.6                  -2.618e-05            2e-14                 3.7672e-09            2.617e-05            
END_DB

BEGIN_DB
 ICCAP_VAR vg         -3.117         
 ICCAP_VAR vb         3.6            
 ICCAP_VAR vs         -0             

 #vd                    id                    ig                    ib                    is                   
  -0                    1.8138e-09            -3e-13                1e-13                 -1.6348e-09          
  -0.1                  -5.033e-06            -2e-13                1e-13                 5.037e-06            
  -0.2                  -9.7342e-06           -2.6e-13              1.8e-13               9.7382e-06           
  -0.3                  -1.4046e-05           -1.2e-13              1.4e-13               1.4066e-05           
  -0.4                  -1.7952e-05           -1.8e-13              6e-14                 1.7972e-05           
  -0.5                  -2.145e-05            -1.4e-13              3.2e-13               2.147e-05            
  -0.6                  -2.4534e-05           0                     2.2e-13               2.4552e-05           
  -0.7                  -2.7236e-05           -8e-14                2e-13                 2.7294e-05           
  -0.8                  -2.952e-05            -1.4e-13              2.6e-13               2.9538e-05           
  -0.9                  -3.1474e-05           -1.8e-13              2.2e-13               3.149e-05            
  -1                    -3.3104e-05           -1.6e-13              1.4e-13               3.3152e-05           
  -1.1                  -3.4578e-05           -2e-13                1.4e-13               3.461e-05            
  -1.2                  -3.569e-05            -8e-14                2e-13                 3.5766e-05           
  -1.3                  -3.6706e-05           -4e-14                2e-13                 3.6738e-05           
  -1.4                  -3.7432e-05           -2.2e-13              1.6e-13               3.745e-05            
  -1.5                  -3.8136e-05           -2e-13                2.2e-13               3.8162e-05           
  -1.6                  -3.884e-05            -8e-14                2.8e-13               3.886e-05            
  -1.7                  -3.937e-05            -2e-14                1.4e-13               3.94e-05             
  -1.8                  -3.9752e-05           0                     1.8e-13               3.977e-05            
  -1.9                  -4.0184e-05           -4e-14                8e-14                 4.0308e-05           
  -2                    -4.0678e-05           -1e-13                8e-14                 4.071e-05            
  -2.1                  -4.1066e-05           -6e-14                1.2e-13               4.1092e-05           
  -2.2                  -4.142e-05            2e-14                 1.2e-13               4.144e-05            
  -2.3                  -4.1758e-05           -2e-14                1.8e-13               4.1778e-05           
  -2.4                  -4.208e-05            -2e-14                4e-13                 4.2102e-05           
  -2.5                  -4.2388e-05           0                     8e-13                 4.2412e-05           
  -2.6                  -4.2688e-05           -1.6e-13              1.6e-12               4.2708e-05           
  -2.7                  -4.297e-05            -2e-14                3.72e-12              4.299e-05            
  -2.8                  -4.3154e-05           8e-14                 8.64e-12              4.317e-05            
  -2.9                  -4.3422e-05           -4e-14                1.854e-11             4.3554e-05           
  -3                    -4.3738e-05           -4e-14                3.816e-11             4.3706e-05           
  -3.1                  -4.4054e-05           6e-14                 7.63e-11              4.4066e-05           
  -3.2                  -4.4298e-05           -6e-14                1.4878e-10            4.4316e-05           
  -3.3                  -4.4462e-05           -1.4e-13              2.7812e-10            4.4458e-05           
  -3.4                  -4.4676e-05           1.2e-13               5.1084e-10            4.47e-05             
  -3.5                  -4.4928e-05           0                     9.1612e-10            4.4978e-05           
  -3.6                  -4.518e-05            -2e-14                1.6198e-09            4.5188e-05           
END_DB

BEGIN_DB
 ICCAP_VAR vg         -3.6           
 ICCAP_VAR vb         3.6            
 ICCAP_VAR vs         -0             

 #vd                    id                    ig                    ib                    is                   
  -0                    2.1696e-09            -3e-13                0                     -2.0022e-09          
  -0.1                  -6.147e-06            -2.2e-13              1.4e-13               6.1532e-06           
  -0.2                  -1.1996e-05           -3.8e-13              1.6e-13               1.202e-05            
  -0.3                  -1.7506e-05           -1.6e-13              1e-13                 1.7526e-05           
  -0.4                  -2.263e-05            -1.2e-13              1.2e-13               2.2646e-05           
  -0.5                  -2.736e-05            -2.8e-13              6e-14                 2.738e-05            
  -0.6                  -3.1682e-05           -1.6e-13              1.2e-13               3.17e-05             
  -0.7                  -3.56e-05             -1.2e-13              3.2e-13               3.5622e-05           
  -0.8                  -3.9114e-05           -2.2e-13              1.8e-13               3.9162e-05           
