! VERSION = 6.00
BEGIN_HEADER
 ICCAP_INPUTS
  vd         V  D GROUND SMU1 0.1 LIN        1    -0         -3.6       37   -0.1      
  vg         V  G GROUND SMU2 0.001 LIST       2 3 -1.196 -1.396 -1.596
  vb         V  B GROUND SMU4 0.1 CON        3.6
  vs         V  S GROUND SMU3 0.1 CON        -0
 ICCAP_OUTPUTS
  id         I  D GROUND SMU1 B
  ig         I  G GROUND SMU2 B
  ib         I  B GROUND SMU4 B
  is         I  S GROUND SMU3 B
 ICCAP_VALUES
  MASTER_SETUP_TYPE "~dc_idvd~"
  LINVT_VALUE ""
  LISTVT_VALUE "|idvg|100.0n|-200.0m|1.000m|3|200.0m|200.0m|"
  TYPE "-1"
  TEMP " 27.0000 "
  IS_TNOM " 1.00000 "
  MAIN.W "10.00u"
  MAIN.L "300.0n"
  MAIN.AD "3.400p"
  MAIN.AS "3.400p"
  MAIN.PD "20.68u"
  MAIN.PS "20.68u"
  MAIN.NF "1.000"
  MAIN.M "1"
  MAIN.NRD "0.000"
  MAIN.NRS "0.000"
  MAIN.LDRIFT1 "1E-06"
  MAIN.LDRIFT2 "1E-06"
  MAIN.SA "0.000"
  MAIN.SB "0.000"
  MAIN.SD "0.000"
  MAIN.SCA "0.000"
  MAIN.SCB "0.000"
  MAIN.SCC "0.000"
  MAIN.SC "0.000"
  MODULE "S561"
  PIN_D "20"
  PIN_G "1"
  PIN_S "2"
  PIN_B "19"
  PIN_E ""
  PIN_6 ""
  XY_ID ""
  FUNC "Additional"
  STI "SA ref"
  WPE "WPE ref"
  COMMENT ""
  DIS_MEAS ""
  TypeTCI "10"
END_HEADER

BEGIN_DB
 ICCAP_VAR vg         -1.196         
 ICCAP_VAR vb         3.6            
 ICCAP_VAR vs         -0             

 #vd                    id                    ig                    ib                    is                   
  -0                    1.76e-12              1.4e-13               7.2e-13               -3.88e-12            
  -0.1                  -2.121e-09            2.2e-13               4.4e-13               2.121e-09            
  -0.2                  -2.7778e-09           1e-13                 6e-13                 2.776e-09            
  -0.3                  -3.465e-09            8e-14                 4.2e-13               3.464e-09            
  -0.4                  -4.2344e-09           1.8e-13               4.8e-13               4.234e-09            
  -0.5                  -5.1036e-09           8e-14                 3e-13                 5.1042e-09           
  -0.6                  -6.0908e-09           1.8e-13               4e-13                 6.09e-09             
  -0.7                  -7.2022e-09           1.8e-13               2.2e-13               7.202e-09            
  -0.8                  -8.4576e-09           8e-14                 4e-13                 8.4558e-09           
  -0.9                  -9.868e-09            1.6e-13               3.4e-13               9.8674e-09           
  -1                    -1.14584e-08          4e-14                 2.8e-13               1.14624e-08          
  -1.1                  -1.3216e-08           1e-13                 3.4e-13               1.3254e-08           
  -1.2                  -1.5226e-08           1.6e-13               3.6e-13               1.5246e-08           
  -1.3                  -1.7486e-08           2e-14                 3.2e-13               1.7498e-08           
  -1.4                  -2.0006e-08           2e-14                 3.4e-13               2.0034e-08           
  -1.5                  -2.2868e-08           -2e-14                3.4e-13               2.2906e-08           
  -1.6                  -2.6088e-08           2e-14                 3e-13                 2.6094e-08           
  -1.7                  -2.9698e-08           2e-14                 1.6e-13               2.9732e-08           
  -1.8                  -3.3762e-08           -2e-14                1.2e-13               3.3812e-08           
  -1.9                  -3.8304e-08           -1e-13                2.4e-13               3.8362e-08           
  -2                    -4.344e-08            2e-14                 2.8e-13               4.3498e-08           
  -2.1                  -4.9258e-08           6e-14                 6e-13                 4.9294e-08           
  -2.2                  -5.581e-08            -4e-14                9.2e-13               5.5854e-08           
  -2.3                  -6.3184e-08           4e-14                 1.64e-12              6.3234e-08           
  -2.4                  -7.144e-08            0                     3.26e-12              7.151e-08            
  -2.5                  -8.0842e-08           2e-14                 6.34e-12              8.0866e-08           
  -2.6                  -9.1382e-08           -2e-14                1.194e-11             9.1444e-08           
  -2.7                  -1.03228e-07          -2e-14                2.244e-11             1.03318e-07          
  -2.8                  -1.1656e-07           -4e-14                4.106e-11             1.1684e-07           
  -2.9                  -1.3174e-07           2e-14                 7.436e-11             1.3184e-07           
  -3                    -1.487e-07            -8e-14                1.3176e-10            1.4876e-07           
  -3.1                  -1.6804e-07           -8e-14                2.29e-10              1.6806e-07           
  -3.2                  -1.8956e-07           -2e-14                3.9244e-10            1.8972e-07           
  -3.3                  -2.1454e-07           -8e-14                6.5974e-10            2.1418e-07           
  -3.4                  -2.4238e-07           6e-14                 1.08966e-09           2.417e-07            
  -3.5                  -2.7402e-07           -2e-14                1.768e-09             2.7208e-07           
  -3.6                  -3.0946e-07           -2e-14                2.8346e-09            3.0736e-07           
END_DB

BEGIN_DB
 ICCAP_VAR vg         -1.396         
 ICCAP_VAR vb         3.6            
 ICCAP_VAR vs         -0             

 #vd                    id                    ig                    ib                    is                   
  -0                    5.8864e-10            1.2e-13               1.6e-13               -5.8316e-10          
  -0.1                  -4.4652e-07           -2e-14                1e-13                 4.4662e-07           
  -0.2                  -6.0916e-07           0                     1.6e-13               6.0942e-07           
  -0.3                  -7.5838e-07           2e-14                 1.4e-13               7.5862e-07           
  -0.4                  -9.1422e-07           2e-14                 1.2e-13               9.1436e-07           
  -0.5                  -1.07864e-06          0                     2e-13                 1.07928e-06          
  -0.6                  -1.2522e-06           8e-14                 1.6e-13               1.248e-06            
  -0.7                  -1.4268e-06           0                     1.2e-13               1.4396e-06           
  -0.8                  -1.6308e-06           -2e-14                6e-14                 1.635e-06            
  -0.9                  -1.8402e-06           -6e-14                1e-13                 1.8426e-06           
  -1                    -2.0524e-06           -2e-14                0                     2.0536e-06           
  -1.1                  -2.281e-06            -1e-13                1.6e-13               2.2982e-06           
  -1.2                  -2.5428e-06           0                     2.2e-13               2.546e-06            
  -1.3                  -2.8032e-06           -6e-14                2e-13                 2.7944e-06           
  -1.4                  -3.066e-06            -2e-14                8e-14                 3.0862e-06           
  -1.5                  -3.3764e-06           -1e-13                -2e-14                3.3794e-06           
  -1.6                  -3.669e-06            -6e-14                8e-14                 3.683e-06            
  -1.7                  -3.998e-06            0                     3.2e-13               4.0008e-06           
  -1.8                  -4.3428e-06           -1e-13                9e-13                 4.35e-06             
  -1.9                  -4.7134e-06           -1e-13                1.84e-12              4.7136e-06           
  -2                    -5.1236e-06           -6e-14                4.7e-12               5.109e-06            
  -2.1                  -5.515e-06            -4e-14                1.102e-11             5.5166e-06           
  -2.2                  -5.9532e-06           -2e-13                2.476e-11             5.9686e-06           
  -2.3                  -6.4124e-06           -6e-14                5.326e-11             6.4112e-06           
  -2.4                  -6.9176e-06           -1.2e-13              1.0934e-10            6.9252e-06           
  -2.5                  -7.4086e-06           -1.2e-13              2.1632e-10            7.4154e-06           
  -2.6                  -7.9514e-06           -1.2e-13              4.1736e-10            7.973e-06            
  -2.7                  -8.5334e-06           -2e-14                7.7996e-10            8.5506e-06           
  -2.8                  -9.122e-06            -2e-14                1.4238e-09            9.1562e-06           
  -2.9                  -9.7968e-06           -1e-13                2.532e-09             9.8104e-06           
  -3                    -1.049e-05            -2e-14                4.4166e-09            1.04934e-05          
  -3.1                  -1.1202e-05           8e-14                 7.4904e-09            1.12144e-05          
  -3.2                  -1.1964e-05           -1.8e-13              1.2566e-08            1.1976e-05           
  -3.3                  -1.277e-05            -2.2e-13              2.0568e-08            1.2778e-05           
  -3.4                  -1.3586e-05           -1.4e-13              3.3026e-08            1.3608e-05           
  -3.5                  -1.451e-05            -2.2e-13              5.2128e-08            1.4502e-05           
  -3.6                  -1.5472e-05           -1.8e-13              8.1048e-08            1.5446e-05           
END_DB

BEGIN_DB
 ICCAP_VAR vg         -1.596         
 ICCAP_VAR vb         3.6            
 ICCAP_VAR vs         -0             

 #vd                    id                    ig                    ib                    is                   
  -0                    9.882e-09             2e-14                 1e-13                 -9.956e-09           
  -0.1                  -1.1422e-05           -2e-14                1.2e-13               1.144e-05            
  -0.2                  -1.6288e-05           -1.2e-13              2e-14                 1.631e-05            
  -0.3                  -1.938e-05            -2e-14                1e-13                 1.9402e-05           
  -0.4                  -2.1886e-05           -1.2e-13              2e-13                 2.1912e-05           
  -0.5                  -2.4154e-05           -1e-13                8e-14                 2.4162e-05           
  -0.6                  -2.6264e-05           2e-14                 6e-14                 2.6272e-05           
  -0.7                  -2.8288e-05           -1e-13                1.6e-13               2.8308e-05           
  -0.8                  -3.0262e-05           -1.4e-13              1.8e-13               3.027e-05            
  -0.9                  -3.2174e-05           -6e-14                1.6e-13               3.2212e-05           
  -1                    -3.4072e-05           -1.2e-13              1.2e-13               3.41e-05             
  -1.1                  -3.5962e-05           -1e-13                2e-13                 3.6042e-05           
  -1.2                  -3.7848e-05           -1.2e-13              2e-13                 3.7872e-05           
  -1.3                  -3.9738e-05           -1e-13                8e-14                 3.9754e-05           
  -1.4                  -4.1618e-05           -1e-13                1e-13                 4.165e-05            
  -1.5                  -4.3508e-05           -8e-14                1e-13                 4.3526e-05           
  -1.6                  -4.5392e-05           -1e-13                3.6e-13               4.5404e-05           
  -1.7                  -4.7308e-05           -2e-13                7e-13                 4.7324e-05           
  -1.8                  -4.9242e-05           -4e-14                1.96e-12              4.9256e-05           
  -1.9                  -5.118e-05            -1e-13                5.52e-12              5.1202e-05           
  -2                    -5.3222e-05           -2.4e-13              1.41e-11              5.326e-05            
  -2.1                  -5.5248e-05           -8e-14                3.424e-11             5.5272e-05           
  -2.2                  -5.7294e-05           -1e-13                7.94e-11              5.732e-05            
  -2.3                  -5.939e-05            -1e-13                1.7432e-10            5.9414e-05           
  -2.4                  -6.1508e-05           -1.4e-13              3.6478e-10            6.155e-05            
  -2.5                  -6.3714e-05           -1.2e-13              7.3382e-10            6.3714e-05           
  -2.6                  -6.592e-05            -1.8e-13              1.424e-09             6.5922e-05           
  -2.7                  -6.8142e-05           -1.4e-13              2.678e-09             6.818e-05            
  -2.8                  -7.0474e-05           -1.2e-13              4.8902e-09            7.046e-05            
  -2.9                  -7.2786e-05           -1.6e-13              8.7012e-09            7.2758e-05           
  -3                    -7.5188e-05           -1.2e-13              1.5132e-08            7.5168e-05           
  -3.1                  -7.7672e-05           -1.6e-13              2.5716e-08            7.7656e-05           
  -3.2                  -8.0222e-05           -1.2e-13              4.2842e-08            8.0188e-05           
  -3.3                  -8.2822e-05           -1.8e-13              6.9962e-08            8.2774e-05           
  -3.4                  -8.5478e-05           -8e-14                1.12046e-07           8.543e-05            
  -3.5                  -8.8304e-05           -8e-14                1.7602e-07            8.813e-05            
  -3.6                  -9.1134e-05           -1.2e-13              2.7124e-07            9.0994e-05           
END_DB

