! VERSION = 6.00
BEGIN_HEADER
 ICCAP_INPUTS
  vd         V  D GROUND SMU1 0.1 LIN        1    -0         -3.6       37   -0.1      
  vg         V  G GROUND SMU2 0.001 LIST       2 3 -0.49 -0.69 -0.89
  vb         V  B GROUND SMU4 0.1 CON        -0
  vs         V  S GROUND SMU3 0.1 CON        -0
 ICCAP_OUTPUTS
  id         I  D GROUND SMU1 B
  ig         I  G GROUND SMU2 B
  ib         I  B GROUND SMU4 B
  is         I  S GROUND SMU3 B
 ICCAP_VALUES
  MASTER_SETUP_TYPE "~dc_idvd~"
  LINVT_VALUE ""
  LISTVT_VALUE "|idvg|100.0n|-200.0m|1.000m|3|200.0m|200.0m|"
  TYPE "-1"
  TEMP " 27.0000 "
  IS_TNOM " 1.00000 "
  MAIN.W "300.0n"
  MAIN.L "1.200u"
  MAIN.AD "102.0f"
  MAIN.AS "102.0f"
  MAIN.PD "1.280u"
  MAIN.PS "1.280u"
  MAIN.NF "1.000"
  MAIN.M "1"
  MAIN.NRD "0.000"
  MAIN.NRS "0.000"
  MAIN.LDRIFT1 "1E-06"
  MAIN.LDRIFT2 "1E-06"
  MAIN.SA "0.000"
  MAIN.SB "0.000"
  MAIN.SD "0.000"
  MAIN.SCA "0.000"
  MAIN.SCB "0.000"
  MAIN.SCC "0.000"
  MAIN.SC "0.000"
  MODULE "S565"
  PIN_D "12"
  PIN_G "9"
  PIN_S "10"
  PIN_B "11"
  PIN_E ""
  PIN_6 ""
  XY_ID ""
  FUNC "LW Scale"
  STI "SA ref"
  WPE "WPE ref"
  COMMENT ""
  DIS_MEAS ""
  TypeTCI "10"
END_HEADER

BEGIN_DB
 ICCAP_VAR vg         -0.49          
 ICCAP_VAR vb         -0             
 ICCAP_VAR vs         -0             

 #vd                    id                    ig                    ib                    is                   
  -0                    9.2e-13               6.2e-13               -4e-14                -7.8e-13             
  -0.1                  -2.7594e-10           4.4e-13               -1.6e-13              2.76e-10             
  -0.2                  -2.8264e-10           4e-13                 -1.4e-13              2.8244e-10           
  -0.3                  -2.8306e-10           3.6e-13               -2.6e-13              2.832e-10            
  -0.4                  -2.833e-10            5.2e-13               -1.8e-13              2.8328e-10           
  -0.5                  -2.8366e-10           3.8e-13               -1.2e-13              2.8344e-10           
  -0.6                  -2.8386e-10           3e-13                 -6e-14                2.8388e-10           
  -0.7                  -2.8442e-10           4.2e-13               -1e-13                2.8428e-10           
  -0.8                  -2.846e-10            3.4e-13               -1e-13                2.8434e-10           
  -0.9                  -2.8496e-10           3.4e-13               -6e-14                2.8444e-10           
  -1                    -2.8524e-10           4.2e-13               -1.4e-13              2.8484e-10           
  -1.1                  -2.8548e-10           3.2e-13               -1.6e-13              2.8504e-10           
  -1.2                  -2.8582e-10           2.2e-13               -1e-13                2.8554e-10           
  -1.3                  -2.8608e-10           2e-13                 -1e-13                2.8566e-10           
  -1.4                  -2.8616e-10           2.2e-13               0                     2.8574e-10           
  -1.5                  -2.8632e-10           1.8e-13               -4e-14                2.8572e-10           
  -1.6                  -2.8638e-10           2.6e-13               -2e-14                2.8606e-10           
  -1.7                  -2.868e-10            2.2e-13               2e-14                 2.8616e-10           
  -1.8                  -2.8692e-10           3.2e-13               0                     2.862e-10            
  -1.9                  -2.8738e-10           1.6e-13               0                     2.8662e-10           
  -2                    -2.8744e-10           3e-13                 8e-14                 2.866e-10            
  -2.1                  -2.8754e-10           4e-14                 -1e-13                2.8706e-10           
  -2.2                  -2.8758e-10           2.4e-13               -2e-14                2.8712e-10           
  -2.3                  -2.8792e-10           6e-14                 -6e-14                2.8724e-10           
  -2.4                  -2.881e-10            1.8e-13               -4e-14                2.876e-10            
  -2.5                  -2.8816e-10           1.2e-13               4e-14                 2.8752e-10           
  -2.6                  -2.8858e-10           1.2e-13               -4e-14                2.8788e-10           
  -2.7                  -2.8896e-10           1.8e-13               -4e-14                2.8784e-10           
  -2.8                  -2.8916e-10           8e-14                 0                     2.882e-10            
  -2.9                  -2.8926e-10           3.2e-13               1.8e-13               2.8818e-10           
  -3                    -2.8978e-10           2.2e-13               2e-13                 2.8856e-10           
  -3.1                  -2.8974e-10           1.8e-13               3.6e-13               2.8844e-10           
  -3.2                  -2.9006e-10           1.4e-13               4.8e-13               2.8888e-10           
  -3.3                  -2.9036e-10           8e-14                 8.2e-13               2.8884e-10           
  -3.4                  -2.9084e-10           8e-14                 1.3e-12               2.8872e-10           
  -3.5                  -2.9156e-10           1.8e-13               1.7e-12               2.8908e-10           
  -3.6                  -2.922e-10            2.4e-13               2.34e-12              2.8904e-10           
END_DB

BEGIN_DB
 ICCAP_VAR vg         -0.69          
 ICCAP_VAR vb         -0             
 ICCAP_VAR vs         -0             

 #vd                    id                    ig                    ib                    is                   
  -0                    4.242e-11             2e-14                 -8e-14                -4.322e-11           
  -0.1                  -2.4028e-08           1e-13                 -1.2e-13              2.4066e-08           
  -0.2                  -2.5322e-08           1.4e-13               -8e-14                2.5348e-08           
  -0.3                  -2.543e-08            1e-13                 0                     2.5446e-08           
  -0.4                  -2.5472e-08           0                     -6e-14                2.5498e-08           
  -0.5                  -2.5506e-08           2.2e-13               -6e-14                2.552e-08            
  -0.6                  -2.5548e-08           1.4e-13               -1e-13                2.5576e-08           
  -0.7                  -2.557e-08            1.2e-13               -6e-14                2.5602e-08           
  -0.8                  -2.5608e-08           4e-14                 0                     2.562e-08            
  -0.9                  -2.5618e-08           -2e-14                0                     2.565e-08            
  -1                    -2.5636e-08           8e-14                 -4e-14                2.5674e-08           
  -1.1                  -2.567e-08            1.6e-13               -4e-14                2.5696e-08           
  -1.2                  -2.569e-08            8e-14                 -1e-13                2.571e-08            
  -1.3                  -2.5718e-08           8e-14                 -1.6e-13              2.5744e-08           
  -1.4                  -2.5744e-08           1.6e-13               0                     2.5766e-08           
  -1.5                  -2.576e-08            -2e-14                4e-14                 2.5784e-08           
  -1.6                  -2.577e-08            2.4e-13               4e-14                 2.5798e-08           
  -1.7                  -2.5792e-08           2e-13                 1e-13                 2.5816e-08           
  -1.8                  -2.581e-08            1e-13                 2e-14                 2.5832e-08           
  -1.9                  -2.5826e-08           0                     1.4e-13               2.585e-08            
  -2                    -2.5846e-08           2e-14                 4e-14                 2.5868e-08           
  -2.1                  -2.5864e-08           6e-14                 8e-14                 2.588e-08            
  -2.2                  -2.5876e-08           4e-14                 3e-13                 2.5908e-08           
  -2.3                  -2.59e-08             1e-13                 3.8e-13               2.5906e-08           
  -2.4                  -2.5916e-08           -4e-14                7.8e-13               2.5934e-08           
  -2.5                  -2.593e-08            2e-14                 1.16e-12              2.5954e-08           
  -2.6                  -2.5944e-08           -6e-14                2e-12                 2.5976e-08           
  -2.7                  -2.5974e-08           6e-14                 3.34e-12              2.5994e-08           
  -2.8                  -2.5988e-08           -4e-14                5.38e-12              2.6004e-08           
  -2.9                  -2.6008e-08           0                     8.52e-12              2.6016e-08           
  -3                    -2.6022e-08           1e-13                 1.33e-11              2.604e-08            
  -3.1                  -2.6052e-08           1.8e-13               2.046e-11             2.6046e-08           
  -3.2                  -2.6062e-08           4e-14                 3.06e-11              2.6052e-08           
  -3.3                  -2.6082e-08           -4e-14                4.522e-11             2.6062e-08           
  -3.4                  -2.6136e-08           -4e-14                6.538e-11             2.61e-08             
  -3.5                  -2.6166e-08           6e-14                 9.316e-11             2.6102e-08           
  -3.6                  -2.6216e-08           2e-14                 1.307e-10             2.6118e-08           
END_DB

BEGIN_DB
 ICCAP_VAR vg         -0.89          
 ICCAP_VAR vb         -0             
 ICCAP_VAR vs         -0             

 #vd                    id                    ig                    ib                    is                   
  -0                    1.7588e-10            4e-14                 -1.4e-13              -1.737e-10           
  -0.1                  -1.9046e-07           4e-14                 -1.4e-13              1.9066e-07           
  -0.2                  -2.482e-07            0                     -2e-14                2.4846e-07           
  -0.3                  -2.5642e-07           0                     -6e-14                2.5662e-07           
  -0.4                  -2.5774e-07           6e-14                 -2e-14                2.5796e-07           
  -0.5                  -2.5846e-07           1.8e-13               -1.4e-13              2.5868e-07           
  -0.6                  -2.5892e-07           6e-14                 0                     2.5914e-07           
  -0.7                  -2.5926e-07           -6e-14                -2e-14                2.595e-07            
  -0.8                  -2.597e-07            -2e-14                -2e-14                2.599e-07            
  -0.9                  -2.6004e-07           -2e-14                -6e-14                2.6024e-07           
  -1                    -2.603e-07            -6e-14                -4e-14                2.6054e-07           
  -1.1                  -2.6064e-07           1.4e-13               -2e-14                2.6086e-07           
  -1.2                  -2.6088e-07           0                     -6e-14                2.6118e-07           
  -1.3                  -2.6118e-07           -4e-14                -2e-14                2.6146e-07           
  -1.4                  -2.614e-07            1.4e-13               1.4e-13               2.617e-07            
  -1.5                  -2.6168e-07           -2e-14                8e-14                 2.6196e-07           
  -1.6                  -2.6188e-07           -4e-14                0                     2.621e-07            
  -1.7                  -2.621e-07            6e-14                 -1e-13                2.623e-07            
  -1.8                  -2.6232e-07           4e-14                 -1e-13                2.6248e-07           
  -1.9                  -2.6248e-07           -2e-14                2e-14                 2.6272e-07           
  -2                    -2.627e-07            -2e-14                1e-13                 2.63e-07             
  -2.1                  -2.63e-07             0                     2.8e-13               2.6322e-07           
  -2.2                  -2.632e-07            4e-14                 7.2e-13               2.6338e-07           
  -2.3                  -2.6338e-07           4e-14                 1.38e-12              2.6364e-07           
  -2.4                  -2.6362e-07           -1.2e-13              2.72e-12              2.6384e-07           
  -2.5                  -2.638e-07            2e-14                 4.98e-12              2.639e-07            
  -2.6                  -2.6398e-07           1e-13                 8.86e-12              2.6416e-07           
  -2.7                  -2.6418e-07           2e-14                 1.53e-11              2.6442e-07           
  -2.8                  -2.644e-07            4e-14                 2.562e-11             2.6456e-07           
  -2.9                  -2.646e-07            -1e-13                4.208e-11             2.6476e-07           
  -3                    -2.6478e-07           -2e-14                6.772e-11             2.649e-07            
  -3.1                  -2.6502e-07           4e-14                 1.0686e-10            2.6512e-07           
  -3.2                  -2.6526e-07           0                     1.6512e-10            2.6524e-07           
  -3.3                  -2.655e-07            4e-14                 2.5068e-10            2.6544e-07           
  -3.4                  -2.6572e-07           4e-14                 3.7348e-10            2.6564e-07           
  -3.5                  -2.6616e-07           2e-13                 5.4694e-10            2.6576e-07           
  -3.6                  -2.6656e-07           2e-14                 7.884e-10             2.66e-07             
END_DB

