! VERSION = 6.00
BEGIN_HEADER
 ICCAP_INPUTS
  vd         V  D GROUND SMU1 0.1 LIN        1    -0         -3.6       37   -0.1      
  vg         V  G GROUND SMU2 0.001 LIN        2    -1.96      -3.6       5    -0.41     
  vb         V  B GROUND SMU4 0.1 CON        3.6
  vs         V  S GROUND SMU3 0.1 CON        -0
 ICCAP_OUTPUTS
  id         I  D GROUND SMU1 B
  ig         I  G GROUND SMU2 B
  ib         I  B GROUND SMU4 B
  is         I  S GROUND SMU3 B
 ICCAP_VALUES
  MASTER_SETUP_TYPE "~dc_idvd~"
  LINVT_VALUE "|idvg|100.0n|100.0m|1.000m|5|3.600|"
  LISTVT_VALUE ""
  TYPE "-1"
  TEMP " 27.0000 "
  IS_TNOM " 1.00000 "
  MAIN.W "300.0n"
  MAIN.L "1.200u"
  MAIN.AD "102.0f"
  MAIN.AS "102.0f"
  MAIN.PD "1.280u"
  MAIN.PS "1.280u"
  MAIN.NF "1.000"
  MAIN.M "1"
  MAIN.NRD "0.000"
  MAIN.NRS "0.000"
  MAIN.LDRIFT1 "1E-06"
  MAIN.LDRIFT2 "1E-06"
  MAIN.SA "0.000"
  MAIN.SB "0.000"
  MAIN.SD "0.000"
  MAIN.SCA "0.000"
  MAIN.SCB "0.000"
  MAIN.SCC "0.000"
  MAIN.SC "0.000"
  MODULE "S565"
  PIN_D "12"
  PIN_G "9"
  PIN_S "10"
  PIN_B "11"
  PIN_E ""
  PIN_6 ""
  XY_ID ""
  FUNC "LW Scale"
  STI "SA ref"
  WPE "WPE ref"
  COMMENT ""
  DIS_MEAS ""
  TypeTCI "10"
END_HEADER

BEGIN_DB
 ICCAP_VAR vg         -1.96          
 ICCAP_VAR vb         3.6            
 ICCAP_VAR vs         -0             

 #vd                    id                    ig                    ib                    is                   
  -0                    6.938e-11             -8.6e-13              1.26e-12              -8.172e-11           
  -0.1                  -7.8116e-08           -4.8e-13              1.2e-12               7.8154e-08           
  -0.2                  -9.8912e-08           -5.2e-13              1.06e-12              9.8948e-08           
  -0.3                  -1.018e-07            -4.6e-13              9.6e-13               1.0191e-07           
  -0.4                  -1.0246e-07           -5e-13                9.4e-13               1.02598e-07          
  -0.5                  -1.0286e-07           -3.2e-13              8.6e-13               1.0297e-07           
  -0.6                  -1.0314e-07           -4.6e-13              8.4e-13               1.0327e-07           
  -0.7                  -1.034e-07            -5.6e-13              8.8e-13               1.03556e-07          
  -0.8                  -1.0364e-07           -2.6e-13              8.6e-13               1.03774e-07          
  -0.9                  -1.0384e-07           -3.4e-13              6.2e-13               1.03972e-07          
  -1                    -1.04e-07             -3.4e-13              7e-13                 1.04154e-07          
  -1.1                  -1.0418e-07           -3.2e-13              7.4e-13               1.04256e-07          
  -1.2                  -1.044e-07            -2.2e-13              7.4e-13               1.04478e-07          
  -1.3                  -1.0452e-07           -2.4e-13              8.6e-13               1.04648e-07          
  -1.4                  -1.0466e-07           -4e-14                8.6e-13               1.04786e-07          
  -1.5                  -1.0478e-07           -2.2e-13              8.2e-13               1.04956e-07          
  -1.6                  -1.0496e-07           -3.2e-13              7.6e-13               1.0507e-07           
  -1.7                  -1.0512e-07           -2.8e-13              6.6e-13               1.05222e-07          
  -1.8                  -1.0522e-07           -1.8e-13              6.2e-13               1.05344e-07          
  -1.9                  -1.0536e-07           -2.4e-13              5.8e-13               1.05442e-07          
  -2                    -1.0546e-07           -2.2e-13              6.2e-13               1.05584e-07          
  -2.1                  -1.0556e-07           -2.8e-13              5.6e-13               1.05704e-07          
  -2.2                  -1.0572e-07           -1.6e-13              6.4e-13               1.05836e-07          
  -2.3                  -1.0576e-07           -1.8e-13              5.8e-13               1.05878e-07          
  -2.4                  -1.0596e-07           -2.2e-13              5.2e-13               1.06072e-07          
  -2.5                  -1.0606e-07           -2.8e-13              6.4e-13               1.0616e-07           
  -2.6                  -1.0616e-07           -2.2e-13              8.8e-13               1.06266e-07          
  -2.7                  -1.0626e-07           -2e-13                1.24e-12              1.06376e-07          
  -2.8                  -1.064e-07            -1.6e-13              1.66e-12              1.06528e-07          
  -2.9                  -1.0648e-07           -1.2e-13              2.78e-12              1.06604e-07          
  -3                    -1.066e-07            -1.8e-13              4.58e-12              1.06722e-07          
  -3.1                  -1.0672e-07           -8e-14                7.6e-12               1.06856e-07          
  -3.2                  -1.0686e-07           -1.4e-13              1.276e-11             1.06946e-07          
  -3.3                  -1.0692e-07           -2.4e-13              2.126e-11             1.06986e-07          
  -3.4                  -1.0704e-07           -8e-14                3.502e-11             1.07104e-07          
  -3.5                  -1.071e-07            -1.8e-13              5.65e-11              1.07214e-07          
  -3.6                  -1.0724e-07           -1e-13                8.98e-11              1.0731e-07           
END_DB

BEGIN_DB
 ICCAP_VAR vg         -2.37          
 ICCAP_VAR vb         3.6            
 ICCAP_VAR vs         -0             

 #vd                    id                    ig                    ib                    is                   
  -0                    2.8124e-10            -2.8e-13              2e-13                 -2.998e-10           
  -0.1                  -4.1694e-07           -3.2e-13              2e-13                 4.1712e-07           
  -0.2                  -7.297e-07            -3.2e-13              2.6e-13               7.2994e-07           
  -0.3                  -9.4306e-07           -2.6e-13              3e-13                 9.433e-07            
  -0.4                  -1.0689e-06           -3.4e-13              3e-13                 1.06934e-06          
  -0.5                  -1.12952e-06          -3e-13                3.8e-13               1.12994e-06          
  -0.6                  -1.1522e-06           -2.2e-13              4e-13                 1.1558e-06           
  -0.7                  -1.1622e-06           -1.6e-13              2.6e-13               1.1658e-06           
  -0.8                  -1.1678e-06           -2.8e-13              2.8e-13               1.1716e-06           
  -0.9                  -1.172e-06            -2e-13                2.8e-13               1.1756e-06           
  -1                    -1.175e-06            -8e-14                3.6e-13               1.1786e-06           
  -1.1                  -1.1774e-06           -8e-14                3.4e-13               1.1814e-06           
  -1.2                  -1.18e-06             -8e-14                2.6e-13               1.1838e-06           
  -1.3                  -1.1824e-06           -6e-14                3.2e-13               1.1862e-06           
  -1.4                  -1.1846e-06           -8e-14                4e-13                 1.1882e-06           
  -1.5                  -1.1864e-06           -2.2e-13              3.4e-13               1.1902e-06           
  -1.6                  -1.1882e-06           -1.8e-13              3e-13                 1.1916e-06           
  -1.7                  -1.19e-06             -2.2e-13              3.2e-13               1.1934e-06           
  -1.8                  -1.1916e-06           -3e-13                2.6e-13               1.1952e-06           
  -1.9                  -1.1932e-06           -2e-13                1.6e-13               1.1964e-06           
  -2                    -1.1944e-06           -2.2e-13              2.6e-13               1.1978e-06           
  -2.1                  -1.1952e-06           -3e-13                3.6e-13               1.1994e-06           
  -2.2                  -1.1972e-06           -2.8e-13              2.2e-13               1.2006e-06           
  -2.3                  -1.1984e-06           -1.4e-13              2.2e-13               1.2022e-06           
  -2.4                  -1.1998e-06           -2e-13                3.8e-13               1.2036e-06           
  -2.5                  -1.2014e-06           -3e-13                4e-13                 1.2054e-06           
  -2.6                  -1.2028e-06           -1.4e-13              5.6e-13               1.2066e-06           
  -2.7                  -1.2042e-06           -1e-13                8.6e-13               1.2076e-06           
  -2.8                  -1.2054e-06           -1.6e-13              1.38e-12              1.2092e-06           
  -2.9                  -1.2068e-06           -1e-13                2.62e-12              1.2104e-06           
  -3                    -1.208e-06            -2.4e-13              5.28e-12              1.2118e-06           
  -3.1                  -1.2088e-06           -2.6e-13              1.018e-11             1.213e-06            
  -3.2                  -1.2104e-06           -6e-14                1.902e-11             1.2142e-06           
  -3.3                  -1.2116e-06           -2e-13                3.496e-11             1.2154e-06           
  -3.4                  -1.2124e-06           -2e-14                6.29e-11              1.2166e-06           
  -3.5                  -1.214e-06            2e-14                 1.101e-10             1.2178e-06           
  -3.6                  -1.2148e-06           -2e-14                1.8776e-10            1.2186e-06           
END_DB

BEGIN_DB
 ICCAP_VAR vg         -2.78          
 ICCAP_VAR vb         3.6            
 ICCAP_VAR vs         -0             

 #vd                    id                    ig                    ib                    is                   
  -0                    5.071e-10             -2.2e-13              -2e-14                -5.0628e-10          
  -0.1                  -7.585e-07            -2.2e-13              1.2e-13               7.5878e-07           
  -0.2                  -1.4144e-06           -2.2e-13              0                     1.4184e-06           
  -0.3                  -1.969e-06            -3.2e-13              1.6e-13               1.973e-06            
  -0.4                  -2.4224e-06           -2.4e-13              2.8e-13               2.426e-06            
  -0.5                  -2.7788e-06           -2.6e-13              2.2e-13               2.7824e-06           
  -0.6                  -3.0422e-06           -2.2e-13              8e-14                 3.0472e-06           
  -0.7                  -3.2226e-06           -1.6e-13              1e-13                 3.2266e-06           
  -0.8                  -3.3344e-06           -1.2e-13              2.2e-13               3.3384e-06           
  -0.9                  -3.3976e-06           -1.8e-13              1.8e-13               3.4018e-06           
  -1                    -3.4326e-06           -1.8e-13              1.8e-13               3.436e-06            
  -1.1                  -3.4528e-06           -1.4e-13              6e-14                 3.4558e-06           
  -1.2                  -3.4654e-06           -1.2e-13              2.2e-13               3.4692e-06           
  -1.3                  -3.475e-06            -2e-13                2.2e-13               3.4798e-06           
  -1.4                  -3.4836e-06           -1e-13                1.6e-13               3.4876e-06           
  -1.5                  -3.4902e-06           -2.2e-13              3e-13                 3.4942e-06           
  -1.6                  -3.4968e-06           -2.4e-13              1.8e-13               3.5e-06              
  -1.7                  -3.5022e-06           -1.4e-13              1.4e-13               3.506e-06            
  -1.8                  -3.5072e-06           -2.8e-13              2.2e-13               3.5108e-06           
  -1.9                  -3.512e-06            -2.6e-13              2.8e-13               3.516e-06            
  -2                    -3.5166e-06           -8e-14                2e-13                 3.5206e-06           
  -2.1                  -3.521e-06            -8e-14                4e-14                 3.525e-06            
  -2.2                  -3.5254e-06           -1.4e-13              2.4e-13               3.5292e-06           
  -2.3                  -3.529e-06            -1e-13                2.6e-13               3.5338e-06           
  -2.4                  -3.5334e-06           -1.6e-13              2.4e-13               3.5372e-06           
  -2.5                  -3.5368e-06           -1.6e-13              2.4e-13               3.5412e-06           
  -2.6                  -3.5412e-06           -1.6e-13              3.4e-13               3.5446e-06           
  -2.7                  -3.5446e-06           -2.2e-13              2.4e-13               3.5484e-06           
  -2.8                  -3.5486e-06           -8e-14                3.6e-13               3.5524e-06           
  -2.9                  -3.5518e-06           -1.8e-13              7.2e-13               3.5556e-06           
  -3                    -3.5562e-06           -8e-14                1.16e-12              3.56e-06             
  -3.1                  -3.5596e-06           -8e-14                2.64e-12              3.5634e-06           
  -3.2                  -3.5626e-06           0                     5.72e-12              3.566e-06            
  -3.3                  -3.5656e-06           -6e-14                1.184e-11             3.5694e-06           
  -3.4                  -3.5692e-06           -2.2e-13              2.34e-11              3.5726e-06           
  -3.5                  -3.572e-06            -1e-13                4.488e-11             3.5758e-06           
  -3.6                  -3.5752e-06           -1e-13                8.384e-11             3.5782e-06           
END_DB

BEGIN_DB
 ICCAP_VAR vg         -3.19          
 ICCAP_VAR vb         3.6            
 ICCAP_VAR vs         -0             

 #vd                    id                    ig                    ib                    is                   
  -0                    6.8328e-10            -3.2e-13              6e-14                 -6.669e-10           
  -0.1                  -1.07424e-06          -2.4e-13              1.8e-13               1.07514e-06          
  -0.2                  -2.0522e-06           -3.2e-13              1.4e-13               2.0558e-06           
  -0.3                  -2.9318e-06           -1.8e-13              2e-14                 2.9366e-06           
  -0.4                  -3.714e-06            0                     4e-14                 3.7164e-06           
  -0.5                  -4.3972e-06           -4e-14                2e-14                 4.4026e-06           
  -0.6                  -4.9862e-06           -2.2e-13              1.8e-13               4.9908e-06           
  -0.7                  -5.4772e-06           -2.4e-13              1.2e-13               5.4842e-06           
  -0.8                  -5.8814e-06           -1.4e-13              1.6e-13               5.8866e-06           
  -0.9                  -6.1952e-06           -1.4e-13              1.4e-13               6.1974e-06           
  -1                    -6.428e-06            -1.4e-13              1.8e-13               6.4318e-06           
  -1.1                  -6.5924e-06           -1.2e-13              1.2e-13               6.5966e-06           
  -1.2                  -6.7034e-06           -1.6e-13              2.8e-13               6.7034e-06           
  -1.3                  -6.7732e-06           -3.2e-13              2.2e-13               6.7768e-06           
  -1.4                  -6.8184e-06           -8e-14                8e-14                 6.822e-06            
  -1.5                  -6.8514e-06           -1.8e-13              4e-14                 6.8526e-06           
  -1.6                  -6.871e-06            -2.2e-13              1.4e-13               6.8746e-06           
  -1.7                  -6.8884e-06           -2.2e-13              2.4e-13               6.8926e-06           
  -1.8                  -6.903e-06            -1.6e-13              1.8e-13               6.9048e-06           
  -1.9                  -6.9164e-06           -3.4e-13              1e-13                 6.9192e-06           
  -2                    -6.9286e-06           -2e-13                2e-13                 6.9254e-06           
  -2.1                  -6.9316e-06           -2e-13                2.2e-13               6.9402e-06           
  -2.2                  -6.953e-06            -1e-13                4e-14                 6.9608e-06           
  -2.3                  -6.9662e-06           -8e-14                2.4e-13               6.966e-06            
  -2.4                  -6.9706e-06           -8e-14                2e-13                 6.9782e-06           
  -2.5                  -6.983e-06            -2e-13                2e-13                 6.9804e-06           
  -2.6                  -6.9898e-06           -1.6e-13              6e-14                 6.9942e-06           
  -2.7                  -6.9958e-06           -1.6e-13              1.8e-13               6.999e-06            
  -2.8                  -7.0022e-06           -2.4e-13              2.6e-13               7.0058e-06           
  -2.9                  -7.0102e-06           -1.4e-13              2.8e-13               7.0162e-06           
  -3                    -7.0206e-06           -1.4e-13              2.8e-13               7.0244e-06           
  -3.1                  -7.0268e-06           -1.4e-13              4.8e-13               7.0314e-06           
  -3.2                  -7.0326e-06           -1.4e-13              1.02e-12              7.0384e-06           
  -3.3                  -7.0412e-06           6e-14                 2e-12                 7.0452e-06           
  -3.4                  -7.0486e-06           0                     4.36e-12              7.052e-06            
  -3.5                  -7.0522e-06           -6e-14                9.34e-12              7.0584e-06           
  -3.6                  -7.0576e-06           -1.2e-13              1.952e-11             7.0638e-06           
END_DB

BEGIN_DB
 ICCAP_VAR vg         -3.6           
 ICCAP_VAR vb         3.6            
 ICCAP_VAR vs         -0             

 #vd                    id                    ig                    ib                    is                   
  -0                    8.68e-10              -3.8e-13              8e-14                 -8.7472e-10          
  -0.1                  -1.36e-06             -1.6e-13              6e-14                 1.364e-06            
  -0.2                  -2.636e-06            -2e-13                4e-14                 2.6398e-06           
  -0.3                  -3.8168e-06           -2.4e-13              2.8e-13               3.8214e-06           
  -0.4                  -4.906e-06            -6e-14                1.6e-13               4.9096e-06           
  -0.5                  -5.9024e-06           -2e-13                8e-14                 5.907e-06            
  -0.6                  -6.8032e-06           -2.8e-13              4e-14                 6.8076e-06           
  -0.7                  -7.6068e-06           -1e-13                1.4e-13               7.603e-06            
  -0.8                  -8.312e-06            -2.6e-13              2e-13                 8.3196e-06           
