! VERSION = 6.00
BEGIN_HEADER
 ICCAP_INPUTS
  vd         V  D GROUND SMU1 0.1 LIN        1    -0         -3.6       37   -0.1      
  vg         V  G GROUND SMU2 0.001 LIN        2    -0.8       -3.6       5    -0.7      
  vb         V  B GROUND SMU4 0.1 CON        -0
  vs         V  S GROUND SMU3 0.1 CON        -0
 ICCAP_OUTPUTS
  id         I  D GROUND SMU1 B
  ig         I  G GROUND SMU2 B
  ib         I  B GROUND SMU4 B
  is         I  S GROUND SMU3 B
 ICCAP_VALUES
  MASTER_SETUP_TYPE "~dc_idvd~"
  LINVT_VALUE "|idvg|100.0n|100.0m|1.000m|5|3.600|"
  LISTVT_VALUE ""
  TYPE "-1"
  TEMP " 27.0000 "
  IS_TNOM " 1.00000 "
  MAIN.W "10.00u"
  MAIN.L "3.000u"
  MAIN.AD "3.400p"
  MAIN.AS "3.400p"
  MAIN.PD "20.68u"
  MAIN.PS "20.68u"
  MAIN.NF "1.000"
  MAIN.M "1"
  MAIN.NRD "0.000"
  MAIN.NRS "0.000"
  MAIN.LDRIFT1 "1E-06"
  MAIN.LDRIFT2 "1E-06"
  MAIN.SA "0.000"
  MAIN.SB "0.000"
  MAIN.SD "0.000"
  MAIN.SCA "0.000"
  MAIN.SCB "0.000"
  MAIN.SCC "0.000"
  MAIN.SC "0.000"
  MODULE "S562"
  PIN_D "20"
  PIN_G "1"
  PIN_S "2"
  PIN_B "19"
  PIN_E ""
  PIN_6 ""
  XY_ID ""
  FUNC "L Scale"
  STI "SA ref"
  WPE "WPE ref"
  COMMENT ""
  DIS_MEAS ""
  TypeTCI "10"
END_HEADER

BEGIN_DB
 ICCAP_VAR vg         -0.8           
 ICCAP_VAR vb         -0             
 ICCAP_VAR vs         -0             

 #vd                    id                    ig                    ib                    is                   
  -0                    9.298e-10             0                     -9.2e-13              -1.1064e-09          
  -0.1                  -1.09718e-06          0                     -8.2e-13              1.09758e-06          
  -0.2                  -1.2486e-06           -4e-14                -8.4e-13              1.2522e-06           
  -0.3                  -1.2568e-06           1e-13                 -7.8e-13              1.2606e-06           
  -0.4                  -1.2586e-06           4e-14                 -8.6e-13              1.2626e-06           
  -0.5                  -1.2598e-06           4e-14                 -7e-13                1.2638e-06           
  -0.6                  -1.261e-06            0                     -5.6e-13              1.2648e-06           
  -0.7                  -1.262e-06            0                     -7.4e-13              1.2656e-06           
  -0.8                  -1.2626e-06           2e-14                 -6.6e-13              1.2664e-06           
  -0.9                  -1.263e-06            2e-14                 -5.2e-13              1.267e-06            
  -1                    -1.2638e-06           -6e-14                -6.8e-13              1.2676e-06           
  -1.1                  -1.2646e-06           -4e-14                -6.4e-13              1.2686e-06           
  -1.2                  -1.2652e-06           -4e-14                -5.4e-13              1.269e-06            
  -1.3                  -1.2658e-06           -8e-14                -4.2e-13              1.2696e-06           
  -1.4                  -1.2662e-06           -2e-14                -5e-13                1.2702e-06           
  -1.5                  -1.2668e-06           -2e-14                -6e-13                1.2706e-06           
  -1.6                  -1.2672e-06           0                     -5e-13                1.271e-06            
  -1.7                  -1.2676e-06           0                     -3.6e-13              1.2714e-06           
  -1.8                  -1.268e-06            -1.4e-13              -2.4e-13              1.272e-06            
  -1.9                  -1.2684e-06           -1e-13                0                     1.2722e-06           
  -2                    -1.2688e-06           -6e-14                7.6e-13               1.2726e-06           
  -2.1                  -1.2692e-06           -6e-14                2.5e-12               1.2728e-06           
  -2.2                  -1.2694e-06           -6e-14                5.6e-12               1.2732e-06           
  -2.3                  -1.2698e-06           -8e-14                1.108e-11             1.2736e-06           
  -2.4                  -1.2702e-06           -1e-13                2.118e-11             1.2742e-06           
  -2.5                  -1.2706e-06           -1.6e-13              3.864e-11             1.2744e-06           
  -2.6                  -1.2712e-06           -1.2e-13              6.748e-11             1.2748e-06           
  -2.7                  -1.2716e-06           -6e-14                1.1488e-10            1.2752e-06           
  -2.8                  -1.272e-06            -1.6e-13              1.9018e-10            1.2758e-06           
  -2.9                  -1.2726e-06           -1e-13                3.0726e-10            1.276e-06            
  -3                    -1.273e-06            -1.6e-13              4.8632e-10            1.2764e-06           
  -3.1                  -1.2736e-06           -8e-14                7.5362e-10            1.2768e-06           
  -3.2                  -1.2746e-06           -4e-14                1.14684e-09           1.2774e-06           
  -3.3                  -1.2764e-06           -1e-13                1.7142e-09            1.2784e-06           
  -3.4                  -1.2776e-06           -4e-14                2.5122e-09            1.2786e-06           
  -3.5                  -1.2788e-06           -2e-14                3.6236e-09            1.279e-06            
  -3.6                  -1.2806e-06           -1e-13                5.1404e-09            1.2792e-06           
END_DB

BEGIN_DB
 ICCAP_VAR vg         -1.5           
 ICCAP_VAR vb         -0             
 ICCAP_VAR vs         -0             

 #vd                    id                    ig                    ib                    is                   
  -0                    2.9756e-09            -2.2e-13              -2.2e-13              -3.9802e-09          
  -0.1                  -9.9506e-06           -2e-13                -3e-13                9.954e-06            
  -0.2                  -1.798e-05            -1.8e-13              -2.8e-13              1.8e-05              
  -0.3                  -2.4104e-05           -1.2e-13              -3.2e-13              2.4126e-05           
  -0.4                  -2.835e-05            -2.4e-13              -2.2e-13              2.8372e-05           
  -0.5                  -3.0852e-05           -2e-13                -2e-13                3.0874e-05           
  -0.6                  -3.1928e-05           -2.2e-13              -2.8e-13              3.1948e-05           
  -0.7                  -3.2236e-05           -2.2e-13              -1.8e-13              3.2258e-05           
  -0.8                  -3.2328e-05           -3e-13                -1.2e-13              3.235e-05            
  -0.9                  -3.2376e-05           -2.4e-13              -2.8e-13              3.2394e-05           
  -1                    -3.2408e-05           -2.6e-13              -3.8e-13              3.2426e-05           
  -1.1                  -3.243e-05            -1.2e-13              -2.6e-13              3.245e-05            
  -1.2                  -3.2452e-05           -2e-13                -1.2e-13              3.2472e-05           
  -1.3                  -3.2472e-05           -1e-13                -2e-13                3.2492e-05           
  -1.4                  -3.249e-05            -1.8e-13              -2.4e-13              3.251e-05            
  -1.5                  -3.2506e-05           -2e-13                -1.2e-13              3.2526e-05           
  -1.6                  -3.2518e-05           -1.2e-13              -1.8e-13              3.2538e-05           
  -1.7                  -3.2532e-05           -1.6e-13              -1.6e-13              3.2552e-05           
  -1.8                  -3.2542e-05           -1.2e-13              -2.2e-13              3.2566e-05           
  -1.9                  -3.2554e-05           -2.2e-13              -2.6e-13              3.2576e-05           
  -2                    -3.2566e-05           -8e-14                -2e-14                3.2586e-05           
  -2.1                  -3.2576e-05           -2e-13                8e-14                 3.2598e-05           
  -2.2                  -3.259e-05            -1.6e-13              7.4e-13               3.2608e-05           
  -2.3                  -3.26e-05             -8e-14                2.9e-12               3.2618e-05           
  -2.4                  -3.2608e-05           -1.8e-13              8.24e-12              3.263e-05            
  -2.5                  -3.2618e-05           -1.6e-13              2.014e-11             3.2638e-05           
  -2.6                  -3.2628e-05           -2.2e-13              4.612e-11             3.265e-05            
  -2.7                  -3.2638e-05           -1.8e-13              9.824e-11             3.2658e-05           
  -2.8                  -3.2648e-05           -1.8e-13              1.9756e-10            3.2668e-05           
  -2.9                  -3.2658e-05           -2.4e-13              3.7912e-10            3.2676e-05           
  -3                    -3.2666e-05           -2.4e-13              6.9996e-10            3.2684e-05           
  -3.1                  -3.2672e-05           -1.2e-13              1.2488e-09            3.2692e-05           
  -3.2                  -3.2682e-05           -1e-13                2.1642e-09            3.27e-05             
  -3.3                  -3.2694e-05           -2.2e-13              3.6524e-09            3.271e-05            
  -3.4                  -3.2706e-05           -1.2e-13              6.0106e-09            3.2718e-05           
  -3.5                  -3.2718e-05           -3.2e-13              9.6832e-09            3.273e-05            
  -3.6                  -3.2736e-05           -2.4e-13              1.5272e-08            3.274e-05            
END_DB

BEGIN_DB
 ICCAP_VAR vg         -2.2           
 ICCAP_VAR vb         -0             
 ICCAP_VAR vs         -0             

 #vd                    id                    ig                    ib                    is                   
  -0                    1.038e-08             -3.2e-13              -4e-14                -1.0316e-08          
  -0.1                  -1.733e-05            -3e-13                -1.4e-13              1.735e-05            
  -0.2                  -3.3028e-05           -3.2e-13              -6e-14                3.3048e-05           
  -0.3                  -4.7044e-05           -3.2e-13              -6e-14                4.7066e-05           
  -0.4                  -5.9364e-05           -2.4e-13              -1.6e-13              5.9386e-05           
  -0.5                  -7.0048e-05           -2.8e-13              -8e-14                7.0068e-05           
  -0.6                  -7.9072e-05           -3.2e-13              0                     7.9092e-05           
  -0.7                  -8.6432e-05           -2.2e-13              -1e-13                8.6452e-05           
  -0.8                  -9.2176e-05           -2.4e-13              -1.4e-13              9.2198e-05           
  -0.9                  -9.6334e-05           -2.4e-13              -1.4e-13              9.6356e-05           
  -1                    -9.9018e-05           -2.2e-13              -1.8e-13              9.9044e-05           
  -1.1                  -0.00010049           -2.8e-13              -1.4e-13              0.000100516          
  -1.2                  -0.000101164          -2.8e-13              -2e-14                0.000101184          
  -1.3                  -0.000101462          -2.2e-13              -8e-14                0.000101486          
  -1.4                  -0.000101634          -2.6e-13              -2.2e-13              0.000101652          
  -1.5                  -0.000101742          -3.4e-13              -1.8e-13              0.000101768          
  -1.6                  -0.000101828          -3.4e-13              -2.4e-13              0.00010185           
  -1.7                  -0.000101902          -2.8e-13              -1e-13                0.000101918          
  -1.8                  -0.000101958          -3.2e-13              -1e-13                0.00010198           
  -1.9                  -0.00010201           -2.2e-13              -2e-13                0.000102032          
  -2                    -0.000102058          -1.6e-13              -2e-13                0.000102082          
  -2.1                  -0.000102104          -2.4e-13              -1e-13                0.000102122          
  -2.2                  -0.000102144          -2e-13                -1.6e-13              0.000102166          
  -2.3                  -0.000102188          -3e-13                -2.8e-13              0.000102208          
  -2.4                  -0.00010222           -2.6e-13              -8e-14                0.000102238          
  -2.5                  -0.000102252          -3.4e-13              1.4e-13               0.00010227           
  -2.6                  -0.000102284          -4.4e-13              3.6e-13               0.000102308          
  -2.7                  -0.000102318          -2.8e-13              1.6e-12               0.000102342          
  -2.8                  -0.000102354          -2.4e-13              5.34e-12              0.000102376          
  -2.9                  -0.000102382          -3e-13                1.466e-11             0.000102408          
  -3                    -0.000102414          -2.6e-13              3.706e-11             0.000102436          
  -3.1                  -0.000102444          -2.2e-13              8.7e-11               0.00010246           
  -3.2                  -0.000102472          -2e-13                1.915e-10             0.000102492          
  -3.3                  -0.000102494          -2.4e-13              3.9756e-10            0.000102516          
  -3.4                  -0.000102522          -8e-14                7.8478e-10            0.000102538          
  -3.5                  -0.000102544          -8e-14                1.4878e-09            0.00010272           
  -3.6                  -0.000102572          -2e-13                2.7194e-09            0.00010276           
END_DB

BEGIN_DB
 ICCAP_VAR vg         -2.9           
 ICCAP_VAR vb         -0             
 ICCAP_VAR vs         -0             

 #vd                    id                    ig                    ib                    is                   
  -0                    1.462e-08             -4.2e-13              -6e-14                -1.324e-08           
  -0.1                  -2.317e-05            -2.6e-13              -2e-13                2.319e-05            
  -0.2                  -4.4936e-05           -3.4e-13              0                     4.4956e-05           
  -0.3                  -6.5232e-05           -3.8e-13              -6e-14                6.5252e-05           
  -0.4                  -8.4028e-05           -3.4e-13              -1.8e-13              8.4052e-05           
  -0.5                  -0.000101414          -2.2e-13              -8e-14                0.000101434          
  -0.6                  -0.00011716           -3e-13                -4e-14                0.00011754           
  -0.7                  -0.0001316            -2.8e-13              -6e-14                0.00013198           
  -0.8                  -0.00014464           -2.8e-13              -1.8e-13              0.000145             
  -0.9                  -0.00015618           -2.8e-13              -8e-14                0.00015656           
  -1                    -0.00016626           -2.8e-13              2e-14                 0.00016664           
  -1.1                  -0.0001749            -3e-13                -1.8e-13              0.00017528           
  -1.2                  -0.0001821            -2.6e-13              -1.6e-13              0.00018248           
  -1.3                  -0.00018788           -1.8e-13              -6e-14                0.00018824           
  -1.4                  -0.00019226           -2.6e-13              4e-14                 0.00019262           
  -1.5                  -0.00019536           -3e-13                -6e-14                0.00019572           
  -1.6                  -0.00019734           -2.4e-13              -1.8e-13              0.00019772           
  -1.7                  -0.0001985            -2.2e-13              -1.2e-13              0.00019888           
  -1.8                  -0.00019914           -3e-13                -1.2e-13              0.00019952           
  -1.9                  -0.00019952           -1.6e-13              -4e-14                0.00019988           
  -2                    -0.00019976           -2.8e-13              -8e-14                0.00020014           
  -2.1                  -0.00019996           -2.4e-13              -4e-14                0.00020034           
  -2.2                  -0.0002001            -3e-13                -1.2e-13              0.00020048           
  -2.3                  -0.00020024           -2.2e-13              -1.8e-13              0.0002006            
  -2.4                  -0.00020034           -1.4e-13              -8e-14                0.00020072           
  -2.5                  -0.00020044           -3.2e-13              0                     0.0002008            
  -2.6                  -0.00020054           -2.4e-13              8e-14                 0.0002009            
  -2.7                  -0.00020062           -2.4e-13              -1.4e-13              0.00020098           
  -2.8                  -0.00020068           -3e-13                -2e-14                0.00020106           
  -2.9                  -0.00020076           -1.8e-13              -4e-14                0.00020114           
  -3                    -0.00020084           -1.8e-13              -1.2e-13              0.0002012            
  -3.1                  -0.0002009            -1.6e-13              3.6e-13               0.00020126           
  -3.2                  -0.00020096           -2.2e-13              2.02e-12              0.00020132           
  -3.3                  -0.00020102           -2.2e-13              5.78e-12              0.00020138           
  -3.4                  -0.00020108           -3.4e-13              1.632e-11             0.00020144           
  -3.5                  -0.00020112           -2.8e-13              4.26e-11              0.0002015            
  -3.6                  -0.00020118           -1.6e-13              1.028e-10             0.00020154           
END_DB

BEGIN_DB
 ICCAP_VAR vg         -3.6           
 ICCAP_VAR vb         -0             
 ICCAP_VAR vs         -0             

 #vd                    id                    ig                    ib                    is                   
  -0                    1.6896e-08            -3.4e-13              0                     -1.5948e-08          
  -0.1                  -2.781e-05            -3.4e-13              -1.2e-13              2.783e-05            
  -0.2                  -5.4402e-05           -3e-13                -6e-14                5.4422e-05           
  -0.3                  -7.9702e-05           -3e-13                -2e-14                7.9722e-05           
  -0.4                  -0.000103666          -3.8e-13              -1e-13                0.000103686          
  -0.5                  -0.00012622           -2.8e-13              -6e-14                0.0001266            
  -0.6                  -0.0001477            -2.8e-13              -6e-14                0.00014806           
  -0.7                  -0.00016784           -3.2e-13              -2e-14                0.00016822           
  -0.8                  -0.00018674           -3.2e-13              -1.8e-13              0.00018712           
