! VERSION = 6.00
BEGIN_HEADER
 ICCAP_INPUTS
  vg         V  G GROUND SMU2 0.001 LIN        1    0.5        -3.6       83   -0.05     
  vb         V  B GROUND SMU4 0.1 LIN        2    0          3.6        5    0.9       
  vd         V  D GROUND SMU1 0.1 LIN        3    -0.1       -3.3       3    -1.6      
  vs         V  S GROUND SMU3 0.1 CON        -0
 ICCAP_OUTPUTS
  id         I  D GROUND SMU1 B
  ig         I  G GROUND SMU2 B
  ib         I  B GROUND SMU4 B
  is         I  S GROUND SMU3 B
 ICCAP_VALUES
  MASTER_SETUP_TYPE "~dc_idvg~"
  LINVT_VALUE ""
  LISTVT_VALUE ""
  TYPE "-1"
  TEMP "-40.0000 "
  IS_TNOM " 0.00000 "
  MAIN.W "10.00u"
  MAIN.L "10.00u"
  MAIN.AD "3.400p"
  MAIN.AS "3.400p"
  MAIN.PD "20.68u"
  MAIN.PS "20.68u"
  MAIN.NF "1.000"
  MAIN.M "1"
  MAIN.NRD "0.000"
  MAIN.NRS "0.000"
  MAIN.LDRIFT1 "1E-06"
  MAIN.LDRIFT2 "1E-06"
  MAIN.SA "0.000"
  MAIN.SB "0.000"
  MAIN.SD "0.000"
  MAIN.SCA "0.000"
  MAIN.SCB "0.000"
  MAIN.SCC "0.000"
  MAIN.SC "0.000"
  MODULE "S562"
  PIN_D "16"
  PIN_G "5"
  PIN_S "6"
  PIN_B "15"
  PIN_E ""
  PIN_6 ""
  XY_ID ""
  FUNC "Large"
  STI "SA ref"
  WPE "WPE ref"
  COMMENT ""
  DIS_MEAS ""
  TypeTCI "10"
END_HEADER

BEGIN_DB
 ICCAP_VAR vb         0              
 ICCAP_VAR vd         -0.1           
 ICCAP_VAR vs         -0             

 #vg                    id                    ig                    ib                    is                   
  0.5                   6e-14                 5.4e-13               -2e-13                8e-14                
  0.45                  1.2e-13               -6e-14                -2e-13                1.4e-13              
  0.4                   1e-13                 0                     -1e-13                3e-13                
  0.35                  2e-14                 2.6e-13               -2e-13                1.4e-13              
  0.3                   1e-13                 -2e-14                -2.2e-13              3.6e-13              
  0.25                  -2e-14                3e-13                 -1.8e-13              1.8e-13              
  0.2                   1.4e-13               -3.8e-13              -1.6e-13              1.2e-13              
  0.15                  1.6e-13               -1.2e-13              -2.6e-13              2.4e-13              
  0.1                   1e-13                 -1.4e-13              -6e-14                0                    
  0.05                  4e-14                 -4e-14                -2.4e-13              2.6e-13              
  0                     4e-14                 -2e-13                -1e-13                6e-14                
  -0.05                 8e-14                 -4.8e-13              -8e-14                4e-14                
  -0.1                  1.8e-13               -2.2e-13              -8e-14                1e-13                
  -0.15                 2e-14                 6e-14                 -2.4e-13              1.2e-13              
  -0.2                  1.2e-13               -2.2e-13              -1.2e-13              1.8e-13              
  -0.25                 6e-14                 -2.8e-13              -1.2e-13              1.2e-13              
  -0.3                  1.2e-13               -3.4e-13              -1.2e-13              1e-13                
  -0.35                 -1.4e-13              -2.6e-13              -2e-14                3.8e-13              
  -0.4                  -1.5e-12              -2e-13                -2.4e-13              1.86e-12             
  -0.45                 -8.42e-12             -3e-13                -1e-13                8.68e-12             
  -0.5                  -4.424e-11            -3.6e-13              -2.4e-13              4.448e-11            
  -0.55                 -2.3228e-10           -4.6e-13              -2.2e-13              2.3242e-10           
  -0.6                  -1.1972e-09           -3.8e-13              -1.4e-13              1.198e-09            
  -0.65                 -5.7806e-09           -2e-13                -1.4e-13              5.7812e-09           
  -0.7                  -2.3482e-08           -5.8e-13              -2e-13                2.3506e-08           
  -0.75                 -7.3646e-08           -2.6e-13              -1.4e-13              7.3676e-08           
  -0.8                  -1.7602e-07           -2.8e-13              -2.8e-13              1.7618e-07           
  -0.85                 -3.3872e-07           -4.6e-13              -1e-13                3.3892e-07           
  -0.9                  -5.5042e-07           -8.8e-13              -1.6e-13              5.5064e-07           
  -0.95                 -7.9448e-07           -5.4e-13              -1.8e-13              7.9474e-07           
  -1                    -1.0542e-06           -2.4e-13              -1.2e-13              1.05444e-06          
  -1.05                 -1.3206e-06           -5e-13                -2e-13                1.3242e-06           
  -1.1                  -1.5896e-06           -4.4e-13              -1.8e-13              1.5932e-06           
  -1.15                 -1.8584e-06           -6.2e-13              -1.8e-13              1.862e-06            
  -1.2                  -2.1236e-06           -5e-13                -2.6e-13              2.1272e-06           
  -1.25                 -2.3862e-06           -2e-13                -1.2e-13              2.3898e-06           
  -1.3                  -2.6448e-06           -5.6e-13              -1.6e-13              2.6484e-06           
  -1.35                 -2.8978e-06           -5.2e-13              -1.6e-13              2.9014e-06           
  -1.4                  -3.1472e-06           -4.8e-13              -2.8e-13              3.1506e-06           
  -1.45                 -3.3908e-06           -3.2e-13              -1.6e-13              3.3944e-06           
  -1.5                  -3.6306e-06           -4.2e-13              -1.2e-13              3.6344e-06           
  -1.55                 -3.865e-06            -2.6e-13              -2.2e-13              3.8686e-06           
  -1.6                  -4.0958e-06           -4.6e-13              -1e-13                4.0994e-06           
  -1.65                 -4.3212e-06           -4.6e-13              -1.4e-13              4.3246e-06           
  -1.7                  -4.542e-06            -3.4e-13              -1e-13                4.5456e-06           
  -1.75                 -4.7592e-06           -3.2e-13              -1.2e-13              4.7626e-06           
  -1.8                  -4.971e-06            -7e-13                -6e-14                4.9746e-06           
  -1.85                 -5.1786e-06           -4.6e-13              -1.6e-13              5.1824e-06           
  -1.9                  -5.3824e-06           -5e-13                -4e-14                5.3858e-06           
  -1.95                 -5.5822e-06           -4e-13                -1.8e-13              5.5858e-06           
  -2                    -5.7776e-06           -5.4e-13              -1.4e-13              5.781e-06            
  -2.05                 -5.9688e-06           -7e-13                -2e-13                5.9724e-06           
  -2.1                  -6.157e-06            -3.8e-13              0                     6.1606e-06           
  -2.15                 -6.3406e-06           -6.2e-13              -1.4e-13              6.3442e-06           
  -2.2                  -6.5206e-06           -2.6e-13              -4e-14                6.5242e-06           
  -2.25                 -6.6968e-06           -6.2e-13              -1e-13                6.7004e-06           
  -2.3                  -6.8702e-06           -7.6e-13              -1.4e-13              6.8736e-06           
  -2.35                 -7.0394e-06           -3.6e-13              -1.2e-13              7.0428e-06           
  -2.4                  -7.2056e-06           -5.2e-13              -2e-13                7.209e-06            
  -2.45                 -7.3678e-06           -6e-13                -1.8e-13              7.3714e-06           
  -2.5                  -7.5274e-06           -6e-13                0                     7.5308e-06           
  -2.55                 -7.6832e-06           -6.4e-13              -3.2e-13              7.6866e-06           
  -2.6                  -7.8366e-06           -1.4e-13              -2e-14                7.84e-06             
  -2.65                 -7.9866e-06           -6.8e-13              -1.2e-13              7.99e-06             
  -2.7                  -8.133e-06            -6.8e-13              -4e-14                8.1366e-06           
  -2.75                 -8.2776e-06           -5.4e-13              -1e-13                8.2806e-06           
  -2.8                  -8.4186e-06           -3.8e-13              -8e-14                8.4222e-06           
  -2.85                 -8.5566e-06           -3.4e-13              6e-14                 8.56e-06             
  -2.9                  -8.692e-06            -5.6e-13              4e-14                 8.6952e-06           
  -2.95                 -8.825e-06            -8.2e-13              -1.6e-13              8.8282e-06           
  -3                    -8.955e-06            -5.4e-13              -8e-14                8.9584e-06           
  -3.05                 -9.0828e-06           -6.4e-13              -6e-14                9.0862e-06           
  -3.1                  -9.2074e-06           -7.4e-13              -1.8e-13              9.2108e-06           
  -3.15                 -9.3304e-06           -6.4e-13              -8e-14                9.3338e-06           
  -3.2                  -9.4504e-06           -7.6e-13              -1.6e-13              9.4536e-06           
  -3.25                 -9.5678e-06           -6.4e-13              -1e-13                9.571e-06            
  -3.3                  -9.683e-06            -4.6e-13              -2e-14                9.6864e-06           
  -3.35                 -9.7964e-06           -8.2e-13              -6e-14                9.7994e-06           
  -3.4                  -9.907e-06            -9.8e-13              -2.2e-13              9.91e-06             
  -3.45                 -1.00152e-05          -3.8e-13              -2e-14                1.00184e-05          
  -3.5                  -1.01214e-05          -7e-13                -2.6e-13              1.01246e-05          
  -3.55                 -1.02258e-05          -5.8e-13              -8e-14                1.02292e-05          
  -3.6                  -1.0328e-05           -7.2e-13              -2.4e-13              1.03314e-05          
END_DB

BEGIN_DB
 ICCAP_VAR vb         0.9            
 ICCAP_VAR vd         -0.1           
 ICCAP_VAR vs         -0             

 #vg                    id                    ig                    ib                    is                   
  0.5                   1e-13                 5.2e-13               2.6e-13               2e-13                
  0.45                  8e-14                 2.8e-13               3e-13                 8e-14                
  0.4                   0                     2.2e-13               1.4e-13               3.4e-13              
  0.35                  6e-14                 -1.4e-13              4e-14                 3e-13                
  0.3                   4e-14                 2.4e-13               1.4e-13               2e-14                
  0.25                  1.8e-13               3.2e-13               -2e-14                2.6e-13              
  0.2                   0                     3.2e-13               1.2e-13               1e-13                
  0.15                  1.6e-13               -1e-13                6e-14                 2.4e-13              
  0.1                   6e-14                 -6e-14                8e-14                 4e-14                
  0.05                  0                     4e-14                 4e-14                 1.4e-13              
  0                     1e-13                 0                     4e-14                 1.2e-13              
  -0.05                 8e-14                 1.4e-13               1.2e-13               -2e-14               
  -0.1                  1.2e-13               2e-14                 4e-14                 1e-13                
  -0.15                 -1.4e-13              -2.6e-13              1.6e-13               6e-14                
  -0.2                  2e-13                 -1.6e-13              0                     4e-14                
  -0.25                 1e-13                 -4e-14                0                     2e-14                
  -0.3                  6e-14                 -1.8e-13              6e-14                 1e-13                
  -0.35                 1e-13                 -2e-13                -2e-14                1.4e-13              
  -0.4                  2e-13                 -3.2e-13              0                     1.8e-13              
  -0.45                 1.2e-13               -4e-14                -2e-14                2.2e-13              
  -0.5                  1.2e-13               -3.2e-13              -2e-14                2.2e-13              
  -0.55                 6e-14                 -1.8e-13              0                     1.4e-13              
  -0.6                  6e-14                 -1.8e-13              -1e-13                1.4e-13              
  -0.65                 0                     -3.2e-13              -2e-14                1.8e-13              
  -0.7                  6e-14                 -4.4e-13              -1.2e-13              3e-13                
  -0.75                 -3.2e-13              -4.4e-13              -6e-14                4e-13                
  -0.8                  -2.14e-12             -3.8e-13              1e-13                 2.3e-12              
  -0.85                 -1.376e-11            -4.2e-13              -1.2e-13              1.424e-11            
  -0.9                  -8.438e-11            -3.6e-13              8e-14                 8.424e-11            
  -0.95                 -5.084e-10            -3.8e-13              -4e-14                5.0866e-10           
  -1                    -2.859e-09            6e-14                 0                     2.8592e-09           
  -1.05                 -1.3508e-08           -6e-14                -1.2e-13              1.3532e-08           
  -1.1                  -4.7442e-08           -1.6e-13              -2e-14                4.7472e-08           
  -1.15                 -1.2326e-07           -3e-13                2e-14                 1.2342e-07           
  -1.2                  -2.4888e-07           -4.8e-13              -1.2e-13              2.4906e-07           
  -1.25                 -4.1792e-07           -2.4e-13              2e-14                 4.1812e-07           
  -1.3                  -6.1524e-07           -5e-13                0                     6.1546e-07           
  -1.35                 -8.2736e-07           -5.8e-13              2e-14                 8.2756e-07           
  -1.4                  -1.04816e-06          -4.6e-13              2e-14                 1.0484e-06           
  -1.45                 -1.2698e-06           -4.4e-13              -6e-14                1.2734e-06           
  -1.5                  -1.4946e-06           -1e-13                4e-14                 1.498e-06            
  -1.55                 -1.7174e-06           -7e-13                -2e-14                1.721e-06            
  -1.6                  -1.9394e-06           -5e-13                4e-14                 1.943e-06            
  -1.65                 -2.158e-06            -4.6e-13              4e-14                 2.1616e-06           
  -1.7                  -2.374e-06            -4.4e-13              -6e-14                2.3776e-06           
  -1.75                 -2.5874e-06           -5e-13                -2e-14                2.5908e-06           
  -1.8                  -2.7968e-06           -3.8e-13              -8e-14                2.8002e-06           
  -1.85                 -3.0026e-06           -4.4e-13              -2e-14                3.0062e-06           
  -1.9                  -3.2052e-06           -5.2e-13              -8e-14                3.2088e-06           
  -1.95                 -3.405e-06            -3.6e-13              -4e-14                3.4086e-06           
  -2                    -3.601e-06            -3.2e-13              2e-14                 3.6042e-06           
  -2.05                 -3.793e-06            -6.6e-13              -1.2e-13              3.7964e-06           
  -2.1                  -3.9826e-06           -6.4e-13              -8e-14                3.9862e-06           
  -2.15                 -4.168e-06            -3.2e-13              0                     4.1714e-06           
  -2.2                  -4.35e-06             -5e-13                -1.2e-13              4.3534e-06           
  -2.25                 -4.529e-06            -6.8e-13              -6e-14                4.5324e-06           
  -2.3                  -4.705e-06            -8.2e-13              -1.4e-13              4.7086e-06           
  -2.35                 -4.8774e-06           -3.4e-13              -1e-13                4.8808e-06           
  -2.4                  -5.047e-06            -3.8e-13              -2e-14                5.0504e-06           
  -2.45                 -5.213e-06            -7e-13                -2e-14                5.2164e-06           
  -2.5                  -5.3764e-06           -4e-13                -6e-14                5.38e-06             
  -2.55                 -5.5364e-06           -4.4e-13              -2e-14                5.54e-06             
  -2.6                  -5.6942e-06           -4e-13                -6e-14                5.6976e-06           
  -2.65                 -5.8488e-06           -4.4e-13              0                     5.8522e-06           
  -2.7                  -6.0002e-06           -4.4e-13              4e-14                 6.0036e-06           
  -2.75                 -6.1494e-06           -4.6e-13              -2e-14                6.1528e-06           
  -2.8                  -6.2958e-06           -4.4e-13              4e-14                 6.299e-06            
  -2.85                 -6.4388e-06           -2.8e-13              -4e-14                6.4422e-06           
  -2.9                  -6.5798e-06           -6.8e-13              -2e-14                6.5832e-06           
  -2.95                 -6.7178e-06           -6.2e-13              1e-13                 6.721e-06            
  -3                    -6.8534e-06           -2.8e-13              -8e-14                6.8568e-06           
  -3.05                 -6.9868e-06           -2.8e-13              4e-14                 6.9904e-06           
  -3.1                  -7.1172e-06           -4.8e-13              2e-14                 7.1206e-06           
  -3.15                 -7.246e-06            -4.8e-13              -1.2e-13              7.2494e-06           
  -3.2                  -7.372e-06            -4.6e-13              6e-14                 7.3752e-06           
  -3.25                 -7.4956e-06           -6.4e-13              -4e-14                7.499e-06            
  -3.3                  -7.6168e-06           -6.6e-13              -1.4e-13              7.6202e-06           
  -3.35                 -7.7362e-06           -4.8e-13              2e-14                 7.7396e-06           
  -3.4                  -7.8532e-06           -6.4e-13              -1.2e-13              7.8564e-06           
  -3.45                 -7.9682e-06           -6.8e-13              -1.4e-13              7.9712e-06           
