! VERSION = 6.00
BEGIN_HEADER
 ICCAP_INPUTS
  vd         V  D GROUND SMU1 0.1 LIN        1    -0         -3.6       37   -0.1      
  vg         V  G GROUND SMU2 0.001 LIST       2 3 -1.686 -1.886 -2.086
  vb         V  B GROUND SMU4 0.1 CON        3.6
  vs         V  S GROUND SMU3 0.1 CON        -0
 ICCAP_OUTPUTS
  id         I  D GROUND SMU1 B
  ig         I  G GROUND SMU2 B
  ib         I  B GROUND SMU4 B
  is         I  S GROUND SMU3 B
 ICCAP_VALUES
  MASTER_SETUP_TYPE "~dc_idvd~"
  LINVT_VALUE ""
  LISTVT_VALUE "|idvg|100.0n|-200.0m|1.000m|3|200.0m|200.0m|"
  TYPE "-1"
  TEMP " 27.0000 "
  IS_TNOM " 1.00000 "
  MAIN.W "10.00u"
  MAIN.L "3.000u"
  MAIN.AD "3.400p"
  MAIN.AS "3.400p"
  MAIN.PD "20.68u"
  MAIN.PS "20.68u"
  MAIN.NF "1.000"
  MAIN.M "1"
  MAIN.NRD "0.000"
  MAIN.NRS "0.000"
  MAIN.LDRIFT1 "1E-06"
  MAIN.LDRIFT2 "1E-06"
  MAIN.SA "0.000"
  MAIN.SB "0.000"
  MAIN.SD "0.000"
  MAIN.SCA "0.000"
  MAIN.SCB "0.000"
  MAIN.SCC "0.000"
  MAIN.SC "0.000"
  MODULE "S562"
  PIN_D "20"
  PIN_G "1"
  PIN_S "2"
  PIN_B "19"
  PIN_E ""
  PIN_6 ""
  XY_ID ""
  FUNC "L Scale"
  STI "SA ref"
  WPE "WPE ref"
  COMMENT ""
  DIS_MEAS ""
  TypeTCI "10"
END_HEADER

BEGIN_DB
 ICCAP_VAR vg         -1.686         
 ICCAP_VAR vb         3.6            
 ICCAP_VAR vs         -0             

 #vd                    id                    ig                    ib                    is                   
  -0                    3.62e-12              -1.6e-13              5.2e-13               -7.84e-12            
  -0.1                  -3.3516e-09           1e-13                 5.8e-13               3.3514e-09           
  -0.2                  -3.4314e-09           0                     2.8e-13               3.4322e-09           
  -0.3                  -3.4384e-09           6e-14                 5.2e-13               3.4384e-09           
  -0.4                  -3.4424e-09           -2e-14                3.6e-13               3.4404e-09           
  -0.5                  -3.444e-09            -6e-14                5.2e-13               3.4444e-09           
  -0.6                  -3.4474e-09           -2e-14                3.2e-13               3.4472e-09           
  -0.7                  -3.449e-09            0                     2.2e-13               3.4492e-09           
  -0.8                  -3.4528e-09           6e-14                 3.6e-13               3.4522e-09           
  -0.9                  -3.4552e-09           0                     2.6e-13               3.4552e-09           
  -1                    -3.4574e-09           2e-14                 2e-13                 3.4574e-09           
  -1.1                  -3.459e-09            4e-14                 3.8e-13               3.459e-09            
  -1.2                  -3.4606e-09           0                     2.4e-13               3.4604e-09           
  -1.3                  -3.4626e-09           -2e-14                1.8e-13               3.4612e-09           
  -1.4                  -3.4632e-09           2e-14                 3.2e-13               3.4628e-09           
  -1.5                  -3.4668e-09           8e-14                 1.4e-13               3.4658e-09           
  -1.6                  -3.468e-09            -4e-14                2.4e-13               3.467e-09            
  -1.7                  -3.4696e-09           6e-14                 1.6e-13               3.4684e-09           
  -1.8                  -3.4694e-09           -2e-14                3e-13                 3.4696e-09           
  -1.9                  -3.4718e-09           -6e-14                2e-13                 3.4702e-09           
  -2                    -3.4736e-09           -8e-14                1.2e-13               3.4728e-09           
  -2.1                  -3.4754e-09           0                     2.8e-13               3.4744e-09           
  -2.2                  -3.477e-09            -6e-14                0                     3.4758e-09           
  -2.3                  -3.4804e-09           0                     2.6e-13               3.4794e-09           
  -2.4                  -3.4814e-09           -2e-14                1.4e-13               3.4804e-09           
  -2.5                  -3.4828e-09           -1e-13                2.4e-13               3.4814e-09           
  -2.6                  -3.484e-09            0                     1.6e-13               3.483e-09            
  -2.7                  -3.4862e-09           -4e-14                2.4e-13               3.4836e-09           
  -2.8                  -3.4864e-09           4e-14                 3.4e-13               3.4848e-09           
  -2.9                  -3.488e-09            2e-14                 5.6e-13               3.488e-09            
  -3                    -3.4904e-09           -2e-14                7e-13                 3.4884e-09           
  -3.1                  -3.4918e-09           -6e-14                1.14e-12              3.4892e-09           
  -3.2                  -3.4908e-09           -2e-14                1.82e-12              3.4886e-09           
  -3.3                  -3.4928e-09           -6e-14                2.86e-12              3.4896e-09           
  -3.4                  -3.4956e-09           -6e-14                4.42e-12              3.4894e-09           
  -3.5                  -3.4994e-09           -4e-14                6.58e-12              3.4916e-09           
  -3.6                  -3.504e-09            0                     9.84e-12              3.493e-09            
END_DB

BEGIN_DB
 ICCAP_VAR vg         -1.886         
 ICCAP_VAR vb         3.6            
 ICCAP_VAR vs         -0             

 #vd                    id                    ig                    ib                    is                   
  -0                    3.7058e-10            8e-14                 1e-13                 -3.5898e-10          
  -0.1                  -3.1594e-07           0                     1.4e-13               3.1612e-07           
  -0.2                  -3.4632e-07           -1e-13                1.2e-13               3.466e-07            
  -0.3                  -3.4814e-07           -2e-14                6e-14                 3.4838e-07           
  -0.4                  -3.4866e-07           -6e-14                0                     3.4894e-07           
  -0.5                  -3.4912e-07           2e-14                 2e-13                 3.4932e-07           
  -0.6                  -3.4948e-07           2e-14                 1.4e-13               3.4976e-07           
  -0.7                  -3.4978e-07           -1.2e-13              4e-14                 3.5002e-07           
  -0.8                  -3.5002e-07           -2e-14                1.4e-13               3.5022e-07           
  -0.9                  -3.5024e-07           -1.4e-13              1.2e-13               3.505e-07            
  -1                    -3.5046e-07           -4e-14                1.4e-13               3.5064e-07           
  -1.1                  -3.5064e-07           -1e-13                8e-14                 3.5094e-07           
  -1.2                  -3.5084e-07           -8e-14                -2e-14                3.5106e-07           
  -1.3                  -3.5104e-07           -6e-14                4e-14                 3.5128e-07           
  -1.4                  -3.512e-07            -1.2e-13              4e-14                 3.5148e-07           
  -1.5                  -3.5146e-07           -1e-13                -2e-14                3.5166e-07           
  -1.6                  -3.5152e-07           -8e-14                1.2e-13               3.5178e-07           
  -1.7                  -3.5172e-07           -2e-13                1e-13                 3.5194e-07           
  -1.8                  -3.518e-07            -6e-14                1e-13                 3.5208e-07           
  -1.9                  -3.519e-07            -8e-14                6e-14                 3.5212e-07           
  -2                    -3.5202e-07           -1.2e-13              0                     3.5228e-07           
  -2.1                  -3.5216e-07           -8e-14                2e-14                 3.5236e-07           
  -2.2                  -3.5232e-07           -1.4e-13              2.8e-13               3.525e-07            
  -2.3                  -3.525e-07            -8e-14                3.6e-13               3.5268e-07           
  -2.4                  -3.5256e-07           -6e-14                5.8e-13               3.528e-07            
  -2.5                  -3.5266e-07           -1e-13                9.6e-13               3.529e-07            
  -2.6                  -3.5278e-07           -1.2e-13              1.9e-12               3.5294e-07           
  -2.7                  -3.5286e-07           -1.4e-13              3.74e-12              3.5308e-07           
  -2.8                  -3.5296e-07           -1.8e-13              6.94e-12              3.5318e-07           
  -2.9                  -3.5312e-07           -1.2e-13              1.272e-11             3.5338e-07           
  -3                    -3.5326e-07           -1.2e-13              2.272e-11             3.5346e-07           
  -3.1                  -3.5338e-07           -1e-13                3.992e-11             3.536e-07            
  -3.2                  -3.5354e-07           -3e-13                6.806e-11             3.5374e-07           
  -3.3                  -3.5372e-07           -1.8e-13              1.1352e-10            3.5388e-07           
  -3.4                  -3.539e-07            -4e-14                1.8568e-10            3.5392e-07           
  -3.5                  -3.5412e-07           -8e-14                2.9806e-10            3.5406e-07           
  -3.6                  -3.5434e-07           -8e-14                4.6936e-10            3.5416e-07           
END_DB

BEGIN_DB
 ICCAP_VAR vg         -2.086         
 ICCAP_VAR vb         3.6            
 ICCAP_VAR vs         -0             

 #vd                    id                    ig                    ib                    is                   
  -0                    1.2096e-09            -4e-14                6e-14                 -1.1438e-09          
  -0.1                  -1.7006e-06           -6e-14                2e-14                 1.7042e-06           
  -0.2                  -2.4516e-06           -8e-14                0                     2.4552e-06           
  -0.3                  -2.625e-06            -8e-14                8e-14                 2.6288e-06           
  -0.4                  -2.6468e-06           -6e-14                1.2e-13               2.651e-06            
  -0.5                  -2.653e-06            -1.2e-13              1.2e-13               2.657e-06            
  -0.6                  -2.6562e-06           -8e-14                1.4e-13               2.6604e-06           
  -0.7                  -2.6594e-06           -1.8e-13              2e-13                 2.663e-06            
  -0.8                  -2.6618e-06           -1.8e-13              8e-14                 2.6652e-06           
  -0.9                  -2.6634e-06           -1.2e-13              1e-13                 2.667e-06            
  -1                    -2.6652e-06           -1e-13                1e-13                 2.6686e-06           
  -1.1                  -2.6662e-06           -6e-14                1e-13                 2.67e-06             
  -1.2                  -2.668e-06            -1e-13                8e-14                 2.671e-06            
  -1.3                  -2.6692e-06           -2.2e-13              6e-14                 2.673e-06            
  -1.4                  -2.6704e-06           -1.6e-13              1e-13                 2.6742e-06           
  -1.5                  -2.6716e-06           -2.4e-13              2e-13                 2.6754e-06           
  -1.6                  -2.6728e-06           -1.2e-13              2e-14                 2.6772e-06           
  -1.7                  -2.674e-06            -1.2e-13              2e-14                 2.678e-06            
  -1.8                  -2.6752e-06           -1.2e-13              8e-14                 2.6792e-06           
  -1.9                  -2.6764e-06           -1.4e-13              1.6e-13               2.6804e-06           
  -2                    -2.6774e-06           -2.4e-13              1e-13                 2.6816e-06           
  -2.1                  -2.6786e-06           -8e-14                1e-13                 2.682e-06            
  -2.2                  -2.6792e-06           -2e-13                2e-13                 2.683e-06            
  -2.3                  -2.6804e-06           -6e-14                4e-13                 2.684e-06            
  -2.4                  -2.681e-06            -1.2e-13              8.4e-13               2.685e-06            
  -2.5                  -2.6822e-06           -1e-13                1.94e-12              2.686e-06            
  -2.6                  -2.683e-06            -6e-14                3.98e-12              2.687e-06            
  -2.7                  -2.684e-06            -1.6e-13              8.16e-12              2.6878e-06           
  -2.8                  -2.6848e-06           -6e-14                1.666e-11             2.6884e-06           
  -2.9                  -2.6852e-06           -1.2e-13              3.26e-11              2.6888e-06           
  -3                    -2.6862e-06           -4e-14                6.158e-11             2.69e-06             
  -3.1                  -2.6874e-06           -2e-13                1.1296e-10            2.691e-06            
  -3.2                  -2.6884e-06           -1.8e-13              2.0142e-10            2.6918e-06           
  -3.3                  -2.689e-06            -1.8e-13              3.5102e-10            2.6926e-06           
  -3.4                  -2.6898e-06           -2e-13                5.9702e-10            2.6934e-06           
  -3.5                  -2.6912e-06           -1.2e-13              9.9514e-10            2.6938e-06           
  -3.6                  -2.6922e-06           -1.2e-13              1.6256e-09            2.6942e-06           
END_DB

