! VERSION = 6.00
BEGIN_HEADER
 ICCAP_INPUTS
  vd         V  D GROUND SMU1 0.1 LIN        1    -0         -3.6       37   -0.1      
  vg         V  G GROUND SMU2 0.001 LIN        2    -0.772     -3.6       5    -0.707    
  vb         V  B GROUND SMU4 0.1 CON        -0
  vs         V  S GROUND SMU3 0.1 CON        -0
 ICCAP_OUTPUTS
  id         I  D GROUND SMU1 B
  ig         I  G GROUND SMU2 B
  ib         I  B GROUND SMU4 B
  is         I  S GROUND SMU3 B
 ICCAP_VALUES
  MASTER_SETUP_TYPE "~dc_idvd~"
  LINVT_VALUE "|idvg|100.0n|100.0m|1.000m|5|3.600|"
  LISTVT_VALUE ""
  TYPE "-1"
  TEMP " 27.0000 "
  IS_TNOM " 1.00000 "
  MAIN.W "10.00u"
  MAIN.L "500.0n"
  MAIN.AD "3.400p"
  MAIN.AS "3.400p"
  MAIN.PD "20.68u"
  MAIN.PS "20.68u"
  MAIN.NF "1.000"
  MAIN.M "1"
  MAIN.NRD "0.000"
  MAIN.NRS "0.000"
  MAIN.LDRIFT1 "1E-06"
  MAIN.LDRIFT2 "1E-06"
  MAIN.SA "0.000"
  MAIN.SB "0.000"
  MAIN.SD "0.000"
  MAIN.SCA "0.000"
  MAIN.SCB "0.000"
  MAIN.SCC "0.000"
  MAIN.SC "0.000"
  MODULE "S561"
  PIN_D "14"
  PIN_G "7"
  PIN_S "8"
  PIN_B "13"
  PIN_E ""
  PIN_6 ""
  XY_ID ""
  FUNC "L Scale"
  STI "SA ref"
  WPE "WPE ref"
  COMMENT ""
  DIS_MEAS ""
  TypeTCI "10"
END_HEADER

BEGIN_DB
 ICCAP_VAR vg         -0.772         
 ICCAP_VAR vb         -0             
 ICCAP_VAR vs         -0             

 #vd                    id                    ig                    ib                    is                   
  -0                    2.7854e-09            -4e-14                -5e-13                -3.8756e-09          
  -0.1                  -6.8932e-06           -1.8e-13              -5.2e-13              6.895e-06            
  -0.2                  -8.0198e-06           3.2e-13               -5e-13                8.0236e-06           
  -0.3                  -8.221e-06            8e-14                 -4.2e-13              8.225e-06            
  -0.4                  -8.3208e-06           2e-14                 -3.8e-13              8.3272e-06           
  -0.5                  -8.3962e-06           2.2e-13               -4.4e-13              8.3996e-06           
  -0.6                  -8.4564e-06           6e-14                 -5.6e-13              8.4606e-06           
  -0.7                  -8.51e-06             8e-14                 -5.2e-13              8.5172e-06           
  -0.8                  -8.557e-06            1.6e-13               -3.8e-13              8.561e-06            
  -0.9                  -8.6006e-06           -2e-14                -5.8e-13              8.6044e-06           
  -1                    -8.6404e-06           2e-14                 -4.6e-13              8.6434e-06           
  -1.1                  -8.6788e-06           4e-14                 -3.6e-13              8.6838e-06           
  -1.2                  -8.7172e-06           -4e-14                -4.8e-13              8.7182e-06           
  -1.3                  -8.7482e-06           1.2e-13               -5.4e-13              8.7542e-06           
  -1.4                  -8.7822e-06           6e-14                 -5.2e-13              8.7878e-06           
  -1.5                  -8.8162e-06           -1.6e-13              -5e-13                8.8202e-06           
  -1.6                  -8.8484e-06           -2e-14                -2.8e-13              8.8522e-06           
  -1.7                  -8.8798e-06           1e-13                 2.4e-13               8.8836e-06           
  -1.8                  -8.9126e-06           1.2e-13               1.48e-12              8.9124e-06           
  -1.9                  -8.9398e-06           -2e-13                4.46e-12              8.9434e-06           
  -2                    -8.9708e-06           1.2e-13               1.104e-11             8.9746e-06           
  -2.1                  -9e-06                3e-13                 2.434e-11             9.0046e-06           
  -2.2                  -9.03e-06             -6e-14                4.98e-11              9.033e-06            
  -2.3                  -9.0564e-06           -2e-13                9.662e-11             9.0608e-06           
  -2.4                  -9.0856e-06           2.8e-13               1.7934e-10            9.0894e-06           
  -2.5                  -9.118e-06            1e-13                 3.2114e-10            9.1214e-06           
  -2.6                  -9.1462e-06           2e-13                 5.5792e-10            9.1496e-06           
  -2.7                  -9.1744e-06           1.8e-13               9.4262e-10            9.1754e-06           
  -2.8                  -9.2038e-06           -2e-14                1.5548e-09            9.205e-06            
  -2.9                  -9.2324e-06           -6e-14                2.5052e-09            9.233e-06            
  -3                    -9.2608e-06           3e-13                 3.9526e-09            9.2596e-06           
  -3.1                  -9.292e-06            2e-13                 6.1064e-09            9.2888e-06           
  -3.2                  -9.324e-06            -1.4e-13              9.2688e-09            9.318e-06            
  -3.3                  -9.3558e-06           2e-14                 1.381e-08             9.346e-06            
  -3.4                  -9.3874e-06           -6e-14                2.0198e-08            9.3724e-06           
  -3.5                  -9.4232e-06           2e-14                 2.9054e-08            9.4e-06              
  -3.6                  -9.464e-06            4e-14                 4.1142e-08            9.427e-06            
END_DB

BEGIN_DB
 ICCAP_VAR vg         -1.479         
 ICCAP_VAR vb         -0             
 ICCAP_VAR vs         -0             

 #vd                    id                    ig                    ib                    is                   
  -0                    4.2528e-08            -4.2e-13              -1e-13                -3.9742e-08          
  -0.1                  -6.6692e-05           -2.4e-13              -1.2e-13              6.6714e-05           
  -0.2                  -0.0001215            -4.8e-13              -2e-13                0.00012186           
  -0.3                  -0.00016456           -6e-14                -1.8e-13              0.00016492           
  -0.4                  -0.00019602           -2.2e-13              -2e-13                0.0001964            
  -0.5                  -0.0002171            -2.4e-13              -2.4e-13              0.00021746           
  -0.6                  -0.00022972           -1.4e-13              -2.2e-13              0.0002301            
  -0.7                  -0.00023674           -2e-13                -2.8e-13              0.00023714           
  -0.8                  -0.0002409            -2.6e-13              -2e-13                0.00024126           
  -0.9                  -0.00024358           -8e-14                -1.6e-13              0.00024394           
  -1                    -0.00024556           -2e-14                -2.6e-13              0.00024592           
  -1.1                  -0.00024712           -4e-14                -3.2e-13              0.0002475            
  -1.2                  -0.0002485            2e-14                 -2.2e-13              0.00024886           
  -1.3                  -0.00024964           -6e-14                -3.2e-13              0.00025004           
  -1.4                  -0.0002507            -4e-14                -2.8e-13              0.00025102           
  -1.5                  -0.00025162           0                     -2.6e-13              0.00025198           
  -1.6                  -0.00025252           -8e-14                -2.6e-13              0.0002529            
  -1.7                  -0.00025336           -1.2e-13              -2.4e-13              0.00025372           
  -1.8                  -0.00025414           -2e-13                -1.6e-13              0.00025448           
  -1.9                  -0.00025486           0                     2.6e-13               0.00025522           
  -2                    -0.00025558           1.2e-13               1.8e-12               0.00025594           
  -2.1                  -0.0002562            -1e-13                6.86e-12              0.00025662           
  -2.2                  -0.00025688           -1.2e-13              2.066e-11             0.00025726           
  -2.3                  -0.00025754           -1.4e-13              5.548e-11             0.0002579            
  -2.4                  -0.00025818           4e-14                 1.3598e-10            0.00025854           
  -2.5                  -0.0002588            -1.2e-13              3.0976e-10            0.00025916           
  -2.6                  -0.00025942           -1.8e-13              6.6084e-10            0.00025976           
  -2.7                  -0.00026002           1.4e-13               1.337e-09             0.00026038           
  -2.8                  -0.00026062           -6e-14                2.5772e-09            0.000261             
  -2.9                  -0.00026122           -2e-14                4.7782e-09            0.00026156           
  -3                    -0.0002618            -8e-14                8.5696e-09            0.00026214           
  -3.1                  -0.00026238           -1.2e-13              1.4904e-08            0.00026272           
  -3.2                  -0.000263             0                     2.5274e-08            0.00026332           
  -3.3                  -0.00026354           -1.6e-13              4.183e-08             0.00026384           
  -3.4                  -0.0002641            -1.4e-13              6.7684e-08            0.0002644            
  -3.5                  -0.00026474           -8e-14                1.0727e-07            0.00026494           
  -3.6                  -0.00026534           -6.6e-13              1.667e-07             0.00026552           
END_DB

BEGIN_DB
 ICCAP_VAR vg         -2.186         
 ICCAP_VAR vb         -0             
 ICCAP_VAR vs         -0             

 #vd                    id                    ig                    ib                    is                   
  -0                    6.5116e-08            -3.2e-13              0                     -5.788e-08           
  -0.1                  -0.0001111            -4.4e-13              -1.4e-13              0.00011148           
  -0.2                  -0.00021296           -2.2e-13              -2e-14                0.00021332           
  -0.3                  -0.00030482           -2.8e-13              -8e-14                0.0003052            
  -0.4                  -0.00038636           -2.6e-13              -1.2e-13              0.00038674           
  -0.5                  -0.00045784           -2.2e-13              -1.8e-13              0.00045822           
  -0.6                  -0.00051912           -3.6e-13              -1.4e-13              0.00051952           
  -0.7                  -0.00057032           -2.8e-13              -1.6e-13              0.00057068           
  -0.8                  -0.00061198           -1.6e-13              -2.2e-13              0.00061228           
  -0.9                  -0.00064458           -3.2e-13              -1.8e-13              0.00064496           
  -1                    -0.00066922           -2.8e-13              -1.4e-13              0.00066958           
  -1.1                  -0.00068726           -2e-13                -1.4e-13              0.00068766           
  -1.2                  -0.00070036           -6e-14                -2.6e-13              0.00070076           
  -1.3                  -0.00070986           -1.6e-13              -2.6e-13              0.00071022           
  -1.4                  -0.00071688           -2.6e-13              -1.8e-13              0.00071726           
  -1.5                  -0.00072248           -2e-13                -2e-13                0.00072286           
  -1.6                  -0.00072694           1.4e-13               -1.4e-13              0.0007273            
  -1.7                  -0.0007307            -3.4e-13              -2.2e-13              0.00073108           
  -1.8                  -0.00073392           -2.8e-13              -2.6e-13              0.00073432           
  -1.9                  -0.00073686           4e-14                 -2.6e-13              0.0007372            
  -2                    -0.00073938           0                     -2e-13                0.00073974           
  -2.1                  -0.00074174           -1.8e-13              -6e-14                0.00074208           
  -2.2                  -0.00074394           -1.4e-13              2.4e-13               0.00074428           
  -2.3                  -0.00074586           0                     1.16e-12              0.00074628           
  -2.4                  -0.00074788           -2.4e-13              4.58e-12              0.00074826           
  -2.5                  -0.00074966           -8e-14                1.452e-11             0.00075004           
  -2.6                  -0.00075136           4e-14                 4.07e-11              0.00075174           
  -2.7                  -0.000753             0                     1.0538e-10            0.00075332           
  -2.8                  -0.00075452           -1.8e-13              2.541e-10             0.00075492           
  -2.9                  -0.00075608           -2e-13                5.76e-10              0.00075644           
  -3                    -0.00075768           -2e-13                1.2334e-09            0.00075806           
  -3.1                  -0.00075916           -2.2e-13              2.5032e-09            0.00075948           
  -3.2                  -0.00076048           -4e-14                4.8804e-09            0.00076084           
  -3.3                  -0.00076188           2e-14                 9.1714e-09            0.00076224           
  -3.4                  -0.00076326           -1.8e-13              1.6634e-08            0.00076364           
  -3.5                  -0.00076466           -2.2e-13              2.9354e-08            0.00076504           
  -3.6                  -0.00076604           -1.6e-13              5.0408e-08            0.00076634           
END_DB

BEGIN_DB
 ICCAP_VAR vg         -2.893         
 ICCAP_VAR vb         -0             
 ICCAP_VAR vs         -0             

 #vd                    id                    ig                    ib                    is                   
  -0                    8.7506e-08            -5e-13                2e-14                 -7.6428e-08          
  -0.1                  -0.00014438           -3.8e-13              -4e-14                0.00014474           
  -0.2                  -0.0002811            -4.2e-13              -8e-14                0.00028144           
  -0.3                  -0.00040926           -1.4e-13              -6e-14                0.00040962           
  -0.4                  -0.00052842           -3.6e-13              -6e-14                0.00052884           
  -0.5                  -0.00063898           -3.8e-13              -8e-14                0.00063932           
  -0.6                  -0.00074036           -1.8e-13              -1.2e-13              0.00074078           
  -0.7                  -0.00083246           -1.4e-13              -6e-14                0.00083292           
  -0.8                  -0.00091564           -3.6e-13              -1e-13                0.00091598           
  -0.9                  -0.0009896            -2.4e-13              -1.8e-13              0.00098996           
  -1                    -0.00105458           -1e-13                -2e-13                0.00105504           
  -1.1                  -0.00111108           -4.8e-13              -1.8e-13              0.0011115            
  -1.2                  -0.0011586            -5e-13                -1.6e-13              0.0011606            
  -1.3                  -0.001199             -4.4e-13              -3e-13                0.0012012            
  -1.4                  -0.0012326            -4.4e-13              -2e-13                0.0012344            
  -1.5                  -0.0012598            -1.6e-13              -2.2e-13              0.0012618            
  -1.6                  -0.0012818            -2.2e-13              -3.8e-13              0.0012836            
  -1.7                  -0.0012992            -3.8e-13              -1.8e-13              0.0013012            
  -1.8                  -0.0013132            -2.8e-13              -1.8e-13              0.0013152            
  -1.9                  -0.0013244            0                     -2.2e-13              0.0013264            
  -2                    -0.0013336            -1.8e-13              -1.6e-13              0.0013356            
  -2.1                  -0.0013414            -2e-13                -2.2e-13              0.0013434            
  -2.2                  -0.001348             -8e-14                -2.2e-13              0.00135              
  -2.3                  -0.0013536            -6e-14                -2.4e-13              0.0013556            
  -2.4                  -0.0013586            -1.2e-13              -8e-14                0.0013606            
  -2.5                  -0.0013632            -2.4e-13              0                     0.0013652            
  -2.6                  -0.0013674            -2e-13                8e-13                 0.0013694            
  -2.7                  -0.001371             4e-14                 3.16e-12              0.001373             
  -2.8                  -0.0013744            6e-14                 9.92e-12              0.0013764            
  -2.9                  -0.0013776            -2.6e-13              2.832e-11             0.0013794            
  -3                    -0.0013804            -4e-13                7.342e-11             0.0013826            
  -3.1                  -0.0013832            -1.2e-13              1.7806e-10            0.0013852            
  -3.2                  -0.0013858            -1.2e-13              4.078e-10             0.0013878            
  -3.3                  -0.0013884            -2e-13                8.8956e-10            0.0013904            
  -3.4                  -0.001391             -4e-14                1.8508e-09            0.0013928            
  -3.5                  -0.0013932            -8e-14                3.6934e-09            0.0013952            
  -3.6                  -0.0013956            -2.2e-13              7.1058e-09            0.0013976            
END_DB

BEGIN_DB
 ICCAP_VAR vg         -3.6           
 ICCAP_VAR vb         -0             
 ICCAP_VAR vs         -0             

 #vd                    id                    ig                    ib                    is                   
  -0                    1.04848e-07           -5.6e-13              4e-14                 -8.6696e-08          
  -0.1                  -0.00016994           -4.8e-13              -2e-14                0.0001703            
  -0.2                  -0.00033338           -4.6e-13              -6e-14                0.00033376           
  -0.3                  -0.00048942           -5.2e-13              -1e-13                0.0004898            
  -0.4                  -0.0006376            -4e-13                -1.8e-13              0.00063798           
  -0.5                  -0.00077818           -1e-13                -1.8e-13              0.00077854           
  -0.6                  -0.00091068           -4.8e-13              -1e-13                0.00091102           
  -0.7                  -0.0010348            -2.6e-13              -1.4e-13              0.00103522           
  -0.8                  -0.0011498            -3.2e-13              -1.4e-13              0.001152             
