! VERSION = 6.00
BEGIN_HEADER
 ICCAP_INPUTS
  vd         V  D GROUND SMU1 0.1 LIN        1    -0         -3.6       37   -0.1      
  vg         V  G GROUND SMU2 0.001 LIN        2    -0.796     -3.6       5    -0.701    
  vb         V  B GROUND SMU4 0.1 CON        -0
  vs         V  S GROUND SMU3 0.1 CON        -0
 ICCAP_OUTPUTS
  id         I  D GROUND SMU1 B
  ig         I  G GROUND SMU2 B
  ib         I  B GROUND SMU4 B
  is         I  S GROUND SMU3 B
 ICCAP_VALUES
  MASTER_SETUP_TYPE "~dc_idvd~"
  LINVT_VALUE "|idvg|100.0n|100.0m|1.000m|5|3.600|"
  LISTVT_VALUE ""
  TYPE "-1"
  TEMP " 27.0000 "
  IS_TNOM " 1.00000 "
  MAIN.W "2.000u"
  MAIN.L "10.00u"
  MAIN.AD "680.0f"
  MAIN.AS "680.0f"
  MAIN.PD "4.680u"
  MAIN.PS "4.680u"
  MAIN.NF "1.000"
  MAIN.M "1"
  MAIN.NRD "0.000"
  MAIN.NRS "0.000"
  MAIN.LDRIFT1 "1E-06"
  MAIN.LDRIFT2 "1E-06"
  MAIN.SA "0.000"
  MAIN.SB "0.000"
  MAIN.SD "0.000"
  MAIN.SCA "0.000"
  MAIN.SCB "0.000"
  MAIN.SCC "0.000"
  MAIN.SC "0.000"
  MODULE "S563"
  PIN_D "12"
  PIN_G "9"
  PIN_S "10"
  PIN_B "11"
  PIN_E ""
  PIN_6 ""
  XY_ID ""
  FUNC "W Scale"
  STI "SA ref"
  WPE "WPE ref"
  COMMENT ""
  DIS_MEAS ""
  TypeTCI "10"
END_HEADER

BEGIN_DB
 ICCAP_VAR vg         -0.796         
 ICCAP_VAR vb         -0             
 ICCAP_VAR vs         -0             

 #vd                    id                    ig                    ib                    is                   
  -0                    5.572e-11             0                     -8.6e-13              -6.73e-11            
  -0.1                  -6.8352e-08           2e-14                 -8.2e-13              6.8388e-08           
  -0.2                  -7.7292e-08           8e-14                 -7.6e-13              7.7328e-08           
  -0.3                  -7.765e-08            0                     -7.6e-13              7.7686e-08           
  -0.4                  -7.7696e-08           4e-14                 -7.4e-13              7.7724e-08           
  -0.5                  -7.7716e-08           -2e-14                -7.8e-13              7.7758e-08           
  -0.6                  -7.7744e-08           -6e-14                -7.6e-13              7.7774e-08           
  -0.7                  -7.7756e-08           8e-14                 -5.4e-13              7.7792e-08           
  -0.8                  -7.7772e-08           2e-14                 -5.8e-13              7.78e-08             
  -0.9                  -7.778e-08            0                     -3.8e-13              7.782e-08            
  -1                    -7.779e-08            1.6e-13               -4.6e-13              7.7808e-08           
  -1.1                  -7.779e-08            6e-14                 -4.8e-13              7.7832e-08           
  -1.2                  -7.7818e-08           6e-14                 -4.6e-13              7.7848e-08           
  -1.3                  -7.7832e-08           1e-13                 -4.8e-13              7.786e-08            
  -1.4                  -7.7842e-08           -6e-14                -5.6e-13              7.7878e-08           
  -1.5                  -7.7852e-08           4e-14                 -4.6e-13              7.7876e-08           
  -1.6                  -7.7852e-08           1.8e-13               -5.2e-13              7.7892e-08           
  -1.7                  -7.7862e-08           1e-13                 -5.6e-13              7.7898e-08           
  -1.8                  -7.7876e-08           0                     -5e-13                7.7912e-08           
  -1.9                  -7.7884e-08           1e-13                 -4e-13                7.7918e-08           
  -2                    -7.7894e-08           4e-14                 -3e-13                7.7926e-08           
  -2.1                  -7.79e-08             1.8e-13               -2e-13                7.7938e-08           
  -2.2                  -7.7914e-08           1.4e-13               1.2e-13               7.7938e-08           
  -2.3                  -7.7914e-08           1.6e-13               4.6e-13               7.7946e-08           
  -2.4                  -7.7926e-08           1.8e-13               1.2e-12               7.795e-08            
  -2.5                  -7.793e-08            1e-13                 2.16e-12              7.7958e-08           
  -2.6                  -7.794e-08            6e-14                 4.04e-12              7.7962e-08           
  -2.7                  -7.7948e-08           1e-13                 7.1e-12               7.797e-08            
  -2.8                  -7.7954e-08           0                     1.202e-11             7.7984e-08           
  -2.9                  -7.7982e-08           2e-14                 1.948e-11             7.7994e-08           
  -3                    -7.7996e-08           1e-13                 3.114e-11             7.7986e-08           
  -3.1                  -7.801e-08            4e-14                 4.844e-11             7.8e-08              
  -3.2                  -7.8058e-08           8e-14                 7.394e-11             7.801e-08            
  -3.3                  -7.8102e-08           4e-14                 1.1062e-10            7.8022e-08           
  -3.4                  -7.8158e-08           -1e-13                1.6202e-10            7.8022e-08           
  -3.5                  -7.8232e-08           1.2e-13               2.3408e-10            7.8036e-08           
  -3.6                  -7.8344e-08           1.8e-13               3.3172e-10            7.8044e-08           
END_DB

BEGIN_DB
 ICCAP_VAR vg         -1.497         
 ICCAP_VAR vb         -0             
 ICCAP_VAR vs         -0             

 #vd                    id                    ig                    ib                    is                   
  -0                    3.5688e-10            -1.8e-13              -4.6e-13              -3.6714e-10          
  -0.1                  -6.4288e-07           -1.4e-13              -4.4e-13              6.4316e-07           
  -0.2                  -1.1582e-06           -3e-13                -5e-13                1.162e-06            
  -0.3                  -1.5494e-06           -2e-13                -3.2e-13              1.5532e-06           
  -0.4                  -1.817e-06            -2e-13                -2.6e-13              1.8208e-06           
  -0.5                  -1.9688e-06           -2e-13                -1.6e-13              1.9726e-06           
  -0.6                  -2.0254e-06           -1.6e-13              -2.6e-13              2.0292e-06           
  -0.7                  -2.036e-06            -4e-14                -2.8e-13              2.0398e-06           
  -0.8                  -2.0378e-06           -1.2e-13              -3e-13                2.0416e-06           
  -0.9                  -2.0388e-06           -1.8e-13              -2.8e-13              2.0426e-06           
  -1                    -2.0394e-06           -1.6e-13              -3e-13                2.0432e-06           
  -1.1                  -2.0398e-06           -2e-14                -3.8e-13              2.0436e-06           
  -1.2                  -2.0404e-06           -2.4e-13              -2e-13                2.0442e-06           
  -1.3                  -2.0408e-06           -2.4e-13              -2e-13                2.0444e-06           
  -1.4                  -2.0412e-06           -8e-14                -2.4e-13              2.0448e-06           
  -1.5                  -2.0414e-06           -6e-14                -2.8e-13              2.045e-06            
  -1.6                  -2.0418e-06           -4e-14                -2.2e-13              2.0454e-06           
  -1.7                  -2.042e-06            -1e-13                -2.4e-13              2.0456e-06           
  -1.8                  -2.0422e-06           4e-14                 -3e-13                2.0458e-06           
  -1.9                  -2.0424e-06           -1.2e-13              -1.2e-13              2.046e-06            
  -2                    -2.0426e-06           -1.8e-13              -1.4e-13              2.0464e-06           
  -2.1                  -2.0428e-06           -1.4e-13              -3.2e-13              2.0466e-06           
  -2.2                  -2.0432e-06           4e-14                 -1.4e-13              2.047e-06            
  -2.3                  -2.0434e-06           -1.2e-13              1.2e-13               2.0472e-06           
  -2.4                  -2.0436e-06           -1.2e-13              3e-13                 2.0474e-06           
  -2.5                  -2.044e-06            -4e-14                1.04e-12              2.0476e-06           
  -2.6                  -2.044e-06            -2e-14                2.78e-12              2.0478e-06           
  -2.7                  -2.0442e-06           2e-14                 6.04e-12              2.048e-06            
  -2.8                  -2.0446e-06           -6e-14                1.252e-11             2.0482e-06           
  -2.9                  -2.0446e-06           -4e-14                2.412e-11             2.0484e-06           
  -3                    -2.0448e-06           0                     4.498e-11             2.0484e-06           
  -3.1                  -2.045e-06            0                     8.05e-11              2.0486e-06           
  -3.2                  -2.0452e-06           -2e-14                1.3974e-10            2.0488e-06           
  -3.3                  -2.0454e-06           6e-14                 2.3642e-10            2.049e-06            
  -3.4                  -2.0458e-06           1e-13                 3.9008e-10            2.0492e-06           
  -3.5                  -2.0462e-06           -1e-13                6.2928e-10            2.0494e-06           
  -3.6                  -2.0468e-06           -1e-13                9.9368e-10            2.0494e-06           
END_DB

BEGIN_DB
 ICCAP_VAR vg         -2.198         
 ICCAP_VAR vb         -0             
 ICCAP_VAR vs         -0             

 #vd                    id                    ig                    ib                    is                   
  -0                    6.1964e-10            -3.8e-13              -2.6e-13              -6.1576e-10          
  -0.1                  -1.13236e-06          -3.6e-13              -2e-13                1.13266e-06          
  -0.2                  -2.1538e-06           -1.4e-13              -1.4e-13              2.1576e-06           
  -0.3                  -3.065e-06            -2.2e-13              -2.6e-13              3.0688e-06           
  -0.4                  -3.8632e-06           -3.2e-13              -2.6e-13              3.867e-06            
  -0.5                  -4.5524e-06           -2.8e-13              -2e-13                4.5562e-06           
  -0.6                  -5.1312e-06           -1.2e-13              -4e-14                5.1352e-06           
  -0.7                  -5.5996e-06           -2e-13                -1.6e-13              5.6032e-06           
  -0.8                  -5.9596e-06           -1.6e-13              -2.2e-13              5.9636e-06           
  -0.9                  -6.2132e-06           -1.8e-13              -1.6e-13              6.2168e-06           
  -1                    -6.3652e-06           -1.6e-13              -1.4e-13              6.3694e-06           
  -1.1                  -6.4342e-06           -1.6e-13              -1e-13                6.4378e-06           
  -1.2                  -6.455e-06            -1.6e-13              -2e-13                6.4586e-06           
  -1.3                  -6.4612e-06           -1.8e-13              -1.6e-13              6.4648e-06           
  -1.4                  -6.4638e-06           -1.4e-13              -8e-14                6.4676e-06           
  -1.5                  -6.466e-06            -1.6e-13              0                     6.4696e-06           
  -1.6                  -6.4676e-06           -1.2e-13              -1.6e-13              6.4714e-06           
  -1.7                  -6.4688e-06           -1.4e-13              -1.8e-13              6.4726e-06           
  -1.8                  -6.4704e-06           -1e-13                -1.8e-13              6.4738e-06           
  -1.9                  -6.4714e-06           -2e-13                -1.2e-13              6.4752e-06           
  -2                    -6.4724e-06           -2.6e-13              -8e-14                6.4762e-06           
  -2.1                  -6.4732e-06           -2.2e-13              -8e-14                6.477e-06            
  -2.2                  -6.474e-06            2e-14                 -1.4e-13              6.4778e-06           
  -2.3                  -6.4748e-06           -1.2e-13              -1.8e-13              6.4788e-06           
  -2.4                  -6.4756e-06           -8e-14                -2e-13                6.4792e-06           
  -2.5                  -6.4764e-06           0                     -6e-14                6.48e-06             
  -2.6                  -6.477e-06            -6e-14                0                     6.4806e-06           
  -2.7                  -6.4776e-06           -1.6e-13              0                     6.481e-06            
  -2.8                  -6.4782e-06           -2.2e-13              -8e-14                6.482e-06            
  -2.9                  -6.4786e-06           -1.2e-13              5.4e-13               6.4826e-06           
  -3                    -6.4794e-06           -1.4e-13              1.92e-12              6.483e-06            
  -3.1                  -6.4798e-06           -1.2e-13              4.8e-12               6.4836e-06           
  -3.2                  -6.4806e-06           -2.6e-13              1.096e-11             6.4844e-06           
  -3.3                  -6.4812e-06           -1.2e-13              2.3e-11               6.4848e-06           
  -3.4                  -6.482e-06            -4e-14                4.624e-11             6.4856e-06           
  -3.5                  -6.4822e-06           -6e-14                8.876e-11             6.4856e-06           
  -3.6                  -6.4828e-06           -1.4e-13              1.6378e-10            6.4862e-06           
END_DB

BEGIN_DB
 ICCAP_VAR vg         -2.899         
 ICCAP_VAR vb         -0             
 ICCAP_VAR vs         -0             

 #vd                    id                    ig                    ib                    is                   
  -0                    9.1274e-10            -3.4e-13              -2e-13                -8.6492e-10          
  -0.1                  -1.5214e-06           -4.4e-13              -3e-13                1.5252e-06           
  -0.2                  -2.9496e-06           -2e-13                -1.4e-13              2.9534e-06           
  -0.3                  -4.2794e-06           -3.8e-13              -8e-14                4.2832e-06           
  -0.4                  -5.5088e-06           -3.6e-13              -2.6e-13              5.5128e-06           
  -0.5                  -6.6438e-06           -3.4e-13              -2.8e-13              6.6474e-06           
  -0.6                  -7.6812e-06           -8e-14                -1.8e-13              7.6852e-06           
  -0.7                  -8.6198e-06           -3e-13                -1.2e-13              8.6238e-06           
  -0.8                  -9.463e-06            -2.8e-13              -1e-13                9.4666e-06           
  -0.9                  -1.02082e-05          -3.2e-13              -8e-14                1.02122e-05          
  -1                    -1.0846e-05           -3.2e-13              -1.6e-13              1.08586e-05          
  -1.1                  -1.1396e-05           -1.8e-13              -4e-14                1.14082e-05          
  -1.2                  -1.1846e-05           -3.8e-13              -8e-14                1.1866e-05           
  -1.3                  -1.2202e-05           -2.8e-13              -2.4e-13              1.2222e-05           
  -1.4                  -1.246e-05            -2.8e-13              -1.4e-13              1.248e-05            
  -1.5                  -1.263e-05            -1.8e-13              -6e-14                1.265e-05            
  -1.6                  -1.2722e-05           -1.4e-13              -1.2e-13              1.2742e-05           
  -1.7                  -1.2762e-05           -2.4e-13              -1.4e-13              1.278e-05            
  -1.8                  -1.2776e-05           -1.6e-13              -1e-13                1.2796e-05           
  -1.9                  -1.2782e-05           -2e-13                -1e-13                1.2802e-05           
  -2                    -1.2786e-05           -2.6e-13              -1.8e-13              1.2808e-05           
  -2.1                  -1.2792e-05           -2.6e-13              -1.4e-13              1.281e-05            
  -2.2                  -1.2794e-05           -1.8e-13              0                     1.2814e-05           
  -2.3                  -1.2796e-05           -6e-14                -1e-13                1.2816e-05           
  -2.4                  -1.2798e-05           0                     -6e-14                1.2818e-05           
  -2.5                  -1.28e-05             -2e-13                -1.4e-13              1.282e-05            
  -2.6                  -1.2802e-05           -3e-13                -1.4e-13              1.2822e-05           
  -2.7                  -1.2804e-05           -2.8e-13              -1.2e-13              1.2824e-05           
  -2.8                  -1.2806e-05           -1e-13                -1e-13                1.2826e-05           
  -2.9                  -1.2806e-05           -1e-13                -1e-13                1.2826e-05           
  -3                    -1.2808e-05           -2.2e-13              -4e-14                1.2828e-05           
  -3.1                  -1.281e-05            -1e-13                -6e-14                1.283e-05            
  -3.2                  -1.281e-05            -1.6e-13              -8e-14                1.283e-05            
  -3.3                  -1.2812e-05           -3.6e-13              1.6e-13               1.2832e-05           
  -3.4                  -1.2814e-05           -1.6e-13              6.4e-13               1.2834e-05           
  -3.5                  -1.2814e-05           -2e-14                1.78e-12              1.2834e-05           
  -3.6                  -1.2816e-05           -2.8e-13              4.62e-12              1.2836e-05           
END_DB

BEGIN_DB
 ICCAP_VAR vg         -3.6           
 ICCAP_VAR vb         -0             
 ICCAP_VAR vs         -0             

 #vd                    id                    ig                    ib                    is                   
  -0                    1.0402e-09            -4.6e-13              -2.6e-13              -9.6934e-10          
  -0.1                  -1.8322e-06           -4e-13                -6e-14                1.8362e-06           
  -0.2                  -3.5838e-06           -3e-13                -1.8e-13              3.5878e-06           
  -0.3                  -5.249e-06            -3.2e-13              -2.4e-13              5.2528e-06           
  -0.4                  -6.8246e-06           -2.8e-13              -1.8e-13              6.8286e-06           
  -0.5                  -8.3184e-06           -2.2e-13              -8e-14                8.3224e-06           
  -0.6                  -9.7266e-06           -3.4e-13              -8e-14                9.7308e-06           
  -0.7                  -1.10474e-05          -2.6e-13              -1.6e-13              1.10508e-05          
  -0.8                  -1.2274e-05           -2.2e-13              -1.4e-13              1.2296e-05           
