! VERSION = 6.00
BEGIN_HEADER
 ICCAP_INPUTS
  vd         V  D GROUND SMU1 0.1 LIN        1    -0         -3.6       37   -0.1      
  vg         V  G GROUND SMU2 0.001 LIN        2    -0.788     -3.6       5    -0.703    
  vb         V  B GROUND SMU4 0.1 CON        -0
  vs         V  S GROUND SMU3 0.1 CON        -0
 ICCAP_OUTPUTS
  id         I  D GROUND SMU1 B
  ig         I  G GROUND SMU2 B
  ib         I  B GROUND SMU4 B
  is         I  S GROUND SMU3 B
 ICCAP_VALUES
  MASTER_SETUP_TYPE "~dc_idvd~"
  LINVT_VALUE "|idvg|100.0n|100.0m|1.000m|5|3.600|"
  LISTVT_VALUE ""
  TYPE "-1"
  TEMP " 27.0000 "
  IS_TNOM " 1.00000 "
  MAIN.W "300.0n"
  MAIN.L "10.00u"
  MAIN.AD "102.0f"
  MAIN.AS "102.0f"
  MAIN.PD "1.280u"
  MAIN.PS "1.280u"
  MAIN.NF "1.000"
  MAIN.M "1"
  MAIN.NRD "0.000"
  MAIN.NRS "0.000"
  MAIN.LDRIFT1 "1E-06"
  MAIN.LDRIFT2 "1E-06"
  MAIN.SA "0.000"
  MAIN.SB "0.000"
  MAIN.SD "0.000"
  MAIN.SCA "0.000"
  MAIN.SCB "0.000"
  MAIN.SCC "0.000"
  MAIN.SC "0.000"
  MODULE "S555"
  PIN_D "14"
  PIN_G "7"
  PIN_S "8"
  PIN_B "13"
  PIN_E ""
  PIN_6 ""
  XY_ID ""
  FUNC "Narrow"
  STI "SA ref"
  WPE "WPE ref"
  COMMENT ""
  DIS_MEAS ""
  TypeTCI "10"
END_HEADER

BEGIN_DB
 ICCAP_VAR vg         -0.788         
 ICCAP_VAR vb         -0             
 ICCAP_VAR vs         -0             

 #vd                    id                    ig                    ib                    is                   
  -0                    9.5e-12               -6e-14                -5.4e-13              -1.002e-11           
  -0.1                  -1.0718e-08           -1.2e-13              -4.8e-13              1.0744e-08           
  -0.2                  -1.2152e-08           -4e-14                -4.4e-13              1.2176e-08           
  -0.3                  -1.2208e-08           0                     -5.4e-13              1.2232e-08           
  -0.4                  -1.2214e-08           1.8e-13               -5e-13                1.2238e-08           
  -0.5                  -1.2216e-08           2e-14                 -5.6e-13              1.224e-08            
  -0.6                  -1.222e-08            0                     -5e-13                1.2244e-08           
  -0.7                  -1.2224e-08           1.4e-13               -5.2e-13              1.2246e-08           
  -0.8                  -1.2224e-08           6e-14                 -5e-13                1.2246e-08           
  -0.9                  -1.2228e-08           1e-13                 -5.6e-13              1.225e-08            
  -1                    -1.2228e-08           0                     -5e-13                1.2252e-08           
  -1.1                  -1.2228e-08           -1.8e-13              -4.6e-13              1.2254e-08           
  -1.2                  -1.2232e-08           -1e-13                -4.4e-13              1.2256e-08           
  -1.3                  -1.2234e-08           1.6e-13               -4.2e-13              1.2256e-08           
  -1.4                  -1.2234e-08           8e-14                 -5e-13                1.2258e-08           
  -1.5                  -1.2232e-08           2.2e-13               -4.2e-13              1.2256e-08           
  -1.6                  -1.2232e-08           2.6e-13               -4.4e-13              1.2256e-08           
  -1.7                  -1.2234e-08           6e-14                 -5e-13                1.226e-08            
  -1.8                  -1.2236e-08           8e-14                 -4.6e-13              1.2258e-08           
  -1.9                  -1.2236e-08           1.8e-13               -3.8e-13              1.226e-08            
  -2                    -1.2238e-08           -1.8e-13              -4e-13                1.226e-08            
  -2.1                  -1.2236e-08           -2e-14                -3.6e-13              1.2262e-08           
  -2.2                  -1.224e-08            2e-14                 -4e-13                1.2264e-08           
  -2.3                  -1.2242e-08           4e-14                 -3.6e-13              1.2264e-08           
  -2.4                  -1.2244e-08           1.4e-13               -3.6e-13              1.2264e-08           
  -2.5                  -1.2244e-08           -2e-14                -1.4e-13              1.2268e-08           
  -2.6                  -1.2248e-08           4e-14                 1.8e-13               1.2268e-08           
  -2.7                  -1.2248e-08           2.8e-13               6.6e-13               1.2268e-08           
  -2.8                  -1.225e-08            1.8e-13               1.46e-12              1.227e-08            
  -2.9                  -1.2252e-08           1.4e-13               2.62e-12              1.2272e-08           
  -3                    -1.2254e-08           8e-14                 4.34e-12              1.227e-08            
  -3.1                  -1.2258e-08           1e-13                 6.96e-12              1.2274e-08           
  -3.2                  -1.2262e-08           1.2e-13               1.088e-11             1.2276e-08           
  -3.3                  -1.227e-08            2e-14                 1.634e-11             1.2276e-08           
  -3.4                  -1.228e-08            -4e-14                2.41e-11              1.2276e-08           
  -3.5                  -1.229e-08            8e-14                 3.496e-11             1.2278e-08           
  -3.6                  -1.2306e-08           0                     4.996e-11             1.228e-08            
END_DB

BEGIN_DB
 ICCAP_VAR vg         -1.491         
 ICCAP_VAR vb         -0             
 ICCAP_VAR vs         -0             

 #vd                    id                    ig                    ib                    is                   
  -0                    6.604e-11             -3.4e-13              -1.6e-13              -6.616e-11           
  -0.1                  -1.083e-07            -1e-13                -2e-13                1.0852e-07           
  -0.2                  -1.9476e-07           -2.8e-13              -1.8e-13              1.95e-07             
  -0.3                  -2.5964e-07           -2.8e-13              -1.4e-13              2.5986e-07           
  -0.4                  -3.0378e-07           -2.6e-13              -2.4e-13              3.0404e-07           
  -0.5                  -3.2912e-07           -2.8e-13              -2.2e-13              3.2934e-07           
  -0.6                  -3.392e-07            -2.8e-13              -3.2e-13              3.3936e-07           
  -0.7                  -3.413e-07            -3.2e-13              -2.4e-13              3.4154e-07           
  -0.8                  -3.4166e-07           -1.4e-13              -2.2e-13              3.4188e-07           
  -0.9                  -3.418e-07            -4e-14                -2e-13                3.4204e-07           
  -1                    -3.4188e-07           -4e-14                -3.2e-13              3.4214e-07           
  -1.1                  -3.42e-07             -6e-14                -2e-13                3.4218e-07           
  -1.2                  -3.4206e-07           -1.8e-13              -2.6e-13              3.4232e-07           
  -1.3                  -3.4212e-07           -1.8e-13              -2.2e-13              3.4236e-07           
  -1.4                  -3.4218e-07           -6e-14                -2.4e-13              3.424e-07            
  -1.5                  -3.4228e-07           6e-14                 -2.4e-13              3.4248e-07           
  -1.6                  -3.423e-07            -8e-14                -2.2e-13              3.4256e-07           
  -1.7                  -3.4238e-07           -6e-14                -3e-13                3.4256e-07           
  -1.8                  -3.424e-07            0                     -3.2e-13              3.4258e-07           
  -1.9                  -3.424e-07            -8e-14                -4.4e-13              3.4266e-07           
  -2                    -3.425e-07            -1e-13                -2.8e-13              3.4274e-07           
  -2.1                  -3.4252e-07           -2.2e-13              -3e-13                3.4274e-07           
  -2.2                  -3.4252e-07           -3.2e-13              -2.8e-13              3.4276e-07           
  -2.3                  -3.426e-07            0                     -2.4e-13              3.4278e-07           
  -2.4                  -3.4266e-07           1.2e-13               -2.8e-13              3.429e-07            
  -2.5                  -3.4272e-07           -4e-14                -2e-14                3.4292e-07           
  -2.6                  -3.4268e-07           6e-14                 1e-13                 3.4294e-07           
  -2.7                  -3.4274e-07           -1.4e-13              5.8e-13               3.43e-07             
  -2.8                  -3.4278e-07           6e-14                 1.6e-12               3.4302e-07           
  -2.9                  -3.4284e-07           1.4e-13               3.54e-12              3.431e-07            
  -3                    -3.429e-07            -4e-14                6.9e-12               3.431e-07            
  -3.1                  -3.429e-07            -1e-13                1.246e-11             3.4314e-07           
  -3.2                  -3.4298e-07           -8e-14                2.172e-11             3.4316e-07           
  -3.3                  -3.43e-07             -1.2e-13              3.674e-11             3.4322e-07           
  -3.4                  -3.4302e-07           -6e-14                6.092e-11             3.4322e-07           
  -3.5                  -3.4314e-07           1e-13                 9.866e-11             3.4324e-07           
  -3.6                  -3.4328e-07           1e-13                 1.5608e-10            3.433e-07            
END_DB

BEGIN_DB
 ICCAP_VAR vg         -2.194         
 ICCAP_VAR vb         -0             
 ICCAP_VAR vs         -0             

 #vd                    id                    ig                    ib                    is                   
  -0                    1.154e-10             -4e-13                0                     -1.1312e-10          
  -0.1                  -1.9686e-07           -4.6e-13              -1.2e-13              1.971e-07            
  -0.2                  -3.7412e-07           -5.4e-13              -1.4e-13              3.7436e-07           
  -0.3                  -5.3118e-07           -3.6e-13              -1.4e-13              5.3136e-07           
  -0.4                  -6.6794e-07           -1.6e-13              -1.4e-13              6.6824e-07           
  -0.5                  -7.8538e-07           -3.8e-13              -1.2e-13              7.8574e-07           
  -0.6                  -8.8356e-07           -2.4e-13              -1.6e-13              8.838e-07            
  -0.7                  -9.6232e-07           -4e-14                -1.6e-13              9.6272e-07           
  -0.8                  -1.0229e-06           -1.8e-13              -1.6e-13              1.02328e-06          
  -0.9                  -1.0654e-06           -3e-13                -1.2e-13              1.06584e-06          
  -1                    -1.0918e-06           -2.2e-13              -2e-13                1.09202e-06          
  -1.1                  -1.10412e-06          -3.2e-13              -1e-13                1.10456e-06          
  -1.2                  -1.10834e-06          -2.8e-13              -2e-13                1.10876e-06          
  -1.3                  -1.10954e-06          -2e-13                -3e-13                1.10988e-06          
  -1.4                  -1.1105e-06           -1.2e-13              -2.8e-13              1.1107e-06           
  -1.5                  -1.11068e-06          1.2e-13               -1.8e-13              1.11106e-06          
  -1.6                  -1.11094e-06          8e-14                 -2.6e-13              1.11114e-06          
  -1.7                  -1.11116e-06          -1.8e-13              -2.8e-13              1.11134e-06          
  -1.8                  -1.1113e-06           -2e-14                -1.6e-13              1.11178e-06          
  -1.9                  -1.11158e-06          -6e-14                -2e-13                1.11188e-06          
  -2                    -1.11178e-06          -1.6e-13              -2.8e-13              1.11222e-06          
  -2.1                  -1.1119e-06           -6e-14                -3.2e-13              1.11234e-06          
  -2.2                  -1.11224e-06          -2e-13                -3.2e-13              1.11244e-06          
  -2.3                  -1.1124e-06           -1.8e-13              -2.8e-13              1.11256e-06          
  -2.4                  -1.11256e-06          2e-14                 -2.8e-13              1.11276e-06          
  -2.5                  -1.11256e-06          -1e-13                -3.6e-13              1.11316e-06          
  -2.6                  -1.11274e-06          -1.4e-13              -2e-13                1.1131e-06           
  -2.7                  -1.1127e-06           -4e-14                -1.6e-13              1.11308e-06          
  -2.8                  -1.11292e-06          -1.2e-13              -1.8e-13              1.11316e-06          
  -2.9                  -1.11294e-06          4e-14                 -1.2e-13              1.11326e-06          
  -3                    -1.11304e-06          2e-13                 2e-14                 1.11338e-06          
  -3.1                  -1.11326e-06          4e-14                 5.4e-13               1.11362e-06          
  -3.2                  -1.1133e-06           -4e-14                1.62e-12              1.1136e-06           
  -3.3                  -1.11338e-06          -4e-14                3.52e-12              1.11402e-06          
  -3.4                  -1.11376e-06          -1.6e-13              7.24e-12              1.114e-06            
  -3.5                  -1.11374e-06          -1.4e-13              1.396e-11             1.11416e-06          
  -3.6                  -1.11384e-06          -2.6e-13              2.598e-11             1.11414e-06          
END_DB

BEGIN_DB
 ICCAP_VAR vg         -2.897         
 ICCAP_VAR vb         -0             
 ICCAP_VAR vs         -0             

 #vd                    id                    ig                    ib                    is                   
  -0                    1.487e-10             -3.6e-13              -6e-14                -1.5268e-10          
  -0.1                  -2.6946e-07           -3e-13                -1e-13                2.6966e-07           
  -0.2                  -5.2172e-07           -2.8e-13              -1.6e-13              5.2206e-07           
  -0.3                  -7.5624e-07           -1.6e-13              -2e-13                7.5652e-07           
  -0.4                  -9.7242e-07           -4e-13                0                     9.7266e-07           
  -0.5                  -1.1696e-06           -1.8e-13              -2.2e-13              1.1734e-06           
  -0.6                  -1.351e-06            -4.2e-13              -1.4e-13              1.3548e-06           
  -0.7                  -1.5138e-06           -3e-13                -4e-14                1.518e-06            
  -0.8                  -1.6598e-06           -2.2e-13              -1.8e-13              1.6636e-06           
  -0.9                  -1.788e-06            -3.6e-13              -2.2e-13              1.792e-06            
  -1                    -1.8984e-06           -1.2e-13              -6e-14                1.9022e-06           
  -1.1                  -1.9922e-06           -1.2e-13              -2e-13                1.9958e-06           
  -1.2                  -2.0688e-06           -3e-13                -2.2e-13              2.0724e-06           
  -1.3                  -2.1286e-06           -1.8e-13              -2e-13                2.1328e-06           
  -1.4                  -2.1732e-06           -1e-13                -1.6e-13              2.1768e-06           
  -1.5                  -2.2024e-06           4e-14                 -3.6e-13              2.2066e-06           
  -1.6                  -2.2194e-06           0                     -2.6e-13              2.2236e-06           
  -1.7                  -2.2274e-06           -2.8e-13              -1e-13                2.2312e-06           
  -1.8                  -2.2306e-06           -3.6e-13              -3.2e-13              2.2344e-06           
  -1.9                  -2.2318e-06           -1.8e-13              -2.2e-13              2.2356e-06           
  -2                    -2.2326e-06           -1.2e-13              -2.2e-13              2.2364e-06           
  -2.1                  -2.2334e-06           -1.8e-13              -1.2e-13              2.237e-06            
  -2.2                  -2.234e-06            -2e-14                -2.4e-13              2.2378e-06           
  -2.3                  -2.2344e-06           0                     -2.8e-13              2.2382e-06           
  -2.4                  -2.2344e-06           -2.6e-13              -2e-13                2.2388e-06           
  -2.5                  -2.235e-06            -3.8e-13              -2.2e-13              2.239e-06            
  -2.6                  -2.2356e-06           -2e-13                -1.4e-13              2.2392e-06           
  -2.7                  -2.236e-06            -2.8e-13              -3.4e-13              2.2396e-06           
  -2.8                  -2.2364e-06           -4.4e-13              -3.8e-13              2.2402e-06           
  -2.9                  -2.2364e-06           -1.2e-13              -3.6e-13              2.2402e-06           
  -3                    -2.2366e-06           -2e-14                -3e-13                2.2404e-06           
  -3.1                  -2.2368e-06           -1.8e-13              -3.4e-13              2.2404e-06           
  -3.2                  -2.237e-06            -1e-13                -1.8e-13              2.2408e-06           
  -3.3                  -2.2372e-06           -1e-13                -1.4e-13              2.2408e-06           
  -3.4                  -2.2374e-06           0                     -2e-13                2.2414e-06           
  -3.5                  -2.2378e-06           -1.2e-13              2e-14                 2.2416e-06           
  -3.6                  -2.2384e-06           -1.8e-13              5.8e-13               2.242e-06            
END_DB

BEGIN_DB
 ICCAP_VAR vg         -3.6           
 ICCAP_VAR vb         -0             
 ICCAP_VAR vs         -0             

 #vd                    id                    ig                    ib                    is                   
  -0                    1.8194e-10            -6.6e-13              -4e-14                -1.8974e-10          
  -0.1                  -3.2776e-07           -5.6e-13              -8e-14                3.2794e-07           
  -0.2                  -6.4062e-07           -4.8e-13              -1e-13                6.4086e-07           
  -0.3                  -9.3802e-07           -4.2e-13              -1.4e-13              9.3814e-07           
  -0.4                  -1.2174e-06           -2.8e-13              -2e-14                1.2212e-06           
  -0.5                  -1.4836e-06           -3.8e-13              -2e-13                1.4874e-06           
  -0.6                  -1.7342e-06           -3.8e-13              -2e-13                1.7382e-06           
  -0.7                  -1.9688e-06           -3e-13                -2.2e-13              1.9726e-06           
  -0.8                  -2.1878e-06           -2.4e-13              -1.2e-13              2.1916e-06           
