! VERSION = 6.00
BEGIN_HEADER
 ICCAP_INPUTS
  vd         V  D GROUND SMU1 0.1 LIN        1    -0         -3.6       37   -0.1      
  vg         V  G GROUND SMU2 0.001 LIST       2 3 -1.338 -1.538 -1.738
  vb         V  B GROUND SMU4 0.1 CON        3.6
  vs         V  S GROUND SMU3 0.1 CON        -0
 ICCAP_OUTPUTS
  id         I  D GROUND SMU1 B
  ig         I  G GROUND SMU2 B
  ib         I  B GROUND SMU4 B
  is         I  S GROUND SMU3 B
 ICCAP_VALUES
  MASTER_SETUP_TYPE "~dc_idvd~"
  LINVT_VALUE ""
  LISTVT_VALUE "|idvg|100.0n|-200.0m|1.000m|3|200.0m|200.0m|"
  TYPE "-1"
  TEMP " 70.0000 "
  IS_TNOM " 0.00000 "
  MAIN.W "300.0n"
  MAIN.L "350.0n"
  MAIN.AD "102.0f"
  MAIN.AS "102.0f"
  MAIN.PD "1.280u"
  MAIN.PS "1.280u"
  MAIN.NF "1.000"
  MAIN.M "1"
  MAIN.NRD "0.000"
  MAIN.NRS "0.000"
  MAIN.LDRIFT1 "1E-06"
  MAIN.LDRIFT2 "1E-06"
  MAIN.SA "0.000"
  MAIN.SB "0.000"
  MAIN.SD "0.000"
  MAIN.SCA "0.000"
  MAIN.SCB "0.000"
  MAIN.SCC "0.000"
  MAIN.SC "0.000"
  MODULE "S565"
  PIN_D "16"
  PIN_G "5"
  PIN_S "6"
  PIN_B "15"
  PIN_E ""
  PIN_6 ""
  XY_ID ""
  FUNC "Small"
  STI "SA ref"
  WPE "WPE ref"
  COMMENT ""
  DIS_MEAS ""
  TypeTCI "10"
END_HEADER

BEGIN_DB
 ICCAP_VAR vg         -1.338         
 ICCAP_VAR vb         3.6            
 ICCAP_VAR vs         -0             

 #vd                    id                    ig                    ib                    is                   
  -0                    6e-13                 1.8e-13               1.02e-11              -1e-13               
  -0.1                  -2.5486e-10           2.2e-13               1.03e-11              2.5472e-10           
  -0.2                  -3.0092e-10           2e-13                 1.028e-11             3.0112e-10           
  -0.3                  -3.3794e-10           2.4e-13               1.024e-11             3.381e-10            
  -0.4                  -3.7518e-10           2.2e-13               1.032e-11             3.748e-10            
  -0.5                  -4.1258e-10           1.2e-13               1.04e-11              4.1176e-10           
  -0.6                  -4.5166e-10           1.2e-13               1.04e-11              4.5178e-10           
  -0.7                  -4.9408e-10           1.2e-13               1.04e-11              4.9316e-10           
  -0.8                  -5.3738e-10           1e-13                 1.042e-11             5.3712e-10           
  -0.9                  -5.8466e-10           2e-14                 1.042e-11             5.8278e-10           
  -1                    -6.3306e-10           1e-13                 1.036e-11             6.3168e-10           
  -1.1                  -6.8596e-10           1.4e-13               1.034e-11             6.8458e-10           
  -1.2                  -7.4008e-10           1.4e-13               1.036e-11             7.3906e-10           
  -1.3                  -7.9722e-10           1.4e-13               1.036e-11             7.97e-10             
  -1.4                  -8.583e-10            2e-14                 1.03e-11              8.5682e-10           
  -1.5                  -9.2168e-10           8e-14                 1.04e-11              9.1966e-10           
  -1.6                  -9.8978e-10           1.2e-13               1.028e-11             9.8886e-10           
  -1.7                  -1.0612e-09           6e-14                 1.04e-11              1.06038e-09          
  -1.8                  -1.1382e-09           1.6e-13               1.038e-11             1.13862e-09          
  -1.9                  -1.2206e-09           1.2e-13               1.04e-11              1.219e-09            
  -2                    -1.3066e-09           6e-14                 1.04e-11              1.306e-09            
  -2.1                  -1.3994e-09           1.4e-13               1.038e-11             1.3992e-09           
  -2.2                  -1.4974e-09           8e-14                 1.038e-11             1.4964e-09           
  -2.3                  -1.6034e-09           1.8e-13               1.042e-11             1.602e-09            
  -2.4                  -1.7132e-09           1.2e-13               1.048e-11             1.7126e-09           
  -2.5                  -1.8348e-09           1.6e-13               1.044e-11             1.834e-09            
  -2.6                  -1.961e-09            1.8e-13               1.04e-11              1.9586e-09           
  -2.7                  -2.0978e-09           8e-14                 1.076e-11             2.0946e-09           
  -2.8                  -2.2442e-09           2e-14                 1.084e-11             2.2414e-09           
  -2.9                  -2.3998e-09           1.2e-13               1.126e-11             2.3964e-09           
  -3                    -2.5614e-09           4e-14                 1.192e-11             2.5604e-09           
  -3.1                  -2.7396e-09           1.4e-13               1.29e-11              2.7374e-09           
  -3.2                  -2.9308e-09           8e-14                 1.426e-11             2.931e-09            
  -3.3                  -3.1378e-09           1.6e-13               1.67e-11              3.1282e-09           
  -3.4                  -3.355e-09            1.4e-13               2.044e-11             3.3458e-09           
  -3.5                  -3.5886e-09           1.4e-13               2.586e-11             3.5694e-09           
  -3.6                  -3.8384e-09           8e-14                 3.406e-11             3.8132e-09           
END_DB

BEGIN_DB
 ICCAP_VAR vg         -1.538         
 ICCAP_VAR vb         3.6            
 ICCAP_VAR vs         -0             

 #vd                    id                    ig                    ib                    is                   
  -0                    3.07e-11              -6e-14                9.88e-12              -2.702e-11           
  -0.1                  -2.8808e-08           -1.6e-13              9.96e-12              2.8828e-08           
  -0.2                  -3.5504e-08           -8e-14                1e-11                 3.5516e-08           
  -0.3                  -4.0168e-08           0                     1.014e-11             4.017e-08            
  -0.4                  -4.4346e-08           -6e-14                1.018e-11             4.4316e-08           
  -0.5                  -4.8254e-08           -8e-14                1.022e-11             4.8302e-08           
  -0.6                  -5.2242e-08           2e-14                 1.028e-11             5.2366e-08           
  -0.7                  -5.6284e-08           -8e-14                1.032e-11             5.624e-08            
  -0.8                  -6.032e-08            2e-14                 1.03e-11              6.0318e-08           
  -0.9                  -6.45e-08             2e-14                 1.028e-11             6.4474e-08           
  -1                    -6.8746e-08           4e-14                 1.032e-11             6.8614e-08           
  -1.1                  -7.3048e-08           0                     1.03e-11              7.3158e-08           
  -1.2                  -7.7666e-08           -6e-14                1.04e-11              7.7444e-08           
  -1.3                  -8.2216e-08           -4e-14                1.038e-11             8.2244e-08           
  -1.4                  -8.7164e-08           -8e-14                1.038e-11             8.7136e-08           
  -1.5                  -9.1938e-08           2e-14                 1.04e-11              9.1886e-08           
  -1.6                  -9.7034e-08           -1.2e-13              1.048e-11             9.7104e-08           
  -1.7                  -1.0216e-07           -8e-14                1.04e-11              1.02256e-07          
  -1.8                  -1.0746e-07           4e-14                 1.038e-11             1.07556e-07          
  -1.9                  -1.1308e-07           -4e-14                1.046e-11             1.13072e-07          
  -2                    -1.1874e-07           -2e-14                1.034e-11             1.1872e-07           
  -2.1                  -1.2464e-07           6e-14                 1.052e-11             1.247e-07            
  -2.2                  -1.308e-07            8e-14                 1.066e-11             1.3052e-07           
  -2.3                  -1.3698e-07           4e-14                 1.098e-11             1.3712e-07           
  -2.4                  -1.4356e-07           0                     1.168e-11             1.4346e-07           
  -2.5                  -1.5016e-07           -6e-14                1.316e-11             1.5048e-07           
  -2.6                  -1.5722e-07           4e-14                 1.538e-11             1.5722e-07           
  -2.7                  -1.6468e-07           2e-14                 1.97e-11              1.6478e-07           
  -2.8                  -1.7206e-07           8e-14                 2.698e-11             1.7254e-07           
  -2.9                  -1.8024e-07           8e-14                 3.93e-11              1.8016e-07           
  -3                    -1.884e-07            1.2e-13               5.97e-11              1.8844e-07           
  -3.1                  -1.9692e-07           1.2e-13               9.28e-11              1.97e-07             
  -3.2                  -2.0546e-07           2e-14                 1.456e-10             2.0534e-07           
  -3.3                  -2.146e-07            -2e-14                2.2874e-10            2.1462e-07           
  -3.4                  -2.2416e-07           -6e-14                3.5574e-10            2.2386e-07           
  -3.5                  -2.341e-07            -4e-14                5.4902e-10            2.3382e-07           
  -3.6                  -2.4458e-07           2e-14                 8.3502e-10            2.4376e-07           
END_DB

BEGIN_DB
 ICCAP_VAR vg         -1.738         
 ICCAP_VAR vb         3.6            
 ICCAP_VAR vs         -0             

 #vd                    id                    ig                    ib                    is                   
  -0                    1.8528e-10            -1.8e-13              9.86e-12              -2.1456e-10          
  -0.1                  -3.9418e-07           -1.6e-13              9.9e-12               3.9388e-07           
  -0.2                  -5.6442e-07           0                     9.98e-12              5.6586e-07           
  -0.3                  -6.4808e-07           -1.8e-13              1.004e-11             6.491e-07            
  -0.4                  -7.0318e-07           -1.6e-13              1.018e-11             7.031e-07            
  -0.5                  -7.4848e-07           -1.6e-13              1.012e-11             7.4872e-07           
  -0.6                  -7.8676e-07           -6e-14                1.02e-11              7.8716e-07           
  -0.7                  -8.2176e-07           -1.8e-13              1.028e-11             8.2188e-07           
  -0.8                  -8.5616e-07           -1.4e-13              1.018e-11             8.5562e-07           
  -0.9                  -8.8856e-07           -8e-14                1.022e-11             8.8894e-07           
  -1                    -9.2122e-07           -2e-14                1.036e-11             9.2106e-07           
  -1.1                  -9.5358e-07           -2e-14                1.034e-11             9.521e-07            
  -1.2                  -9.8388e-07           0                     1.034e-11             9.8548e-07           
  -1.3                  -1.01748e-06          1.6e-13               1.036e-11             1.01742e-06          
  -1.4                  -1.04762e-06          -6e-14                1.028e-11             1.04756e-06          
  -1.5                  -1.07898e-06          2e-14                 1.038e-11             1.07992e-06          
  -1.6                  -1.11082e-06          -8e-14                1.04e-11              1.11048e-06          
  -1.7                  -1.14324e-06          -2e-13                1.046e-11             1.14348e-06          
  -1.8                  -1.1678e-06           -2e-14                1.022e-11             1.1756e-06           
  -1.9                  -1.2044e-06           -2e-14                1.032e-11             1.2076e-06           
  -2                    -1.2364e-06           6e-14                 1.04e-11              1.239e-06            
  -2.1                  -1.2676e-06           -8e-14                1.072e-11             1.271e-06            
  -2.2                  -1.2988e-06           8e-14                 1.134e-11             1.2998e-06           
  -2.3                  -1.3292e-06           -1.6e-13              1.256e-11             1.3326e-06           
  -2.4                  -1.3632e-06           -8e-14                1.51e-11              1.3648e-06           
  -2.5                  -1.3946e-06           0                     1.992e-11             1.3982e-06           
  -2.6                  -1.43e-06             8e-14                 2.902e-11             1.4324e-06           
  -2.7                  -1.4634e-06           4e-14                 4.51e-11              1.4664e-06           
  -2.8                  -1.4976e-06           -2e-14                7.318e-11             1.5012e-06           
  -2.9                  -1.5326e-06           4e-14                 1.2146e-10            1.5344e-06           
  -3                    -1.5678e-06           -6e-14                2.0012e-10            1.5718e-06           
  -3.1                  -1.6044e-06           -4e-14                3.3106e-10            1.6072e-06           
  -3.2                  -1.642e-06            4e-14                 5.4376e-10            1.6452e-06           
  -3.3                  -1.6792e-06           8e-14                 8.7532e-10            1.6806e-06           
  -3.4                  -1.717e-06            -6e-14                1.3918e-09            1.7222e-06           
  -3.5                  -1.757e-06            -6e-14                2.178e-09             1.7594e-06           
  -3.6                  -1.798e-06            4e-14                 3.3578e-09            1.798e-06            
END_DB

