! VERSION = 6.00
BEGIN_HEADER
 ICCAP_INPUTS
  vd         V  D GROUND SMU1 0.1 LIN        1    -0         -3.6       37   -0.1      
  vg         V  G GROUND SMU2 0.001 LIN        2    -0.712     -3.6       5    -0.722    
  vb         V  B GROUND SMU4 0.1 CON        -0
  vs         V  S GROUND SMU3 0.1 CON        -0
 ICCAP_OUTPUTS
  id         I  D GROUND SMU1 B
  ig         I  G GROUND SMU2 B
  ib         I  B GROUND SMU4 B
  is         I  S GROUND SMU3 B
 ICCAP_VALUES
  MASTER_SETUP_TYPE "~dc_idvd~"
  LINVT_VALUE "|idvg|100.0n|100.0m|1.000m|5|3.600|"
  LISTVT_VALUE ""
  TYPE "-1"
  TEMP " 70.0000 "
  IS_TNOM " 0.00000 "
  MAIN.W "600.0n"
  MAIN.L "500.0n"
  MAIN.AD "204.0f"
  MAIN.AS "204.0f"
  MAIN.PD "1.880u"
  MAIN.PS "1.880u"
  MAIN.NF "1.000"
  MAIN.M "1"
  MAIN.NRD "0.000"
  MAIN.NRS "0.000"
  MAIN.LDRIFT1 "1E-06"
  MAIN.LDRIFT2 "1E-06"
  MAIN.SA "0.000"
  MAIN.SB "0.000"
  MAIN.SD "0.000"
  MAIN.SCA "0.000"
  MAIN.SCB "0.000"
  MAIN.SCC "0.000"
  MAIN.SC "0.000"
  MODULE "S564"
  PIN_D "16"
  PIN_G "5"
  PIN_S "6"
  PIN_B "15"
  PIN_E ""
  PIN_6 ""
  XY_ID ""
  FUNC "LW Scale"
  STI "SA ref"
  WPE "WPE ref"
  COMMENT ""
  DIS_MEAS ""
  TypeTCI "10"
END_HEADER

BEGIN_DB
 ICCAP_VAR vg         -0.712         
 ICCAP_VAR vb         -0             
 ICCAP_VAR vs         -0             

 #vd                    id                    ig                    ib                    is                   
  -0                    1.2972e-10            -8e-14                -4.634e-11            -2.021e-10           
  -0.1                  -3.6528e-07           1.2e-13               -4.486e-11            3.6546e-07           
  -0.2                  -4.2736e-07           6e-14                 -4.374e-11            4.275e-07            
  -0.3                  -4.398e-07            2.4e-13               -4.29e-11             4.4008e-07           
  -0.4                  -4.4612e-07           1.8e-13               -4.222e-11            4.4606e-07           
  -0.5                  -4.5086e-07           2.4e-13               -4.142e-11            4.5094e-07           
  -0.6                  -4.5474e-07           2.4e-13               -4.082e-11            4.5488e-07           
  -0.7                  -4.582e-07            2.4e-13               -4.028e-11            4.585e-07            
  -0.8                  -4.6164e-07           2.2e-13               -3.952e-11            4.6178e-07           
  -0.9                  -4.6478e-07           1.4e-13               -3.898e-11            4.6478e-07           
  -1                    -4.6758e-07           1.8e-13               -3.836e-11            4.677e-07            
  -1.1                  -4.7028e-07           1.8e-13               -3.766e-11            4.7026e-07           
  -1.2                  -4.7284e-07           1.8e-13               -3.712e-11            4.729e-07            
  -1.3                  -4.7546e-07           2.2e-13               -3.646e-11            4.7556e-07           
  -1.4                  -4.777e-07            2.2e-13               -3.582e-11            4.7762e-07           
  -1.5                  -4.7988e-07           1.4e-13               -3.506e-11            4.8004e-07           
  -1.6                  -4.8222e-07           2.4e-13               -3.426e-11            4.8226e-07           
  -1.7                  -4.8446e-07           8e-14                 -3.33e-11             4.8446e-07           
  -1.8                  -4.8656e-07           2.2e-13               -3.218e-11            4.8676e-07           
  -1.9                  -4.8862e-07           2.4e-13               -3.084e-11            4.8882e-07           
  -2                    -4.9074e-07           2e-13                 -2.904e-11            4.9096e-07           
  -2.1                  -4.9306e-07           3e-13                 -2.716e-11            4.9316e-07           
  -2.2                  -4.953e-07            6e-14                 -2.388e-11            4.954e-07            
  -2.3                  -4.9732e-07           1.2e-13               -1.926e-11            4.975e-07            
  -2.4                  -4.9934e-07           1.2e-13               -1.222e-11            4.9948e-07           
  -2.5                  -5.0122e-07           6e-14                 -1.48e-12             5.0142e-07           
  -2.6                  -5.0336e-07           2.6e-13               1.528e-11             5.0332e-07           
  -2.7                  -5.0534e-07           1.8e-13               4.072e-11             5.0518e-07           
  -2.8                  -5.0718e-07           1.4e-13               7.952e-11             5.0712e-07           
  -2.9                  -5.0918e-07           1.8e-13               1.378e-10             5.0916e-07           
  -3                    -5.1124e-07           1.4e-13               2.2398e-10            5.1124e-07           
  -3.1                  -5.1326e-07           -2e-14                3.494e-10             5.1306e-07           
  -3.2                  -5.1522e-07           1.8e-13               5.2808e-10            5.1496e-07           
  -3.3                  -5.1736e-07           8e-14                 7.8092e-10            5.166e-07            
  -3.4                  -5.1962e-07           1.8e-13               1.13012e-09           5.186e-07            
  -3.5                  -5.2202e-07           8e-14                 1.6202e-09            5.2054e-07           
  -3.6                  -5.2444e-07           1.8e-13               2.2686e-09            5.2242e-07           
END_DB

BEGIN_DB
 ICCAP_VAR vg         -1.434         
 ICCAP_VAR vb         -0             
 ICCAP_VAR vs         -0             

 #vd                    id                    ig                    ib                    is                   
  -0                    1.2078e-09            -4e-13                -1.486e-11            -1.0976e-09          
  -0.1                  -3.9512e-06           -2.6e-13              -1.47e-11             3.9542e-06           
  -0.2                  -7.1844e-06           -1.8e-13              -1.444e-11            7.1874e-06           
  -0.3                  -9.6956e-06           -2.2e-13              -1.392e-11            9.698e-06            
  -0.4                  -1.151e-05            -1e-13                -1.31e-11             1.1518e-05           
  -0.5                  -1.2718e-05           -1e-13                -1.244e-11            1.2726e-05           
  -0.6                  -1.3444e-05           -1.6e-13              -1.178e-11            1.345e-05            
  -0.7                  -1.3856e-05           -8e-14                -1.108e-11            1.3864e-05           
  -0.8                  -1.41e-05             -1.2e-13              -1.044e-11            1.4106e-05           
  -0.9                  -1.4262e-05           -1e-13                -9.74e-12             1.427e-05            
  -1                    -1.4384e-05           -1.8e-13              -8.88e-12             1.4392e-05           
  -1.1                  -1.4482e-05           -8e-14                -8.32e-12             1.449e-05            
  -1.2                  -1.4566e-05           4e-14                 -7.68e-12             1.4572e-05           
  -1.3                  -1.464e-05            2e-14                 -7.02e-12             1.4646e-05           
  -1.4                  -1.4708e-05           -4e-14                -6.46e-12             1.4712e-05           
  -1.5                  -1.4768e-05           -1.2e-13              -5.74e-12             1.4776e-05           
  -1.6                  -1.4826e-05           -1e-13                -5.18e-12             1.4832e-05           
  -1.7                  -1.488e-05            -8e-14                -4.68e-12             1.4886e-05           
  -1.8                  -1.493e-05            -8e-14                -4.32e-12             1.4938e-05           
  -1.9                  -1.4978e-05           -1e-13                -3.74e-12             1.4986e-05           
  -2                    -1.5026e-05           -1.2e-13              -2.94e-12             1.5034e-05           
  -2.1                  -1.5072e-05           -6e-14                -1.8e-12              1.5078e-05           
  -2.2                  -1.5116e-05           -1.4e-13              0                     1.5122e-05           
  -2.3                  -1.5158e-05           -2e-14                3.98e-12              1.5164e-05           
  -2.4                  -1.52e-05             -6e-14                1.192e-11             1.5208e-05           
  -2.5                  -1.5242e-05           -4e-14                2.746e-11             1.5248e-05           
  -2.6                  -1.5282e-05           -4e-14                5.678e-11             1.5288e-05           
  -2.7                  -1.5322e-05           -4e-14                1.0984e-10            1.5328e-05           
  -2.8                  -1.536e-05            -4e-14                2.0308e-10            1.5368e-05           
  -2.9                  -1.54e-05             0                     3.6128e-10            1.5406e-05           
  -3                    -1.5438e-05           0                     6.2338e-10            1.5442e-05           
  -3.1                  -1.5474e-05           -6e-14                1.04776e-09           1.548e-05            
  -3.2                  -1.5512e-05           -4e-14                1.7244e-09            1.5518e-05           
  -3.3                  -1.555e-05            2e-14                 2.7732e-09            1.5554e-05           
  -3.4                  -1.5588e-05           2e-14                 4.3718e-09            1.5588e-05           
  -3.5                  -1.5626e-05           -1.4e-13              6.7652e-09            1.5624e-05           
  -3.6                  -1.5664e-05           -8e-14                1.03016e-08           1.566e-05            
END_DB

BEGIN_DB
 ICCAP_VAR vg         -2.156         
 ICCAP_VAR vb         -0             
 ICCAP_VAR vs         -0             

 #vd                    id                    ig                    ib                    is                   
  -0                    1.8446e-09            -3.4e-13              -5.26e-12             -1.6378e-09          
  -0.1                  -6.811e-06            -2.8e-13              -5.36e-12             6.814e-06            
  -0.2                  -1.3034e-05           -2.6e-13              -5.26e-12             1.3036e-05           
  -0.3                  -1.8622e-05           -2.8e-13              -4.94e-12             1.8628e-05           
  -0.4                  -2.3572e-05           -2e-13                -4.6e-12              2.3576e-05           
  -0.5                  -2.7896e-05           -1.4e-13              -4.4e-12              2.7898e-05           
  -0.6                  -3.1592e-05           -3.4e-13              -4.02e-12             3.1596e-05           
  -0.7                  -3.4668e-05           -1.8e-13              -3.58e-12             3.4676e-05           
  -0.8                  -3.7174e-05           -2.4e-13              -3.2e-12              3.7176e-05           
  -0.9                  -3.9128e-05           -2.2e-13              -2.8e-12              3.9154e-05           
  -1                    -4.0622e-05           -2.4e-13              -2.34e-12             4.064e-05            
  -1.1                  -4.1724e-05           -8e-14                -2.18e-12             4.1726e-05           
  -1.2                  -4.2532e-05           -2.2e-13              -1.82e-12             4.2534e-05           
  -1.3                  -4.312e-05            -2.2e-13              -1.46e-12             4.3126e-05           
  -1.4                  -4.357e-05            -2.6e-13              -1.1e-12              4.3576e-05           
  -1.5                  -4.3906e-05           -2.8e-13              -7.2e-13              4.3898e-05           
  -1.6                  -4.42e-05             2e-14                 -3.6e-13              4.4204e-05           
  -1.7                  -4.4438e-05           -1.2e-13              -1.2e-13              4.445e-05            
  -1.8                  -4.464e-05            -2.4e-13              1.2e-13               4.4648e-05           
  -1.9                  -4.4836e-05           -1.4e-13              4.8e-13               4.484e-05            
  -2                    -4.501e-05            -1.2e-13              7e-13                 4.5012e-05           
  -2.1                  -4.516e-05            -1.6e-13              9.4e-13               4.516e-05            
  -2.2                  -4.531e-05            -1.8e-13              1.3e-12               4.5326e-05           
  -2.3                  -4.545e-05            -1.2e-13              1.6e-12               4.5444e-05           
  -2.4                  -4.5568e-05           -2.6e-13              2.26e-12              4.5592e-05           
  -2.5                  -4.5694e-05           -1.8e-13              3.78e-12              4.5686e-05           
  -2.6                  -4.5802e-05           -1e-13                7.02e-12              4.581e-05            
  -2.7                  -4.5908e-05           -1.6e-13              1.398e-11             4.5916e-05           
  -2.8                  -4.6024e-05           -1e-13                2.886e-11             4.6026e-05           
  -2.9                  -4.612e-05            -2e-14                5.856e-11             4.6126e-05           
  -3                    -4.6222e-05           -2e-14                1.157e-10             4.6218e-05           
  -3.1                  -4.6326e-05           -2.6e-13              2.2092e-10            4.634e-05            
  -3.2                  -4.6436e-05           -1e-13                4.0782e-10            4.6454e-05           
  -3.3                  -4.655e-05            -8e-14                7.3024e-10            4.6556e-05           
  -3.4                  -4.6626e-05           -1e-13                1.2704e-09            4.6646e-05           
  -3.5                  -4.6736e-05           -4e-14                2.1548e-09            4.6734e-05           
  -3.6                  -4.6826e-05           6e-14                 3.5742e-09            4.6834e-05           
END_DB

BEGIN_DB
 ICCAP_VAR vg         -2.878         
 ICCAP_VAR vb         -0             
 ICCAP_VAR vs         -0             

 #vd                    id                    ig                    ib                    is                   
  -0                    2.0086e-09            -6.8e-13              -2.22e-12             -1.9552e-09          
  -0.1                  -9.0358e-06           -4.6e-13              -2.56e-12             9.0378e-06           
  -0.2                  -1.7566e-05           -3e-13                -2.3e-12              1.757e-05            
  -0.3                  -2.5548e-05           -3.2e-13              -2.26e-12             2.5558e-05           
  -0.4                  -3.296e-05            -2.8e-13              -2.16e-12             3.2962e-05           
  -0.5                  -3.981e-05            -3.4e-13              -1.9e-12              3.9842e-05           
  -0.6                  -4.6112e-05           -3.2e-13              -1.66e-12             4.611e-05            
  -0.7                  -5.179e-05            -3.4e-13              -1.38e-12             5.1808e-05           
  -0.8                  -5.6946e-05           -2.2e-13              -1.08e-12             5.694e-05            
  -0.9                  -6.1482e-05           -2e-13                -8e-13                6.1496e-05           
  -1                    -6.5482e-05           -3e-13                -5.4e-13              6.548e-05            
  -1.1                  -6.8966e-05           -3.4e-13              -2.8e-13              6.8996e-05           
  -1.2                  -7.1968e-05           -2.8e-13              2e-14                 7.1948e-05           
  -1.3                  -7.4462e-05           -2.6e-13              3.2e-13               7.4476e-05           
  -1.4                  -7.6522e-05           -2.2e-13              6e-13                 7.6504e-05           
  -1.5                  -7.8176e-05           -2.4e-13              9.4e-13               7.8162e-05           
  -1.6                  -7.9524e-05           -1.6e-13              1.18e-12              7.9524e-05           
  -1.7                  -8.0638e-05           -2.8e-13              1.38e-12              8.0662e-05           
  -1.8                  -8.155e-05            -1.8e-13              1.66e-12              8.1532e-05           
  -1.9                  -8.2264e-05           -2.4e-13              1.84e-12              8.2286e-05           
  -2                    -8.2852e-05           -1.6e-13              2.06e-12              8.2826e-05           
  -2.1                  -8.3348e-05           -1.6e-13              2.32e-12              8.3328e-05           
  -2.2                  -8.3782e-05           -1e-13                2.4e-12               8.3786e-05           
  -2.3                  -8.4162e-05           -4e-13                2.66e-12              8.4166e-05           
  -2.4                  -8.4466e-05           -1.4e-13              2.86e-12              8.4454e-05           
  -2.5                  -8.477e-05            -1.8e-13              3.04e-12              8.4778e-05           
  -2.6                  -8.5062e-05           -2.2e-13              3.2e-12               8.5028e-05           
  -2.7                  -8.5306e-05           -1e-13                3.74e-12              8.5346e-05           
  -2.8                  -8.5538e-05           -1.6e-13              4.74e-12              8.554e-05            
  -2.9                  -8.5744e-05           -2.8e-13              7.16e-12              8.5746e-05           
  -3                    -8.5956e-05           -1.8e-13              1.224e-11             8.5954e-05           
  -3.1                  -8.6158e-05           -6e-14                2.354e-11             8.6148e-05           
  -3.2                  -8.6352e-05           -1e-13                4.628e-11             8.6338e-05           
  -3.3                  -8.6518e-05           -2e-14                9.154e-11             8.6572e-05           
  -3.4                  -8.6686e-05           -2e-14                1.7706e-10            8.6706e-05           
  -3.5                  -8.6866e-05           -2e-13                3.3348e-10            8.6866e-05           
  -3.6                  -8.7004e-05           -1.2e-13              6.0976e-10            8.7016e-05           
END_DB

BEGIN_DB
 ICCAP_VAR vg         -3.6           
 ICCAP_VAR vb         -0             
 ICCAP_VAR vs         -0             

 #vd                    id                    ig                    ib                    is                   
  -0                    1.824e-09             -5.6e-13              -1.8e-12              -2.178e-09           
  -0.1                  -1.079e-05            -4.8e-13              -1.86e-12             1.0796e-05           
  -0.2                  -2.115e-05            -3.4e-13              -1.64e-12             2.1162e-05           
  -0.3                  -3.1028e-05           -4.6e-13              -1.58e-12             3.104e-05            
  -0.4                  -4.0388e-05           -4.8e-13              -1.42e-12             4.04e-05             
  -0.5                  -4.9268e-05           -3.2e-13              -1.18e-12             4.9268e-05           
  -0.6                  -5.762e-05            -4e-13                -9.2e-13              5.7626e-05           
  -0.7                  -6.5434e-05           -3.4e-13              -6.6e-13              6.5436e-05           
  -0.8                  -7.2706e-05           -3.8e-13              -3.2e-13              7.2718e-05           
