! VERSION = 6.00
BEGIN_HEADER
 ICCAP_INPUTS
  vd         V  D GROUND SMU1 0.1 LIN        1    -0         -3.6       37   -0.1      
  vg         V  G GROUND SMU2 0.001 LIST       2 3 -0.501 -0.701 -0.901
  vb         V  B GROUND SMU4 0.1 CON        -0
  vs         V  S GROUND SMU3 0.1 CON        -0
 ICCAP_OUTPUTS
  id         I  D GROUND SMU1 B
  ig         I  G GROUND SMU2 B
  ib         I  B GROUND SMU4 B
  is         I  S GROUND SMU3 B
 ICCAP_VALUES
  MASTER_SETUP_TYPE "~dc_idvd~"
  LINVT_VALUE ""
  LISTVT_VALUE "|idvg|100.0n|-200.0m|1.000m|3|200.0m|200.0m|"
  TYPE "-1"
  TEMP "-40.0000 "
  IS_TNOM " 0.00000 "
  MAIN.W "10.00u"
  MAIN.L "350.0n"
  MAIN.AD "3.400p"
  MAIN.AS "3.400p"
  MAIN.PD "20.68u"
  MAIN.PS "20.68u"
  MAIN.NF "1.000"
  MAIN.M "1"
  MAIN.NRD "0.000"
  MAIN.NRS "0.000"
  MAIN.LDRIFT1 "1E-06"
  MAIN.LDRIFT2 "1E-06"
  MAIN.SA "0.000"
  MAIN.SB "0.000"
  MAIN.SD "0.000"
  MAIN.SCA "0.000"
  MAIN.SCB "0.000"
  MAIN.SCC "0.000"
  MAIN.SC "0.000"
  MODULE "S561"
  PIN_D "16"
  PIN_G "5"
  PIN_S "6"
  PIN_B "15"
  PIN_E ""
  PIN_6 ""
  XY_ID ""
  FUNC "Short"
  STI "SA ref"
  WPE "WPE ref"
  COMMENT ""
  DIS_MEAS ""
  TypeTCI "10"
END_HEADER

BEGIN_DB
 ICCAP_VAR vg         -0.501         
 ICCAP_VAR vb         -0             
 ICCAP_VAR vs         -0             

 #vd                    id                    ig                    ib                    is                   
  -0                    1.52e-12              4.2e-13               -8e-14                -1.132e-11           
  -0.1                  -4.253e-09            5.6e-13               2e-14                 4.254e-09            
  -0.2                  -4.546e-09            2e-13                 -4e-14                4.545e-09            
  -0.3                  -4.7676e-09           2e-13                 -6e-14                4.769e-09            
  -0.4                  -4.9632e-09           2e-13                 -2e-14                4.9672e-09           
  -0.5                  -5.151e-09            2.4e-13               2e-14                 5.1516e-09           
  -0.6                  -5.325e-09            6.6e-13               -8e-14                5.325e-09            
  -0.7                  -5.4886e-09           -8e-14                2e-14                 5.49e-09             
  -0.8                  -5.6502e-09           1.2e-13               2e-14                 5.6478e-09           
  -0.9                  -5.8008e-09           3.2e-13               -1e-13                5.7996e-09           
  -1                    -5.9554e-09           1.4e-13               4e-14                 5.9602e-09           
  -1.1                  -6.113e-09            3.6e-13               -1e-13                6.1102e-09           
  -1.2                  -6.2666e-09           4.4e-13               -6e-14                6.2658e-09           
  -1.3                  -6.411e-09            2.8e-13               4e-14                 6.4156e-09           
  -1.4                  -6.5596e-09           1.8e-13               -1.8e-13              6.5612e-09           
  -1.5                  -6.7114e-09           2e-13                 -4e-14                6.712e-09            
  -1.6                  -6.8628e-09           3.4e-13               -1e-13                6.8666e-09           
  -1.7                  -7.0156e-09           1.6e-13               4e-14                 7.011e-09            
  -1.8                  -7.1664e-09           1.8e-13               0                     7.1696e-09           
  -1.9                  -7.3256e-09           0                     1.2e-13               7.3248e-09           
  -2                    -7.4818e-09           3e-13                 -8e-14                7.484e-09            
  -2.1                  -7.6438e-09           6.4e-13               8e-14                 7.6408e-09           
  -2.2                  -7.7976e-09           -1.4e-13              1.8e-13               7.7962e-09           
  -2.3                  -7.9616e-09           0                     3.4e-13               7.9594e-09           
  -2.4                  -8.127e-09            -8e-14                6.2e-13               8.1262e-09           
  -2.5                  -8.2976e-09           3.8e-13               9.8e-13               8.2932e-09           
  -2.6                  -8.466e-09            3.2e-13               1.88e-12              8.463e-09            
  -2.7                  -8.6392e-09           4e-14                 2.88e-12              8.633e-09            
  -2.8                  -8.8144e-09           -4e-14                4.74e-12              8.8074e-09           
  -2.9                  -8.998e-09            2e-14                 7.46e-12              8.987e-09            
  -3                    -9.1824e-09           1.6e-13               1.152e-11             9.1738e-09           
  -3.1                  -9.3714e-09           2e-13                 1.748e-11             9.3566e-09           
  -3.2                  -9.577e-09            2e-13                 2.612e-11             9.544e-09            
  -3.3                  -9.784e-09            1.2e-13               3.846e-11             9.745e-09            
  -3.4                  -9.9966e-09           1.8e-13               5.526e-11             9.937e-09            
  -3.5                  -1.0221e-08           1.8e-13               7.862e-11             1.01418e-08          
  -3.6                  -1.04546e-08          2.6e-13               1.0972e-10            1.03556e-08          
END_DB

BEGIN_DB
 ICCAP_VAR vg         -0.701         
 ICCAP_VAR vb         -0             
 ICCAP_VAR vs         -0             

 #vd                    id                    ig                    ib                    is                   
  -0                    2.0572e-09            6e-14                 -1.2e-13              -2.4208e-09          
  -0.1                  -1.6032e-06           -1.4e-13              -8e-14                1.6058e-06           
  -0.2                  -1.7704e-06           2.2e-13               -8e-14                1.774e-06            
  -0.3                  -1.8644e-06           -2e-14                8e-14                 1.868e-06            
  -0.4                  -1.9388e-06           -1.6e-13              4e-14                 1.9434e-06           
  -0.5                  -2.0048e-06           4e-14                 0                     2.0086e-06           
  -0.6                  -2.0636e-06           -2e-14                -4e-14                2.0672e-06           
  -0.7                  -2.1182e-06           3e-13                 -1.4e-13              2.122e-06            
  -0.8                  -2.169e-06            -1.2e-13              -1.8e-13              2.1726e-06           
  -0.9                  -2.2184e-06           -1.4e-13              -2e-14                2.2222e-06           
  -1                    -2.2656e-06           1.4e-13               0                     2.269e-06            
  -1.1                  -2.3106e-06           -6e-14                -1.6e-13              2.3148e-06           
  -1.2                  -2.3556e-06           1e-13                 -2e-14                2.3588e-06           
  -1.3                  -2.3994e-06           -4e-14                -4e-14                2.4028e-06           
  -1.4                  -2.4426e-06           1.6e-13               -1.2e-13              2.446e-06            
  -1.5                  -2.4862e-06           3.8e-13               -4e-14                2.4894e-06           
  -1.6                  -2.5278e-06           -4e-14                4e-14                 2.5316e-06           
  -1.7                  -2.5698e-06           -8e-14                2.8e-13               2.574e-06            
  -1.8                  -2.613e-06            2.8e-13               9.2e-13               2.6158e-06           
  -1.9                  -2.6546e-06           3.2e-13               2.22e-12              2.6576e-06           
  -2                    -2.697e-06            -1.8e-13              5.34e-12              2.7022e-06           
  -2.1                  -2.7418e-06           0                     1.16e-11              2.7448e-06           
  -2.2                  -2.7838e-06           2.8e-13               2.374e-11             2.7876e-06           
  -2.3                  -2.8274e-06           3e-13                 4.618e-11             2.8314e-06           
  -2.4                  -2.8706e-06           2.6e-13               8.644e-11             2.8738e-06           
  -2.5                  -2.9138e-06           3.6e-13               1.5654e-10            2.9172e-06           
  -2.6                  -2.9538e-06           2e-13                 2.7512e-10            2.9566e-06           
  -2.7                  -2.9972e-06           1.6e-13               4.715e-10             3.0008e-06           
  -2.8                  -3.0414e-06           1.6e-13               7.8784e-10            3.0456e-06           
  -2.9                  -3.0894e-06           3.4e-13               1.2884e-09            3.0974e-06           
  -3                    -3.1432e-06           1.8e-13               2.0564e-09            3.1444e-06           
  -3.1                  -3.191e-06            6e-14                 3.2084e-09            3.1902e-06           
  -3.2                  -3.2404e-06           4e-14                 4.9302e-09            3.2528e-06           
  -3.3                  -3.3076e-06           4e-14                 7.419e-09             3.309e-06            
  -3.4                  -3.3744e-06           1.6e-13               1.09444e-08           3.3704e-06           
  -3.5                  -3.4514e-06           1.8e-13               1.5876e-08            3.442e-06            
  -3.6                  -3.5114e-06           2.8e-13               2.2666e-08            3.5018e-06           
END_DB

BEGIN_DB
 ICCAP_VAR vg         -0.901         
 ICCAP_VAR vb         -0             
 ICCAP_VAR vs         -0             

 #vd                    id                    ig                    ib                    is                   
  -0                    1.7264e-08            0                     -1.4e-13              -1.6192e-08          
  -0.1                  -2.5826e-05           -3e-13                -2e-14                2.584e-05            
  -0.2                  -3.3698e-05           3.6e-13               -6e-14                3.3716e-05           
  -0.3                  -3.614e-05            -1.4e-13              -6e-14                3.6158e-05           
  -0.4                  -3.7424e-05           8e-14                 0                     3.7442e-05           
  -0.5                  -3.8352e-05           -4e-14                -1e-13                3.8372e-05           
  -0.6                  -3.911e-05            2.4e-13               -6e-14                3.9112e-05           
  -0.7                  -3.9752e-05           -1e-13                2e-14                 3.977e-05            
  -0.8                  -4.035e-05            -2.4e-13              -4e-14                4.0392e-05           
  -0.9                  -4.092e-05            2.2e-13               -6e-14                4.094e-05            
  -1                    -4.1426e-05           1.2e-13               2e-14                 4.1444e-05           
  -1.1                  -4.1908e-05           -3.6e-13              0                     4.1928e-05           
  -1.2                  -4.2364e-05           -2e-13                -1.6e-13              4.2382e-05           
  -1.3                  -4.2794e-05           8e-14                 0                     4.2816e-05           
  -1.4                  -4.3216e-05           2.6e-13               0                     4.3236e-05           
  -1.5                  -4.3626e-05           -2.6e-13              -2e-14                4.3648e-05           
  -1.6                  -4.4036e-05           1.6e-13               2.2e-13               4.4036e-05           
  -1.7                  -4.4412e-05           -1.4e-13              9.6e-13               4.4426e-05           
  -1.8                  -4.4802e-05           3.8e-13               3.26e-12              4.4822e-05           
  -1.9                  -4.5188e-05           -8e-14                9.82e-12              4.5206e-05           
  -2                    -4.5572e-05           -2.8e-13              2.6e-11               4.5586e-05           
  -2.1                  -4.5948e-05           2.8e-13               6.156e-11             4.5966e-05           
  -2.2                  -4.6328e-05           -6e-14                1.361e-10             4.6352e-05           
  -2.3                  -4.6712e-05           3.2e-13               2.8244e-10            4.673e-05            
  -2.4                  -4.709e-05            -2e-14                5.5756e-10            4.7104e-05           
  -2.5                  -4.7458e-05           -2e-13                1.05706e-09           4.7486e-05           
  -2.6                  -4.7854e-05           2.4e-13               1.9352e-09            4.7878e-05           
  -2.7                  -4.8232e-05           3.2e-13               3.4344e-09            4.824e-05            
  -2.8                  -4.8606e-05           1.6e-13               5.9262e-09            4.8616e-05           
  -2.9                  -4.899e-05            -1.2e-13              9.9634e-09            4.8988e-05           
  -3                    -4.9358e-05           0                     1.6362e-08            4.9394e-05           
  -3.1                  -4.9772e-05           -1.2e-13              2.6196e-08            4.977e-05            
  -3.2                  -5.0176e-05           -3.2e-13              4.1096e-08            5.0166e-05           
  -3.3                  -5.0626e-05           -4e-14                6.3244e-08            5.0662e-05           
  -3.4                  -5.1146e-05           6e-14                 9.522e-08             5.1118e-05           
  -3.5                  -5.1736e-05           -2e-13                1.4088e-07            5.164e-05            
  -3.6                  -5.2282e-05           -8e-14                2.0502e-07            5.2216e-05           
END_DB

