! VERSION = 6.00
BEGIN_HEADER
 ICCAP_INPUTS
  vg         V  G GROUND SMU2 0.001 LIN        1    0.5        -3.6       83   -0.05     
  vb         V  B GROUND SMU4 0.1 LIN        2    0          3.6        5    0.9       
  vd         V  D GROUND SMU1 0.1 LIN        3    -0.1       -3.3       3    -1.6      
  vs         V  S GROUND SMU3 0.1 CON        -0
 ICCAP_OUTPUTS
  id         I  D GROUND SMU1 B
  ig         I  G GROUND SMU2 B
  ib         I  B GROUND SMU4 B
  is         I  S GROUND SMU3 B
 ICCAP_VALUES
  MASTER_SETUP_TYPE "~dc_idvg~"
  LINVT_VALUE ""
  LISTVT_VALUE ""
  TYPE "-1"
  TEMP " 27.0000 "
  IS_TNOM " 1.00000 "
  MAIN.W "2.000u"
  MAIN.L "330.0n"
  MAIN.AD "680.0f"
  MAIN.AS "680.0f"
  MAIN.PD "4.680u"
  MAIN.PS "4.680u"
  MAIN.NF "1.000"
  MAIN.M "1"
  MAIN.NRD "0.000"
  MAIN.NRS "0.000"
  MAIN.LDRIFT1 "1E-06"
  MAIN.LDRIFT2 "1E-06"
  MAIN.SA "0.000"
  MAIN.SB "0.000"
  MAIN.SD "0.000"
  MAIN.SCA "0.000"
  MAIN.SCB "0.000"
  MAIN.SCC "0.000"
  MAIN.SC "0.000"
  MODULE "S563"
  PIN_D "18"
  PIN_G "3"
  PIN_S "4"
  PIN_B "17"
  PIN_E ""
  PIN_6 ""
  XY_ID ""
  FUNC "Additional"
  STI "SA ref"
  WPE "WPE ref"
  COMMENT ""
  DIS_MEAS ""
  TypeTCI "10"
END_HEADER

BEGIN_DB
 ICCAP_VAR vb         0              
 ICCAP_VAR vd         -0.1           
 ICCAP_VAR vs         -0             

 #vg                    id                    ig                    ib                    is                   
  0.5                   -1.4e-13              1.752e-11             -4.4e-12              1.2e-13              
  0.45                  -1.4e-13              2.54e-12              -1.04e-12             -2e-14               
  0.4                   -2.2e-13              5e-13                 -5.2e-13              2e-14                
  0.35                  -4e-14                2e-14                 -3.6e-13              1e-13                
  0.3                   -1.8e-13              -1e-13                -3.2e-13              -2e-14               
  0.25                  4e-14                 -2.4e-13              -5e-13                2e-14                
  0.2                   -1.4e-13              -2e-13                -3.4e-13              1e-13                
  0.15                  0                     -1.4e-13              -4.6e-13              0                    
  0.1                   -2e-14                -3e-13                -3.6e-13              1e-13                
  0.05                  -2e-14                -3.4e-13              -4.8e-13              8e-14                
  0                     -2e-13                -2.8e-13              -3e-13                2.8e-13              
  -0.05                 -4.6e-13              -4.8e-13              -4.6e-13              7e-13                
  -0.1                  -1.76e-12             -3.6e-13              -4.4e-13              1.88e-12             
  -0.15                 -5.88e-12             -3.8e-13              -3.8e-13              5.94e-12             
  -0.2                  -1.99e-11             -4.4e-13              -4.8e-13              2.012e-11            
  -0.25                 -6.822e-11            -2.4e-13              -4.8e-13              6.832e-11            
  -0.3                  -2.3494e-10           -3.4e-13              -3.4e-13              2.3474e-10           
  -0.35                 -8.1774e-10           -3.4e-13              -5e-13                8.1682e-10           
  -0.4                  -2.834e-09            -4.4e-13              -4e-13                2.8348e-09           
  -0.45                 -9.7594e-09           -4.6e-13              -3.8e-13              9.7596e-09           
  -0.5                  -3.2868e-08           -4.2e-13              -4e-13                3.2894e-08           
  -0.55                 -1.04858e-07          -4e-13                -3.2e-13              1.0488e-07           
  -0.6                  -2.9864e-07           -3.8e-13              -4.2e-13              2.988e-07            
  -0.65                 -7.2868e-07           -4.4e-13              -3.6e-13              7.2854e-07           
  -0.7                  -1.4946e-06           -3.6e-13              -5.2e-13              1.4982e-06           
  -0.75                 -2.6228e-06           -3e-13                -3.4e-13              2.6268e-06           
  -0.8                  -4.033e-06            -4.4e-13              -5e-13                4.037e-06            
  -0.85                 -5.6218e-06           -4e-13                -2.6e-13              5.6258e-06           
  -0.9                  -7.2766e-06           -5.4e-13              -3.6e-13              7.2806e-06           
  -0.95                 -8.9466e-06           -4.4e-13              -4.4e-13              8.9432e-06           
  -1                    -1.05724e-05          -3.2e-13              -3e-13                1.05754e-05          
  -1.05                 -1.2162e-05           -4.6e-13              -4.2e-13              1.2182e-05           
  -1.1                  -1.3704e-05           -5.4e-13              -5.2e-13              1.372e-05            
  -1.15                 -1.5194e-05           -5.8e-13              -3.4e-13              1.5212e-05           
  -1.2                  -1.6632e-05           -5.6e-13              -4.6e-13              1.6652e-05           
  -1.25                 -1.8016e-05           -5.4e-13              -4.8e-13              1.8038e-05           
  -1.3                  -1.937e-05            -5e-13                -2.8e-13              1.939e-05            
  -1.35                 -2.0674e-05           -6.2e-13              -5.4e-13              2.0694e-05           
  -1.4                  -2.1944e-05           -5.2e-13              -3.4e-13              2.1964e-05           
  -1.45                 -2.3168e-05           -5.8e-13              -4.8e-13              2.3186e-05           
  -1.5                  -2.4366e-05           -6.2e-13              -4.2e-13              2.4388e-05           
  -1.55                 -2.5526e-05           -6e-13                -4e-13                2.5546e-05           
  -1.6                  -2.6658e-05           -5.8e-13              -4e-13                2.6678e-05           
  -1.65                 -2.7758e-05           -5.8e-13              -3.8e-13              2.7778e-05           
  -1.7                  -2.883e-05            -5e-13                -3.8e-13              2.885e-05            
  -1.75                 -2.9876e-05           -6e-13                -3.6e-13              2.9896e-05           
  -1.8                  -3.0894e-05           -5.2e-13              -2.6e-13              3.0914e-05           
  -1.85                 -3.1884e-05           -6e-13                -4.6e-13              3.1906e-05           
  -1.9                  -3.2854e-05           -5.6e-13              -2.6e-13              3.2874e-05           
  -1.95                 -3.3804e-05           -6.8e-13              -3.6e-13              3.3824e-05           
  -2                    -3.4722e-05           -7.2e-13              -3.4e-13              3.4744e-05           
  -2.05                 -3.5624e-05           -7.2e-13              -3.6e-13              3.565e-05            
  -2.1                  -3.6506e-05           -7.2e-13              -4.8e-13              3.6534e-05           
  -2.15                 -3.7376e-05           -6.2e-13              -3.2e-13              3.7392e-05           
  -2.2                  -3.8214e-05           -7.2e-13              -4.4e-13              3.8232e-05           
  -2.25                 -3.9036e-05           -6.8e-13              -4e-13                3.9056e-05           
  -2.3                  -3.9852e-05           -7e-13                -4.4e-13              3.9866e-05           
  -2.35                 -4.064e-05            -6e-13                -3.8e-13              4.0662e-05           
  -2.4                  -4.1416e-05           -7.4e-13              -3.4e-13              4.1436e-05           
  -2.45                 -4.2166e-05           -7e-13                -5.2e-13              4.2186e-05           
  -2.5                  -4.2912e-05           -6.8e-13              -3.2e-13              4.293e-05            
  -2.55                 -4.3626e-05           -7.2e-13              -5e-13                4.3648e-05           
  -2.6                  -4.4344e-05           -6e-13                -3.2e-13              4.4356e-05           
  -2.65                 -4.5038e-05           -6.2e-13              -3.4e-13              4.5056e-05           
  -2.7                  -4.572e-05            -7.4e-13              -2.8e-13              4.5748e-05           
  -2.75                 -4.6396e-05           -6e-13                -4e-13                4.6416e-05           
  -2.8                  -4.7052e-05           -5.8e-13              -2.2e-13              4.7064e-05           
  -2.85                 -4.769e-05            -8.2e-13              -4.8e-13              4.771e-05            
  -2.9                  -4.833e-05            -6.8e-13              -1.6e-13              4.8352e-05           
  -2.95                 -4.8946e-05           -7.6e-13              -3.2e-13              4.897e-05            
  -3                    -4.956e-05            -8e-13                -2.6e-13              4.9578e-05           
  -3.05                 -5.015e-05            -7e-13                -4.6e-13              5.0168e-05           
  -3.1                  -5.0738e-05           -6.8e-13              -4e-13                5.0758e-05           
  -3.15                 -5.1306e-05           -8.6e-13              -4.2e-13              5.1326e-05           
  -3.2                  -5.1876e-05           -6.4e-13              -4.2e-13              5.1884e-05           
  -3.25                 -5.2426e-05           -7.4e-13              -3.6e-13              5.2446e-05           
  -3.3                  -5.2966e-05           -6.8e-13              -4.2e-13              5.2982e-05           
  -3.35                 -5.3506e-05           -7.4e-13              -3.6e-13              5.3528e-05           
  -3.4                  -5.4026e-05           -7.8e-13              -3e-13                5.4046e-05           
  -3.45                 -5.4542e-05           -6.6e-13              -5.4e-13              5.4554e-05           
  -3.5                  -5.5036e-05           -7e-13                -3e-13                5.5056e-05           
  -3.55                 -5.5524e-05           -7.4e-13              -3.6e-13              5.5542e-05           
  -3.6                  -5.6014e-05           -8.4e-13              -3.6e-13              5.603e-05            
END_DB

BEGIN_DB
 ICCAP_VAR vb         0.9            
 ICCAP_VAR vd         -0.1           
 ICCAP_VAR vs         -0             

 #vg                    id                    ig                    ib                    is                   
  0.5                   -4e-14                6e-13                 4e-13                 -1.2e-13             
  0.45                  -6e-14                1.6e-13               3.6e-13               6e-14                
  0.4                   -8e-14                3e-13                 4e-13                 -8e-14               
  0.35                  1e-13                 8e-14                 3e-13                 1.2e-13              
  0.3                   -1.2e-13              2e-13                 1.6e-13               0                    
  0.25                  -2e-14                4e-14                 4.2e-13               0                    
  0.2                   2e-14                 2e-14                 2.6e-13               6e-14                
  0.15                  -1.4e-13              6e-14                 2.6e-13               4e-14                
  0.1                   8e-14                 0                     3.2e-13               0                    
  0.05                  1.8e-13               -1e-13                1.4e-13               4e-14                
  0                     -4e-14                -2.2e-13              1.8e-13               1.2e-13              
  -0.05                 4e-14                 -1.2e-13              2.2e-13               -8e-14               
  -0.1                  1e-13                 -1.6e-13              2.4e-13               1.2e-13              
  -0.15                 2e-14                 -2.8e-13              1e-13                 2e-13                
  -0.2                  -1.6e-13              -1.4e-13              1.2e-13               1e-13                
  -0.25                 1.8e-13               -2.6e-13              2.2e-13               6e-14                
  -0.3                  2e-14                 -2.6e-13              8e-14                 2e-13                
  -0.35                 -1e-13                -1.4e-13              1.8e-13               -2e-14               
  -0.4                  1e-13                 -2.2e-13              1.6e-13               3.2e-13              
  -0.45                 -6.6e-13              -2.6e-13              0                     6.4e-13              
  -0.5                  -2.56e-12             -3e-13                1.6e-13               2.64e-12             
  -0.55                 -1.012e-11            -2.8e-13              4e-14                 1.022e-11            
  -0.6                  -4.054e-11            -3e-13                1.4e-13               4.052e-11            
  -0.65                 -1.5954e-10           -4.2e-13              1.6e-13               1.5964e-10           
  -0.7                  -6.279e-10            -4.6e-13              1.4e-13               6.2784e-10           
  -0.75                 -2.4556e-09           -3.4e-13              4e-14                 2.4574e-09           
  -0.8                  -9.3402e-09           -3e-13                2e-13                 9.3298e-09           
  -0.85                 -3.4242e-08           -3.2e-13              4e-14                 3.426e-08            
  -0.9                  -1.14174e-07          -3.6e-13              2e-13                 1.14166e-07          
  -0.95                 -3.3184e-07           -3.4e-13              -4e-14                3.3142e-07           
  -1                    -8.0192e-07           -5.2e-13              1.8e-13               8.0252e-07           
  -1.05                 -1.6088e-06           -3.2e-13              4e-14                 1.6106e-06           
  -1.1                  -2.7434e-06           -4.2e-13              1.4e-13               2.748e-06            
  -1.15                 -4.1294e-06           -4.2e-13              6e-14                 4.1322e-06           
  -1.2                  -5.6446e-06           -4.2e-13              6e-14                 5.6488e-06           
  -1.25                 -7.214e-06            -4.8e-13              1.6e-13               7.2176e-06           
  -1.3                  -8.7762e-06           -4e-13                6e-14                 8.7798e-06           
  -1.35                 -1.02952e-05          -5.2e-13              -2e-14                1.02996e-05          
  -1.4                  -1.1764e-05           -4.4e-13              -4e-14                1.1786e-05           
  -1.45                 -1.3186e-05           -4.2e-13              6e-14                 1.3206e-05           
  -1.5                  -1.4564e-05           -5e-13                4e-14                 1.4584e-05           
  -1.55                 -1.5888e-05           -6.2e-13              -2e-14                1.5908e-05           
  -1.6                  -1.7164e-05           -4e-13                1.6e-13               1.7184e-05           
  -1.65                 -1.8404e-05           -5.6e-13              -6e-14                1.8424e-05           
  -1.7                  -1.9606e-05           -4.2e-13              6e-14                 1.9622e-05           
  -1.75                 -2.0776e-05           -5.4e-13              2e-14                 2.0796e-05           
  -1.8                  -2.1906e-05           -4e-13                4e-14                 2.1928e-05           
  -1.85                 -2.3006e-05           -5.8e-13              1.2e-13               2.3026e-05           
  -1.9                  -2.4076e-05           -6.6e-13              2e-14                 2.409e-05            
  -1.95                 -2.512e-05            -5.2e-13              2e-14                 2.514e-05            
  -2                    -2.6132e-05           -5.6e-13              2e-14                 2.6152e-05           
  -2.05                 -2.7114e-05           -6.4e-13              1.8e-13               2.7142e-05           
  -2.1                  -2.8086e-05           -5.8e-13              -4e-14                2.8098e-05           
  -2.15                 -2.9026e-05           -6.8e-13              -6e-14                2.904e-05            
  -2.2                  -2.9928e-05           -6.6e-13              -8e-14                2.9964e-05           
  -2.25                 -3.084e-05            -5.2e-13              2e-14                 3.0854e-05           
  -2.3                  -3.172e-05            -5.8e-13              8e-14                 3.1734e-05           
  -2.35                 -3.2566e-05           -6.4e-13              2e-14                 3.2584e-05           
  -2.4                  -3.3404e-05           -5e-13                4e-14                 3.3426e-05           
  -2.45                 -3.4226e-05           -5.8e-13              -6e-14                3.4246e-05           
  -2.5                  -3.5016e-05           -6.4e-13              6e-14                 3.5038e-05           
  -2.55                 -3.5794e-05           -7e-13                6e-14                 3.5816e-05           
  -2.6                  -3.6562e-05           -5.8e-13              1.2e-13               3.6584e-05           
  -2.65                 -3.7322e-05           -7.6e-13              0                     3.7342e-05           
  -2.7                  -3.805e-05            -5.2e-13              1.2e-13               3.8072e-05           
  -2.75                 -3.877e-05            -6.6e-13              4e-14                 3.8792e-05           
  -2.8                  -3.9474e-05           -6.4e-13              -2e-14                3.949e-05            
  -2.85                 -4.0168e-05           -6e-13                6e-14                 4.0186e-05           
  -2.9                  -4.0838e-05           -7.4e-13              -2e-14                4.086e-05            
  -2.95                 -4.1506e-05           -6.8e-13              1e-13                 4.1526e-05           
  -3                    -4.2156e-05           -7.2e-13              -8e-14                4.217e-05            
  -3.05                 -4.2794e-05           -7.2e-13              6e-14                 4.2816e-05           
  -3.1                  -4.3424e-05           -8e-13                2e-14                 4.345e-05            
  -3.15                 -4.4042e-05           -6.6e-13              -1e-13                4.406e-05            
  -3.2                  -4.464e-05            -6.6e-13              2e-14                 4.4658e-05           
  -3.25                 -4.5236e-05           -6.6e-13              -1e-13                4.5248e-05           
  -3.3                  -4.5814e-05           -6.8e-13              6e-14                 4.5838e-05           
  -3.35                 -4.6392e-05           -7.8e-13              -1e-13                4.6414e-05           
  -3.4                  -4.6952e-05           -7.8e-13              -6e-14                4.6952e-05           
  -3.45                 -4.7488e-05           -7.2e-13              6e-14                 4.7522e-05           
