! VERSION = 6.00
BEGIN_HEADER
 ICCAP_INPUTS
  vd         V  D GROUND SMU1 0.1 LIN        1    -0         -3.6       37   -0.1      
  vg         V  G GROUND SMU2 0.001 LIN        2    -2.016     -3.6       5    -0.396    
  vb         V  B GROUND SMU4 0.1 CON        3.6
  vs         V  S GROUND SMU3 0.1 CON        -0
 ICCAP_OUTPUTS
  id         I  D GROUND SMU1 B
  ig         I  G GROUND SMU2 B
  ib         I  B GROUND SMU4 B
  is         I  S GROUND SMU3 B
 ICCAP_VALUES
  MASTER_SETUP_TYPE "~dc_idvd~"
  LINVT_VALUE "|idvg|100.0n|100.0m|1.000m|5|3.600|"
  LISTVT_VALUE ""
  TYPE "-1"
  TEMP "-40.0000 "
  IS_TNOM " 0.00000 "
  MAIN.W "300.0n"
  MAIN.L "10.00u"
  MAIN.AD "102.0f"
  MAIN.AS "102.0f"
  MAIN.PD "1.280u"
  MAIN.PS "1.280u"
  MAIN.NF "1.000"
  MAIN.M "1"
  MAIN.NRD "0.000"
  MAIN.NRS "0.000"
  MAIN.LDRIFT1 "1E-06"
  MAIN.LDRIFT2 "1E-06"
  MAIN.SA "0.000"
  MAIN.SB "0.000"
  MAIN.SD "0.000"
  MAIN.SCA "0.000"
  MAIN.SCB "0.000"
  MAIN.SCC "0.000"
  MAIN.SC "0.000"
  MODULE "S555"
  PIN_D "14"
  PIN_G "7"
  PIN_S "8"
  PIN_B "13"
  PIN_E ""
  PIN_6 ""
  XY_ID ""
  FUNC "Narrow"
  STI "SA ref"
  WPE "WPE ref"
  COMMENT ""
  DIS_MEAS ""
  TypeTCI "10"
END_HEADER

BEGIN_DB
 ICCAP_VAR vg         -2.016         
 ICCAP_VAR vb         3.6            
 ICCAP_VAR vs         -0             

 #vd                    id                    ig                    ib                    is                   
  -0                    7.58e-12              -8.6e-13              8.4e-13               -8.34e-12            
  -0.1                  -1.0238e-08           -6e-13                7.4e-13               1.0262e-08           
  -0.2                  -1.2392e-08           -3.6e-13              6.8e-13               1.2416e-08           
  -0.3                  -1.2508e-08           -4e-13                6.4e-13               1.2532e-08           
  -0.4                  -1.2514e-08           -6e-13                6.2e-13               1.2536e-08           
  -0.5                  -1.2516e-08           -4.2e-13              5.4e-13               1.2538e-08           
  -0.6                  -1.2518e-08           -5.4e-13              5.4e-13               1.254e-08            
  -0.7                  -1.2518e-08           -2.4e-13              4e-13                 1.2542e-08           
  -0.8                  -1.2522e-08           -2e-13                4.2e-13               1.2542e-08           
  -0.9                  -1.2522e-08           -2e-13                3.6e-13               1.2546e-08           
  -1                    -1.2524e-08           -1.6e-13              3.4e-13               1.2548e-08           
  -1.1                  -1.2528e-08           -4e-14                3.6e-13               1.2548e-08           
  -1.2                  -1.2528e-08           -1.6e-13              3.4e-13               1.255e-08            
  -1.3                  -1.253e-08            -1e-13                3.2e-13               1.255e-08            
  -1.4                  -1.253e-08            -1.8e-13              4.6e-13               1.255e-08            
  -1.5                  -1.2526e-08           -2.8e-13              3.4e-13               1.2554e-08           
  -1.6                  -1.253e-08            -1.2e-13              2.2e-13               1.2556e-08           
  -1.7                  -1.2534e-08           -1.6e-13              1.8e-13               1.2554e-08           
  -1.8                  -1.2534e-08           -8e-14                1.8e-13               1.2556e-08           
  -1.9                  -1.2534e-08           -2.6e-13              3.2e-13               1.2556e-08           
  -2                    -1.2536e-08           -1e-13                2.8e-13               1.2558e-08           
  -2.1                  -1.2534e-08           -1.4e-13              2.6e-13               1.256e-08            
  -2.2                  -1.2538e-08           -6e-14                2.4e-13               1.2554e-08           
  -2.3                  -1.2534e-08           -2.2e-13              1.2e-13               1.2556e-08           
  -2.4                  -1.2538e-08           -3e-13                1.8e-13               1.2562e-08           
  -2.5                  -1.2542e-08           -8e-14                2.2e-13               1.256e-08            
  -2.6                  -1.2538e-08           2e-14                 1.8e-13               1.2566e-08           
  -2.7                  -1.2544e-08           2e-14                 2.8e-13               1.2566e-08           
  -2.8                  -1.2544e-08           8e-14                 3e-13                 1.2568e-08           
  -2.9                  -1.2546e-08           -1.2e-13              3.2e-13               1.2568e-08           
  -3                    -1.2546e-08           -6e-14                5.8e-13               1.2568e-08           
  -3.1                  -1.2544e-08           -2e-13                8.2e-13               1.2564e-08           
  -3.2                  -1.2544e-08           -1.6e-13              1.34e-12              1.2564e-08           
  -3.3                  -1.255e-08            -1e-13                2.34e-12              1.257e-08            
  -3.4                  -1.2554e-08           -1.8e-13              4.08e-12              1.257e-08            
  -3.5                  -1.2556e-08           -1e-13                6.88e-12              1.257e-08            
  -3.6                  -1.2558e-08           0                     1.128e-11             1.2572e-08           
END_DB

BEGIN_DB
 ICCAP_VAR vg         -2.412         
 ICCAP_VAR vb         3.6            
 ICCAP_VAR vs         -0             

 #vd                    id                    ig                    ib                    is                   
  -0                    2.962e-11             -3.2e-13              2e-13                 -3.198e-11           
  -0.1                  -5.5796e-08           -2e-13                2e-13                 5.5838e-08           
  -0.2                  -9.6198e-08           -1.4e-13              2e-13                 9.624e-08            
  -0.3                  -1.2184e-07           -3.2e-13              1e-13                 1.22e-07             
  -0.4                  -1.3484e-07           -1e-13                1.6e-13               1.3504e-07           
  -0.5                  -1.3912e-07           -2e-14                2e-14                 1.3932e-07           
  -0.6                  -1.3984e-07           -6e-14                6e-14                 1.4004e-07           
  -0.7                  -1.3996e-07           0                     6e-14                 1.4014e-07           
  -0.8                  -1.4e-07              0                     6e-14                 1.4018e-07           
  -0.9                  -1.4004e-07           -2e-14                1.4e-13               1.4022e-07           
  -1                    -1.4006e-07           -4e-14                8e-14                 1.402e-07            
  -1.1                  -1.4006e-07           0                     4e-14                 1.4024e-07           
  -1.2                  -1.4014e-07           2e-14                 4e-14                 1.403e-07            
  -1.3                  -1.4014e-07           -6e-14                0                     1.4034e-07           
  -1.4                  -1.4018e-07           -4e-14                6e-14                 1.4034e-07           
  -1.5                  -1.4016e-07           -1e-13                1e-13                 1.4034e-07           
  -1.6                  -1.4018e-07           8e-14                 8e-14                 1.4036e-07           
  -1.7                  -1.402e-07            -1.2e-13              -4e-14                1.4036e-07           
  -1.8                  -1.4022e-07           -8e-14                4e-14                 1.404e-07            
  -1.9                  -1.4024e-07           -3.2e-13              0                     1.4042e-07           
  -2                    -1.4024e-07           -2.2e-13              -1e-13                1.4042e-07           
  -2.1                  -1.4028e-07           -4e-14                4e-14                 1.4042e-07           
  -2.2                  -1.4028e-07           -4e-14                -6e-14                1.4046e-07           
  -2.3                  -1.403e-07            2e-14                 -4e-14                1.4046e-07           
  -2.4                  -1.4034e-07           -4e-14                0                     1.405e-07            
  -2.5                  -1.4032e-07           -1.8e-13              0                     1.405e-07            
  -2.6                  -1.4032e-07           0                     -2e-14                1.4052e-07           
  -2.7                  -1.4036e-07           -1.2e-13              0                     1.4052e-07           
  -2.8                  -1.4036e-07           -1.2e-13              -8e-14                1.4054e-07           
  -2.9                  -1.4038e-07           -2.2e-13              4e-14                 1.4054e-07           
  -3                    -1.404e-07            -6e-14                2.6e-13               1.4058e-07           
  -3.1                  -1.404e-07            -1e-13                7.2e-13               1.4058e-07           
  -3.2                  -1.4042e-07           -4e-14                1.72e-12              1.406e-07            
  -3.3                  -1.4048e-07           -1e-13                3.3e-12               1.4068e-07           
  -3.4                  -1.4048e-07           -6e-14                6.26e-12              1.4068e-07           
  -3.5                  -1.4052e-07           6e-14                 1.162e-11             1.407e-07            
  -3.6                  -1.4054e-07           2e-14                 2.074e-11             1.407e-07            
END_DB

BEGIN_DB
 ICCAP_VAR vg         -2.808         
 ICCAP_VAR vb         3.6            
 ICCAP_VAR vs         -0             

 #vd                    id                    ig                    ib                    is                   
  -0                    5.696e-11             -2.6e-13              8e-14                 -5.778e-11           
  -0.1                  -1.0404e-07           -2e-13                1.2e-13               1.042e-07            
  -0.2                  -1.9268e-07           -2e-13                1e-13                 1.9288e-07           
  -0.3                  -2.6572e-07           -1.2e-13              0                     2.659e-07            
  -0.4                  -3.2324e-07           -8e-14                4e-14                 3.2344e-07           
  -0.5                  -3.66e-07             -2.4e-13              2e-14                 3.6622e-07           
  -0.6                  -3.9462e-07           -2.6e-13              4e-14                 3.9486e-07           
  -0.7                  -4.109e-07            -1.4e-13              0                     4.1118e-07           
  -0.8                  -4.1792e-07           -2e-13                -2e-14                4.1816e-07           
  -0.9                  -4.1988e-07           -8e-14                0                     4.2006e-07           
  -1                    -4.2038e-07           -4e-14                -4e-14                4.206e-07            
  -1.1                  -4.2056e-07           -6e-14                -1.6e-13              4.2072e-07           
  -1.2                  -4.2064e-07           -2e-14                4e-14                 4.2092e-07           
  -1.3                  -4.208e-07            -1.8e-13              -2e-14                4.2094e-07           
  -1.4                  -4.2088e-07           4e-14                 -2e-14                4.2116e-07           
  -1.5                  -4.21e-07             4e-14                 -1e-13                4.2128e-07           
  -1.6                  -4.211e-07            -6e-14                -6e-14                4.2136e-07           
  -1.7                  -4.212e-07            -1e-13                -2e-14                4.214e-07            
  -1.8                  -4.2122e-07           -4e-14                0                     4.2146e-07           
  -1.9                  -4.2134e-07           -4e-14                -1e-13                4.2154e-07           
  -2                    -4.2136e-07           -1.8e-13              -1e-13                4.2164e-07           
  -2.1                  -4.2148e-07           -1.2e-13              -4e-14                4.2162e-07           
  -2.2                  -4.2146e-07           -2.6e-13              0                     4.2168e-07           
  -2.3                  -4.2144e-07           -1.4e-13              -2e-14                4.217e-07            
  -2.4                  -4.2152e-07           -4e-14                -1e-13                4.2166e-07           
  -2.5                  -4.2154e-07           -1.2e-13              -1.4e-13              4.2178e-07           
  -2.6                  -4.2166e-07           0                     -2e-14                4.2186e-07           
  -2.7                  -4.2164e-07           4e-14                 -6e-14                4.2186e-07           
  -2.8                  -4.2158e-07           -1e-13                -2e-14                4.2186e-07           
  -2.9                  -4.2166e-07           1e-13                 -4e-14                4.219e-07            
  -3                    -4.217e-07            1e-13                 0                     4.2192e-07           
  -3.1                  -4.217e-07            -8e-14                4e-14                 4.2194e-07           
  -3.2                  -4.2184e-07           -4e-14                1.8e-13               4.2204e-07           
  -3.3                  -4.219e-07            0                     6e-13                 4.2208e-07           
  -3.4                  -4.2198e-07           -8e-14                1.72e-12              4.2216e-07           
  -3.5                  -4.2202e-07           -1e-13                3.66e-12              4.2222e-07           
  -3.6                  -4.2204e-07           -1e-13                7.5e-12               4.2222e-07           
END_DB

BEGIN_DB
 ICCAP_VAR vg         -3.204         
 ICCAP_VAR vb         3.6            
 ICCAP_VAR vs         -0             

 #vd                    id                    ig                    ib                    is                   
  -0                    7.612e-11             -2e-13                1.8e-13               -8.042e-11           
  -0.1                  -1.4952e-07           -1.8e-13              1.4e-13               1.497e-07            
  -0.2                  -2.844e-07            -1e-13                -4e-14                2.8458e-07           
  -0.3                  -4.0414e-07           -2e-13                -2e-14                4.0436e-07           
  -0.4                  -5.085e-07            -2.8e-13              -2e-14                5.0878e-07           
  -0.5                  -5.981e-07            -3.2e-13              -2e-14                5.9838e-07           
  -0.6                  -6.7278e-07           -2.8e-13              2e-14                 6.7294e-07           
  -0.7                  -7.3216e-07           -2.6e-13              0                     7.3244e-07           
  -0.8                  -7.7738e-07           -1.4e-13              2e-14                 7.7768e-07           
  -0.9                  -8.0914e-07           -4e-14                -1.4e-13              8.0944e-07           
  -1                    -8.2898e-07           -1e-13                -6e-14                8.293e-07            
  -1.1                  -8.3908e-07           -1e-13                -4e-14                8.3952e-07           
  -1.2                  -8.4322e-07           -3.2e-13              -1e-13                8.4352e-07           
  -1.3                  -8.4442e-07           -1.8e-13              -2e-14                8.4468e-07           
  -1.4                  -8.45e-07             -1.4e-13              -4e-14                8.4522e-07           
  -1.5                  -8.4514e-07           -1.8e-13              -1e-13                8.4544e-07           
  -1.6                  -8.4552e-07           -3e-13                -1e-13                8.4576e-07           
  -1.7                  -8.4552e-07           -1.8e-13              -1.8e-13              8.4586e-07           
  -1.8                  -8.4586e-07           4e-14                 -1e-13                8.4614e-07           
  -1.9                  -8.461e-07            -4e-14                -1.4e-13              8.4642e-07           
  -2                    -8.4628e-07           -2e-13                -1e-13                8.465e-07            
  -2.1                  -8.4632e-07           -2.4e-13              -6e-14                8.4644e-07           
  -2.2                  -8.4636e-07           -1e-13                -1e-13                8.4654e-07           
  -2.3                  -8.464e-07            4e-14                 2e-14                 8.4658e-07           
  -2.4                  -8.4652e-07           6e-14                 -1.4e-13              8.4674e-07           
  -2.5                  -8.466e-07            6e-14                 -1e-13                8.4682e-07           
  -2.6                  -8.4668e-07           4e-14                 -8e-14                8.472e-07            
  -2.7                  -8.4706e-07           -6e-14                -1.2e-13              8.4742e-07           
  -2.8                  -8.473e-07            -1.2e-13              -1e-13                8.4756e-07           
  -2.9                  -8.4728e-07           -4e-14                -1.6e-13              8.4746e-07           
  -3                    -8.4734e-07           0                     -1e-13                8.4766e-07           
  -3.1                  -8.4754e-07           0                     -4e-14                8.476e-07            
  -3.2                  -8.4746e-07           -2e-14                -4e-14                8.4768e-07           
  -3.3                  -8.4766e-07           -1e-13                -8e-14                8.478e-07            
  -3.4                  -8.4772e-07           -6e-14                1e-13                 8.48e-07             
  -3.5                  -8.4776e-07           -6e-14                4.8e-13               8.48e-07             
  -3.6                  -8.4778e-07           -1.6e-13              1.14e-12              8.481e-07            
END_DB

BEGIN_DB
 ICCAP_VAR vg         -3.6           
 ICCAP_VAR vb         3.6            
 ICCAP_VAR vs         -0             

 #vd                    id                    ig                    ib                    is                   
  -0                    9.968e-11             -3e-13                8e-14                 -9.41e-11            
  -0.1                  -1.9124e-07           -2.4e-13              1.2e-13               1.9144e-07           
  -0.2                  -3.6876e-07           -2e-13                4e-14                 3.6898e-07           
  -0.3                  -5.319e-07            -6e-14                -4e-14                5.322e-07            
  -0.4                  -6.8026e-07           -1e-13                -1.4e-13              6.8062e-07           
  -0.5                  -8.1464e-07           -1.8e-13              2e-14                 8.149e-07            
  -0.6                  -9.345e-07            -1.8e-13              4e-14                 9.3496e-07           
  -0.7                  -1.03966e-06          -2e-13                -2e-14                1.03988e-06          
  -0.8                  -1.13038e-06          -1.6e-13              0                     1.13074e-06          
