! VERSION = 6.00
BEGIN_HEADER
 ICCAP_INPUTS
  vd         V  D GROUND SMU1 0.1 LIN        1    -0         -3.6       37   -0.1      
  vg         V  G GROUND SMU2 0.001 LIN        2    -0.784     -3.6       5    -0.704    
  vb         V  B GROUND SMU4 0.1 CON        -0
  vs         V  S GROUND SMU3 0.1 CON        -0
 ICCAP_OUTPUTS
  id         I  D GROUND SMU1 B
  ig         I  G GROUND SMU2 B
  ib         I  B GROUND SMU4 B
  is         I  S GROUND SMU3 B
 ICCAP_VALUES
  MASTER_SETUP_TYPE "~dc_idvd~"
  LINVT_VALUE "|idvg|100.0n|100.0m|1.000m|5|3.600|"
  LISTVT_VALUE ""
  TYPE "-1"
  TEMP " 27.0000 "
  IS_TNOM " 1.00000 "
  MAIN.W "600.0n"
  MAIN.L "10.00u"
  MAIN.AD "204.0f"
  MAIN.AS "204.0f"
  MAIN.PD "1.880u"
  MAIN.PS "1.880u"
  MAIN.NF "1.000"
  MAIN.M "1"
  MAIN.NRD "0.000"
  MAIN.NRS "0.000"
  MAIN.LDRIFT1 "1E-06"
  MAIN.LDRIFT2 "1E-06"
  MAIN.SA "0.000"
  MAIN.SB "0.000"
  MAIN.SD "0.000"
  MAIN.SCA "0.000"
  MAIN.SCB "0.000"
  MAIN.SCC "0.000"
  MAIN.SC "0.000"
  MODULE "S564"
  PIN_D "12"
  PIN_G "9"
  PIN_S "10"
  PIN_B "11"
  PIN_E ""
  PIN_6 ""
  XY_ID ""
  FUNC "W Scale"
  STI "SA ref"
  WPE "WPE ref"
  COMMENT ""
  DIS_MEAS ""
  TypeTCI "10"
END_HEADER

BEGIN_DB
 ICCAP_VAR vg         -0.784         
 ICCAP_VAR vb         -0             
 ICCAP_VAR vs         -0             

 #vd                    id                    ig                    ib                    is                   
  -0                    1.82e-11              -6e-14                -8e-13                -2.058e-11           
  -0.1                  -2.0566e-08           1.6e-13               -6.8e-13              2.0592e-08           
  -0.2                  -2.3102e-08           0                     -6.2e-13              2.3124e-08           
  -0.3                  -2.3196e-08           6e-14                 -5.8e-13              2.322e-08            
  -0.4                  -2.3204e-08           -8e-14                -6.4e-13              2.3232e-08           
  -0.5                  -2.321e-08            0                     -6.2e-13              2.3234e-08           
  -0.6                  -2.3216e-08           8e-14                 -6.4e-13              2.3238e-08           
  -0.7                  -2.3218e-08           8e-14                 -6e-13                2.3246e-08           
  -0.8                  -2.3224e-08           1.2e-13               -4.8e-13              2.3248e-08           
  -0.9                  -2.3228e-08           2.2e-13               -4.2e-13              2.3246e-08           
  -1                    -2.3224e-08           2.8e-13               -3.8e-13              2.3248e-08           
  -1.1                  -2.323e-08            1.8e-13               -3.6e-13              2.325e-08            
  -1.2                  -2.3232e-08           1e-13                 -4e-13                2.3254e-08           
  -1.3                  -2.323e-08            0                     -4.6e-13              2.3254e-08           
  -1.4                  -2.3234e-08           8e-14                 -3.2e-13              2.3254e-08           
  -1.5                  -2.3232e-08           8e-14                 -2.8e-13              2.3256e-08           
  -1.6                  -2.3238e-08           4e-14                 -3.2e-13              2.3262e-08           
  -1.7                  -2.3236e-08           1.8e-13               -2.8e-13              2.326e-08            
  -1.8                  -2.324e-08            -2e-14                -3.4e-13              2.3266e-08           
  -1.9                  -2.324e-08            -6e-14                -3.2e-13              2.3262e-08           
  -2                    -2.3242e-08           2e-14                 -3.4e-13              2.3266e-08           
  -2.1                  -2.3244e-08           1.2e-13               -1.6e-13              2.3268e-08           
  -2.2                  -2.3244e-08           0                     -1.6e-13              2.3268e-08           
  -2.3                  -2.325e-08            2.2e-13               -4e-14                2.3276e-08           
  -2.4                  -2.3252e-08           6e-14                 4e-14                 2.3276e-08           
  -2.5                  -2.3254e-08           0                     4.2e-13               2.3282e-08           
  -2.6                  -2.3258e-08           1.6e-13               8.6e-13               2.3282e-08           
  -2.7                  -2.326e-08            2e-14                 1.68e-12              2.3282e-08           
  -2.8                  -2.3262e-08           8e-14                 2.9e-12               2.3282e-08           
  -2.9                  -2.3268e-08           1.6e-13               4.94e-12              2.3284e-08           
  -3                    -2.327e-08            1.4e-13               8.04e-12              2.3276e-08           
  -3.1                  -2.3272e-08           6e-14                 1.244e-11             2.3284e-08           
  -3.2                  -2.3284e-08           0                     1.916e-11             2.3286e-08           
  -3.3                  -2.3298e-08           6e-14                 2.87e-11              2.3292e-08           
  -3.4                  -2.3308e-08           2e-13                 4.216e-11             2.329e-08            
  -3.5                  -2.3328e-08           1.2e-13               6.106e-11             2.3292e-08           
  -3.6                  -2.3358e-08           2e-14                 8.69e-11              2.3296e-08           
END_DB

BEGIN_DB
 ICCAP_VAR vg         -1.488         
 ICCAP_VAR vb         -0             
 ICCAP_VAR vs         -0             

 #vd                    id                    ig                    ib                    is                   
  -0                    1.2286e-10            -3.6e-13              -3.4e-13              -1.245e-10           
  -0.1                  -2.0762e-07           -3e-13                -2.6e-13              2.078e-07            
  -0.2                  -3.7374e-07           -2e-13                -1.4e-13              3.7398e-07           
  -0.3                  -4.9858e-07           -1.2e-13              -8e-14                4.9882e-07           
  -0.4                  -5.8326e-07           -1.4e-13              -1.2e-13              5.835e-07            
  -0.5                  -6.3086e-07           -8e-14                -2e-13                6.3114e-07           
  -0.6                  -6.4856e-07           -6e-14                -2.2e-13              6.4884e-07           
  -0.7                  -6.5188e-07           -6e-14                -1.4e-13              6.5212e-07           
  -0.8                  -6.5238e-07           -2e-14                -2e-13                6.5268e-07           
  -0.9                  -6.5268e-07           -6e-14                -3e-13                6.529e-07            
  -1                    -6.5278e-07           -1.6e-13              -2e-13                6.53e-07             
  -1.1                  -6.5286e-07           2e-14                 -1e-13                6.5322e-07           
  -1.2                  -6.5308e-07           -2e-13                -8e-14                6.5336e-07           
  -1.3                  -6.5314e-07           -1.8e-13              -6e-14                6.5338e-07           
  -1.4                  -6.5324e-07           -1.4e-13              -1.8e-13              6.5352e-07           
  -1.5                  -6.5328e-07           -1.4e-13              -1.2e-13              6.5356e-07           
  -1.6                  -6.5342e-07           -1.8e-13              -1e-13                6.5366e-07           
  -1.7                  -6.534e-07            -1e-13                -1.6e-13              6.5362e-07           
  -1.8                  -6.5346e-07           -1.4e-13              -1.8e-13              6.5376e-07           
  -1.9                  -6.535e-07            4e-14                 -2e-14                6.538e-07            
  -2                    -6.5354e-07           -1.2e-13              2e-14                 6.538e-07            
  -2.1                  -6.5358e-07           -1.8e-13              -8e-14                6.5386e-07           
  -2.2                  -6.5372e-07           -1.2e-13              -1e-13                6.539e-07            
  -2.3                  -6.5374e-07           -2e-14                -2e-14                6.5402e-07           
  -2.4                  -6.539e-07            0                     6e-14                 6.541e-07            
  -2.5                  -6.5382e-07           -4e-14                1.8e-13               6.5406e-07           
  -2.6                  -6.5388e-07           -8e-14                6.2e-13               6.5416e-07           
  -2.7                  -6.539e-07            -8e-14                1.66e-12              6.5414e-07           
  -2.8                  -6.54e-07             -8e-14                3.46e-12              6.542e-07            
  -2.9                  -6.5398e-07           -1.4e-13              6.8e-12               6.5428e-07           
  -3                    -6.5406e-07           -1.8e-13              1.254e-11             6.5432e-07           
  -3.1                  -6.5408e-07           0                     2.236e-11             6.5438e-07           
  -3.2                  -6.5422e-07           0                     3.888e-11             6.5448e-07           
  -3.3                  -6.5428e-07           -1.2e-13              6.574e-11             6.5452e-07           
  -3.4                  -6.5438e-07           -8e-14                1.0826e-10            6.5454e-07           
  -3.5                  -6.5454e-07           1.2e-13               1.747e-10             6.5462e-07           
  -3.6                  -6.5472e-07           2e-14                 2.7582e-10            6.5464e-07           
END_DB

BEGIN_DB
 ICCAP_VAR vg         -2.192         
 ICCAP_VAR vb         -0             
 ICCAP_VAR vs         -0             

 #vd                    id                    ig                    ib                    is                   
  -0                    2.148e-10             -2.8e-13              -6e-14                -2.275e-10           
  -0.1                  -3.7152e-07           -2e-13                -1.2e-13              3.7174e-07           
  -0.2                  -7.065e-07            -2.8e-13              -1e-13                7.068e-07            
  -0.3                  -1.00418e-06          -3.6e-13              -1.2e-13              1.00448e-06          
  -0.4                  -1.2626e-06           -2.4e-13              -1.6e-13              1.2664e-06           
  -0.5                  -1.4864e-06           -2.2e-13              -1.4e-13              1.49e-06             
  -0.6                  -1.6736e-06           -3e-13                -2e-14                1.6774e-06           
  -0.7                  -1.8242e-06           -4.4e-13              -6e-14                1.828e-06            
  -0.8                  -1.9396e-06           -1.6e-13              -1.6e-13              1.9434e-06           
  -0.9                  -2.0204e-06           -1e-13                -1.8e-13              2.024e-06            
  -1                    -2.0688e-06           -3.4e-13              0                     2.0726e-06           
  -1.1                  -2.0908e-06           -2e-13                2e-14                 2.0948e-06           
  -1.2                  -2.098e-06            -1e-13                -1.2e-13              2.1018e-06           
  -1.3                  -2.1e-06              -1.6e-13              -1.6e-13              2.1038e-06           
  -1.4                  -2.101e-06            -2.2e-13              0                     2.1046e-06           
  -1.5                  -2.1016e-06           -8e-14                -4e-14                2.1054e-06           
  -1.6                  -2.102e-06            -1.6e-13              -8e-14                2.1058e-06           
  -1.7                  -2.1022e-06           -2e-13                -4e-14                2.1062e-06           
  -1.8                  -2.1028e-06           -2e-14                -2e-14                2.1068e-06           
  -1.9                  -2.1032e-06           -1.2e-13              4e-14                 2.107e-06            
  -2                    -2.1036e-06           -6e-14                -6e-14                2.1072e-06           
  -2.1                  -2.1038e-06           -4e-14                -2e-14                2.1076e-06           
  -2.2                  -2.1038e-06           -2e-14                -4e-14                2.1078e-06           
  -2.3                  -2.1042e-06           -1.2e-13              -6e-14                2.108e-06            
  -2.4                  -2.1044e-06           -6e-14                -1e-13                2.108e-06            
  -2.5                  -2.1044e-06           -1e-13                1.2e-13               2.1082e-06           
  -2.6                  -2.1046e-06           -1.8e-13              -6e-14                2.1084e-06           
  -2.7                  -2.105e-06            -1.4e-13              -1.2e-13              2.1088e-06           
  -2.8                  -2.1052e-06           -1.4e-13              -6e-14                2.1088e-06           
  -2.9                  -2.1052e-06           -2.4e-13              4e-14                 2.1088e-06           
  -3                    -2.1054e-06           -1.6e-13              6.6e-13               2.1092e-06           
  -3.1                  -2.1054e-06           -1e-13                1.42e-12              2.1092e-06           
  -3.2                  -2.1056e-06           -1.8e-13              3.18e-12              2.1092e-06           
  -3.3                  -2.1058e-06           -1.6e-13              6.66e-12              2.1094e-06           
  -3.4                  -2.106e-06            -8e-14                1.348e-11             2.1098e-06           
  -3.5                  -2.106e-06            -8e-14                2.554e-11             2.1096e-06           
  -3.6                  -2.1062e-06           -1.8e-13              4.696e-11             2.11e-06             
END_DB

BEGIN_DB
 ICCAP_VAR vg         -2.896         
 ICCAP_VAR vb         -0             
 ICCAP_VAR vs         -0             

 #vd                    id                    ig                    ib                    is                   
  -0                    2.975e-10             -4.4e-13              -1.4e-13              -2.8348e-10          
  -0.1                  -5.0354e-07           -3.6e-13              -4e-14                5.0378e-07           
  -0.2                  -9.755e-07            -3.8e-13              -1e-13                9.7574e-07           
  -0.3                  -1.4128e-06           -4e-13                6e-14                 1.4166e-06           
  -0.4                  -1.8182e-06           -3.2e-13              0                     1.822e-06            
  -0.5                  -2.1918e-06           -2e-13                -1.2e-13              2.1956e-06           
  -0.6                  -2.5328e-06           -1.8e-13              4e-14                 2.5364e-06           
  -0.7                  -2.8404e-06           -2e-13                -4e-14                2.8444e-06           
  -0.8                  -3.1164e-06           -2.6e-13              -8e-14                3.12e-06             
  -0.9                  -3.3592e-06           -3e-13                -1.4e-13              3.363e-06            
  -1                    -3.5694e-06           -3e-13                2e-14                 3.5734e-06           
  -1.1                  -3.7476e-06           -3e-13                -4e-14                3.7514e-06           
  -1.2                  -3.8936e-06           -2.6e-13              -6e-14                3.8968e-06           
  -1.3                  -4.0074e-06           -3e-13                -6e-14                4.0112e-06           
  -1.4                  -4.09e-06             -2e-13                4e-14                 4.0944e-06           
  -1.5                  -4.1454e-06           -1.8e-13              1e-13                 4.1488e-06           
  -1.6                  -4.1746e-06           -1.8e-13              -8e-14                4.1786e-06           
  -1.7                  -4.1878e-06           -3e-13                -2e-14                4.1918e-06           
  -1.8                  -4.1934e-06           -1.6e-13              -2e-14                4.1972e-06           
  -1.9                  -4.1956e-06           -1e-13                -4e-14                4.1998e-06           
  -2                    -4.1974e-06           -1.6e-13              -4e-14                4.2014e-06           
  -2.1                  -4.1986e-06           -1.4e-13              4e-14                 4.2024e-06           
  -2.2                  -4.1996e-06           -2.8e-13              -1e-13                4.2032e-06           
  -2.3                  -4.2002e-06           -2.6e-13              -1.8e-13              4.204e-06            
  -2.4                  -4.201e-06            -2e-13                4e-14                 4.2046e-06           
  -2.5                  -4.2014e-06           -1.4e-13              4e-14                 4.2054e-06           
  -2.6                  -4.202e-06            -1.2e-13              0                     4.2062e-06           
  -2.7                  -4.2024e-06           -6e-14                8e-14                 4.2062e-06           
  -2.8                  -4.2024e-06           -1.2e-13              0                     4.2066e-06           
  -2.9                  -4.2036e-06           -1.6e-13              -2e-14                4.2072e-06           
  -3                    -4.2042e-06           -4e-14                4e-14                 4.208e-06            
  -3.1                  -4.2044e-06           -1e-13                8e-14                 4.2082e-06           
  -3.2                  -4.2054e-06           -3.2e-13              2e-14                 4.2088e-06           
  -3.3                  -4.2054e-06           -8e-14                1e-13                 4.209e-06            
  -3.4                  -4.206e-06            2e-14                 2e-13                 4.2094e-06           
  -3.5                  -4.2062e-06           -1.8e-13              5.4e-13               4.2098e-06           
  -3.6                  -4.2068e-06           -2e-13                1.4e-12               4.2106e-06           
END_DB

BEGIN_DB
 ICCAP_VAR vg         -3.6           
 ICCAP_VAR vb         -0             
 ICCAP_VAR vs         -0             

 #vd                    id                    ig                    ib                    is                   
  -0                    3.6294e-10            -5.8e-13              -4e-14                -3.6038e-10          
  -0.1                  -6.0874e-07           -3.2e-13              -1.4e-13              6.0906e-07           
  -0.2                  -1.1884e-06           -4.6e-13              -2e-13                1.1924e-06           
  -0.3                  -1.741e-06            -3.8e-13              -1.6e-13              1.745e-06            
  -0.4                  -2.2636e-06           -4e-13                -8e-14                2.2674e-06           
  -0.5                  -2.7588e-06           -3.2e-13              -1.2e-13              2.7628e-06           
  -0.6                  -3.2254e-06           -3.4e-13              0                     3.2296e-06           
  -0.7                  -3.6626e-06           -2.2e-13              0                     3.6666e-06           
  -0.8                  -4.0718e-06           -3.8e-13              -6e-14                4.0756e-06           
