! VERSION = 6.00
BEGIN_HEADER
 ICCAP_INPUTS
  vg         V  G GROUND SMU2 0.001 LIN        1    0.5        -3.6       83   -0.05     
  vb         V  B GROUND SMU4 0.1 LIN        2    0          3.6        5    0.9       
  vd         V  D GROUND SMU1 0.1 LIN        3    -0.1       -3.3       3    -1.6      
  vs         V  S GROUND SMU3 0.1 CON        -0
 ICCAP_OUTPUTS
  id         I  D GROUND SMU1 B
  ig         I  G GROUND SMU2 B
  ib         I  B GROUND SMU4 B
  is         I  S GROUND SMU3 B
 ICCAP_VALUES
  MASTER_SETUP_TYPE "~dc_idvg~"
  LINVT_VALUE ""
  LISTVT_VALUE ""
  TYPE "-1"
  TEMP " 70.0000 "
  IS_TNOM " 0.00000 "
  MAIN.W "2.000u"
  MAIN.L "1.200u"
  MAIN.AD "680.0f"
  MAIN.AS "680.0f"
  MAIN.PD "4.680u"
  MAIN.PS "4.680u"
  MAIN.NF "1.000"
  MAIN.M "1"
  MAIN.NRD "0.000"
  MAIN.NRS "0.000"
  MAIN.LDRIFT1 "1E-06"
  MAIN.LDRIFT2 "1E-06"
  MAIN.SA "0.000"
  MAIN.SB "0.000"
  MAIN.SD "0.000"
  MAIN.SCA "0.000"
  MAIN.SCB "0.000"
  MAIN.SCC "0.000"
  MAIN.SC "0.000"
  MODULE "S563"
  PIN_D "16"
  PIN_G "5"
  PIN_S "6"
  PIN_B "15"
  PIN_E ""
  PIN_6 ""
  XY_ID ""
  FUNC "LW Scale"
  STI "SA ref"
  WPE "WPE ref"
  COMMENT ""
  DIS_MEAS ""
  TypeTCI "10"
END_HEADER

BEGIN_DB
 ICCAP_VAR vb         0              
 ICCAP_VAR vd         -0.1           
 ICCAP_VAR vs         -0             

 #vg                    id                    ig                    ib                    is                   
  0.5                   -4e-13                6.2642e-10            -5.1696e-10           -2.4e-13             
  0.45                  -2e-14                1.1746e-10            -2.403e-10            2.2e-13              
  0.4                   8e-14                 2.214e-11             -1.39e-10             3.4e-13              
  0.35                  1.6e-13               4.32e-12              -9.704e-11            1e-13                
  0.3                   2.2e-13               9.6e-13               -7.522e-11            3.4e-13              
  0.25                  0                     1.6e-13               -6.196e-11            1.6e-13              
  0.2                   4e-14                 2e-14                 -5.302e-11            3.8e-13              
  0.15                  8e-14                 -1e-13                -4.634e-11            8e-14                
  0.1                   6e-14                 -2e-14                -4.144e-11            3.4e-13              
  0.05                  0                     -1e-13                -3.73e-11             8e-14                
  0                     -1e-13                -2.4e-13              -3.404e-11            5.2e-13              
  -0.05                 -7.2e-13              -2.6e-13              -3.114e-11            8.6e-13              
  -0.1                  -2.1e-12              -2.4e-13              -2.86e-11             2.3e-12              
  -0.15                 -6.26e-12             -3.4e-13              -2.666e-11            6.68e-12             
  -0.2                  -1.8e-11              -2.6e-13              -2.456e-11            1.812e-11            
  -0.25                 -5.184e-11            -3.8e-13              -2.298e-11            5.194e-11            
  -0.3                  -1.5042e-10           -3.4e-13              -2.152e-11            1.508e-10            
  -0.35                 -4.4168e-10           -3.8e-13              -2e-11                4.4182e-10           
  -0.4                  -1.2974e-09           -3e-13                -1.786e-11            1.2974e-09           
  -0.45                 -3.8076e-09           -3.6e-13              -1.668e-11            3.8088e-09           
  -0.5                  -1.09924e-08          -5e-13                -1.584e-11            1.09898e-08          
  -0.55                 -3.0284e-08           -3.6e-13              -1.47e-11             3.0308e-08           
  -0.6                  -7.5568e-08           -5e-13                -1.392e-11            7.5576e-08           
  -0.65                 -1.6494e-07           -3e-13                -1.302e-11            1.6498e-07           
  -0.7                  -3.1112e-07           -4.4e-13              -1.236e-11            3.1124e-07           
  -0.75                 -5.1516e-07           -4.8e-13              -1.17e-11             5.1526e-07           
  -0.8                  -7.6362e-07           -4.8e-13              -1.1e-11              7.6378e-07           
  -0.85                 -1.04296e-06          -5.4e-13              -1.046e-11            1.04338e-06          
  -0.9                  -1.3386e-06           -3.6e-13              -9.46e-12             1.3408e-06           
  -0.95                 -1.6444e-06           -5.2e-13              -8.86e-12             1.6476e-06           
  -1                    -1.9536e-06           -5.6e-13              -8.5e-12              1.957e-06            
  -1.05                 -2.2644e-06           -5.2e-13              -8.12e-12             2.2672e-06           
  -1.1                  -2.572e-06            -4.6e-13              -7.7e-12              2.5744e-06           
  -1.15                 -2.8778e-06           -6.6e-13              -7.2e-12              2.8802e-06           
  -1.2                  -3.1782e-06           -6.2e-13              -6.86e-12             3.1812e-06           
  -1.25                 -3.4766e-06           -4.4e-13              -6.34e-12             3.4796e-06           
  -1.3                  -3.77e-06             -4.8e-13              -6.04e-12             3.7734e-06           
  -1.35                 -4.0592e-06           -5.8e-13              -5.7e-12              4.0622e-06           
  -1.4                  -4.3436e-06           -5.8e-13              -5.38e-12             4.3462e-06           
  -1.45                 -4.622e-06            -8e-13                -4.98e-12             4.6252e-06           
  -1.5                  -4.8978e-06           -5.4e-13              -4.58e-12             4.901e-06            
  -1.55                 -5.1692e-06           -7e-13                -4.48e-12             5.1714e-06           
  -1.6                  -5.435e-06            -6.6e-13              -4.16e-12             5.4386e-06           
  -1.65                 -5.6974e-06           -7e-13                -4e-12                5.7002e-06           
  -1.7                  -5.9546e-06           -5.2e-13              -3.62e-12             5.9574e-06           
  -1.75                 -6.2082e-06           -6.2e-13              -3.44e-12             6.2124e-06           
  -1.8                  -6.4584e-06           -7.6e-13              -3.24e-12             6.4616e-06           
  -1.85                 -6.7026e-06           -7.2e-13              -3.02e-12             6.7058e-06           
  -1.9                  -6.9448e-06           -7e-13                -2.78e-12             6.9484e-06           
  -1.95                 -7.183e-06            -7e-13                -2.74e-12             7.186e-06            
  -2                    -7.417e-06            -7.8e-13              -2.34e-12             7.4192e-06           
  -2.05                 -7.6462e-06           -7.2e-13              -2.28e-12             7.6488e-06           
  -2.1                  -7.8738e-06           -7.4e-13              -1.94e-12             7.8772e-06           
  -2.15                 -8.0978e-06           -7.6e-13              -1.9e-12              8.1004e-06           
  -2.2                  -8.316e-06            -7.4e-13              -1.6e-12              8.3192e-06           
  -2.25                 -8.534e-06            -7.4e-13              -1.54e-12             8.5356e-06           
  -2.3                  -8.7458e-06           -7.4e-13              -1.32e-12             8.7482e-06           
  -2.35                 -8.9542e-06           -7e-13                -1.22e-12             8.9576e-06           
  -2.4                  -9.1624e-06           -7e-13                -9.2e-13              9.164e-06            
  -2.45                 -9.363e-06            -8.4e-13              -9e-13                9.3648e-06           
  -2.5                  -9.564e-06            -7.6e-13              -6.4e-13              9.5676e-06           
  -2.55                 -9.7614e-06           -7.4e-13              -5.2e-13              9.7644e-06           
  -2.6                  -9.957e-06            -8.6e-13              -4e-13                9.9596e-06           
  -2.65                 -1.01464e-05          -8.8e-13              -2.4e-13              1.0149e-05           
  -2.7                  -1.03352e-05          -9e-13                -2e-13                1.0337e-05           
  -2.75                 -1.052e-05            -7e-13                -4e-14                1.05236e-05          
  -2.8                  -1.07028e-05          -7.8e-13              2e-14                 1.07066e-05          
  -2.85                 -1.0883e-05           -9.4e-13              6e-14                 1.08868e-05          
  -2.9                  -1.10618e-05          -8.8e-13              2.2e-13               1.10638e-05          
  -2.95                 -1.12354e-05          -9.6e-13              2.6e-13               1.1239e-05           
  -3                    -1.14084e-05          -8e-13                4.4e-13               1.14104e-05          
  -3.05                 -1.1576e-05           -8e-13                5.2e-13               1.1582e-05           
  -3.1                  -1.1742e-05           -8.4e-13              5.8e-13               1.1748e-05           
  -3.15                 -1.1906e-05           -8e-13                8.8e-13               1.1912e-05           
  -3.2                  -1.2068e-05           -8.4e-13              9.4e-13               1.2074e-05           
  -3.25                 -1.2228e-05           -9.2e-13              9.8e-13               1.2232e-05           
  -3.3                  -1.2384e-05           -8.6e-13              1.14e-12              1.239e-05            
  -3.35                 -1.254e-05            -8.8e-13              1.18e-12              1.2546e-05           
  -3.4                  -1.2692e-05           -8.6e-13              1.28e-12              1.2698e-05           
  -3.45                 -1.2842e-05           -9.2e-13              1.26e-12              1.285e-05            
  -3.5                  -1.299e-05            -8e-13                1.38e-12              1.2996e-05           
  -3.55                 -1.3136e-05           -8.2e-13              1.5e-12               1.3144e-05           
  -3.6                  -1.3282e-05           -9e-13                1.46e-12              1.3286e-05           
END_DB

BEGIN_DB
 ICCAP_VAR vb         0.9            
 ICCAP_VAR vd         -0.1           
 ICCAP_VAR vs         -0             

 #vg                    id                    ig                    ib                    is                   
  0.5                   -6e-14                7.4e-13               9.32e-12              2.4e-13              
  0.45                  -4e-14                4.4e-13               9.28e-12              1.8e-13              
  0.4                   2e-14                 4.6e-13               9.22e-12              2.4e-13              
  0.35                  -2e-14                2.2e-13               9.24e-12              1.4e-13              
  0.3                   4e-14                 1.8e-13               9.26e-12              2.4e-13              
  0.25                  -2e-14                1e-13                 9.12e-12              1.8e-13              
  0.2                   -4e-14                1e-13                 9.1e-12               1.2e-13              
  0.15                  -4e-14                1.4e-13               9.24e-12              8e-14                
  0.1                   -2e-14                2e-14                 9.04e-12              1.6e-13              
  0.05                  -2e-14                1.2e-13               9.14e-12              -4e-14               
  0                     4e-14                 -6e-14                9.1e-12               1e-13                
  -0.05                 -2e-14                0                     9.32e-12              -1.4e-13             
  -0.1                  -2e-14                -1.8e-13              9.1e-12               2.2e-13              
  -0.15                 -8e-14                -1.6e-13              9.26e-12              0                    
  -0.2                  -2e-14                -6e-14                9.16e-12              2e-14                
  -0.25                 2e-14                 -2.4e-13              9.14e-12              1.4e-13              
  -0.3                  0                     -2.2e-13              9.12e-12              1.2e-13              
  -0.35                 -8e-14                -2e-13                9.14e-12              -2e-14               
  -0.4                  2e-14                 -3.4e-13              9.08e-12              3.2e-13              
  -0.45                 -3e-13                -3.6e-13              9.08e-12              4e-13                
  -0.5                  -8e-13                -2.2e-13              9.08e-12              9e-13                
  -0.55                 -2.72e-12             -3.4e-13              9.02e-12              3.04e-12             
  -0.6                  -9.3e-12              -4.4e-13              9.02e-12              9.5e-12              
  -0.65                 -3.124e-11            -4e-13                9.1e-12               3.124e-11            
  -0.7                  -1.0444e-10           -4.6e-13              9e-12                 1.0468e-10           
  -0.75                 -3.5172e-10           -3.6e-13              8.96e-12              3.5164e-10           
  -0.8                  -1.1744e-09           -2.8e-13              9.12e-12              1.1752e-09           
  -0.85                 -3.8926e-09           -3.6e-13              9.08e-12              3.8912e-09           
  -0.9                  -1.2384e-08           -3e-13                9.02e-12              1.2394e-08           
  -0.95                 -3.6222e-08           -5e-13                8.96e-12              3.625e-08            
  -1                    -9.1502e-08           -4.8e-13              9.02e-12              9.1518e-08           
  -1.05                 -1.9502e-07           -5e-13                8.98e-12              1.9512e-07           
  -1.1                  -3.5182e-07           -4e-13                9.06e-12              3.5174e-07           
  -1.15                 -5.5544e-07           -5.8e-13              8.98e-12              5.5592e-07           
  -1.2                  -7.9134e-07           -5.8e-13              8.92e-12              7.9152e-07           
  -1.25                 -1.04828e-06          -5.2e-13              9.1e-12               1.04856e-06          
  -1.3                  -1.3148e-06           -5.2e-13              8.96e-12              1.3182e-06           
  -1.35                 -1.5868e-06           -6.4e-13              9e-12                 1.59e-06             
  -1.4                  -1.8616e-06           -5.6e-13              9.02e-12              1.8642e-06           
  -1.45                 -2.1348e-06           -6e-13                9.12e-12              2.1378e-06           
  -1.5                  -2.4072e-06           -6e-13                8.92e-12              2.41e-06             
  -1.55                 -2.6752e-06           -5.6e-13              9.04e-12              2.6788e-06           
  -1.6                  -2.9432e-06           -6.4e-13              8.98e-12              2.9458e-06           
  -1.65                 -3.2058e-06           -6.4e-13              8.98e-12              3.2092e-06           
  -1.7                  -3.4652e-06           -6e-13                9.08e-12              3.4674e-06           
  -1.75                 -3.7206e-06           -5.6e-13              8.96e-12              3.7236e-06           
  -1.8                  -3.9732e-06           -6.2e-13              9e-12                 3.9764e-06           
  -1.85                 -4.2212e-06           -4.4e-13              9.06e-12              4.2234e-06           
  -1.9                  -4.4652e-06           -6.6e-13              9e-12                 4.468e-06            
  -1.95                 -4.707e-06            -7.6e-13              9.06e-12              4.7104e-06           
  -2                    -4.9446e-06           -7.6e-13              9.02e-12              4.9476e-06           
  -2.05                 -5.179e-06            -7.6e-13              9.06e-12              5.1816e-06           
  -2.1                  -5.4098e-06           -6.2e-13              8.98e-12              5.414e-06            
  -2.15                 -5.6388e-06           -7.8e-13              8.96e-12              5.6412e-06           
  -2.2                  -5.8614e-06           -7e-13                8.92e-12              5.8648e-06           
  -2.25                 -6.083e-06            -8.4e-13              8.96e-12              6.0852e-06           
  -2.3                  -6.3012e-06           -8.2e-13              8.9e-12               6.3038e-06           
  -2.35                 -6.5156e-06           -7.2e-13              9e-12                 6.5182e-06           
  -2.4                  -6.7254e-06           -7.6e-13              9.02e-12              6.7284e-06           
  -2.45                 -6.9324e-06           -7.8e-13              9.06e-12              6.935e-06            
  -2.5                  -7.1372e-06           -6.8e-13              8.94e-12              7.1408e-06           
  -2.55                 -7.3388e-06           -7.2e-13              8.94e-12              7.3412e-06           
  -2.6                  -7.538e-06            -6.6e-13              9e-12                 7.542e-06            
  -2.65                 -7.7352e-06           -9e-13                8.94e-12              7.7368e-06           
  -2.7                  -7.9284e-06           -6.4e-13              9.12e-12              7.93e-06             
  -2.75                 -8.1188e-06           -7.8e-13              9.04e-12              8.12e-06             
  -2.8                  -8.3064e-06           -7.8e-13              9.04e-12              8.3076e-06           
  -2.85                 -8.49e-06             -7.2e-13              9.06e-12              8.4934e-06           
  -2.9                  -8.6736e-06           -7.4e-13              9.04e-12              8.6766e-06           
  -2.95                 -8.8534e-06           -7.8e-13              9.1e-12               8.8558e-06           
  -3                    -9.0314e-06           -7.2e-13              9.12e-12              9.0334e-06           
  -3.05                 -9.2046e-06           -9e-13                8.92e-12              9.2086e-06           
  -3.1                  -9.3772e-06           -9e-13                9.14e-12              9.3808e-06           
  -3.15                 -9.5476e-06           -9.4e-13              8.92e-12              9.5496e-06           
  -3.2                  -9.714e-06            -7.6e-13              8.92e-12              9.7154e-06           
  -3.25                 -9.8798e-06           -7.8e-13              9.08e-12              9.8818e-06           
  -3.3                  -1.00424e-05          -9.4e-13              8.84e-12              1.00444e-05          
  -3.35                 -1.02026e-05          -8.6e-13              9.04e-12              1.0206e-05           
  -3.4                  -1.03604e-05          -8.8e-13              8.9e-12               1.0362e-05           
  -3.45                 -1.0514e-05           -9e-13                9.06e-12              1.05172e-05          
