! VERSION = 6.00
BEGIN_HEADER
 ICCAP_INPUTS
  vd         V  D GROUND SMU1 0.1 LIN        1    -0         -3.6       37   -0.1      
  vg         V  G GROUND SMU2 0.001 LIN        2    -0.764     -3.6       5    -0.709    
  vb         V  B GROUND SMU4 0.1 CON        -0
  vs         V  S GROUND SMU3 0.1 CON        -0
 ICCAP_OUTPUTS
  id         I  D GROUND SMU1 B
  ig         I  G GROUND SMU2 B
  ib         I  B GROUND SMU4 B
  is         I  S GROUND SMU3 B
 ICCAP_VALUES
  MASTER_SETUP_TYPE "~dc_idvd~"
  LINVT_VALUE "|idvg|100.0n|100.0m|1.000m|5|3.600|"
  LISTVT_VALUE ""
  TYPE "-1"
  TEMP " 27.0000 "
  IS_TNOM " 1.00000 "
  MAIN.W "600.0n"
  MAIN.L "500.0n"
  MAIN.AD "204.0f"
  MAIN.AS "204.0f"
  MAIN.PD "1.880u"
  MAIN.PS "1.880u"
  MAIN.NF "1.000"
  MAIN.M "1"
  MAIN.NRD "0.000"
  MAIN.NRS "0.000"
  MAIN.LDRIFT1 "1E-06"
  MAIN.LDRIFT2 "1E-06"
  MAIN.SA "0.000"
  MAIN.SB "0.000"
  MAIN.SD "0.000"
  MAIN.SCA "0.000"
  MAIN.SCB "0.000"
  MAIN.SCC "0.000"
  MAIN.SC "0.000"
  MODULE "S564"
  PIN_D "16"
  PIN_G "5"
  PIN_S "6"
  PIN_B "15"
  PIN_E ""
  PIN_6 ""
  XY_ID ""
  FUNC "LW Scale"
  STI "SA ref"
  WPE "WPE ref"
  COMMENT ""
  DIS_MEAS ""
  TypeTCI "10"
END_HEADER

BEGIN_DB
 ICCAP_VAR vg         -0.764         
 ICCAP_VAR vb         -0             
 ICCAP_VAR vs         -0             

 #vd                    id                    ig                    ib                    is                   
  -0                    2.4632e-10            -8e-14                -7.2e-13              -3.2618e-10          
  -0.1                  -4.377e-07            -2e-14                -7.4e-13              4.3788e-07           
  -0.2                  -5.0688e-07           -4e-14                -7e-13                5.0746e-07           
  -0.3                  -5.2174e-07           2e-14                 -6.6e-13              5.2212e-07           
  -0.4                  -5.2948e-07           0                     -6.6e-13              5.298e-07            
  -0.5                  -5.3548e-07           1e-13                 -7.2e-13              5.3572e-07           
  -0.6                  -5.405e-07            1.6e-13               -5.4e-13              5.4078e-07           
  -0.7                  -5.4488e-07           1.6e-13               -4.6e-13              5.4514e-07           
  -0.8                  -5.4888e-07           4e-14                 -5.2e-13              5.4894e-07           
  -0.9                  -5.5254e-07           8e-14                 -5.2e-13              5.527e-07            
  -1                    -5.559e-07            1e-13                 -5.6e-13              5.5618e-07           
  -1.1                  -5.5914e-07           1e-13                 -6e-13                5.5942e-07           
  -1.2                  -5.6242e-07           8e-14                 -3.8e-13              5.6274e-07           
  -1.3                  -5.6532e-07           6e-14                 -4e-13                5.658e-07            
  -1.4                  -5.6828e-07           1.2e-13               -5e-13                5.685e-07            
  -1.5                  -5.7112e-07           1.2e-13               -4e-13                5.7136e-07           
  -1.6                  -5.7402e-07           1.6e-13               -4.4e-13              5.741e-07            
  -1.7                  -5.7648e-07           1e-13                 -3.4e-13              5.7686e-07           
  -1.8                  -5.7908e-07           1.8e-13               -1.6e-13              5.793e-07            
  -1.9                  -5.8152e-07           1.6e-13               4e-14                 5.8186e-07           
  -2                    -5.841e-07            1e-13                 5.8e-13               5.8456e-07           
  -2.1                  -5.8688e-07           1.4e-13               1.5e-12               5.8702e-07           
  -2.2                  -5.8954e-07           6e-14                 3.24e-12              5.8976e-07           
  -2.3                  -5.9198e-07           1e-13                 6.6e-12               5.9206e-07           
  -2.4                  -5.942e-07            1.8e-13               1.244e-11             5.9438e-07           
  -2.5                  -5.9676e-07           1.2e-13               2.222e-11             5.9684e-07           
  -2.6                  -5.9898e-07           4e-14                 3.86e-11              5.9922e-07           
  -2.7                  -6.0154e-07           2.4e-13               6.512e-11             6.0154e-07           
  -2.8                  -6.0362e-07           1e-13                 1.0684e-10            6.0366e-07           
  -2.9                  -6.0586e-07           8e-14                 1.7144e-10            6.0604e-07           
  -3                    -6.0836e-07           2e-13                 2.6954e-10            6.0838e-07           
  -3.1                  -6.1086e-07           4e-14                 4.1526e-10            6.1054e-07           
  -3.2                  -6.1338e-07           1.2e-13               6.2826e-10            6.1294e-07           
  -3.3                  -6.1584e-07           2.2e-13               9.3308e-10            6.1534e-07           
  -3.4                  -6.1862e-07           1.6e-13               1.3592e-09            6.1738e-07           
  -3.5                  -6.2154e-07           1.8e-13               1.9528e-09            6.1972e-07           
  -3.6                  -6.2526e-07           1e-13                 2.755e-09             6.2268e-07           
END_DB

BEGIN_DB
 ICCAP_VAR vg         -1.473         
 ICCAP_VAR vb         -0             
 ICCAP_VAR vs         -0             

 #vd                    id                    ig                    ib                    is                   
  -0                    1.5812e-09            -3.4e-13              -3.8e-13              -1.3642e-09          
  -0.1                  -4.619e-06            -2.6e-13              -1.4e-13              4.623e-06            
  -0.2                  -8.3994e-06           -2e-13                -1.4e-13              8.4032e-06           
  -0.3                  -1.1327e-05           -4e-14                -1.8e-13              1.13308e-05          
  -0.4                  -1.3424e-05           -1.2e-13              -1.8e-13              1.3442e-05           
  -0.5                  -1.4806e-05           -1e-13                -8e-14                1.4826e-05           
  -0.6                  -1.5624e-05           -2e-14                -2.2e-13              1.5644e-05           
  -0.7                  -1.6082e-05           -6e-14                -1.4e-13              1.6104e-05           
  -0.8                  -1.634e-05            -1e-13                -1.4e-13              1.6374e-05           
  -0.9                  -1.654e-05            -1.2e-13              -2.2e-13              1.6558e-05           
  -1                    -1.6678e-05           -1.4e-13              -2e-13                1.6696e-05           
  -1.1                  -1.6788e-05           -2e-14                -1.4e-13              1.6808e-05           
  -1.2                  -1.6878e-05           -4e-14                -1.6e-13              1.6904e-05           
  -1.3                  -1.697e-05            -4e-14                -4e-14                1.697e-05            
  -1.4                  -1.7046e-05           -2e-14                -1.2e-13              1.7064e-05           
  -1.5                  -1.7116e-05           -4e-14                -1e-13                1.7134e-05           
  -1.6                  -1.718e-05            -2e-14                -2.8e-13              1.72e-05             
  -1.7                  -1.724e-05            -1.2e-13              -2.4e-13              1.7262e-05           
  -1.8                  -1.7298e-05           4e-14                 2e-14                 1.7318e-05           
  -1.9                  -1.7354e-05           -2e-14                -8e-14                1.7374e-05           
  -2                    -1.7408e-05           -4e-14                8e-14                 1.7422e-05           
  -2.1                  -1.7458e-05           -8e-14                4.2e-13               1.7478e-05           
  -2.2                  -1.7508e-05           6e-14                 1.82e-12              1.7528e-05           
  -2.3                  -1.7552e-05           6e-14                 4.84e-12              1.7576e-05           
  -2.4                  -1.7604e-05           6e-14                 1.168e-11             1.7622e-05           
  -2.5                  -1.7648e-05           0                     2.582e-11             1.767e-05            
  -2.6                  -1.7694e-05           4e-14                 5.38e-11              1.7714e-05           
  -2.7                  -1.7732e-05           -2e-14                1.065e-10             1.7744e-05           
  -2.8                  -1.7784e-05           2e-14                 2.015e-10             1.7802e-05           
  -2.9                  -1.7826e-05           2e-14                 3.6644e-10            1.7848e-05           
  -3                    -1.787e-05            1.8e-13               6.4886e-10            1.7888e-05           
  -3.1                  -1.791e-05            8e-14                 1.11332e-09           1.7932e-05           
  -3.2                  -1.7956e-05           6e-14                 1.8708e-09            1.797e-05            
  -3.3                  -1.7998e-05           -2e-14                3.0654e-09            1.8014e-05           
  -3.4                  -1.8038e-05           -2e-14                4.9196e-09            1.8054e-05           
  -3.5                  -1.8082e-05           8e-14                 7.7464e-09            1.8094e-05           
  -3.6                  -1.8124e-05           -2e-14                1.1904e-08            1.8136e-05           
END_DB

BEGIN_DB
 ICCAP_VAR vg         -2.182         
 ICCAP_VAR vb         -0             
 ICCAP_VAR vs         -0             

 #vd                    id                    ig                    ib                    is                   
  -0                    1.9452e-09            -3.8e-13              -1.8e-13              -2.0204e-09          
  -0.1                  -7.8458e-06           -2.6e-13              -1.2e-13              7.8536e-06           
  -0.2                  -1.5e-05              -2.4e-13              -1.8e-13              1.5022e-05           
  -0.3                  -2.1426e-05           -3e-13                -1e-13                2.1446e-05           
  -0.4                  -2.7082e-05           -2.4e-13              -4e-14                2.71e-05             
  -0.5                  -3.2006e-05           -1.2e-13              -4e-14                3.201e-05            
  -0.6                  -3.6146e-05           -2e-13                -1e-13                3.6164e-05           
  -0.7                  -3.9562e-05           -1.6e-13              -8e-14                3.9602e-05           
  -0.8                  -4.2292e-05           -8e-14                2e-14                 4.2314e-05           
  -0.9                  -4.4402e-05           -1.8e-13              6e-14                 4.4424e-05           
  -1                    -4.5954e-05           -1.2e-13              2e-14                 4.5994e-05           
  -1.1                  -4.7112e-05           0                     -1.2e-13              4.7138e-05           
  -1.2                  -4.7948e-05           -4e-14                -2e-14                4.7972e-05           
  -1.3                  -4.8552e-05           -2e-13                -2e-14                4.8572e-05           
  -1.4                  -4.9018e-05           -8e-14                4e-14                 4.9058e-05           
  -1.5                  -4.939e-05            -8e-14                2e-14                 4.9402e-05           
  -1.6                  -4.9718e-05           -1.2e-13              -4e-14                4.9706e-05           
  -1.7                  -4.9942e-05           -2e-14                4e-14                 4.996e-05            
  -1.8                  -5.017e-05            2e-14                 0                     5.019e-05            
  -1.9                  -5.0372e-05           0                     -8e-14                5.0394e-05           
  -2                    -5.0588e-05           -8e-14                2e-14                 5.0602e-05           
  -2.1                  -5.0734e-05           -4e-14                4e-14                 5.0742e-05           
  -2.2                  -5.0856e-05           -4e-14                2e-14                 5.0936e-05           
  -2.3                  -5.1042e-05           0                     6e-14                 5.104e-05            
  -2.4                  -5.1138e-05           -2e-14                4.8e-13               5.118e-05            
  -2.5                  -5.133e-05            -1.6e-13              1.52e-12              5.131e-05            
  -2.6                  -5.1418e-05           -2e-14                4.16e-12              5.147e-05            
  -2.7                  -5.1538e-05           0                     1.056e-11             5.156e-05            
  -2.8                  -5.1678e-05           -1e-13                2.462e-11             5.1672e-05           
  -2.9                  -5.1762e-05           -1.4e-13              5.408e-11             5.1784e-05           
  -3                    -5.1874e-05           -1.4e-13              1.1244e-10            5.1906e-05           
  -3.1                  -5.198e-05            -4e-14                2.2228e-10            5.2044e-05           
  -3.2                  -5.2072e-05           -2e-14                4.2184e-10            5.2078e-05           
  -3.3                  -5.2182e-05           0                     7.74e-10              5.2208e-05           
  -3.4                  -5.2332e-05           -6e-14                1.3742e-09            5.2292e-05           
  -3.5                  -5.2386e-05           -1.2e-13              2.3796e-09            5.2442e-05           
  -3.6                  -5.2476e-05           2e-14                 4.0152e-09            5.2492e-05           
END_DB

BEGIN_DB
 ICCAP_VAR vg         -2.891         
 ICCAP_VAR vb         -0             
 ICCAP_VAR vs         -0             

 #vd                    id                    ig                    ib                    is                   
  -0                    2.2216e-09            -3.4e-13              -2e-13                -2.4768e-09          
  -0.1                  -1.028e-05            -3e-13                -1.8e-13              1.0296e-05           
  -0.2                  -1.9996e-05           -3.4e-13              -1.8e-13              2.0014e-05           
  -0.3                  -2.9072e-05           -2e-13                2e-14                 2.9098e-05           
  -0.4                  -3.7458e-05           -2.4e-13              -2e-14                3.7468e-05           
  -0.5                  -4.5198e-05           -1.4e-13              -1.4e-13              4.5232e-05           
  -0.6                  -5.2254e-05           -2e-13                -2e-14                5.2254e-05           
  -0.7                  -5.8542e-05           -1.4e-13              8e-14                 5.8556e-05           
  -0.8                  -6.4172e-05           -2.8e-13              4e-14                 6.4186e-05           
  -0.9                  -6.9124e-05           -1.6e-13              0                     6.9164e-05           
  -1                    -7.3454e-05           -6e-14                2e-14                 7.3464e-05           
  -1.1                  -7.714e-05            0                     -8e-14                7.7194e-05           
  -1.2                  -8.0244e-05           -1.2e-13              -6e-14                8.0282e-05           
  -1.3                  -8.2856e-05           -1.4e-13              0                     8.2866e-05           
  -1.4                  -8.4942e-05           -2e-13                -2e-14                8.4964e-05           
  -1.5                  -8.6644e-05           -1.6e-13              2e-14                 8.6626e-05           
  -1.6                  -8.7986e-05           -6e-14                0                     8.8032e-05           
  -1.7                  -8.9104e-05           -8e-14                -8e-14                8.9122e-05           
  -1.8                  -8.9954e-05           -6e-14                -1.2e-13              8.9984e-05           
  -1.9                  -9.069e-05            -1.2e-13              2e-14                 9.0716e-05           
  -2                    -9.1302e-05           -1e-13                -2e-14                9.1288e-05           
  -2.1                  -9.1774e-05           -4e-14                2e-14                 9.1808e-05           
  -2.2                  -9.2216e-05           -2e-14                8e-14                 9.2238e-05           
  -2.3                  -9.2614e-05           -1e-13                -1.2e-13              9.2668e-05           
  -2.4                  -9.2974e-05           -1e-13                -1.2e-13              9.3028e-05           
  -2.5                  -9.3318e-05           -6e-14                4e-14                 9.3256e-05           
  -2.6                  -9.36e-05             -1.4e-13              1.6e-13               9.3576e-05           
  -2.7                  -9.3862e-05           -1.4e-13              3e-13                 9.3832e-05           
  -2.8                  -9.406e-05            -6e-14                1.12e-12              9.4112e-05           
  -2.9                  -9.4258e-05           4e-14                 3.14e-12              9.4314e-05           
  -3                    -9.4518e-05           -1.4e-13              8.14e-12              9.4516e-05           
  -3.1                  -9.4678e-05           -1.6e-13              1.954e-11             9.4716e-05           
  -3.2                  -9.4894e-05           2e-14                 4.352e-11             9.4892e-05           
  -3.3                  -9.5088e-05           6e-14                 9.232e-11             9.5128e-05           
  -3.4                  -9.5272e-05           4e-14                 1.864e-10             9.5284e-05           
  -3.5                  -9.5404e-05           -4e-14                3.623e-10             9.548e-05            
  -3.6                  -9.5636e-05           -8e-14                6.7784e-10            9.5624e-05           
END_DB

BEGIN_DB
 ICCAP_VAR vg         -3.6           
 ICCAP_VAR vb         -0             
 ICCAP_VAR vs         -0             

 #vd                    id                    ig                    ib                    is                   
  -0                    2.3852e-09            -4.2e-13              2e-14                 -2.9e-09             
  -0.1                  -1.218e-05            -3.6e-13              -2e-14                1.22e-05             
  -0.2                  -2.3882e-05           -3.4e-13              0                     2.3906e-05           
  -0.3                  -3.5022e-05           -2.6e-13              -6e-14                3.5042e-05           
  -0.4                  -4.5558e-05           -3.8e-13              -8e-14                4.5578e-05           
  -0.5                  -5.5492e-05           -2e-13                -4e-14                5.5522e-05           
  -0.6                  -6.4804e-05           -1.4e-13              -4e-14                6.4826e-05           
  -0.7                  -7.3444e-05           -2e-13                -2e-14                7.3484e-05           
  -0.8                  -8.1458e-05           -1.4e-13              0                     8.1518e-05           
