! VERSION = 6.00
BEGIN_HEADER
 ICCAP_INPUTS
  vd         V  D GROUND SMU1 0.1 LIN        1    -0         -3.6       37   -0.1      
  vg         V  G GROUND SMU2 0.001 LIST       2 3 -1.641 -1.841 -2.041
  vb         V  B GROUND SMU4 0.1 CON        3.6
  vs         V  S GROUND SMU3 0.1 CON        -0
 ICCAP_OUTPUTS
  id         I  D GROUND SMU1 B
  ig         I  G GROUND SMU2 B
  ib         I  B GROUND SMU4 B
  is         I  S GROUND SMU3 B
 ICCAP_VALUES
  MASTER_SETUP_TYPE "~dc_idvd~"
  LINVT_VALUE ""
  LISTVT_VALUE "|idvg|100.0n|-200.0m|1.000m|3|200.0m|200.0m|"
  TYPE "-1"
  TEMP " 70.0000 "
  IS_TNOM " 0.00000 "
  MAIN.W "300.0n"
  MAIN.L "10.00u"
  MAIN.AD "102.0f"
  MAIN.AS "102.0f"
  MAIN.PD "1.280u"
  MAIN.PS "1.280u"
  MAIN.NF "1.000"
  MAIN.M "1"
  MAIN.NRD "0.000"
  MAIN.NRS "0.000"
  MAIN.LDRIFT1 "1E-06"
  MAIN.LDRIFT2 "1E-06"
  MAIN.SA "0.000"
  MAIN.SB "0.000"
  MAIN.SD "0.000"
  MAIN.SCA "0.000"
  MAIN.SCB "0.000"
  MAIN.SCC "0.000"
  MAIN.SC "0.000"
  MODULE "S555"
  PIN_D "14"
  PIN_G "7"
  PIN_S "8"
  PIN_B "13"
  PIN_E ""
  PIN_6 ""
  XY_ID ""
  FUNC "Narrow"
  STI "SA ref"
  WPE "WPE ref"
  COMMENT ""
  DIS_MEAS ""
  TypeTCI "10"
END_HEADER

BEGIN_DB
 ICCAP_VAR vg         -1.641         
 ICCAP_VAR vb         3.6            
 ICCAP_VAR vs         -0             

 #vd                    id                    ig                    ib                    is                   
  -0                    5.2e-13               -1.6e-13              1.13e-11              0                    
  -0.1                  -4.624e-11            2e-14                 1.122e-11             4.586e-11            
  -0.2                  -4.778e-11            2e-14                 1.122e-11             4.758e-11            
  -0.3                  -4.806e-11            -4e-14                1.126e-11             4.764e-11            
  -0.4                  -4.81e-11             1.2e-13               1.132e-11             4.746e-11            
  -0.5                  -4.832e-11            0                     1.14e-11              4.752e-11            
  -0.6                  -4.838e-11            2.2e-13               1.134e-11             4.756e-11            
  -0.7                  -4.836e-11            6e-14                 1.13e-11              4.748e-11            
  -0.8                  -4.85e-11             -1.2e-13              1.134e-11             4.766e-11            
  -0.9                  -4.842e-11            -4e-14                1.136e-11             4.754e-11            
  -1                    -4.86e-11             6e-14                 1.138e-11             4.752e-11            
  -1.1                  -4.868e-11            6e-14                 1.134e-11             4.754e-11            
  -1.2                  -4.872e-11            -2e-14                1.134e-11             4.748e-11            
  -1.3                  -4.878e-11            0                     1.112e-11             4.764e-11            
  -1.4                  -4.874e-11            4e-14                 1.118e-11             4.758e-11            
  -1.5                  -4.876e-11            1.8e-13               1.13e-11              4.764e-11            
  -1.6                  -4.876e-11            0                     1.122e-11             4.766e-11            
  -1.7                  -4.882e-11            6e-14                 1.126e-11             4.748e-11            
  -1.8                  -4.882e-11            2e-14                 1.124e-11             4.756e-11            
  -1.9                  -4.886e-11            -4e-14                1.118e-11             4.76e-11             
  -2                    -4.886e-11            1.2e-13               1.126e-11             4.754e-11            
  -2.1                  -4.892e-11            8e-14                 1.118e-11             4.75e-11             
  -2.2                  -4.9e-11              -1e-13                1.116e-11             4.764e-11            
  -2.3                  -4.902e-11            2.6e-13               1.126e-11             4.746e-11            
  -2.4                  -4.906e-11            1.2e-13               1.118e-11             4.758e-11            
  -2.5                  -4.9e-11              4e-14                 1.116e-11             4.766e-11            
  -2.6                  -4.902e-11            -2e-14                1.116e-11             4.76e-11             
  -2.7                  -4.906e-11            8e-14                 1.12e-11              4.766e-11            
  -2.8                  -4.906e-11            1e-13                 1.126e-11             4.75e-11             
  -2.9                  -4.916e-11            1e-13                 1.12e-11              4.744e-11            
  -3                    -4.912e-11            -1.4e-13              1.116e-11             4.77e-11             
  -3.1                  -4.914e-11            4e-14                 1.128e-11             4.764e-11            
  -3.2                  -4.916e-11            -2e-14                1.118e-11             4.76e-11             
  -3.3                  -4.924e-11            1.2e-13               1.124e-11             4.746e-11            
  -3.4                  -4.918e-11            -1.2e-13              1.116e-11             4.758e-11            
  -3.5                  -4.934e-11            1.4e-13               1.128e-11             4.756e-11            
  -3.6                  -4.938e-11            6e-14                 1.132e-11             4.77e-11             
END_DB

BEGIN_DB
 ICCAP_VAR vg         -1.841         
 ICCAP_VAR vb         3.6            
 ICCAP_VAR vs         -0             

 #vd                    id                    ig                    ib                    is                   
  -0                    2.52e-12              -1.2e-13              1.106e-11             -1.36e-12            
  -0.1                  -2.7864e-09           -6e-14                1.11e-11              2.786e-09            
  -0.2                  -3.103e-09            -3.2e-13              1.114e-11             3.1026e-09           
  -0.3                  -3.1144e-09           -8e-14                1.11e-11              3.1172e-09           
  -0.4                  -3.1212e-09           -2e-14                1.116e-11             3.12e-09             
  -0.5                  -3.1216e-09           -1.2e-13              1.122e-11             3.1196e-09           
  -0.6                  -3.1192e-09           0                     1.12e-11              3.1174e-09           
  -0.7                  -3.1224e-09           -2e-13                1.124e-11             3.12e-09             
  -0.8                  -3.123e-09            0                     1.122e-11             3.1198e-09           
  -0.9                  -3.126e-09            0                     1.118e-11             3.1244e-09           
  -1                    -3.127e-09            -8e-14                1.128e-11             3.1252e-09           
  -1.1                  -3.1232e-09           -4e-14                1.122e-11             3.1252e-09           
  -1.2                  -3.1272e-09           -6e-14                1.132e-11             3.1244e-09           
  -1.3                  -3.1272e-09           8e-14                 1.122e-11             3.1208e-09           
  -1.4                  -3.1274e-09           -4e-14                1.128e-11             3.1256e-09           
  -1.5                  -3.127e-09            -1.2e-13              1.13e-11              3.121e-09            
  -1.6                  -3.1276e-09           2e-14                 1.114e-11             3.1222e-09           
  -1.7                  -3.1238e-09           0                     1.124e-11             3.1202e-09           
  -1.8                  -3.1248e-09           -1.4e-13              1.114e-11             3.1248e-09           
  -1.9                  -3.123e-09            6e-14                 1.124e-11             3.1208e-09           
  -2                    -3.1238e-09           -2.4e-13              1.122e-11             3.121e-09            
  -2.1                  -3.1228e-09           -4e-14                1.116e-11             3.12e-09             
  -2.2                  -3.127e-09            -4e-14                1.124e-11             3.1232e-09           
  -2.3                  -3.1242e-09           2e-14                 1.126e-11             3.1212e-09           
  -2.4                  -3.1236e-09           -1.2e-13              1.122e-11             3.1238e-09           
  -2.5                  -3.124e-09            -2e-14                1.124e-11             3.1256e-09           
  -2.6                  -3.1284e-09           -1.8e-13              1.116e-11             3.1212e-09           
  -2.7                  -3.1238e-09           -2e-14                1.138e-11             3.1254e-09           
  -2.8                  -3.1274e-09           0                     1.128e-11             3.126e-09            
  -2.9                  -3.1248e-09           -4e-14                1.134e-11             3.1264e-09           
  -3                    -3.1286e-09           6e-14                 1.148e-11             3.1224e-09           
  -3.1                  -3.1294e-09           8e-14                 1.154e-11             3.1264e-09           
  -3.2                  -3.1298e-09           -1e-13                1.192e-11             3.126e-09            
  -3.3                  -3.1306e-09           -4e-14                1.212e-11             3.127e-09            
  -3.4                  -3.1314e-09           -4e-14                1.284e-11             3.1272e-09           
  -3.5                  -3.1326e-09           -2e-14                1.362e-11             3.1262e-09           
  -3.6                  -3.135e-09            4e-14                 1.506e-11             3.1282e-09           
END_DB

BEGIN_DB
 ICCAP_VAR vg         -2.041         
 ICCAP_VAR vb         3.6            
 ICCAP_VAR vs         -0             

 #vd                    id                    ig                    ib                    is                   
  -0                    7.28e-12              -2e-14                1.106e-11             -6.46e-12            
  -0.1                  -1.4528e-08           -2e-13                1.108e-11             1.454e-08            
  -0.2                  -2.0956e-08           -3e-13                1.108e-11             2.0974e-08           
  -0.3                  -2.2504e-08           -2.2e-13              1.116e-11             2.2516e-08           
  -0.4                  -2.2656e-08           -2.6e-13              1.12e-11              2.267e-08            
  -0.5                  -2.2674e-08           -3e-13                1.124e-11             2.2686e-08           
  -0.6                  -2.268e-08            -2e-13                1.12e-11              2.269e-08            
  -0.7                  -2.2682e-08           -6e-14                1.126e-11             2.2696e-08           
  -0.8                  -2.2686e-08           -1.2e-13              1.124e-11             2.2704e-08           
  -0.9                  -2.2694e-08           -1.4e-13              1.13e-11              2.2698e-08           
  -1                    -2.2684e-08           2e-14                 1.126e-11             2.27e-08             
  -1.1                  -2.269e-08            -2.2e-13              1.132e-11             2.2698e-08           
  -1.2                  -2.27e-08             0                     1.13e-11              2.271e-08            
  -1.3                  -2.2698e-08           -1.2e-13              1.122e-11             2.271e-08            
  -1.4                  -2.2698e-08           -4e-14                1.122e-11             2.2708e-08           
  -1.5                  -2.27e-08             2e-14                 1.128e-11             2.2718e-08           
  -1.6                  -2.2708e-08           -1.4e-13              1.122e-11             2.2728e-08           
  -1.7                  -2.2698e-08           -2.2e-13              1.13e-11              2.2718e-08           
  -1.8                  -2.2702e-08           -1.8e-13              1.134e-11             2.2718e-08           
  -1.9                  -2.2704e-08           -8e-14                1.126e-11             2.272e-08            
  -2                    -2.2706e-08           -4e-14                1.138e-11             2.2722e-08           
  -2.1                  -2.2706e-08           -6e-14                1.126e-11             2.272e-08            
  -2.2                  -2.2712e-08           -2e-14                1.124e-11             2.2718e-08           
  -2.3                  -2.272e-08            4e-14                 1.126e-11             2.2736e-08           
  -2.4                  -2.2726e-08           -4e-14                1.124e-11             2.2736e-08           
  -2.5                  -2.2722e-08           -2e-14                1.134e-11             2.2736e-08           
  -2.6                  -2.2728e-08           -1.2e-13              1.134e-11             2.274e-08            
  -2.7                  -2.2722e-08           -8e-14                1.132e-11             2.2732e-08           
  -2.8                  -2.2736e-08           -1.2e-13              1.152e-11             2.2736e-08           
  -2.9                  -2.273e-08            -1e-13                1.154e-11             2.2744e-08           
  -3                    -2.2728e-08           -6e-14                1.17e-11              2.274e-08            
  -3.1                  -2.2732e-08           -1.4e-13              1.22e-11              2.2738e-08           
  -3.2                  -2.2736e-08           -2e-14                1.29e-11              2.2742e-08           
  -3.3                  -2.273e-08            -1.4e-13              1.418e-11             2.2744e-08           
  -3.4                  -2.2742e-08           -1e-13                1.624e-11             2.275e-08            
  -3.5                  -2.2748e-08           -2e-14                1.924e-11             2.275e-08            
  -3.6                  -2.2754e-08           0                     2.414e-11             2.275e-08            
END_DB

