! VERSION = 6.00
BEGIN_HEADER
 ICCAP_INPUTS
  vd         V  D GROUND SMU1 0.1 LIN        1    -0         -3.6       37   -0.1      
  vg         V  G GROUND SMU2 0.001 LIST       2 3 -0.493 -0.693 -0.893
  vb         V  B GROUND SMU4 0.1 CON        -0
  vs         V  S GROUND SMU3 0.1 CON        -0
 ICCAP_OUTPUTS
  id         I  D GROUND SMU1 B
  ig         I  G GROUND SMU2 B
  ib         I  B GROUND SMU4 B
  is         I  S GROUND SMU3 B
 ICCAP_VALUES
  MASTER_SETUP_TYPE "~dc_idvd~"
  LINVT_VALUE ""
  LISTVT_VALUE "|idvg|100.0n|-200.0m|1.000m|3|200.0m|200.0m|"
  TYPE "-1"
  TEMP " 27.0000 "
  IS_TNOM " 1.00000 "
  MAIN.W "2.000u"
  MAIN.L "1.200u"
  MAIN.AD "680.0f"
  MAIN.AS "680.0f"
  MAIN.PD "4.680u"
  MAIN.PS "4.680u"
  MAIN.NF "1.000"
  MAIN.M "1"
  MAIN.NRD "0.000"
  MAIN.NRS "0.000"
  MAIN.LDRIFT1 "1E-06"
  MAIN.LDRIFT2 "1E-06"
  MAIN.SA "0.000"
  MAIN.SB "0.000"
  MAIN.SD "0.000"
  MAIN.SCA "0.000"
  MAIN.SCB "0.000"
  MAIN.SCC "0.000"
  MAIN.SC "0.000"
  MODULE "S563"
  PIN_D "16"
  PIN_G "5"
  PIN_S "6"
  PIN_B "15"
  PIN_E ""
  PIN_6 ""
  XY_ID ""
  FUNC "LW Scale"
  STI "SA ref"
  WPE "WPE ref"
  COMMENT ""
  DIS_MEAS ""
  TypeTCI "10"
END_HEADER

BEGIN_DB
 ICCAP_VAR vg         -0.493         
 ICCAP_VAR vb         -0             
 ICCAP_VAR vs         -0             

 #vd                    id                    ig                    ib                    is                   
  -0                    1.5e-12               5.6e-13               -1.4e-13              -3.78e-12            
  -0.1                  -1.9244e-09           5.2e-13               -2.8e-13              1.9258e-09           
  -0.2                  -1.9718e-09           5e-13                 -1.2e-13              1.9732e-09           
  -0.3                  -1.9782e-09           4.4e-13               -2.2e-13              1.979e-09            
  -0.4                  -1.981e-09            3.8e-13               -2e-13                1.9836e-09           
  -0.5                  -1.9846e-09           4.4e-13               -1.4e-13              1.9866e-09           
  -0.6                  -1.9866e-09           3.4e-13               -2.2e-13              1.9884e-09           
  -0.7                  -1.9884e-09           4.2e-13               -1.2e-13              1.9902e-09           
  -0.8                  -1.9924e-09           2.6e-13               -1.8e-13              1.991e-09            
  -0.9                  -1.994e-09            4.8e-13               -8e-14                1.9924e-09           
  -1                    -1.996e-09            2.2e-13               -2.2e-13              1.996e-09            
  -1.1                  -1.9976e-09           3.4e-13               -1.6e-13              1.9972e-09           
  -1.2                  -1.9992e-09           3.4e-13               -2.4e-13              1.9992e-09           
  -1.3                  -2.0004e-09           2.8e-13               -2.6e-13              2.0016e-09           
  -1.4                  -2.0016e-09           2.2e-13               -1.6e-13              2.002e-09            
  -1.5                  -2.0034e-09           3.4e-13               -2.8e-13              2.003e-09            
  -1.6                  -2.005e-09            2.2e-13               -1e-13                2.0032e-09           
  -1.7                  -2.006e-09            3.8e-13               -3.4e-13              2.0066e-09           
  -1.8                  -2.0074e-09           2.6e-13               -1.4e-13              2.0076e-09           
  -1.9                  -2.01e-09             3.2e-13               -2.2e-13              2.0112e-09           
  -2                    -2.0114e-09           1e-13                 -2e-13                2.0112e-09           
  -2.1                  -2.0118e-09           3.8e-13               -4e-14                2.0122e-09           
  -2.2                  -2.0122e-09           3.6e-13               -1.4e-13              2.0138e-09           
  -2.3                  -2.014e-09            1.6e-13               -1.8e-13              2.0144e-09           
  -2.4                  -2.0164e-09           4e-13                 6e-14                 2.0166e-09           
  -2.5                  -2.0182e-09           3.2e-13               -2e-14                2.0184e-09           
  -2.6                  -2.0188e-09           2.6e-13               2.4e-13               2.0194e-09           
  -2.7                  -2.0206e-09           2.2e-13               3.8e-13               2.0188e-09           
  -2.8                  -2.0224e-09           2.6e-13               7.8e-13               2.0208e-09           
  -2.9                  -2.022e-09            2.8e-13               1.2e-12               2.0224e-09           
  -3                    -2.0252e-09           2e-13                 1.76e-12              2.0232e-09           
  -3.1                  -2.028e-09            2.4e-13               2.82e-12              2.0234e-09           
  -3.2                  -2.03e-09             2.6e-13               4.12e-12              2.0254e-09           
  -3.3                  -2.0336e-09           1.4e-13               6e-12                 2.0268e-09           
  -3.4                  -2.038e-09            3.2e-13               8.66e-12              2.0294e-09           
  -3.5                  -2.0422e-09           1.2e-13               1.194e-11             2.03e-09             
  -3.6                  -2.0492e-09           3.2e-13               1.656e-11             2.0302e-09           
END_DB

BEGIN_DB
 ICCAP_VAR vg         -0.693         
 ICCAP_VAR vb         -0             
 ICCAP_VAR vs         -0             

 #vd                    id                    ig                    ib                    is                   
  -0                    1.9456e-10            2e-14                 -3.6e-13              -1.8798e-10          
  -0.1                  -1.5772e-07           1e-13                 -2.4e-13              1.579e-07            
  -0.2                  -1.6636e-07           4e-14                 -1.2e-13              1.6656e-07           
  -0.3                  -1.6704e-07           0                     -2.8e-13              1.673e-07            
  -0.4                  -1.6744e-07           2e-14                 -2e-13                1.6764e-07           
  -0.5                  -1.6776e-07           1.4e-13               -1.8e-13              1.6796e-07           
  -0.6                  -1.6798e-07           4e-14                 -1.8e-13              1.682e-07            
  -0.7                  -1.6822e-07           4e-14                 -1.8e-13              1.6844e-07           
  -0.8                  -1.684e-07            8e-14                 -1.4e-13              1.686e-07            
  -0.9                  -1.6854e-07           1.4e-13               -1.2e-13              1.6878e-07           
  -1                    -1.6878e-07           1.8e-13               -4e-14                1.6898e-07           
  -1.1                  -1.6892e-07           2.6e-13               -8e-14                1.6914e-07           
  -1.2                  -1.69e-07             4e-14                 -1.4e-13              1.6924e-07           
  -1.3                  -1.6914e-07           1.2e-13               -1.4e-13              1.6936e-07           
  -1.4                  -1.6924e-07           1.2e-13               -8e-14                1.6948e-07           
  -1.5                  -1.694e-07            1e-13                 -1.6e-13              1.6972e-07           
  -1.6                  -1.6966e-07           1.8e-13               -1.6e-13              1.6984e-07           
  -1.7                  -1.6978e-07           1.4e-13               -1.8e-13              1.6998e-07           
  -1.8                  -1.6986e-07           2e-13                 -1.4e-13              1.7002e-07           
  -1.9                  -1.6996e-07           2e-13                 -6e-14                1.7018e-07           
  -2                    -1.7006e-07           1.4e-13               1.2e-13               1.7026e-07           
  -2.1                  -1.7018e-07           8e-14                 4.8e-13               1.7034e-07           
  -2.2                  -1.7024e-07           1.8e-13               1.24e-12              1.7046e-07           
  -2.3                  -1.7036e-07           2.2e-13               2.34e-12              1.7058e-07           
  -2.4                  -1.7048e-07           1e-13                 4.42e-12              1.707e-07            
  -2.5                  -1.7058e-07           8e-14                 7.86e-12              1.7082e-07           
  -2.6                  -1.707e-07            1.2e-13               1.326e-11             1.7094e-07           
  -2.7                  -1.7084e-07           2.2e-13               2.218e-11             1.7106e-07           
  -2.8                  -1.7094e-07           1.8e-13               3.618e-11             1.7118e-07           
  -2.9                  -1.7108e-07           2e-13                 5.738e-11             1.7122e-07           
  -3                    -1.7122e-07           6e-14                 8.936e-11             1.7132e-07           
  -3.1                  -1.7132e-07           1.8e-13               1.3612e-10            1.714e-07            
  -3.2                  -1.715e-07            2.2e-13               2.0396e-10            1.715e-07            
  -3.3                  -1.717e-07            2e-13                 3.002e-10             1.716e-07            
  -3.4                  -1.7188e-07           2.2e-13               4.3448e-10            1.7172e-07           
  -3.5                  -1.7218e-07           1.4e-13               6.1876e-10            1.718e-07            
  -3.6                  -1.7254e-07           2.2e-13               8.6754e-10            1.7186e-07           
END_DB

BEGIN_DB
 ICCAP_VAR vg         -0.893         
 ICCAP_VAR vb         -0             
 ICCAP_VAR vs         -0             

 #vd                    id                    ig                    ib                    is                   
  -0                    7.0514e-10            -6e-14                -2.6e-13              -7.2658e-10          
  -0.1                  -1.1902e-06           6e-14                 -2.8e-13              1.1936e-06           
  -0.2                  -1.5586e-06           -8e-14                -2e-13                1.5636e-06           
  -0.3                  -1.6118e-06           6e-14                 -1.4e-13              1.6162e-06           
  -0.4                  -1.6216e-06           4e-14                 -1.8e-13              1.6258e-06           
  -0.5                  -1.6262e-06           8e-14                 -6e-14                1.6298e-06           
  -0.6                  -1.6302e-06           1.2e-13               -1.4e-13              1.634e-06            
  -0.7                  -1.6326e-06           0                     -1.4e-13              1.6366e-06           
  -0.8                  -1.6352e-06           2e-14                 -4e-14                1.6392e-06           
  -0.9                  -1.6374e-06           8e-14                 -6e-14                1.6412e-06           
  -1                    -1.6396e-06           8e-14                 -1.4e-13              1.6426e-06           
  -1.1                  -1.6406e-06           1.2e-13               -2.2e-13              1.6454e-06           
  -1.2                  -1.6432e-06           1e-13                 -1e-13                1.647e-06            
  -1.3                  -1.6452e-06           1.4e-13               -1.6e-13              1.6478e-06           
  -1.4                  -1.6458e-06           6e-14                 -1e-13                1.6502e-06           
  -1.5                  -1.648e-06            8e-14                 -1e-13                1.651e-06            
  -1.6                  -1.6486e-06           1.6e-13               -1.8e-13              1.653e-06            
  -1.7                  -1.6508e-06           1.4e-13               -1.2e-13              1.6548e-06           
  -1.8                  -1.6516e-06           1.8e-13               4e-14                 1.6558e-06           
  -1.9                  -1.6532e-06           1e-13                 2.8e-13               1.6568e-06           
  -2                    -1.6544e-06           0                     7.8e-13               1.6574e-06           
  -2.1                  -1.6546e-06           1e-13                 1.92e-12              1.6582e-06           
  -2.2                  -1.656e-06            2.6e-13               4.16e-12              1.6598e-06           
  -2.3                  -1.657e-06            4e-14                 8.54e-12              1.6612e-06           
  -2.4                  -1.6584e-06           4e-14                 1.676e-11             1.6618e-06           
  -2.5                  -1.6596e-06           1e-13                 3.124e-11             1.6632e-06           
  -2.6                  -1.6602e-06           0                     5.578e-11             1.6636e-06           
  -2.7                  -1.6606e-06           0                     9.666e-11             1.6662e-06           
  -2.8                  -1.6634e-06           1e-13                 1.6298e-10            1.6672e-06           
  -2.9                  -1.6652e-06           1.2e-13               2.6836e-10            1.6684e-06           
  -3                    -1.6658e-06           1.6e-13               4.3194e-10            1.6694e-06           
  -3.1                  -1.6672e-06           8e-14                 6.8042e-10            1.6704e-06           
  -3.2                  -1.669e-06            6e-14                 1.05186e-09           1.6718e-06           
  -3.3                  -1.6692e-06           1e-13                 1.595e-09             1.6714e-06           
  -3.4                  -1.6714e-06           4e-14                 2.3724e-09            1.6724e-06           
  -3.5                  -1.674e-06            1.2e-13               3.4732e-09            1.6742e-06           
  -3.6                  -1.6766e-06           1.6e-13               4.9928e-09            1.675e-06            
END_DB

