! VERSION = 6.00
BEGIN_HEADER
 ICCAP_INPUTS
  vd         V  D GROUND SMU1 0.1 LIN        1    -0         -3.6       37   -0.1      
  vg         V  G GROUND SMU2 0.001 LIN        2    -0.692     -3.6       5    -0.727    
  vb         V  B GROUND SMU4 0.1 CON        -0
  vs         V  S GROUND SMU3 0.1 CON        -0
 ICCAP_OUTPUTS
  id         I  D GROUND SMU1 B
  ig         I  G GROUND SMU2 B
  ib         I  B GROUND SMU4 B
  is         I  S GROUND SMU3 B
 ICCAP_VALUES
  MASTER_SETUP_TYPE "~dc_idvd~"
  LINVT_VALUE "|idvg|100.0n|100.0m|1.000m|5|3.600|"
  LISTVT_VALUE ""
  TYPE "-1"
  TEMP " 125.000 "
  IS_TNOM " 0.00000 "
  MAIN.W "10.00u"
  MAIN.L "10.00u"
  MAIN.AD "3.400p"
  MAIN.AS "3.400p"
  MAIN.PD "20.68u"
  MAIN.PS "20.68u"
  MAIN.NF "1.000"
  MAIN.M "1"
  MAIN.NRD "0.000"
  MAIN.NRS "0.000"
  MAIN.LDRIFT1 "1E-06"
  MAIN.LDRIFT2 "1E-06"
  MAIN.SA "0.000"
  MAIN.SB "0.000"
  MAIN.SD "0.000"
  MAIN.SCA "0.000"
  MAIN.SCB "0.000"
  MAIN.SCC "0.000"
  MAIN.SC "0.000"
  MODULE "S562"
  PIN_D "16"
  PIN_G "5"
  PIN_S "6"
  PIN_B "15"
  PIN_E ""
  PIN_6 ""
  XY_ID ""
  FUNC "Large"
  STI "SA ref"
  WPE "WPE ref"
  COMMENT ""
  DIS_MEAS ""
  TypeTCI "10"
END_HEADER

BEGIN_DB
 ICCAP_VAR vg         -0.692         
 ICCAP_VAR vb         -0             
 ICCAP_VAR vs         -0             

 #vd                    id                    ig                    ib                    is                   
  -0                    8.754e-11             2.4e-13               -1.0498e-10           -1.217e-10           
  -0.1                  -2.5524e-07           2e-13                 -9.772e-11            2.5532e-07           
  -0.2                  -3.0266e-07           1.6e-13               -8.938e-11            3.0276e-07           
  -0.3                  -3.065e-07            4e-14                 -8.436e-11            3.066e-07            
  -0.4                  -3.0682e-07           3e-13                 -7.964e-11            3.0692e-07           
  -0.5                  -3.0692e-07           1.6e-13               -7.55e-11             3.0702e-07           
  -0.6                  -3.07e-07             1e-13                 -7.152e-11            3.0708e-07           
  -0.7                  -3.0706e-07           2e-13                 -6.838e-11            3.0716e-07           
  -0.8                  -3.0712e-07           2e-13                 -6.536e-11            3.072e-07            
  -0.9                  -3.0716e-07           1.8e-13               -6.246e-11            3.0724e-07           
  -1                    -3.0722e-07           1.2e-13               -5.976e-11            3.073e-07            
  -1.1                  -3.0726e-07           1.2e-13               -5.686e-11            3.0736e-07           
  -1.2                  -3.073e-07            8e-14                 -5.534e-11            3.0738e-07           
  -1.3                  -3.0732e-07           1.6e-13               -5.294e-11            3.074e-07            
  -1.4                  -3.0736e-07           2.2e-13               -5.06e-11             3.0744e-07           
  -1.5                  -3.0738e-07           1.2e-13               -4.888e-11            3.0748e-07           
  -1.6                  -3.0742e-07           2.2e-13               -4.708e-11            3.0752e-07           
  -1.7                  -3.0746e-07           1.2e-13               -4.494e-11            3.0754e-07           
  -1.8                  -3.0748e-07           8e-14                 -4.3e-11              3.0754e-07           
  -1.9                  -3.075e-07            2.2e-13               -4.104e-11            3.0758e-07           
  -2                    -3.0754e-07           2e-13                 -3.948e-11            3.0762e-07           
  -2.1                  -3.0756e-07           2.4e-13               -3.698e-11            3.0766e-07           
  -2.2                  -3.076e-07            2.2e-13               -3.4e-11              3.077e-07            
  -2.3                  -3.0764e-07           1.6e-13               -3.072e-11            3.077e-07            
  -2.4                  -3.0764e-07           4e-14                 -2.558e-11            3.0772e-07           
  -2.5                  -3.077e-07            6e-14                 -1.828e-11            3.0774e-07           
  -2.6                  -3.077e-07            1.6e-13               -8.36e-12             3.078e-07            
  -2.7                  -3.0776e-07           1e-13                 6.24e-12              3.0782e-07           
  -2.8                  -3.0782e-07           1.8e-13               2.948e-11             3.0784e-07           
  -2.9                  -3.0788e-07           8e-14                 6.178e-11             3.0788e-07           
  -3                    -3.0792e-07           1.6e-13               1.0954e-10            3.0788e-07           
  -3.1                  -3.0802e-07           2.2e-13               1.7732e-10            3.0792e-07           
  -3.2                  -3.0814e-07           8e-14                 2.724e-10             3.0792e-07           
  -3.3                  -3.083e-07            1.4e-13               4.0628e-10            3.0796e-07           
  -3.4                  -3.085e-07            1.6e-13               5.8914e-10            3.0798e-07           
  -3.5                  -3.0878e-07           2.4e-13               8.3836e-10            3.0798e-07           
  -3.6                  -3.0914e-07           1.2e-13               1.1696e-09            3.08e-07             
END_DB

BEGIN_DB
 ICCAP_VAR vg         -1.419         
 ICCAP_VAR vb         -0             
 ICCAP_VAR vs         -0             

 #vd                    id                    ig                    ib                    is                   
  -0                    6.8332e-10            -4e-13                -3.212e-11            -6.7322e-10          
  -0.1                  -2.2526e-06           -5.4e-13              -2.97e-11             2.2556e-06           
  -0.2                  -4.0666e-06           -3.8e-13              -2.72e-11             4.0696e-06           
  -0.3                  -5.4454e-06           -2.2e-13              -2.552e-11            5.4484e-06           
  -0.4                  -6.4018e-06           -2.4e-13              -2.47e-11             6.405e-06            
  -0.5                  -6.968e-06            -3.2e-13              -2.362e-11            6.9712e-06           
  -0.6                  -7.209e-06            -3e-13                -2.276e-11            7.2122e-06           
  -0.7                  -7.268e-06            -4e-13                -2.242e-11            7.2708e-06           
  -0.8                  -7.2786e-06           -2.4e-13              -2.132e-11            7.2814e-06           
  -0.9                  -7.2818e-06           -2e-13                -2.088e-11            7.2852e-06           
  -1                    -7.2844e-06           -2.4e-13              -2.046e-11            7.2874e-06           
  -1.1                  -7.286e-06            -2e-13                -1.946e-11            7.2888e-06           
  -1.2                  -7.2874e-06           -2.2e-13              -1.88e-11             7.2904e-06           
  -1.3                  -7.2888e-06           -2.2e-13              -1.828e-11            7.2918e-06           
  -1.4                  -7.2898e-06           -2e-13                -1.774e-11            7.2926e-06           
  -1.5                  -7.2908e-06           -1.2e-13              -1.722e-11            7.2936e-06           
  -1.6                  -7.2918e-06           -6e-14                -1.742e-11            7.2946e-06           
  -1.7                  -7.2922e-06           -1.6e-13              -1.608e-11            7.2954e-06           
  -1.8                  -7.2934e-06           -2e-13                -1.596e-11            7.2964e-06           
  -1.9                  -7.2942e-06           -2.6e-13              -1.58e-11             7.2972e-06           
  -2                    -7.295e-06            -2e-13                -1.484e-11            7.298e-06            
  -2.1                  -7.2958e-06           -1e-13                -1.426e-11            7.2988e-06           
  -2.2                  -7.2968e-06           -2e-13                -1.346e-11            7.2996e-06           
  -2.3                  -7.2972e-06           -1e-13                -1.2e-11              7.3002e-06           
  -2.4                  -7.298e-06            -1.8e-13              -9.14e-12             7.3008e-06           
  -2.5                  -7.2984e-06           -8e-14                -3.8e-12              7.3014e-06           
  -2.6                  -7.2994e-06           -4e-14                5.84e-12              7.302e-06            
  -2.7                  -7.2998e-06           -1e-13                2.374e-11             7.3028e-06           
  -2.8                  -7.3006e-06           -2.4e-13              5.518e-11             7.3034e-06           
  -2.9                  -7.3012e-06           -1e-13                1.0946e-10            7.304e-06            
  -3                    -7.302e-06            -2e-14                1.984e-10             7.3046e-06           
  -3.1                  -7.3028e-06           -8e-14                3.4382e-10            7.3052e-06           
  -3.2                  -7.3034e-06           -6e-14                5.7376e-10            7.3056e-06           
  -3.3                  -7.3044e-06           -6e-14                9.3144e-10            7.3064e-06           
  -3.4                  -7.3056e-06           -1.4e-13              1.4756e-09            7.307e-06            
  -3.5                  -7.307e-06            -1.2e-13              2.2938e-09            7.3074e-06           
  -3.6                  -7.3086e-06           -1.8e-13              3.4968e-09            7.308e-06            
END_DB

BEGIN_DB
 ICCAP_VAR vg         -2.146         
 ICCAP_VAR vb         -0             
 ICCAP_VAR vs         -0             

 #vd                    id                    ig                    ib                    is                   
  -0                    1.23e-09              -6.4e-13              -1.736e-11            -1.14808e-09         
  -0.1                  -4.0444e-06           -5.8e-13              -1.648e-11            4.0472e-06           
  -0.2                  -7.6946e-06           -4.4e-13              -1.366e-11            7.6974e-06           
  -0.3                  -1.09466e-05          -4.2e-13              -1.298e-11            1.09496e-05          
  -0.4                  -1.3798e-05           -4.4e-13              -1.43e-11             1.3804e-05           
  -0.5                  -1.6268e-05           -4e-13                -1.212e-11            1.6276e-05           
  -0.6                  -1.8354e-05           -4.2e-13              -1.11e-11             1.8362e-05           
  -0.7                  -2.0056e-05           -3.6e-13              -1.094e-11            2.0064e-05           
  -0.8                  -2.1386e-05           -4.2e-13              -1.026e-11            2.1392e-05           
  -0.9                  -2.2346e-05           -3e-13                -1.016e-11            2.2352e-05           
  -1                    -2.296e-05            -3e-13                -1.016e-11            2.2966e-05           
  -1.1                  -2.3274e-05           -3.6e-13              -9.5e-12              2.3282e-05           
  -1.2                  -2.339e-05            -2.6e-13              -9.14e-12             2.3398e-05           
  -1.3                  -2.3426e-05           -3e-13                -8.86e-12             2.3432e-05           
  -1.4                  -2.344e-05            -3.2e-13              -8.16e-12             2.3446e-05           
  -1.5                  -2.3448e-05           -2.2e-13              -8.02e-12             2.3454e-05           
  -1.6                  -2.3454e-05           -2.2e-13              -8.28e-12             2.3462e-05           
  -1.7                  -2.346e-05            -2.6e-13              -7.62e-12             2.3466e-05           
  -1.8                  -2.3464e-05           -3.2e-13              -7.78e-12             2.347e-05            
  -1.9                  -2.3466e-05           -2.4e-13              -7.26e-12             2.3474e-05           
  -2                    -2.347e-05            -3.4e-13              -7.34e-12             2.3478e-05           
  -2.1                  -2.3472e-05           -3.2e-13              -7.22e-12             2.348e-05            
  -2.2                  -2.3476e-05           -3e-13                -6.68e-12             2.3484e-05           
  -2.3                  -2.3478e-05           -2.4e-13              -6.34e-12             2.3486e-05           
  -2.4                  -2.3482e-05           -2.2e-13              -6.64e-12             2.3488e-05           
  -2.5                  -2.3484e-05           -2e-13                -6.18e-12             2.3492e-05           
  -2.6                  -2.3486e-05           -3e-13                -5.3e-12              2.3494e-05           
  -2.7                  -2.3488e-05           -1.2e-13              -5.1e-12              2.3496e-05           
  -2.8                  -2.3492e-05           -2.2e-13              -2.96e-12             2.3498e-05           
  -2.9                  -2.3494e-05           -1.8e-13              5e-13                 2.35e-05             
  -3                    -2.3496e-05           -2.2e-13              8.28e-12              2.3502e-05           
  -3.1                  -2.3498e-05           -1.6e-13              2.432e-11             2.3504e-05           
  -3.2                  -2.35e-05             -2.4e-13              5.458e-11             2.3506e-05           
  -3.3                  -2.3502e-05           -1.4e-13              1.112e-10             2.3508e-05           
  -3.4                  -2.3504e-05           -1e-13                2.1214e-10            2.351e-05            
  -3.5                  -2.3506e-05           -1e-13                3.8526e-10            2.3512e-05           
  -3.6                  -2.3508e-05           -2.4e-13              6.7724e-10            2.3514e-05           
END_DB

BEGIN_DB
 ICCAP_VAR vg         -2.873         
 ICCAP_VAR vb         -0             
 ICCAP_VAR vs         -0             

 #vd                    id                    ig                    ib                    is                   
  -0                    1.4206e-09            -8.8e-13              -1.134e-11            -1.228e-09           
  -0.1                  -5.5328e-06           -7.8e-13              -9.88e-12             5.5358e-06           
  -0.2                  -1.07128e-05          -5.8e-13              -7.82e-12             1.0716e-05           
  -0.3                  -1.553e-05            -5e-13                -9.26e-12             1.5538e-05           
  -0.4                  -1.9986e-05           -7.2e-13              -6.48e-12             1.9992e-05           
  -0.5                  -2.41e-05             -6.6e-13              -6.42e-12             2.4108e-05           
  -0.6                  -2.7866e-05           -6e-13                -5.92e-12             2.7874e-05           
  -0.7                  -3.1282e-05           -4.6e-13              -5.84e-12             3.1288e-05           
  -0.8                  -3.4356e-05           -5.6e-13              -5.84e-12             3.4364e-05           
  -0.9                  -3.7088e-05           -4.2e-13              -5.1e-12              3.7096e-05           
  -1                    -3.9472e-05           -4.8e-13              -5.02e-12             3.948e-05            
  -1.1                  -4.1518e-05           -5.4e-13              -4.9e-12              4.1526e-05           
  -1.2                  -4.3224e-05           -4.2e-13              -4.24e-12             4.3232e-05           
  -1.3                  -4.4594e-05           -3.4e-13              -4.84e-12             4.4602e-05           
  -1.4                  -4.563e-05            -4.6e-13              -4.66e-12             4.5638e-05           
  -1.5                  -4.6352e-05           -3.6e-13              -4.1e-12              4.636e-05            
  -1.6                  -4.679e-05            -3.8e-13              -4.14e-12             4.6798e-05           
  -1.7                  -4.7006e-05           -3.4e-13              -3.4e-12              4.7014e-05           
  -1.8                  -4.7094e-05           -4.4e-13              -3.56e-12             4.7104e-05           
  -1.9                  -4.7134e-05           -3.6e-13              -3.16e-12             4.714e-05            
  -2                    -4.7154e-05           -2.8e-13              -3.36e-12             4.7162e-05           
  -2.1                  -4.7168e-05           -3.6e-13              -3.02e-12             4.7176e-05           
  -2.2                  -4.718e-05            -3.2e-13              -3.34e-12             4.7188e-05           
  -2.3                  -4.719e-05            -4.6e-13              -2.78e-12             4.7198e-05           
  -2.4                  -4.7198e-05           -4e-13                -2.62e-12             4.7204e-05           
  -2.5                  -4.7206e-05           -3e-13                -2.58e-12             4.7212e-05           
  -2.6                  -4.7212e-05           -4.6e-13              -2.48e-12             4.722e-05            
  -2.7                  -4.7218e-05           -3e-13                -2.12e-12             4.7224e-05           
  -2.8                  -4.7224e-05           -3e-13                -2.02e-12             4.7232e-05           
  -2.9                  -4.7228e-05           -3.2e-13              -1.84e-12             4.7236e-05           
  -3                    -4.7234e-05           -3.4e-13              -2.18e-12             4.724e-05            
  -3.1                  -4.7238e-05           -2.6e-13              -1.62e-12             4.7246e-05           
  -3.2                  -4.7242e-05           -3.2e-13              -4.8e-13              4.725e-05            
  -3.3                  -4.7248e-05           -3.8e-13              2e-13                 4.7254e-05           
  -3.4                  -4.7252e-05           -2.8e-13              3.52e-12              4.726e-05            
  -3.5                  -4.7256e-05           -2.6e-13              1.068e-11             4.7264e-05           
  -3.6                  -4.726e-05            -1.4e-13              2.522e-11             4.7266e-05           
END_DB

BEGIN_DB
 ICCAP_VAR vg         -3.6           
 ICCAP_VAR vb         -0             
 ICCAP_VAR vs         -0             

 #vd                    id                    ig                    ib                    is                   
  -0                    1.6366e-09            -9.2e-13              -7.66e-12             -1.5772e-09          
  -0.1                  -6.77e-06             -6.6e-13              -6.86e-12             6.7728e-06           
  -0.2                  -1.322e-05            -8e-13                -6.44e-12             1.3228e-05           
  -0.3                  -1.9346e-05           -6.4e-13              -3.96e-12             1.9354e-05           
  -0.4                  -2.514e-05            -5.6e-13              -3.66e-12             2.5146e-05           
  -0.5                  -3.0628e-05           -5.8e-13              -3.28e-12             3.0636e-05           
  -0.6                  -3.5804e-05           -6.8e-13              -3.14e-12             3.581e-05            
  -0.7                  -4.0658e-05           -6.8e-13              -2.84e-12             4.0664e-05           
  -0.8                  -4.521e-05            -6e-13                -2.48e-12             4.5216e-05           
