! VERSION = 6.00
BEGIN_HEADER
 ICCAP_INPUTS
  vg         V  G GROUND SMU2 0.001 LIN        1    0.5        -3.6       83   -0.05     
  vb         V  B GROUND SMU4 0.1 LIN        2    0          3.6        5    0.9       
  vd         V  D GROUND SMU1 0.1 LIN        3    -0.1       -3.3       3    -1.6      
  vs         V  S GROUND SMU3 0.1 CON        -0
 ICCAP_OUTPUTS
  id         I  D GROUND SMU1 B
  ig         I  G GROUND SMU2 B
  ib         I  B GROUND SMU4 B
  is         I  S GROUND SMU3 B
 ICCAP_VALUES
  MASTER_SETUP_TYPE "~dc_idvg~"
  LINVT_VALUE ""
  LISTVT_VALUE ""
  TYPE "-1"
  TEMP " 27.0000 "
  IS_TNOM " 1.00000 "
  MAIN.W "10.00u"
  MAIN.L "10.00u"
  MAIN.AD "3.400p"
  MAIN.AS "3.400p"
  MAIN.PD "20.68u"
  MAIN.PS "20.68u"
  MAIN.NF "1.000"
  MAIN.M "1"
  MAIN.NRD "0.000"
  MAIN.NRS "0.000"
  MAIN.LDRIFT1 "1E-06"
  MAIN.LDRIFT2 "1E-06"
  MAIN.SA "0.000"
  MAIN.SB "0.000"
  MAIN.SD "0.000"
  MAIN.SCA "0.000"
  MAIN.SCB "0.000"
  MAIN.SCC "0.000"
  MAIN.SC "0.000"
  MODULE "S562"
  PIN_D "16"
  PIN_G "5"
  PIN_S "6"
  PIN_B "15"
  PIN_E ""
  PIN_6 ""
  XY_ID ""
  FUNC "Large"
  STI "SA ref"
  WPE "WPE ref"
  COMMENT ""
  DIS_MEAS ""
  TypeTCI "10"
END_HEADER

BEGIN_DB
 ICCAP_VAR vb         0              
 ICCAP_VAR vd         -0.1           
 ICCAP_VAR vs         -0             

 #vg                    id                    ig                    ib                    is                   
  0.5                   4e-14                 1.95e-11              -5.64e-12             2.6e-13              
  0.45                  -4e-14                3.24e-12              -1.1e-12              4e-14                
  0.4                   8e-14                 7e-13                 -3e-13                -6e-14               
  0.35                  1.8e-13               1.8e-13               -2.8e-13              1.8e-13              
  0.3                   1e-13                 6e-14                 -1.4e-13              8e-14                
  0.25                  1e-13                 6e-14                 -1.2e-13              1.2e-13              
  0.2                   1e-13                 -1.2e-13              -1.2e-13              1e-13                
  0.15                  1.2e-13               -1e-13                -1.2e-13              1.6e-13              
  0.1                   4e-14                 -4e-14                -1.8e-13              2.2e-13              
  0.05                  8e-14                 -1.8e-13              -6e-14                2e-14                
  0                     1.8e-13               -3e-13                -2.4e-13              4.2e-13              
  -0.05                 1.6e-13               -1e-13                -1e-13                8e-14                
  -0.1                  1e-13                 -2.6e-13              -1.6e-13              3.4e-13              
  -0.15                 -4e-14                -2.2e-13              -8e-14                4e-13                
  -0.2                  -8.2e-13              -2.2e-13              -1.4e-13              1.04e-12             
  -0.25                 -2.68e-12             -2.2e-13              -1.4e-13              2.92e-12             
  -0.3                  -9.38e-12             -2.6e-13              -1e-13                9.64e-12             
  -0.35                 -3.262e-11            -1.6e-13              -4e-14                3.302e-11            
  -0.4                  -1.1446e-10           -3e-13                -8e-14                1.145e-10            
  -0.45                 -4.0224e-10           -4.2e-13              -2e-13                4.0272e-10           
  -0.5                  -1.411e-09            -2.8e-13              -1.6e-13              1.4124e-09           
  -0.55                 -4.8582e-09           -1.8e-13              -8e-14                4.8588e-09           
  -0.6                  -1.5496e-08           -1.4e-13              -1.2e-13              1.5522e-08           
  -0.65                 -4.3182e-08           -3.4e-13              -2e-14                4.3212e-08           
  -0.7                  -1.00822e-07          -3.8e-13              -1.6e-13              1.00852e-07          
  -0.75                 -1.9778e-07           -2.6e-13              -1.4e-13              1.9798e-07           
  -0.8                  -3.329e-07            -3.6e-13              -4e-14                3.331e-07            
  -0.85                 -4.983e-07            -3.4e-13              -1e-13                4.9856e-07           
  -0.9                  -6.8218e-07           -4e-13                -8e-14                6.8242e-07           
  -0.95                 -8.7742e-07           -4.2e-13              -1e-13                8.777e-07            
  -1                    -1.07714e-06          -3.8e-13              -1.8e-13              1.0774e-06           
  -1.05                 -1.278e-06            -3e-13                -4e-14                1.2818e-06           
  -1.1                  -1.4798e-06           -3.4e-13              -1.2e-13              1.4836e-06           
  -1.15                 -1.681e-06            -4.4e-13              0                     1.6848e-06           
  -1.2                  -1.8796e-06           -4.8e-13              -2e-14                1.8834e-06           
  -1.25                 -2.0766e-06           -4e-13                -1.2e-13              2.0804e-06           
  -1.3                  -2.2712e-06           -4.8e-13              -4e-14                2.275e-06            
  -1.35                 -2.4622e-06           -3.8e-13              -1.2e-13              2.466e-06            
  -1.4                  -2.6512e-06           -5.4e-13              -1.2e-13              2.655e-06            
  -1.45                 -2.8364e-06           -4.6e-13              -2e-14                2.8402e-06           
  -1.5                  -3.0196e-06           -6e-13                -2.2e-13              3.0234e-06           
  -1.55                 -3.1992e-06           -4.6e-13              -8e-14                3.2028e-06           
  -1.6                  -3.3768e-06           -4.4e-13              -1.6e-13              3.3806e-06           
  -1.65                 -3.551e-06            -5.2e-13              -1.2e-13              3.5546e-06           
  -1.7                  -3.7224e-06           -4.6e-13              -8e-14                3.726e-06            
  -1.75                 -3.8914e-06           -4.8e-13              -1.2e-13              3.8952e-06           
  -1.8                  -4.0572e-06           -5.2e-13              -2e-14                4.061e-06            
  -1.85                 -4.2204e-06           -5.2e-13              -4e-14                4.2242e-06           
  -1.9                  -4.381e-06            -6.2e-13              -1.4e-13              4.3846e-06           
  -1.95                 -4.5394e-06           -6.6e-13              0                     4.543e-06            
  -2                    -4.6948e-06           -3.4e-13              -8e-14                4.6986e-06           
  -2.05                 -4.8478e-06           -5.6e-13              -4e-14                4.8514e-06           
  -2.1                  -4.9988e-06           -7e-13                -6e-14                5.0026e-06           
  -2.15                 -5.1468e-06           -5.4e-13              -8e-14                5.1506e-06           
  -2.2                  -5.2924e-06           -7.2e-13              -8e-14                5.296e-06            
  -2.25                 -5.4358e-06           -4.8e-13              2e-14                 5.4394e-06           
  -2.3                  -5.5774e-06           -6.6e-13              -1e-13                5.5808e-06           
  -2.35                 -5.7158e-06           -6.8e-13              2e-14                 5.7194e-06           
  -2.4                  -5.8526e-06           -5.6e-13              -8e-14                5.8562e-06           
  -2.45                 -5.9866e-06           -6.2e-13              -6e-14                5.9904e-06           
  -2.5                  -6.1192e-06           -6.2e-13              2e-14                 6.1228e-06           
  -2.55                 -6.2488e-06           -6.4e-13              -1.6e-13              6.2526e-06           
  -2.6                  -6.377e-06            -5.8e-13              -6e-14                6.3806e-06           
  -2.65                 -6.5034e-06           -6e-13                -4e-14                6.5066e-06           
  -2.7                  -6.6266e-06           -7e-13                -1.4e-13              6.6304e-06           
  -2.75                 -6.749e-06            -5.8e-13              6e-14                 6.7524e-06           
  -2.8                  -6.8692e-06           -6.2e-13              0                     6.8726e-06           
  -2.85                 -6.9868e-06           -6.2e-13              -1.2e-13              6.9904e-06           
  -2.9                  -7.103e-06            -6e-13                4e-14                 7.1068e-06           
  -2.95                 -7.2172e-06           -6.2e-13              -6e-14                7.221e-06            
  -3                    -7.3298e-06           -6.4e-13              -4e-14                7.3336e-06           
  -3.05                 -7.4408e-06           -6.8e-13              -1e-13                7.4444e-06           
  -3.1                  -7.5494e-06           -6.8e-13              6e-14                 7.553e-06            
  -3.15                 -7.6568e-06           -6.2e-13              -2e-14                7.6604e-06           
  -3.2                  -7.762e-06            -6.2e-13              -6e-14                7.7658e-06           
  -3.25                 -7.8658e-06           -6.8e-13              2e-14                 7.8694e-06           
  -3.3                  -7.9676e-06           -6.6e-13              -4e-14                7.9712e-06           
  -3.35                 -8.0684e-06           -6.8e-13              -8e-14                8.072e-06            
  -3.4                  -8.1672e-06           -6.8e-13              -6e-14                8.1704e-06           
  -3.45                 -8.264e-06            -7e-13                -1.6e-13              8.2674e-06           
  -3.5                  -8.3594e-06           -7.8e-13              -2e-14                8.3628e-06           
  -3.55                 -8.4538e-06           -7.6e-13              -1.6e-13              8.4574e-06           
  -3.6                  -8.546e-06            -6.8e-13              -1.4e-13              8.5496e-06           
END_DB

BEGIN_DB
 ICCAP_VAR vb         0.9            
 ICCAP_VAR vd         -0.1           
 ICCAP_VAR vs         -0             

 #vg                    id                    ig                    ib                    is                   
  0.5                   4e-14                 7.6e-13               2.2e-13               1e-13                
  0.45                  0                     4.6e-13               3.4e-13               -1.2e-13             
  0.4                   4e-14                 5e-13                 3e-13                 2e-13                
  0.35                  4e-14                 2.6e-13               2.2e-13               2e-14                
  0.3                   -2e-14                2.8e-13               2.2e-13               6e-14                
  0.25                  1.2e-13               1.4e-13               1e-13                 1.2e-13              
  0.2                   0                     1.4e-13               2.4e-13               8e-14                
  0.15                  0                     1.4e-13               8e-14                 4e-14                
  0.1                   0                     0                     1.6e-13               1.6e-13              
  0.05                  1.6e-13               4e-14                 2.4e-13               6e-14                
  0                     4e-14                 -4e-14                1e-13                 2.2e-13              
  -0.05                 2e-14                 4e-14                 2.2e-13               6e-14                
  -0.1                  1.2e-13               -8e-14                0                     3.4e-13              
  -0.15                 1e-13                 0                     1.6e-13               1.4e-13              
  -0.2                  1.4e-13               -6e-14                8e-14                 2e-13                
  -0.25                 -4e-14                -2e-14                8e-14                 1.2e-13              
  -0.3                  1e-13                 -2e-13                4e-14                 1.2e-13              
  -0.35                 1.2e-13               -6e-14                -6e-14                2.6e-13              
  -0.4                  6e-14                 -2e-13                1.8e-13               0                    
  -0.45                 8e-14                 -1.6e-13              8e-14                 1.8e-13              
  -0.5                  0                     -1.2e-13              4e-14                 1e-13                
  -0.55                 -6e-14                -2.4e-13              1.6e-13               8e-14                
  -0.6                  -3.2e-13              -2e-13                0                     5.2e-13              
  -0.65                 -1.68e-12             -3.4e-13              6e-14                 1.94e-12             
  -0.7                  -6.94e-12             -2e-13                8e-14                 7.12e-12             
  -0.75                 -2.86e-11             -3.4e-13              6e-14                 2.876e-11            
  -0.8                  -1.154e-10            -2.2e-13              1.2e-13               1.157e-10            
  -0.85                 -4.652e-10            -2.6e-13              6e-14                 4.6528e-10           
  -0.9                  -1.8326e-09           -2.2e-13              6e-14                 1.8336e-09           
  -0.95                 -6.8386e-09           -2.4e-13              1.4e-13               6.8386e-09           
  -1                    -2.2212e-08           -2.2e-13              6e-14                 2.2238e-08           
  -1.05                 -5.9492e-08           -3.6e-13              1.2e-13               5.9512e-08           
  -1.1                  -1.288e-07            -2.8e-13              6e-14                 1.2898e-07           
  -1.15                 -2.3344e-07           -5.2e-13              4e-14                 2.3364e-07           
  -1.2                  -3.6638e-07           -3.8e-13              -2e-14                3.6658e-07           
  -1.25                 -5.1912e-07           -4.4e-13              6e-14                 5.1928e-07           
  -1.3                  -6.833e-07            -3.6e-13              -6e-14                6.8354e-07           
  -1.35                 -8.5302e-07           -5e-13                0                     8.533e-07            
  -1.4                  -1.0264e-06           -5.2e-13              2e-14                 1.0267e-06           
  -1.45                 -1.1984e-06           -3.6e-13              -1.2e-13              1.2022e-06           
  -1.5                  -1.3724e-06           -4.8e-13              2e-14                 1.3762e-06           
  -1.55                 -1.545e-06            -3.8e-13              2e-14                 1.5488e-06           
  -1.6                  -1.717e-06            -4.2e-13              0                     1.7208e-06           
  -1.65                 -1.8866e-06           -5.6e-13              -2e-14                1.8904e-06           
  -1.7                  -2.0544e-06           -3.8e-13              -6e-14                2.058e-06            
  -1.75                 -2.2206e-06           -5e-13                1e-13                 2.2244e-06           
  -1.8                  -2.3842e-06           -4.2e-13              -2e-14                2.388e-06            
  -1.85                 -2.5456e-06           -5.4e-13              4e-14                 2.5494e-06           
  -1.9                  -2.7048e-06           -5.8e-13              -4e-14                2.7086e-06           
  -1.95                 -2.8622e-06           -4.4e-13              1.4e-13               2.866e-06            
  -2                    -3.017e-06            -5.4e-13              -2e-14                3.0206e-06           
  -2.05                 -3.1694e-06           -4.2e-13              6e-14                 3.1732e-06           
  -2.1                  -3.3204e-06           -4.2e-13              2e-14                 3.324e-06            
  -2.15                 -3.4686e-06           -6e-13                -6e-14                3.4722e-06           
  -2.2                  -3.6144e-06           -6.4e-13              1.2e-13               3.618e-06            
  -2.25                 -3.7582e-06           -5.4e-13              -2e-14                3.7618e-06           
  -2.3                  -3.9004e-06           -5.8e-13              4e-14                 3.904e-06            
  -2.35                 -4.04e-06             -7e-13                2e-14                 4.0436e-06           
  -2.4                  -4.1778e-06           -6.8e-13              2e-14                 4.1814e-06           
  -2.45                 -4.3132e-06           -6e-13                -6e-14                4.3168e-06           
  -2.5                  -4.4468e-06           -5.4e-13              2e-14                 4.4504e-06           
  -2.55                 -4.578e-06            -6.2e-13              -1e-13                4.5818e-06           
  -2.6                  -4.7078e-06           -5e-13                -2e-14                4.7116e-06           
  -2.65                 -4.8358e-06           -7.6e-13              -1.4e-13              4.8394e-06           
  -2.7                  -4.9614e-06           -5e-13                2e-14                 4.965e-06            
  -2.75                 -5.0854e-06           -5.6e-13              -6e-14                5.089e-06            
  -2.8                  -5.2076e-06           -5.6e-13              -4e-14                5.2112e-06           
  -2.85                 -5.3276e-06           -5.6e-13              4e-14                 5.3314e-06           
  -2.9                  -5.4464e-06           -5.4e-13              -8e-14                5.45e-06             
  -2.95                 -5.5626e-06           -6.4e-13              4e-14                 5.5662e-06           
  -3                    -5.6776e-06           -6.4e-13              6e-14                 5.6812e-06           
  -3.05                 -5.791e-06            -7.6e-13              0                     5.7946e-06           
  -3.1                  -5.9022e-06           -6.2e-13              2.2e-13               5.9056e-06           
  -3.15                 -6.0124e-06           -7.2e-13              -1e-13                6.016e-06            
  -3.2                  -6.1202e-06           -7.6e-13              2e-14                 6.1238e-06           
  -3.25                 -6.2268e-06           -6.2e-13              0                     6.2302e-06           
  -3.3                  -6.3316e-06           -7e-13                0                     6.3352e-06           
  -3.35                 -6.4352e-06           -6.2e-13              2e-14                 6.4388e-06           
  -3.4                  -6.537e-06            -6.2e-13              0                     6.5404e-06           
  -3.45                 -6.637e-06            -7.4e-13              2e-14                 6.6404e-06           
