! VERSION = 6.00
BEGIN_HEADER
 ICCAP_INPUTS
  vd         V  D GROUND SMU1 0.1 LIN        1    -0         -3.6       37   -0.1      
  vg         V  G GROUND SMU2 0.001 LIN        2    -1.64      -3.6       5    -0.49     
  vb         V  B GROUND SMU4 0.1 CON        3.6
  vs         V  S GROUND SMU3 0.1 CON        -0
 ICCAP_OUTPUTS
  id         I  D GROUND SMU1 B
  ig         I  G GROUND SMU2 B
  ib         I  B GROUND SMU4 B
  is         I  S GROUND SMU3 B
 ICCAP_VALUES
  MASTER_SETUP_TYPE "~dc_idvd~"
  LINVT_VALUE "|idvg|100.0n|100.0m|1.000m|5|3.600|"
  LISTVT_VALUE ""
  TYPE "-1"
  TEMP " 70.0000 "
  IS_TNOM " 0.00000 "
  MAIN.W "300.0n"
  MAIN.L "350.0n"
  MAIN.AD "102.0f"
  MAIN.AS "102.0f"
  MAIN.PD "1.280u"
  MAIN.PS "1.280u"
  MAIN.NF "1.000"
  MAIN.M "1"
  MAIN.NRD "0.000"
  MAIN.NRS "0.000"
  MAIN.LDRIFT1 "1E-06"
  MAIN.LDRIFT2 "1E-06"
  MAIN.SA "0.000"
  MAIN.SB "0.000"
  MAIN.SD "0.000"
  MAIN.SCA "0.000"
  MAIN.SCB "0.000"
  MAIN.SCC "0.000"
  MAIN.SC "0.000"
  MODULE "S565"
  PIN_D "16"
  PIN_G "5"
  PIN_S "6"
  PIN_B "15"
  PIN_E ""
  PIN_6 ""
  XY_ID ""
  FUNC "Small"
  STI "SA ref"
  WPE "WPE ref"
  COMMENT ""
  DIS_MEAS ""
  TypeTCI "10"
END_HEADER

BEGIN_DB
 ICCAP_VAR vg         -1.64          
 ICCAP_VAR vb         3.6            
 ICCAP_VAR vs         -0             

 #vd                    id                    ig                    ib                    is                   
  -0                    7.344e-11             -5.8e-13              1.142e-11             -1.0106e-10          
  -0.1                  -1.4752e-07           -5e-13                1.138e-11             1.4764e-07           
  -0.2                  -1.9314e-07           -4.4e-13              1.134e-11             1.933e-07            
  -0.3                  -2.1808e-07           -3.6e-13              1.134e-11             2.1796e-07           
  -0.4                  -2.3776e-07           -3.2e-13              1.124e-11             2.378e-07            
  -0.5                  -2.55e-07             -4.6e-13              1.136e-11             2.5526e-07           
  -0.6                  -2.7144e-07           -3.4e-13              1.13e-11              2.7162e-07           
  -0.7                  -2.8698e-07           -3.4e-13              1.132e-11             2.8714e-07           
  -0.8                  -3.0252e-07           -3.2e-13              1.138e-11             3.025e-07            
  -0.9                  -3.177e-07            -2.6e-13              1.128e-11             3.1766e-07           
  -1                    -3.324e-07            -2e-13                1.122e-11             3.332e-07            
  -1.1                  -3.482e-07            -2.2e-13              1.12e-11              3.4844e-07           
  -1.2                  -3.636e-07            -2.8e-13              1.114e-11             3.6414e-07           
  -1.3                  -3.794e-07            -2.4e-13              1.112e-11             3.7992e-07           
  -1.4                  -3.9546e-07           -1.2e-13              1.114e-11             3.9546e-07           
  -1.5                  -4.1158e-07           -3e-13                1.118e-11             4.114e-07            
  -1.6                  -4.2716e-07           -1.6e-13              1.116e-11             4.2772e-07           
  -1.7                  -4.438e-07            -2e-13                1.122e-11             4.44e-07             
  -1.8                  -4.6032e-07           -2.6e-13              1.12e-11              4.599e-07            
  -1.9                  -4.7662e-07           -1.6e-13              1.124e-11             4.7694e-07           
  -2                    -4.9296e-07           -1.6e-13              1.122e-11             4.9408e-07           
  -2.1                  -5.111e-07            -2.2e-13              1.13e-11              5.1106e-07           
  -2.2                  -5.2884e-07           -8e-14                1.188e-11             5.2882e-07           
  -2.3                  -5.4682e-07           -8e-14                1.258e-11             5.4724e-07           
  -2.4                  -5.6508e-07           -1.4e-13              1.41e-11              5.6532e-07           
  -2.5                  -5.8356e-07           -1e-13                1.714e-11             5.8352e-07           
  -2.6                  -6.0268e-07           -1.4e-13              2.284e-11             6.0266e-07           
  -2.7                  -6.2196e-07           -2.2e-13              3.272e-11             6.2254e-07           
  -2.8                  -6.4206e-07           -3.2e-13              5.022e-11             6.4216e-07           
  -2.9                  -6.625e-07            -1.6e-13              7.97e-11              6.6262e-07           
  -3                    -6.829e-07            -2e-13                1.2892e-10            6.8284e-07           
  -3.1                  -7.0464e-07           -1e-13                2.0906e-10            7.0436e-07           
  -3.2                  -7.2594e-07           -8e-14                3.3756e-10            7.2584e-07           
  -3.3                  -7.4852e-07           -6e-14                5.3954e-10            7.4796e-07           
  -3.4                  -7.709e-07            -1e-13                8.5032e-10            7.7044e-07           
  -3.5                  -7.9412e-07           -1e-13                1.3222e-09            7.934e-07            
  -3.6                  -8.184e-07            -2e-13                2.0272e-09            8.1646e-07           
END_DB

BEGIN_DB
 ICCAP_VAR vg         -2.13          
 ICCAP_VAR vb         3.6            
 ICCAP_VAR vs         -0             

 #vd                    id                    ig                    ib                    is                   
  -0                    6.5734e-10            -3e-13                1.024e-11             -6.4716e-10          
  -0.1                  -1.7442e-06           -2.6e-13              1.03e-11              1.7476e-06           
  -0.2                  -3.106e-06            -4.6e-13              1.046e-11             3.1092e-06           
  -0.3                  -4.1106e-06           -3.4e-13              1.034e-11             4.114e-06            
  -0.4                  -4.8184e-06           -2.4e-13              1.044e-11             4.8212e-06           
  -0.5                  -5.3086e-06           -1.8e-13              1.062e-11             5.3114e-06           
  -0.6                  -5.6524e-06           -2.4e-13              1.054e-11             5.6566e-06           
  -0.7                  -5.9064e-06           -1.8e-13              1.058e-11             5.909e-06            
  -0.8                  -6.1064e-06           -2.4e-13              1.076e-11             6.11e-06             
  -0.9                  -6.2736e-06           -3.2e-13              1.064e-11             6.2754e-06           
  -1                    -6.4208e-06           -2e-13                1.068e-11             6.4234e-06           
  -1.1                  -6.5554e-06           -1.2e-13              1.074e-11             6.557e-06            
  -1.2                  -6.681e-06            -1e-13                1.062e-11             6.6834e-06           
  -1.3                  -6.8002e-06           -2e-13                1.07e-11              6.803e-06            
  -1.4                  -6.9154e-06           -1.8e-13              1.064e-11             6.9156e-06           
  -1.5                  -7.0252e-06           -1.4e-13              1.068e-11             7.0288e-06           
  -1.6                  -7.1352e-06           -1.8e-13              1.074e-11             7.138e-06            
  -1.7                  -7.242e-06            -1.8e-13              1.076e-11             7.2454e-06           
  -1.8                  -7.3464e-06           -8e-14                1.074e-11             7.3472e-06           
  -1.9                  -7.4474e-06           -2e-13                1.068e-11             7.4516e-06           
  -2                    -7.5484e-06           -2e-13                1.08e-11              7.5514e-06           
  -2.1                  -7.6472e-06           -1.6e-13              1.094e-11             7.65e-06             
  -2.2                  -7.744e-06            -1.6e-13              1.148e-11             7.7468e-06           
  -2.3                  -7.8396e-06           -4e-14                1.248e-11             7.8434e-06           
  -2.4                  -7.9356e-06           -8e-14                1.484e-11             7.9386e-06           
  -2.5                  -8.031e-06            -6e-14                1.956e-11             8.0338e-06           
  -2.6                  -8.125e-06            -6e-14                2.912e-11             8.128e-06            
  -2.7                  -8.2192e-06           -1.4e-13              4.77e-11              8.2226e-06           
  -2.8                  -8.3132e-06           -8e-14                8.174e-11             8.3172e-06           
  -2.9                  -8.4084e-06           -1.4e-13              1.4294e-10            8.4124e-06           
  -3                    -8.5038e-06           -1e-13                2.4938e-10            8.5068e-06           
  -3.1                  -8.5994e-06           -1e-13                4.3278e-10            8.6026e-06           
  -3.2                  -8.6928e-06           -2e-13                7.3608e-10            8.695e-06            
  -3.3                  -8.7938e-06           -6e-14                1.2264e-09            8.7934e-06           
  -3.4                  -8.8912e-06           -6e-14                2.0242e-09            8.8918e-06           
  -3.5                  -8.9854e-06           -1.4e-13              3.2862e-09            8.9862e-06           
  -3.6                  -9.0942e-06           -1e-13                5.2944e-09            9.0852e-06           
END_DB

BEGIN_DB
 ICCAP_VAR vg         -2.62          
 ICCAP_VAR vb         3.6            
 ICCAP_VAR vs         -0             

 #vd                    id                    ig                    ib                    is                   
  -0                    1.091e-09             -3.4e-13              1.006e-11             -9.9036e-10          
  -0.1                  -3.2212e-06           -3.6e-13              1.024e-11             3.2242e-06           
  -0.2                  -6.1132e-06           -2.4e-13              1.024e-11             6.116e-06            
  -0.3                  -8.6504e-06           -3.4e-13              1.034e-11             8.6532e-06           
  -0.4                  -1.08254e-05          -2.4e-13              1.04e-11              1.08288e-05          
  -0.5                  -1.2654e-05           -2.6e-13              1.02e-11              1.266e-05            
  -0.6                  -1.4156e-05           -3.6e-13              1.036e-11             1.4166e-05           
  -0.7                  -1.5366e-05           -1e-13                1.052e-11             1.5372e-05           
  -0.8                  -1.6334e-05           -2.2e-13              1.032e-11             1.634e-05            
  -0.9                  -1.7098e-05           -3.4e-13              1.05e-11              1.7106e-05           
  -1                    -1.7702e-05           -2.2e-13              1.052e-11             1.7708e-05           
  -1.1                  -1.8194e-05           -1.6e-13              1.058e-11             1.8198e-05           
  -1.2                  -1.8598e-05           -1.6e-13              1.058e-11             1.8608e-05           
  -1.3                  -1.8946e-05           -2.6e-13              1.052e-11             1.895e-05            
  -1.4                  -1.9256e-05           -2.6e-13              1.044e-11             1.9258e-05           
  -1.5                  -1.9532e-05           -2.2e-13              1.048e-11             1.954e-05            
  -1.6                  -1.9788e-05           -2e-13                1.058e-11             1.9792e-05           
  -1.7                  -2.0028e-05           -1.4e-13              1.054e-11             2.0032e-05           
  -1.8                  -2.0254e-05           -2e-13                1.046e-11             2.0262e-05           
  -1.9                  -2.0476e-05           -1.8e-13              1.054e-11             2.0478e-05           
  -2                    -2.068e-05            -2e-13                1.052e-11             2.069e-05            
  -2.1                  -2.0882e-05           -2e-13                1.06e-11              2.0892e-05           
  -2.2                  -2.108e-05            -1.6e-13              1.086e-11             2.1088e-05           
  -2.3                  -2.127e-05            -1.8e-13              1.12e-11              2.1276e-05           
  -2.4                  -2.1454e-05           -1e-13                1.186e-11             2.1462e-05           
  -2.5                  -2.1634e-05           4e-14                 1.366e-11             2.1644e-05           
  -2.6                  -2.181e-05            -8e-14                1.73e-11              2.1818e-05           
  -2.7                  -2.1986e-05           -2.6e-13              2.48e-11              2.1992e-05           
  -2.8                  -2.2158e-05           -1.4e-13              3.97e-11              2.216e-05            
  -2.9                  -2.232e-05            4e-14                 6.816e-11             2.233e-05            
  -3                    -2.2492e-05           -1.6e-13              1.212e-10             2.25e-05             
  -3.1                  -2.2656e-05           -2e-14                2.1596e-10            2.2666e-05           
  -3.2                  -2.2826e-05           -1.4e-13              3.8406e-10            2.2826e-05           
  -3.3                  -2.2988e-05           -2e-14                6.6362e-10            2.2992e-05           
  -3.4                  -2.3158e-05           -1.4e-13              1.1502e-09            2.3158e-05           
  -3.5                  -2.331e-05            0                     1.9596e-09            2.3326e-05           
  -3.6                  -2.3484e-05           -1.8e-13              3.273e-09             2.348e-05            
END_DB

BEGIN_DB
 ICCAP_VAR vg         -3.11          
 ICCAP_VAR vb         3.6            
 ICCAP_VAR vs         -0             

 #vd                    id                    ig                    ib                    is                   
  -0                    1.308e-09             -5.4e-13              1.002e-11             -1.147e-09           
  -0.1                  -4.4144e-06           -3.6e-13              1.026e-11             4.4152e-06           
  -0.2                  -8.5404e-06           -2.6e-13              1.018e-11             8.5502e-06           
  -0.3                  -1.2362e-05           -2.4e-13              1.032e-11             1.2354e-05           
  -0.4                  -1.584e-05            -3.4e-13              1.034e-11             1.5848e-05           
  -0.5                  -1.8956e-05           -1.6e-13              1.034e-11             1.899e-05            
  -0.6                  -2.1796e-05           -2.2e-13              1.04e-11              2.1794e-05           
  -0.7                  -2.4254e-05           -2.8e-13              1.036e-11             2.4262e-05           
  -0.8                  -2.6402e-05           -3.4e-13              1.034e-11             2.6404e-05           
  -0.9                  -2.8222e-05           -3e-13                1.042e-11             2.8246e-05           
  -1                    -2.9804e-05           -3e-13                1.052e-11             2.9818e-05           
  -1.1                  -3.113e-05            -1.2e-13              1.056e-11             3.1132e-05           
  -1.2                  -3.223e-05            -6e-14                1.06e-11              3.2226e-05           
  -1.3                  -3.3136e-05           -1e-13                1.048e-11             3.3158e-05           
  -1.4                  -3.3954e-05           -3.6e-13              1.048e-11             3.3954e-05           
  -1.5                  -3.4576e-05           -3e-13                1.054e-11             3.4558e-05           
  -1.6                  -3.5146e-05           -1.4e-13              1.044e-11             3.5152e-05           
  -1.7                  -3.5662e-05           -3.2e-13              1.034e-11             3.5668e-05           
  -1.8                  -3.6118e-05           -2.4e-13              1.048e-11             3.6148e-05           
  -1.9                  -3.6572e-05           -1.6e-13              1.056e-11             3.6546e-05           
  -2                    -3.6954e-05           -1.4e-13              1.058e-11             3.6948e-05           
  -2.1                  -3.7294e-05           -1.8e-13              1.054e-11             3.7298e-05           
  -2.2                  -3.764e-05            -8e-14                1.058e-11             3.7628e-05           
  -2.3                  -3.7948e-05           -2e-14                1.05e-11              3.7968e-05           
  -2.4                  -3.8246e-05           -1.8e-13              1.074e-11             3.825e-05            
  -2.5                  -3.8542e-05           -2e-13                1.118e-11             3.8546e-05           
  -2.6                  -3.8816e-05           -1.8e-13              1.222e-11             3.8818e-05           
  -2.7                  -3.9098e-05           -1.8e-13              1.442e-11             3.9116e-05           
  -2.8                  -3.937e-05            -2.4e-13              1.96e-11              3.9366e-05           
  -2.9                  -3.9636e-05           -1.4e-13              2.968e-11             3.9642e-05           
  -3                    -3.9868e-05           -1.4e-13              4.922e-11             3.9886e-05           
  -3.1                  -4.0126e-05           -1.6e-13              8.59e-11              4.0132e-05           
  -3.2                  -4.0356e-05           -1.6e-13              1.5288e-10            4.0372e-05           
  -3.3                  -4.0596e-05           -1e-13                2.7268e-10            4.0594e-05           
  -3.4                  -4.0822e-05           -1.4e-13              4.7884e-10            4.082e-05            
  -3.5                  -4.1054e-05           -2e-14                8.4124e-10            4.105e-05            
  -3.6                  -4.1282e-05           -1.8e-13              1.4394e-09            4.1282e-05           
END_DB

BEGIN_DB
 ICCAP_VAR vg         -3.6           
 ICCAP_VAR vb         3.6            
 ICCAP_VAR vs         -0             

 #vd                    id                    ig                    ib                    is                   
  -0                    1.606e-09             -6e-13                9.96e-12              -1.4222e-09          
  -0.1                  -5.4214e-06           -3.2e-13              1.016e-11             5.425e-06            
  -0.2                  -1.0591e-05           -2.8e-13              1.012e-11             1.06016e-05          
  -0.3                  -1.5482e-05           -3.2e-13              1.028e-11             1.5484e-05           
  -0.4                  -2.0038e-05           -3e-13                1.024e-11             2.0054e-05           
  -0.5                  -2.4312e-05           -2.8e-13              1.03e-11              2.4314e-05           
  -0.6                  -2.8256e-05           -3.2e-13              1.046e-11             2.8242e-05           
  -0.7                  -3.1828e-05           -2.4e-13              1.044e-11             3.1842e-05           
  -0.8                  -3.5072e-05           -2.6e-13              1.038e-11             3.5092e-05           
