! VERSION = 6.00
BEGIN_HEADER
 ICCAP_INPUTS
  vd         V  D GROUND SMU1 0.1 LIN        1    -0         -3.6       37   -0.1      
  vg         V  G GROUND SMU2 0.001 LIN        2    -1.992     -3.6       5    -0.402    
  vb         V  B GROUND SMU4 0.1 CON        3.6
  vs         V  S GROUND SMU3 0.1 CON        -0
 ICCAP_OUTPUTS
  id         I  D GROUND SMU1 B
  ig         I  G GROUND SMU2 B
  ib         I  B GROUND SMU4 B
  is         I  S GROUND SMU3 B
 ICCAP_VALUES
  MASTER_SETUP_TYPE "~dc_idvd~"
  LINVT_VALUE "|idvg|100.0n|100.0m|1.000m|5|3.600|"
  LISTVT_VALUE ""
  TYPE "-1"
  TEMP " 27.0000 "
  IS_TNOM " 1.00000 "
  MAIN.W "10.00u"
  MAIN.L "5.000u"
  MAIN.AD "3.400p"
  MAIN.AS "3.400p"
  MAIN.PD "20.68u"
  MAIN.PS "20.68u"
  MAIN.NF "1.000"
  MAIN.M "1"
  MAIN.NRD "0.000"
  MAIN.NRS "0.000"
  MAIN.LDRIFT1 "1E-06"
  MAIN.LDRIFT2 "1E-06"
  MAIN.SA "0.000"
  MAIN.SB "0.000"
  MAIN.SD "0.000"
  MAIN.SCA "0.000"
  MAIN.SCB "0.000"
  MAIN.SCC "0.000"
  MAIN.SC "0.000"
  MODULE "S562"
  PIN_D "18"
  PIN_G "3"
  PIN_S "4"
  PIN_B "17"
  PIN_E ""
  PIN_6 ""
  XY_ID ""
  FUNC "L Scale"
  STI "SA ref"
  WPE "WPE ref"
  COMMENT ""
  DIS_MEAS ""
  TypeTCI "10"
END_HEADER

BEGIN_DB
 ICCAP_VAR vg         -1.992         
 ICCAP_VAR vb         3.6            
 ICCAP_VAR vs         -0             

 #vd                    id                    ig                    ib                    is                   
  -0                    3.9594e-10            -7e-13                1.76e-12              -4.4488e-10          
  -0.1                  -5.5524e-07           -4.6e-13              1.62e-12              5.5556e-07           
  -0.2                  -6.9744e-07           -5e-13                1.46e-12              6.9772e-07           
  -0.3                  -7.1018e-07           -3.2e-13              1.48e-12              7.1042e-07           
  -0.4                  -7.1132e-07           -3.2e-13              1.46e-12              7.1164e-07           
  -0.5                  -7.119e-07            -2.8e-13              1.28e-12              7.1224e-07           
  -0.6                  -7.1242e-07           -2e-13                1.42e-12              7.127e-07            
  -0.7                  -7.1268e-07           -2.6e-13              1.34e-12              7.1294e-07           
  -0.8                  -7.129e-07            -3e-13                1.28e-12              7.1316e-07           
  -0.9                  -7.1314e-07           -2.4e-13              1.2e-12               7.134e-07            
  -1                    -7.1344e-07           -1.8e-13              1.18e-12              7.1372e-07           
  -1.1                  -7.1358e-07           -1.4e-13              1.08e-12              7.139e-07            
  -1.2                  -7.1374e-07           -1e-13                1.18e-12              7.141e-07            
  -1.3                  -7.1412e-07           -8e-14                9.6e-13               7.143e-07            
  -1.4                  -7.1424e-07           -2.2e-13              9.4e-13               7.146e-07            
  -1.5                  -7.1454e-07           -1.6e-13              1.02e-12              7.1478e-07           
  -1.6                  -7.1458e-07           -6e-14                9.4e-13               7.1484e-07           
  -1.7                  -7.1474e-07           -1.6e-13              9.4e-13               7.15e-07             
  -1.8                  -7.1496e-07           -2e-13                1.06e-12              7.1518e-07           
  -1.9                  -7.1502e-07           -1.4e-13              9.2e-13               7.1536e-07           
  -2                    -7.1518e-07           -1e-13                9.2e-13               7.154e-07            
  -2.1                  -7.154e-07            1.6e-13               8.8e-13               7.1564e-07           
  -2.2                  -7.155e-07            -1e-13                9e-13                 7.1576e-07           
  -2.3                  -7.1562e-07           -1.6e-13              9e-13                 7.159e-07            
  -2.4                  -7.1572e-07           -6e-14                1.08e-12              7.161e-07            
  -2.5                  -7.1592e-07           -2e-14                1.66e-12              7.162e-07            
  -2.6                  -7.16e-07             -1.4e-13              2.74e-12              7.1628e-07           
  -2.7                  -7.1606e-07           -1.6e-13              4.74e-12              7.1638e-07           
  -2.8                  -7.1624e-07           -1e-13                8.14e-12              7.1648e-07           
  -2.9                  -7.164e-07            -2e-14                1.498e-11             7.1668e-07           
  -3                    -7.1648e-07           -1.2e-13              2.716e-11             7.1686e-07           
  -3.1                  -7.167e-07            -8e-14                4.8e-11               7.1696e-07           
  -3.2                  -7.1688e-07           -2e-14                8.328e-11             7.171e-07            
  -3.3                  -7.1706e-07           2e-14                 1.414e-10             7.172e-07            
  -3.4                  -7.1726e-07           -8e-14                2.3558e-10            7.172e-07            
  -3.5                  -7.1744e-07           -4e-14                3.8488e-10            7.173e-07            
  -3.6                  -7.179e-07            -6e-14                6.1692e-10            7.1744e-07           
END_DB

BEGIN_DB
 ICCAP_VAR vg         -2.394         
 ICCAP_VAR vb         3.6            
 ICCAP_VAR vs         -0             

 #vd                    id                    ig                    ib                    is                   
  -0                    1.3928e-09            -2.2e-13              5.4e-13               -1.2152e-09          
  -0.1                  -2.6042e-06           -2.2e-13              4e-13                 2.608e-06            
  -0.2                  -4.5452e-06           -1.6e-13              6.2e-13               4.5494e-06           
  -0.3                  -5.8348e-06           -1.4e-13              4e-13                 5.839e-06            
  -0.4                  -6.5302e-06           -1.4e-13              3.4e-13               6.5346e-06           
  -0.5                  -6.7834e-06           -1.6e-13              5e-13                 6.7876e-06           
  -0.6                  -6.838e-06            -1e-13                5e-13                 6.842e-06            
  -0.7                  -6.8512e-06           -2.2e-13              3.6e-13               6.8548e-06           
  -0.8                  -6.8566e-06           -1.4e-13              4e-13                 6.8606e-06           
  -0.9                  -6.8614e-06           -1.8e-13              5e-13                 6.8654e-06           
  -1                    -6.8646e-06           -1.4e-13              4.4e-13               6.8682e-06           
  -1.1                  -6.8674e-06           -1e-13                3e-13                 6.8706e-06           
  -1.2                  -6.8696e-06           2e-14                 3e-13                 6.8732e-06           
  -1.3                  -6.872e-06            -6e-14                4.2e-13               6.8762e-06           
  -1.4                  -6.8742e-06           -4e-14                5.4e-13               6.8774e-06           
  -1.5                  -6.8754e-06           -4e-14                5.4e-13               6.8794e-06           
  -1.6                  -6.8776e-06           -6e-14                3.6e-13               6.8812e-06           
  -1.7                  -6.8788e-06           -4e-14                3.4e-13               6.8822e-06           
  -1.8                  -6.8808e-06           2e-14                 5.4e-13               6.8848e-06           
  -1.9                  -6.8828e-06           -4e-14                3e-13                 6.886e-06            
  -2                    -6.8844e-06           -8e-14                3.2e-13               6.888e-06            
  -2.1                  -6.8854e-06           0                     5.6e-13               6.8892e-06           
  -2.2                  -6.8868e-06           -4e-14                4.2e-13               6.8906e-06           
  -2.3                  -6.888e-06            0                     4.2e-13               6.892e-06            
  -2.4                  -6.8892e-06           0                     6e-13                 6.8928e-06           
  -2.5                  -6.8904e-06           2e-14                 8.6e-13               6.8942e-06           
  -2.6                  -6.892e-06            -8e-14                1.42e-12              6.8956e-06           
  -2.7                  -6.8934e-06           1e-13                 2.96e-12              6.8968e-06           
  -2.8                  -6.8946e-06           4e-14                 6.1e-12               6.8982e-06           
  -2.9                  -6.8954e-06           -2e-14                1.302e-11             6.8996e-06           
  -3                    -6.8968e-06           0                     2.67e-11              6.9002e-06           
  -3.1                  -6.8984e-06           2e-14                 5.33e-11              6.9026e-06           
  -3.2                  -6.8998e-06           2e-14                 1.0272e-10            6.9028e-06           
  -3.3                  -6.9002e-06           -8e-14                1.9238e-10            6.904e-06            
  -3.4                  -6.9018e-06           6e-14                 3.4958e-10            6.9048e-06           
  -3.5                  -6.9032e-06           -8e-14                6.2018e-10            6.9064e-06           
  -3.6                  -6.9046e-06           -6e-14                1.07452e-09           6.9072e-06           
END_DB

BEGIN_DB
 ICCAP_VAR vg         -2.796         
 ICCAP_VAR vb         3.6            
 ICCAP_VAR vs         -0             

 #vd                    id                    ig                    ib                    is                   
  -0                    2.1172e-09            -2.6e-13              2.4e-13               -1.8348e-09          
  -0.1                  -4.6274e-06           -2e-13                2.4e-13               4.6314e-06           
  -0.2                  -8.63e-06             -1e-13                2.8e-13               8.6334e-06           
  -0.3                  -1.198e-05            -2.4e-13              3.4e-13               1.1998e-05           
  -0.4                  -1.4684e-05           -1.6e-13              3e-13                 1.4704e-05           
  -0.5                  -1.6752e-05           -1e-13                2.4e-13               1.6772e-05           
  -0.6                  -1.8196e-05           -1e-13                2.6e-13               1.8218e-05           
  -0.7                  -1.9064e-05           -1.4e-13              3.2e-13               1.9086e-05           
  -0.8                  -1.9474e-05           -1.6e-13              2.6e-13               1.9494e-05           
  -0.9                  -1.9614e-05           -1.8e-13              1.2e-13               1.9634e-05           
  -1                    -1.9662e-05           -2e-14                2e-13                 1.9682e-05           
  -1.1                  -1.9682e-05           -8e-14                2.8e-13               1.9702e-05           
  -1.2                  -1.9698e-05           -4e-14                3.6e-13               1.9716e-05           
  -1.3                  -1.9706e-05           -1.4e-13              2e-13                 1.9728e-05           
  -1.4                  -1.9716e-05           -1e-13                3e-13                 1.9736e-05           
  -1.5                  -1.9724e-05           -1e-13                3.6e-13               1.9744e-05           
  -1.6                  -1.973e-05            0                     3.2e-13               1.975e-05            
  -1.7                  -1.9736e-05           2e-14                 1.8e-13               1.9754e-05           
  -1.8                  -1.974e-05            -2e-14                4e-13                 1.976e-05            
  -1.9                  -1.9746e-05           -2e-14                4.4e-13               1.9764e-05           
  -2                    -1.975e-05            -2e-14                2.2e-13               1.9772e-05           
  -2.1                  -1.9756e-05           2e-14                 2.6e-13               1.9776e-05           
  -2.2                  -1.976e-05            -2e-14                3.6e-13               1.978e-05            
  -2.3                  -1.9764e-05           1.2e-13               3.6e-13               1.9784e-05           
  -2.4                  -1.9768e-05           2e-14                 4e-13                 1.9788e-05           
  -2.5                  -1.9774e-05           -4e-14                2.8e-13               1.9794e-05           
  -2.6                  -1.9778e-05           6e-14                 4e-13                 1.9798e-05           
  -2.7                  -1.9782e-05           2e-14                 4.6e-13               1.9802e-05           
  -2.8                  -1.9784e-05           -1.2e-13              9e-13                 1.9806e-05           
  -2.9                  -1.9788e-05           -1e-13                2.22e-12              1.9808e-05           
  -3                    -1.9792e-05           -2e-14                5.18e-12              1.9812e-05           
  -3.1                  -1.9796e-05           -2e-13                1.158e-11             1.9814e-05           
  -3.2                  -1.98e-05             2e-14                 2.562e-11             1.982e-05            
  -3.3                  -1.9802e-05           0                     5.424e-11             1.9822e-05           
  -3.4                  -1.9806e-05           -4e-14                1.106e-10             1.9826e-05           
  -3.5                  -1.981e-05            -8e-14                2.1806e-10            1.9828e-05           
  -3.6                  -1.9812e-05           -2e-14                4.1606e-10            1.9832e-05           
END_DB

BEGIN_DB
 ICCAP_VAR vg         -3.198         
 ICCAP_VAR vb         3.6            
 ICCAP_VAR vs         -0             

 #vd                    id                    ig                    ib                    is                   
  -0                    2.3442e-09            -4.4e-13              1.4e-13               -2.2254e-09          
  -0.1                  -6.4584e-06           -1.8e-13              1.4e-13               6.4622e-06           
  -0.2                  -1.2334e-05           -8e-14                1.2e-13               1.2354e-05           
  -0.3                  -1.762e-05            -6e-14                1.4e-13               1.764e-05            
  -0.4                  -2.2288e-05           -2e-13                1.4e-13               2.2308e-05           
  -0.5                  -2.6354e-05           -2.8e-13              2e-13                 2.6374e-05           
  -0.6                  -2.9804e-05           -1.4e-13              2e-13                 2.9826e-05           
  -0.7                  -3.2628e-05           -1.6e-13              1.2e-13               3.265e-05            
  -0.8                  -3.4844e-05           -2e-13                1.8e-13               3.4866e-05           
  -0.9                  -3.6462e-05           -1.4e-13              2.8e-13               3.6482e-05           
  -1                    -3.752e-05            -1.4e-13              2e-13                 3.7542e-05           
  -1.1                  -3.8114e-05           -4e-14                3.2e-13               3.8136e-05           
  -1.2                  -3.8384e-05           -8e-14                2.6e-13               3.8404e-05           
  -1.3                  -3.8494e-05           -1e-13                2.2e-13               3.8516e-05           
  -1.4                  -3.8548e-05           -1.2e-13              4e-14                 3.8568e-05           
  -1.5                  -3.858e-05            -1.4e-13              2.8e-13               3.8598e-05           
  -1.6                  -3.86e-05             -2e-13                2.6e-13               3.862e-05            
  -1.7                  -3.8618e-05           -1.8e-13              2.6e-13               3.8638e-05           
  -1.8                  -3.8634e-05           -1.6e-13              3.2e-13               3.8656e-05           
  -1.9                  -3.8648e-05           1.6e-13               2e-13                 3.867e-05            
  -2                    -3.8662e-05           -6e-14                1.6e-13               3.8682e-05           
  -2.1                  -3.8672e-05           0                     2.4e-13               3.8692e-05           
  -2.2                  -3.8682e-05           1e-13                 3.4e-13               3.8702e-05           
  -2.3                  -3.8692e-05           4e-14                 4e-13                 3.8714e-05           
  -2.4                  -3.8702e-05           -6e-14                3e-13                 3.8722e-05           
  -2.5                  -3.8712e-05           -8e-14                1.4e-13               3.8732e-05           
  -2.6                  -3.872e-05            4e-14                 2.4e-13               3.874e-05            
  -2.7                  -3.8728e-05           -2e-14                3.4e-13               3.875e-05            
  -2.8                  -3.8738e-05           -6e-14                3e-13                 3.8758e-05           
  -2.9                  -3.8744e-05           -8e-14                3.4e-13               3.8766e-05           
  -3                    -3.8752e-05           -1e-13                5e-13                 3.8774e-05           
  -3.1                  -3.876e-05            0                     1.26e-12              3.8778e-05           
  -3.2                  -3.8768e-05           4e-14                 2.8e-12               3.8786e-05           
  -3.3                  -3.8772e-05           -6e-14                6.44e-12              3.8792e-05           
  -3.4                  -3.8778e-05           -6e-14                1.562e-11             3.88e-05             
  -3.5                  -3.8786e-05           -1e-13                3.522e-11             3.8806e-05           
  -3.6                  -3.8792e-05           -4e-14                7.614e-11             3.8812e-05           
END_DB

BEGIN_DB
 ICCAP_VAR vg         -3.6           
 ICCAP_VAR vb         3.6            
 ICCAP_VAR vs         -0             

 #vd                    id                    ig                    ib                    is                   
  -0                    2.623e-09             -1.4e-13              2.8e-13               -2.8732e-09          
  -0.1                  -8.0978e-06           -2.2e-13              2e-13                 8.1014e-06           
  -0.2                  -1.5662e-05           -1.2e-13              8e-14                 1.5682e-05           
  -0.3                  -2.2682e-05           -1.2e-13              2.2e-13               2.2704e-05           
  -0.4                  -2.9128e-05           -1.2e-13              2.2e-13               2.9148e-05           
  -0.5                  -3.502e-05            -1.2e-13              8e-14                 3.5042e-05           
  -0.6                  -4.034e-05            -8e-14                1.4e-13               4.0362e-05           
  -0.7                  -4.5066e-05           -4e-14                2.4e-13               4.5088e-05           
  -0.8                  -4.9216e-05           -1.6e-13              2.8e-13               4.924e-05            
