! VERSION = 6.00
BEGIN_HEADER
 ICCAP_INPUTS
  vd         V  D GROUND SMU1 0.1 LIN        1    -0         -3.6       37   -0.1      
  vg         V  G GROUND SMU2 0.001 LIN        2    -2.04      -3.6       5    -0.39     
  vb         V  B GROUND SMU4 0.1 CON        3.6
  vs         V  S GROUND SMU3 0.1 CON        -0
 ICCAP_OUTPUTS
  id         I  D GROUND SMU1 B
  ig         I  G GROUND SMU2 B
  ib         I  B GROUND SMU4 B
  is         I  S GROUND SMU3 B
 ICCAP_VALUES
  MASTER_SETUP_TYPE "~dc_idvd~"
  LINVT_VALUE "|idvg|100.0n|100.0m|1.000m|5|3.600|"
  LISTVT_VALUE ""
  TYPE "-1"
  TEMP "-40.0000 "
  IS_TNOM " 0.00000 "
  MAIN.W "10.00u"
  MAIN.L "10.00u"
  MAIN.AD "3.400p"
  MAIN.AS "3.400p"
  MAIN.PD "20.68u"
  MAIN.PS "20.68u"
  MAIN.NF "1.000"
  MAIN.M "1"
  MAIN.NRD "0.000"
  MAIN.NRS "0.000"
  MAIN.LDRIFT1 "1E-06"
  MAIN.LDRIFT2 "1E-06"
  MAIN.SA "0.000"
  MAIN.SB "0.000"
  MAIN.SD "0.000"
  MAIN.SCA "0.000"
  MAIN.SCB "0.000"
  MAIN.SCC "0.000"
  MAIN.SC "0.000"
  MODULE "S562"
  PIN_D "16"
  PIN_G "5"
  PIN_S "6"
  PIN_B "15"
  PIN_E ""
  PIN_6 ""
  XY_ID ""
  FUNC "Large"
  STI "SA ref"
  WPE "WPE ref"
  COMMENT ""
  DIS_MEAS ""
  TypeTCI "10"
END_HEADER

BEGIN_DB
 ICCAP_VAR vg         -2.04          
 ICCAP_VAR vb         3.6            
 ICCAP_VAR vs         -0             

 #vd                    id                    ig                    ib                    is                   
  -0                    1.7506e-10            -6.8e-13              1.04e-12              -2.145e-10           
  -0.1                  -3.0968e-07           -1.8e-13              1.02e-12              3.0988e-07           
  -0.2                  -3.7666e-07           -6.4e-13              1.04e-12              3.7688e-07           
  -0.3                  -3.8024e-07           -4.2e-13              9.8e-13               3.8044e-07           
  -0.4                  -3.805e-07            -1.8e-13              9.8e-13               3.8066e-07           
  -0.5                  -3.8058e-07           -2.8e-13              8.2e-13               3.808e-07            
  -0.6                  -3.807e-07            -1.4e-13              9.2e-13               3.8094e-07           
  -0.7                  -3.8082e-07           -1.4e-13              8.2e-13               3.81e-07             
  -0.8                  -3.8086e-07           -4e-13                7.8e-13               3.8108e-07           
  -0.9                  -3.8092e-07           -5e-13                7e-13                 3.8118e-07           
  -1                    -3.8102e-07           -1.2e-13              7.8e-13               3.8122e-07           
  -1.1                  -3.8104e-07           -2.8e-13              5.8e-13               3.8124e-07           
  -1.2                  -3.8112e-07           -2.4e-13              6.2e-13               3.8126e-07           
  -1.3                  -3.8112e-07           -1.6e-13              6.8e-13               3.8134e-07           
  -1.4                  -3.8118e-07           -3.6e-13              6.8e-13               3.8138e-07           
  -1.5                  -3.8122e-07           4e-14                 7.2e-13               3.8144e-07           
  -1.6                  -3.8126e-07           -5.2e-13              7e-13                 3.8144e-07           
  -1.7                  -3.813e-07            -2e-13                5.8e-13               3.815e-07            
  -1.8                  -3.8136e-07           -1.4e-13              6.2e-13               3.8156e-07           
  -1.9                  -3.8136e-07           1.8e-13               6.2e-13               3.8158e-07           
  -2                    -3.8142e-07           -2.4e-13              5.8e-13               3.8162e-07           
  -2.1                  -3.8144e-07           -1.4e-13              5.4e-13               3.8164e-07           
  -2.2                  -3.8146e-07           -4e-14                6.4e-13               3.8168e-07           
  -2.3                  -3.815e-07            -2.2e-13              6e-13                 3.817e-07            
  -2.4                  -3.8152e-07           -8e-14                6.2e-13               3.8174e-07           
  -2.5                  -3.8158e-07           -1.8e-13              7.4e-13               3.8176e-07           
  -2.6                  -3.816e-07            -2.4e-13              1.12e-12              3.818e-07            
  -2.7                  -3.8162e-07           -1.6e-13              2.12e-12              3.8182e-07           
  -2.8                  -3.8166e-07           4e-14                 3.6e-12               3.8184e-07           
  -2.9                  -3.8168e-07           0                     6.74e-12              3.8188e-07           
  -3                    -3.8174e-07           -2.6e-13              1.26e-11              3.8194e-07           
  -3.1                  -3.8176e-07           2e-13                 2.304e-11             3.8194e-07           
  -3.2                  -3.8182e-07           -1e-13                4.152e-11             3.8196e-07           
  -3.3                  -3.8188e-07           -3.6e-13              7.318e-11             3.8198e-07           
  -3.4                  -3.8194e-07           -1e-13                1.2562e-10            3.8204e-07           
  -3.5                  -3.8208e-07           -2.6e-13              2.1182e-10            3.8206e-07           
  -3.6                  -3.822e-07            -1.8e-13              3.4904e-10            3.8206e-07           
END_DB

BEGIN_DB
 ICCAP_VAR vg         -2.43          
 ICCAP_VAR vb         3.6            
 ICCAP_VAR vs         -0             

 #vd                    id                    ig                    ib                    is                   
  -0                    6.2308e-10            -2.4e-13              1.8e-13               -6.4462e-10          
  -0.1                  -1.5192e-06           -3e-13                1.8e-13               1.5226e-06           
  -0.2                  -2.6318e-06           -1.6e-13              1.2e-13               2.6354e-06           
  -0.3                  -3.3462e-06           -6e-14                2e-13                 3.3496e-06           
  -0.4                  -3.702e-06            1.2e-13               3.4e-13               3.7054e-06           
  -0.5                  -3.8064e-06           4e-14                 2.4e-13               3.8098e-06           
  -0.6                  -3.8212e-06           -2.2e-13              2.2e-13               3.8248e-06           
  -0.7                  -3.824e-06            2e-13                 2.6e-13               3.8276e-06           
  -0.8                  -3.8258e-06           -3.4e-13              3.6e-13               3.8292e-06           
  -0.9                  -3.8268e-06           -8e-14                1e-13                 3.8304e-06           
  -1                    -3.8278e-06           -2e-13                2.2e-13               3.8312e-06           
  -1.1                  -3.8284e-06           -2.4e-13              1.4e-13               3.832e-06            
  -1.2                  -3.829e-06            1.2e-13               2e-13                 3.8326e-06           
  -1.3                  -3.8298e-06           -3.6e-13              3e-13                 3.8334e-06           
  -1.4                  -3.8306e-06           2e-14                 3.4e-13               3.834e-06            
  -1.5                  -3.831e-06            8e-14                 2.4e-13               3.8344e-06           
  -1.6                  -3.8314e-06           2.2e-13               3.2e-13               3.8348e-06           
  -1.7                  -3.8318e-06           4e-14                 3e-13                 3.8354e-06           
  -1.8                  -3.8322e-06           1.2e-13               2.2e-13               3.8356e-06           
  -1.9                  -3.8326e-06           -2.2e-13              2.4e-13               3.8362e-06           
  -2                    -3.8332e-06           -1.6e-13              2.6e-13               3.8366e-06           
  -2.1                  -3.8336e-06           -4e-14                2.4e-13               3.8372e-06           
  -2.2                  -3.834e-06            2e-14                 3.4e-13               3.8374e-06           
  -2.3                  -3.8342e-06           -2e-13                3.6e-13               3.8378e-06           
  -2.4                  -3.8348e-06           0                     2.6e-13               3.838e-06            
  -2.5                  -3.835e-06            1e-13                 3.2e-13               3.8386e-06           
  -2.6                  -3.8354e-06           2e-14                 6e-13                 3.8388e-06           
  -2.7                  -3.8358e-06           -1.6e-13              1.1e-12               3.839e-06            
  -2.8                  -3.8358e-06           -2e-14                2.5e-12               3.8392e-06           
  -2.9                  -3.8364e-06           2.4e-13               5.38e-12              3.8398e-06           
  -3                    -3.8364e-06           3.6e-13               1.162e-11             3.84e-06             
  -3.1                  -3.8368e-06           -1.4e-13              2.426e-11             3.8402e-06           
  -3.2                  -3.837e-06            -3e-13                4.936e-11             3.8404e-06           
  -3.3                  -3.8372e-06           2e-14                 9.658e-11             3.8406e-06           
  -3.4                  -3.8376e-06           -6e-14                1.8282e-10            3.8406e-06           
  -3.5                  -3.838e-06            2e-14                 3.3676e-10            3.8412e-06           
  -3.6                  -3.8388e-06           -1.2e-13              6.0484e-10            3.8416e-06           
END_DB

BEGIN_DB
 ICCAP_VAR vg         -2.82          
 ICCAP_VAR vb         3.6            
 ICCAP_VAR vs         -0             

 #vd                    id                    ig                    ib                    is                   
  -0                    1.084e-09             -4.2e-13              1.4e-13               -1.05086e-09         
  -0.1                  -2.714e-06            -4e-13                1.8e-13               2.7174e-06           
  -0.2                  -5.0454e-06           -2.2e-13              2e-14                 5.049e-06            
  -0.3                  -6.9812e-06           1.8e-13               1.4e-13               6.9848e-06           
  -0.4                  -8.5164e-06           8e-14                 1e-13                 8.52e-06             
  -0.5                  -9.6606e-06           -3.6e-13              1.4e-13               9.6642e-06           
  -0.6                  -1.04222e-05          -1.6e-13              2.4e-13               1.0426e-05           
  -0.7                  -1.083e-05            -4.2e-13              8e-14                 1.08414e-05          
  -0.8                  -1.0988e-05           -4.4e-13              1.6e-13               1.09988e-05          
  -0.9                  -1.1026e-05           -2.4e-13              1.4e-13               1.10374e-05          
  -1                    -1.1036e-05           -2e-14                1.2e-13               1.10476e-05          
  -1.1                  -1.1042e-05           -1e-13                1.6e-13               1.10526e-05          
  -1.2                  -1.1046e-05           -3.6e-13              1.8e-13               1.1056e-05           
  -1.3                  -1.1048e-05           -8e-14                1.2e-13               1.1059e-05           
  -1.4                  -1.105e-05            8e-14                 1.4e-13               1.1061e-05           
  -1.5                  -1.1052e-05           2.8e-13               1.4e-13               1.1063e-05           
  -1.6                  -1.1054e-05           -2e-14                1.2e-13               1.10646e-05          
  -1.7                  -1.1056e-05           -3.4e-13              1.2e-13               1.10664e-05          
  -1.8                  -1.1056e-05           -2.4e-13              2.4e-13               1.10678e-05          
  -1.9                  -1.1058e-05           2e-13                 3.2e-13               1.10692e-05          
  -2                    -1.106e-05            2.2e-13               2.6e-13               1.10708e-05          
  -2.1                  -1.106e-05            -2e-14                2.2e-13               1.10718e-05          
  -2.2                  -1.1062e-05           -6e-14                1.8e-13               1.1073e-05           
  -2.3                  -1.1064e-05           -1.2e-13              1.2e-13               1.10744e-05          
  -2.4                  -1.1064e-05           1e-13                 2e-13                 1.10754e-05          
  -2.5                  -1.1066e-05           -1.4e-13              2e-13                 1.10762e-05          
  -2.6                  -1.1066e-05           -3.2e-13              1.4e-13               1.10774e-05          
  -2.7                  -1.1066e-05           -2e-13                2e-13                 1.10778e-05          
  -2.8                  -1.1068e-05           -2e-14                3.8e-13               1.10794e-05          
  -2.9                  -1.107e-05            -8e-14                9.2e-13               1.10802e-05          
  -3                    -1.107e-05            1.6e-13               1.98e-12              1.1081e-05           
  -3.1                  -1.1072e-05           -4e-13                4.7e-12               1.10822e-05          
  -3.2                  -1.1072e-05           3.6e-13               1.094e-11             1.10832e-05          
  -3.3                  -1.1074e-05           1e-13                 2.456e-11             1.10842e-05          
  -3.4                  -1.1074e-05           -1.4e-13              5.28e-11              1.1085e-05           
  -3.5                  -1.1076e-05           1.6e-13               1.0944e-10            1.1086e-05           
  -3.6                  -1.1076e-05           -3e-13                2.1888e-10            1.10872e-05          
END_DB

BEGIN_DB
 ICCAP_VAR vg         -3.21          
 ICCAP_VAR vb         3.6            
 ICCAP_VAR vs         -0             

 #vd                    id                    ig                    ib                    is                   
  -0                    1.424e-09             -1.6e-13              2e-14                 -1.1556e-09          
  -0.1                  -3.7816e-06           -4e-14                1.2e-13               3.7848e-06           
  -0.2                  -7.2154e-06           -6.4e-13              4e-14                 7.2192e-06           
  -0.3                  -1.02848e-05          -1e-13                0                     1.0288e-05           
  -0.4                  -1.297e-05            -2.4e-13              4e-14                 1.2988e-05           
  -0.5                  -1.5296e-05           -8e-14                8e-14                 1.5314e-05           
  -0.6                  -1.7242e-05           -2.8e-13              1.2e-13               1.7258e-05           
  -0.7                  -1.8802e-05           1.4e-13               1e-13                 1.882e-05            
  -0.8                  -1.9988e-05           1.6e-13               0                     2.0006e-05           
  -0.9                  -2.0806e-05           -1.6e-13              1.8e-13               2.0824e-05           
  -1                    -2.129e-05            -1.6e-13              1e-13                 2.1308e-05           
  -1.1                  -2.1512e-05           -5.2e-13              1.6e-13               2.1528e-05           
  -1.2                  -2.1586e-05           1.4e-13               1.2e-13               2.1604e-05           
  -1.3                  -2.1612e-05           0                     2.2e-13               2.1628e-05           
  -1.4                  -2.1624e-05           -2e-14                8e-14                 2.164e-05            
  -1.5                  -2.1632e-05           -3e-13                2.2e-13               2.1648e-05           
  -1.6                  -2.1636e-05           -3.4e-13              2.6e-13               2.1654e-05           
  -1.7                  -2.164e-05            6e-14                 2.6e-13               2.1658e-05           
  -1.8                  -2.1644e-05           -4e-14                1.8e-13               2.1662e-05           
  -1.9                  -2.165e-05            -1.6e-13              1.4e-13               2.1666e-05           
  -2                    -2.1652e-05           -1.2e-13              1.6e-13               2.167e-05            
  -2.1                  -2.1656e-05           -2.4e-13              2e-13                 2.1672e-05           
  -2.2                  -2.1658e-05           3.2e-13               2.2e-13               2.1676e-05           
  -2.3                  -2.1662e-05           -2.2e-13              1.4e-13               2.1678e-05           
  -2.4                  -2.1664e-05           -2.4e-13              1.6e-13               2.168e-05            
  -2.5                  -2.1666e-05           -3.4e-13              2.2e-13               2.1684e-05           
  -2.6                  -2.1668e-05           -6e-14                1.6e-13               2.1686e-05           
  -2.7                  -2.167e-05            -1e-13                1.4e-13               2.1688e-05           
  -2.8                  -2.1674e-05           -2.8e-13              1.4e-13               2.169e-05            
  -2.9                  -2.1676e-05           -6e-14                1.8e-13               2.1692e-05           
  -3                    -2.1676e-05           -1.2e-13              2.6e-13               2.1694e-05           
  -3.1                  -2.1678e-05           0                     4e-13                 2.1696e-05           
  -3.2                  -2.168e-05            1.6e-13               9.8e-13               2.1698e-05           
  -3.3                  -2.1682e-05           -2.2e-13              2.64e-12              2.17e-05             
  -3.4                  -2.1684e-05           -2.4e-13              6.5e-12               2.1702e-05           
  -3.5                  -2.1686e-05           -8e-14                1.568e-11             2.1702e-05           
  -3.6                  -2.1688e-05           2e-14                 3.578e-11             2.1704e-05           
END_DB

BEGIN_DB
 ICCAP_VAR vg         -3.6           
 ICCAP_VAR vb         3.6            
 ICCAP_VAR vs         -0             

 #vd                    id                    ig                    ib                    is                   
  -0                    1.4796e-09            -1.8e-13              2e-14                 -1.2854e-09          
  -0.1                  -4.7234e-06           -1.8e-13              1.2e-13               4.7268e-06           
  -0.2                  -9.1318e-06           -2e-13                1e-13                 9.1354e-06           
  -0.3                  -1.32e-05             -2.8e-13              4e-14                 1.3216e-05           
  -0.4                  -1.6928e-05           -2.8e-13              -6e-14                1.6946e-05           
  -0.5                  -2.0322e-05           -4.8e-13              -8e-14                2.0338e-05           
  -0.6                  -2.3366e-05           0                     2.4e-13               2.3382e-05           
  -0.7                  -2.6048e-05           1.4e-13               1.4e-13               2.6064e-05           
  -0.8                  -2.8374e-05           -4e-13                1.4e-13               2.8392e-05           
