! VERSION = 6.00
BEGIN_HEADER
 ICCAP_INPUTS
  vd         V  D GROUND SMU1 0.1 LIN        1    -0         -3.6       37   -0.1      
  vg         V  G GROUND SMU2 0.001 LIN        2    -0.792     -3.6       5    -0.702    
  vb         V  B GROUND SMU4 0.1 CON        -0
  vs         V  S GROUND SMU3 0.1 CON        -0
 ICCAP_OUTPUTS
  id         I  D GROUND SMU1 B
  ig         I  G GROUND SMU2 B
  ib         I  B GROUND SMU4 B
  is         I  S GROUND SMU3 B
 ICCAP_VALUES
  MASTER_SETUP_TYPE "~dc_idvd~"
  LINVT_VALUE "|idvg|100.0n|100.0m|1.000m|5|3.600|"
  LISTVT_VALUE ""
  TYPE "-1"
  TEMP " 27.0000 "
  IS_TNOM " 1.00000 "
  MAIN.W "2.000u"
  MAIN.L "3.000u"
  MAIN.AD "680.0f"
  MAIN.AS "680.0f"
  MAIN.PD "4.680u"
  MAIN.PS "4.680u"
  MAIN.NF "1.000"
  MAIN.M "1"
  MAIN.NRD "0.000"
  MAIN.NRS "0.000"
  MAIN.LDRIFT1 "1E-06"
  MAIN.LDRIFT2 "1E-06"
  MAIN.SA "0.000"
  MAIN.SB "0.000"
  MAIN.SD "0.000"
  MAIN.SCA "0.000"
  MAIN.SCB "0.000"
  MAIN.SCC "0.000"
  MAIN.SC "0.000"
  MODULE "S563"
  PIN_D "14"
  PIN_G "7"
  PIN_S "8"
  PIN_B "13"
  PIN_E ""
  PIN_6 ""
  XY_ID ""
  FUNC "LW Scale"
  STI "SA ref"
  WPE "WPE ref"
  COMMENT ""
  DIS_MEAS ""
  TypeTCI "10"
END_HEADER

BEGIN_DB
 ICCAP_VAR vg         -0.792         
 ICCAP_VAR vb         -0             
 ICCAP_VAR vs         -0             

 #vd                    id                    ig                    ib                    is                   
  -0                    1.5868e-10            -4.4e-13              -1.32e-12             -1.9212e-10          
  -0.1                  -2.2132e-07           -1.4e-13              -1.4e-12              2.2152e-07           
  -0.2                  -2.5026e-07           1e-13                 -1.32e-12             2.505e-07            
  -0.3                  -2.5176e-07           0                     -1.38e-12             2.52e-07             
  -0.4                  -2.521e-07            -1.6e-13              -1.38e-12             2.5234e-07           
  -0.5                  -2.5232e-07           0                     -1.34e-12             2.525e-07            
  -0.6                  -2.5248e-07           2.6e-13               -1.34e-12             2.527e-07            
  -0.7                  -2.5266e-07           1.8e-13               -1.34e-12             2.5284e-07           
  -0.8                  -2.5292e-07           2e-14                 -1.26e-12             2.5314e-07           
  -0.9                  -2.53e-07             -2.2e-13              -1.36e-12             2.5328e-07           
  -1                    -2.5314e-07           2e-14                 -1.28e-12             2.5336e-07           
  -1.1                  -2.5328e-07           3.4e-13               -1.34e-12             2.5354e-07           
  -1.2                  -2.5332e-07           2e-14                 -1.4e-12              2.536e-07            
  -1.3                  -2.5346e-07           1.2e-13               -1.24e-12             2.537e-07            
  -1.4                  -2.5356e-07           1e-13                 -1.32e-12             2.5376e-07           
  -1.5                  -2.5362e-07           -1e-13                -1.22e-12             2.5384e-07           
  -1.6                  -2.5374e-07           -2e-13                -1.26e-12             2.5392e-07           
  -1.7                  -2.5378e-07           -8e-14                -1.18e-12             2.5398e-07           
  -1.8                  -2.5386e-07           -1.4e-13              -1.2e-12              2.541e-07            
  -1.9                  -2.5392e-07           6e-14                 -1.12e-12             2.541e-07            
  -2                    -2.5394e-07           1.8e-13               -8.8e-13              2.5418e-07           
  -2.1                  -2.5404e-07           4e-14                 -6.4e-13              2.5426e-07           
  -2.2                  -2.5412e-07           1.2e-13               2e-14                 2.5432e-07           
  -2.3                  -2.5416e-07           3.4e-13               1.2e-12               2.5438e-07           
  -2.4                  -2.5424e-07           2.2e-13               3.3e-12               2.5446e-07           
  -2.5                  -2.543e-07            2e-13                 6.72e-12              2.5452e-07           
  -2.6                  -2.544e-07            1e-13                 1.26e-11              2.5458e-07           
  -2.7                  -2.5444e-07           4e-14                 2.204e-11             2.5464e-07           
  -2.8                  -2.5454e-07           2.4e-13               3.722e-11             2.5472e-07           
  -2.9                  -2.5466e-07           8e-14                 6.062e-11             2.548e-07            
  -3                    -2.5472e-07           1e-13                 9.658e-11             2.5484e-07           
  -3.1                  -2.5482e-07           6e-14                 1.5038e-10            2.5494e-07           
  -3.2                  -2.55e-07             -1.6e-13              2.2934e-10            2.55e-07             
  -3.3                  -2.5516e-07           -6e-14                3.4262e-10            2.5504e-07           
  -3.4                  -2.5534e-07           -2e-14                5.0282e-10            2.5506e-07           
  -3.5                  -2.5568e-07           -1.6e-13              7.2584e-10            2.5516e-07           
  -3.6                  -2.5602e-07           2e-14                 1.03048e-09           2.5522e-07           
END_DB

BEGIN_DB
 ICCAP_VAR vg         -1.494         
 ICCAP_VAR vb         -0             
 ICCAP_VAR vs         -0             

 #vd                    id                    ig                    ib                    is                   
  -0                    1.1074e-09            -1.4e-13              -8.2e-13              -1.04122e-09         
  -0.1                  -2.1174e-06           -2e-13                -8.8e-13              2.1212e-06           
  -0.2                  -3.8254e-06           -2.6e-13              -9e-13                3.8292e-06           
  -0.3                  -5.1226e-06           -1.6e-13              -9.2e-13              5.1264e-06           
  -0.4                  -6.018e-06            -8e-14                -9.6e-13              6.022e-06            
  -0.5                  -6.5424e-06           -2.2e-13              -8.6e-13              6.5464e-06           
  -0.6                  -6.7666e-06           -2.4e-13              -9e-13                6.7706e-06           
  -0.7                  -6.8302e-06           -1.6e-13              -1.02e-12             6.834e-06            
  -0.8                  -6.8492e-06           -1.2e-13              -1.02e-12             6.8528e-06           
  -0.9                  -6.8586e-06           -1.6e-13              -9.6e-13              6.8626e-06           
  -1                    -6.865e-06            -1.2e-13              -9.6e-13              6.8686e-06           
  -1.1                  -6.8698e-06           -2.2e-13              -9.2e-13              6.8736e-06           
  -1.2                  -6.8748e-06           -2.8e-13              -1e-12                6.8786e-06           
  -1.3                  -6.8784e-06           -1.8e-13              -9.8e-13              6.8822e-06           
  -1.4                  -6.8816e-06           0                     -9.4e-13              6.886e-06            
  -1.5                  -6.8858e-06           -1.2e-13              -9e-13                6.8892e-06           
  -1.6                  -6.8882e-06           -2.4e-13              -1e-12                6.8914e-06           
  -1.7                  -6.8906e-06           0                     -8.8e-13              6.8942e-06           
  -1.8                  -6.8928e-06           0                     -9.2e-13              6.897e-06            
  -1.9                  -6.8954e-06           -2e-14                -1e-12                6.8996e-06           
  -2                    -6.8974e-06           -1.4e-13              -9.2e-13              6.901e-06            
  -2.1                  -6.8992e-06           1.8e-13               -9.2e-13              6.9024e-06           
  -2.2                  -6.9008e-06           -6e-14                -6.6e-13              6.9046e-06           
  -2.3                  -6.9028e-06           -8e-14                -1.8e-13              6.9066e-06           
  -2.4                  -6.9052e-06           -1e-13                9.4e-13               6.909e-06            
  -2.5                  -6.9074e-06           -8e-14                3.44e-12              6.9104e-06           
  -2.6                  -6.9086e-06           1.6e-13               9.02e-12              6.9128e-06           
  -2.7                  -6.9106e-06           8e-14                 2.016e-11             6.9144e-06           
  -2.8                  -6.913e-06            -2.8e-13              4.142e-11             6.9166e-06           
  -2.9                  -6.9152e-06           -1.6e-13              8.012e-11             6.9188e-06           
  -3                    -6.9168e-06           -4e-14                1.4858e-10            6.9208e-06           
  -3.1                  -6.919e-06            -4e-14                2.6514e-10            6.9224e-06           
  -3.2                  -6.9208e-06           1.6e-13               4.596e-10             6.9236e-06           
  -3.3                  -6.9224e-06           2e-14                 7.753e-10             6.925e-06            
  -3.4                  -6.9242e-06           -1e-13                1.2774e-09            6.927e-06            
  -3.5                  -6.9264e-06           -2.4e-13              2.0564e-09            6.9278e-06           
  -3.6                  -6.9296e-06           -6e-14                3.242e-09             6.93e-06             
END_DB

BEGIN_DB
 ICCAP_VAR vg         -2.196         
 ICCAP_VAR vb         -0             
 ICCAP_VAR vs         -0             

 #vd                    id                    ig                    ib                    is                   
  -0                    1.9106e-09            -7.8e-13              -6e-13                -1.5536e-09          
  -0.1                  -3.7142e-06           -3.6e-13              -5.4e-13              3.7182e-06           
  -0.2                  -7.0758e-06           -4.8e-13              -6.4e-13              7.08e-06             
  -0.3                  -1.00756e-05          -3.6e-13              -7.4e-13              1.0079e-05           
  -0.4                  -1.27e-05             -4e-13                -6.8e-13              1.272e-05            
  -0.5                  -1.498e-05            -6e-14                -6.6e-13              1.5e-05              
  -0.6                  -1.6904e-05           -2e-13                -6.8e-13              1.6924e-05           
  -0.7                  -1.8472e-05           -2.6e-13              -6.8e-13              1.8492e-05           
  -0.8                  -1.9692e-05           -3.6e-13              -7.6e-13              1.9714e-05           
  -0.9                  -2.0576e-05           -1.8e-13              -7.4e-13              2.0596e-05           
  -1                    -2.1146e-05           -3.2e-13              -7.6e-13              2.1166e-05           
  -1.1                  -2.1456e-05           -2e-13                -6.6e-13              2.1478e-05           
  -1.2                  -2.1598e-05           -2.6e-13              -7.2e-13              2.162e-05            
  -1.3                  -2.1664e-05           -2.8e-13              -7.6e-13              2.1682e-05           
  -1.4                  -2.1698e-05           0                     -7.6e-13              2.1718e-05           
  -1.5                  -2.1722e-05           -6e-14                -7.2e-13              2.1742e-05           
  -1.6                  -2.1738e-05           -1.2e-13              -7.6e-13              2.176e-05            
  -1.7                  -2.1756e-05           -2.4e-13              -6.8e-13              2.1774e-05           
  -1.8                  -2.1766e-05           -1e-13                -7.2e-13              2.1788e-05           
  -1.9                  -2.1778e-05           4e-14                 -8.2e-13              2.1798e-05           
  -2                    -2.1788e-05           8e-14                 -6.8e-13              2.181e-05            
  -2.1                  -2.1798e-05           -1.8e-13              -7.2e-13              2.1816e-05           
  -2.2                  -2.1806e-05           -2.4e-13              -7.4e-13              2.1826e-05           
  -2.3                  -2.1816e-05           0                     -7.6e-13              2.1834e-05           
  -2.4                  -2.182e-05            -1.2e-13              -7.4e-13              2.184e-05            
  -2.5                  -2.1828e-05           -3.4e-13              -7.2e-13              2.1846e-05           
  -2.6                  -2.1834e-05           -1.8e-13              -6.6e-13              2.1852e-05           
  -2.7                  -2.184e-05            2e-14                 -4.6e-13              2.1858e-05           
  -2.8                  -2.1846e-05           4e-14                 3e-13                 2.1866e-05           
  -2.9                  -2.1854e-05           -1.4e-13              2.46e-12              2.1874e-05           
  -3                    -2.1862e-05           4e-14                 7.42e-12              2.188e-05            
  -3.1                  -2.1866e-05           2e-14                 1.804e-11             2.1886e-05           
  -3.2                  -2.1872e-05           -1.6e-13              4.052e-11             2.189e-05            
  -3.3                  -2.1876e-05           -1.4e-13              8.48e-11              2.1896e-05           
  -3.4                  -2.1882e-05           -1e-13                1.6786e-10            2.19e-05             
  -3.5                  -2.1886e-05           -6e-14                3.1822e-10            2.1906e-05           
  -3.6                  -2.189e-05            -1.2e-13              5.8134e-10            2.1912e-05           
END_DB

BEGIN_DB
 ICCAP_VAR vg         -2.898         
 ICCAP_VAR vb         -0             
 ICCAP_VAR vs         -0             

 #vd                    id                    ig                    ib                    is                   
  -0                    2.1982e-09            -5e-13                -4.8e-13              -1.9364e-09          
  -0.1                  -4.9796e-06           -2.6e-13              -5.6e-13              4.9838e-06           
  -0.2                  -9.6552e-06           -2.8e-13              -5e-13                9.6596e-06           
  -0.3                  -1.4004e-05           -4.8e-13              -6.6e-13              1.4026e-05           
  -0.4                  -1.8042e-05           -3.6e-13              -6.6e-13              1.806e-05            
  -0.5                  -2.177e-05            -4.6e-13              -5.4e-13              2.1792e-05           
  -0.6                  -2.5186e-05           -2.2e-13              -6.2e-13              2.521e-05            
  -0.7                  -2.8286e-05           -8e-14                -6.4e-13              2.8306e-05           
  -0.8                  -3.1074e-05           -3.2e-13              -6.4e-13              3.1096e-05           
  -0.9                  -3.3546e-05           -1.4e-13              -7e-13                3.3566e-05           
  -1                    -3.57e-05             -1.6e-13              -7e-13                3.572e-05            
  -1.1                  -3.7544e-05           -3.2e-13              -6.6e-13              3.7566e-05           
  -1.2                  -3.9078e-05           -6e-14                -6.2e-13              3.9102e-05           
  -1.3                  -4.0312e-05           -6e-14                -6.2e-13              4.0332e-05           
  -1.4                  -4.1244e-05           -2e-13                -6.8e-13              4.1268e-05           
  -1.5                  -4.1908e-05           -2e-14                -6.8e-13              4.1928e-05           
  -1.6                  -4.2336e-05           -1e-13                -6.4e-13              4.2356e-05           
  -1.7                  -4.2584e-05           -3.8e-13              -6e-13                4.2604e-05           
  -1.8                  -4.272e-05            -1.2e-13              -6.8e-13              4.2738e-05           
  -1.9                  -4.28e-05             -1.4e-13              -6.4e-13              4.2816e-05           
  -2                    -4.285e-05            -1.8e-13              -7.2e-13              4.2868e-05           
  -2.1                  -4.2888e-05           -6e-14                -6.2e-13              4.2908e-05           
  -2.2                  -4.2922e-05           0                     -7.4e-13              4.2944e-05           
  -2.3                  -4.2952e-05           -2.2e-13              -6.6e-13              4.297e-05            
  -2.4                  -4.2974e-05           -3e-13                -6e-13                4.2992e-05           
  -2.5                  -4.3e-05              -2.2e-13              -6.4e-13              4.3018e-05           
  -2.6                  -4.3016e-05           -6e-14                -7.6e-13              4.3036e-05           
  -2.7                  -4.3034e-05           -1.8e-13              -7.2e-13              4.3056e-05           
  -2.8                  -4.305e-05            -8e-14                -7.4e-13              4.307e-05            
  -2.9                  -4.3066e-05           -1.6e-13              -7e-13                4.3086e-05           
  -3                    -4.3082e-05           -3.2e-13              -6.8e-13              4.31e-05             
  -3.1                  -4.3092e-05           -1.2e-13              -5.6e-13              4.3112e-05           
  -3.2                  -4.3104e-05           -1.8e-13              -2.8e-13              4.3124e-05           
  -3.3                  -4.3118e-05           -1.4e-13              4.4e-13               4.3134e-05           
  -3.4                  -4.313e-05            -2.2e-13              2.86e-12              4.3152e-05           
  -3.5                  -4.3142e-05           -1.6e-13              8.56e-12              4.316e-05            
  -3.6                  -4.3152e-05           -2.4e-13              2.152e-11             4.3174e-05           
END_DB

BEGIN_DB
 ICCAP_VAR vg         -3.6           
 ICCAP_VAR vb         -0             
 ICCAP_VAR vs         -0             

 #vd                    id                    ig                    ib                    is                   
  -0                    2.3344e-09            -5e-13                -4.4e-13              -2.3164e-09          
  -0.1                  -5.9834e-06           -4.4e-13              -5.4e-13              5.9872e-06           
  -0.2                  -1.1694e-05           -3.6e-13              -5.8e-13              1.1716e-05           
  -0.3                  -1.7136e-05           -1.8e-13              -5.8e-13              1.7158e-05           
  -0.4                  -2.2292e-05           -2.4e-13              -5.6e-13              2.2312e-05           
  -0.5                  -2.7184e-05           -4e-13                -5.8e-13              2.7202e-05           
  -0.6                  -3.1798e-05           -2.8e-13              -5.6e-13              3.182e-05            
  -0.7                  -3.613e-05            -1.4e-13              -6.2e-13              3.6152e-05           
  -0.8                  -4.0194e-05           -3.4e-13              -5.6e-13              4.0216e-05           
