! VERSION = 6.00
BEGIN_HEADER
 ICCAP_INPUTS
  vd         V  D GROUND SMU1 0.1 LIN        1    -0         -3.6       37   -0.1      
  vg         V  G GROUND SMU2 0.001 LIN        2    -1.632     -3.6       5    -0.492    
  vb         V  B GROUND SMU4 0.1 CON        3.6
  vs         V  S GROUND SMU3 0.1 CON        -0
 ICCAP_OUTPUTS
  id         I  D GROUND SMU1 B
  ig         I  G GROUND SMU2 B
  ib         I  B GROUND SMU4 B
  is         I  S GROUND SMU3 B
 ICCAP_VALUES
  MASTER_SETUP_TYPE "~dc_idvd~"
  LINVT_VALUE "|idvg|100.0n|100.0m|1.000m|5|3.600|"
  LISTVT_VALUE ""
  TYPE "-1"
  TEMP " 27.0000 "
  IS_TNOM " 1.00000 "
  MAIN.W "300.0n"
  MAIN.L "330.0n"
  MAIN.AD "102.0f"
  MAIN.AS "102.0f"
  MAIN.PD "1.280u"
  MAIN.PS "1.280u"
  MAIN.NF "1.000"
  MAIN.M "1"
  MAIN.NRD "0.000"
  MAIN.NRS "0.000"
  MAIN.LDRIFT1 "1E-06"
  MAIN.LDRIFT2 "1E-06"
  MAIN.SA "0.000"
  MAIN.SB "0.000"
  MAIN.SD "0.000"
  MAIN.SCA "0.000"
  MAIN.SCB "0.000"
  MAIN.SCC "0.000"
  MAIN.SC "0.000"
  MODULE "S565"
  PIN_D "18"
  PIN_G "3"
  PIN_S "4"
  PIN_B "17"
  PIN_E ""
  PIN_6 ""
  XY_ID ""
  FUNC "Additional"
  STI "SA ref"
  WPE "WPE ref"
  COMMENT ""
  DIS_MEAS ""
  TypeTCI "10"
END_HEADER

BEGIN_DB
 ICCAP_VAR vg         -1.632         
 ICCAP_VAR vb         3.6            
 ICCAP_VAR vs         -0             

 #vd                    id                    ig                    ib                    is                   
  -0                    1.3598e-10            -5.2e-13              1.72e-12              -1.7584e-10          
  -0.1                  -1.5242e-07           -3.8e-13              1.56e-12              1.5254e-07           
  -0.2                  -1.9934e-07           -3.2e-13              1.52e-12              1.9954e-07           
  -0.3                  -2.2968e-07           -3.2e-13              1.44e-12              2.2998e-07           
  -0.4                  -2.557e-07            -2.4e-13              1.28e-12              2.5594e-07           
  -0.5                  -2.799e-07            -2.2e-13              1.18e-12              2.8096e-07           
  -0.6                  -3.04e-07             -1.6e-13              1.26e-12              3.0434e-07           
  -0.7                  -3.2726e-07           -1.4e-13              1.16e-12              3.2752e-07           
  -0.8                  -3.506e-07            -2.4e-13              1.22e-12              3.504e-07            
  -0.9                  -3.734e-07            -2.2e-13              1.06e-12              3.7342e-07           
  -1                    -3.9578e-07           -1e-13                1.16e-12              3.966e-07            
  -1.1                  -4.1988e-07           -1e-13                1.22e-12              4.198e-07            
  -1.2                  -4.4318e-07           -2e-14                1.1e-12               4.4378e-07           
  -1.3                  -4.6706e-07           -8e-14                1.06e-12              4.675e-07            
  -1.4                  -4.9118e-07           -8e-14                1.12e-12              4.913e-07            
  -1.5                  -5.1546e-07           -2e-14                9.6e-13               5.1618e-07           
  -1.6                  -5.401e-07            -2e-13                9.4e-13               5.4052e-07           
  -1.7                  -5.651e-07            -1.4e-13              8.6e-13               5.6512e-07           
  -1.8                  -5.8982e-07           0                     7.4e-13               5.9026e-07           
  -1.9                  -6.1508e-07           -1.4e-13              8.4e-13               6.154e-07            
  -2                    -6.4154e-07           -4e-14                9.8e-13               6.4152e-07           
  -2.1                  -6.6774e-07           -1.2e-13              1.1e-12               6.6872e-07           
  -2.2                  -6.9434e-07           -1.4e-13              1.72e-12              6.9478e-07           
  -2.3                  -7.2208e-07           -6e-14                2.64e-12              7.2234e-07           
  -2.4                  -7.5096e-07           -1.2e-13              4.58e-12              7.507e-07            
  -2.5                  -7.7912e-07           6e-14                 8.4e-12               7.7902e-07           
  -2.6                  -8.0834e-07           2e-14                 1.544e-11             8.077e-07            
  -2.7                  -8.377e-07            -6e-14                2.816e-11             8.3828e-07           
  -2.8                  -8.6936e-07           -2e-14                5.106e-11             8.6842e-07           
  -2.9                  -8.999e-07            -6e-14                9.048e-11             8.997e-07            
  -3                    -9.3182e-07           -8e-14                1.5666e-10            9.3234e-07           
  -3.1                  -9.6446e-07           -1e-13                2.6696e-10            9.6376e-07           
  -3.2                  -9.979e-07            8e-14                 4.4556e-10            9.9842e-07           
  -3.3                  -1.03216e-06          -6e-14                7.351e-10             1.03218e-06          
  -3.4                  -1.06888e-06          -6e-14                1.1792e-09            1.0692e-06           
  -3.5                  -1.10494e-06          0                     1.8666e-09            1.1056e-06           
  -3.6                  -1.14312e-06          -8e-14                2.8926e-09            1.144e-06            
END_DB

BEGIN_DB
 ICCAP_VAR vg         -2.124         
 ICCAP_VAR vb         3.6            
 ICCAP_VAR vs         -0             

 #vd                    id                    ig                    ib                    is                   
  -0                    1.3648e-09            -3.4e-13              3.8e-13               -1.2044e-09          
  -0.1                  -2.1942e-06           -1.6e-13              3.6e-13               2.1972e-06           
  -0.2                  -3.9092e-06           -1.8e-13              3.6e-13               3.913e-06            
  -0.3                  -5.1634e-06           -2.4e-13              5e-13                 5.1678e-06           
  -0.4                  -6.033e-06            -1.2e-13              5e-13                 6.0362e-06           
  -0.5                  -6.6276e-06           -2.2e-13              4.2e-13               6.6332e-06           
  -0.6                  -7.057e-06            -1.2e-13              4.4e-13               7.0616e-06           
  -0.7                  -7.3786e-06           -1.4e-13              3.6e-13               7.383e-06            
  -0.8                  -7.638e-06            -1.2e-13              3.6e-13               7.6402e-06           
  -0.9                  -7.8608e-06           -8e-14                4.4e-13               7.8634e-06           
  -1                    -8.0564e-06           -6e-14                5.2e-13               8.0618e-06           
  -1.1                  -8.2472e-06           -2e-14                4.2e-13               8.248e-06            
  -1.2                  -8.4258e-06           -1e-13                3.4e-13               8.427e-06            
  -1.3                  -8.5948e-06           -1.4e-13              4e-13                 8.5954e-06           
  -1.4                  -8.7538e-06           0                     4.2e-13               8.7578e-06           
  -1.5                  -8.91e-06             -1.2e-13              4.4e-13               8.9128e-06           
  -1.6                  -9.0616e-06           -1.4e-13              4.4e-13               9.067e-06            
  -1.7                  -9.2082e-06           0                     3.2e-13               9.2118e-06           
  -1.8                  -9.3556e-06           -6e-14                3.4e-13               9.3498e-06           
  -1.9                  -9.4948e-06           -2e-13                4.6e-13               9.4976e-06           
  -2                    -9.6336e-06           -4e-14                5.2e-13               9.638e-06            
  -2.1                  -9.7714e-06           -6e-14                7.4e-13               9.7754e-06           
  -2.2                  -9.9054e-06           -4e-14                1.46e-12              9.908e-06            
  -2.3                  -1.00402e-05          2e-14                 2.84e-12              1.0042e-05           
  -2.4                  -1.01668e-05          0                     5.68e-12              1.01708e-05          
  -2.5                  -1.02994e-05          0                     1.152e-11             1.02988e-05          
  -2.6                  -1.04302e-05          -8e-14                2.306e-11             1.04328e-05          
  -2.7                  -1.0548e-05           -4e-14                4.518e-11             1.05622e-05          
  -2.8                  -1.0676e-05           -2e-14                8.65e-11              1.06876e-05          
  -2.9                  -1.081e-05            2e-14                 1.6154e-10            1.08162e-05          
  -3                    -1.0938e-05           4e-14                 2.953e-10             1.09492e-05          
  -3.1                  -1.1068e-05           -8e-14                5.2744e-10            1.10826e-05          
  -3.2                  -1.1204e-05           2e-14                 9.2012e-10            1.12108e-05          
  -3.3                  -1.1336e-05           4e-14                 1.5762e-09            1.1352e-05           
  -3.4                  -1.1462e-05           6e-14                 2.6312e-09            1.1482e-05           
  -3.5                  -1.1604e-05           -8e-14                4.3264e-09            1.162e-05            
  -3.6                  -1.1738e-05           2e-14                 7.001e-09             1.1756e-05           
END_DB

BEGIN_DB
 ICCAP_VAR vg         -2.616         
 ICCAP_VAR vb         3.6            
 ICCAP_VAR vs         -0             

 #vd                    id                    ig                    ib                    is                   
  -0                    2.0184e-09            -1.8e-13              2.6e-13               -1.8438e-09          
  -0.1                  -3.966e-06            -2.2e-13              1.6e-13               3.969e-06            
  -0.2                  -7.5298e-06           -1.2e-13              1.8e-13               7.5316e-06           
  -0.3                  -1.06592e-05          -1.2e-13              1.6e-13               1.06656e-05          
  -0.4                  -1.3312e-05           -1e-13                2.2e-13               1.3322e-05           
  -0.5                  -1.5546e-05           -1.2e-13              2.8e-13               1.5562e-05           
  -0.6                  -1.7348e-05           -8e-14                1.4e-13               1.7354e-05           
  -0.7                  -1.8782e-05           -2.2e-13              2.6e-13               1.879e-05            
  -0.8                  -1.9902e-05           -4e-14                2.8e-13               1.9922e-05           
  -0.9                  -2.079e-05            -1.2e-13              3.4e-13               2.0806e-05           
  -1                    -2.148e-05            -1.4e-13              2.6e-13               2.1532e-05           
  -1.1                  -2.2088e-05           0                     3e-13                 2.211e-05            
  -1.2                  -2.2566e-05           6e-14                 3e-13                 2.26e-05             
  -1.3                  -2.2996e-05           -4e-14                3.8e-13               2.3024e-05           
  -1.4                  -2.339e-05            -2e-14                2.6e-13               2.3418e-05           
  -1.5                  -2.375e-05            -8e-14                2.8e-13               2.3762e-05           
  -1.6                  -2.4062e-05           -1.2e-13              2.8e-13               2.4092e-05           
  -1.7                  -2.4346e-05           -6e-14                2.6e-13               2.4408e-05           
  -1.8                  -2.4656e-05           4e-14                 3e-13                 2.4702e-05           
  -1.9                  -2.4928e-05           -4e-14                2.2e-13               2.495e-05            
  -2                    -2.5226e-05           4e-14                 3.8e-13               2.5226e-05           
  -2.1                  -2.5456e-05           2e-14                 2.8e-13               2.55e-05             
  -2.2                  -2.571e-05            4e-14                 4.6e-13               2.5736e-05           
  -2.3                  -2.5954e-05           -4e-14                9.8e-13               2.5992e-05           
  -2.4                  -2.6218e-05           2e-14                 2.04e-12              2.6234e-05           
  -2.5                  -2.644e-05            -6e-14                4.28e-12              2.6476e-05           
  -2.6                  -2.6656e-05           -4e-14                9.02e-12              2.669e-05            
  -2.7                  -2.689e-05            -6e-14                1.878e-11             2.6932e-05           
  -2.8                  -2.7124e-05           2e-14                 3.758e-11             2.708e-05            
  -2.9                  -2.7266e-05           2e-14                 7.322e-11             2.7306e-05           
  -3                    -2.749e-05            -1e-13                1.3874e-10            2.7512e-05           
  -3.1                  -2.769e-05            0                     2.575e-10             2.7672e-05           
  -3.2                  -2.7876e-05           -1.4e-13              4.66e-10              2.793e-05            
  -3.3                  -2.8118e-05           -8e-14                8.3124e-10            2.8144e-05           
  -3.4                  -2.8334e-05           -6e-14                1.4502e-09            2.8358e-05           
  -3.5                  -2.8542e-05           -1e-13                2.48e-09              2.8542e-05           
  -3.6                  -2.8744e-05           2e-14                 4.1604e-09            2.8782e-05           
END_DB

BEGIN_DB
 ICCAP_VAR vg         -3.108         
 ICCAP_VAR vb         3.6            
 ICCAP_VAR vs         -0             

 #vd                    id                    ig                    ib                    is                   
  -0                    2.2756e-09            -2.6e-13              0                     -2.179e-09           
  -0.1                  -5.3782e-06           -3.2e-13              1.6e-13               5.3848e-06           
  -0.2                  -1.04192e-05          -1.4e-13              2.8e-13               1.04288e-05          
  -0.3                  -1.5064e-05           -2.4e-13              1.4e-13               1.5062e-05           
  -0.4                  -1.926e-05            -2e-13                1.2e-13               1.927e-05            
  -0.5                  -2.3016e-05           -1.2e-13              1.8e-13               2.3034e-05           
  -0.6                  -2.6354e-05           -1.6e-13              4e-14                 2.6386e-05           
  -0.7                  -2.9246e-05           -1.8e-13              1.4e-13               2.9264e-05           
  -0.8                  -3.1756e-05           -8e-14                2.8e-13               3.1744e-05           
  -0.9                  -3.3844e-05           -1.6e-13              2.4e-13               3.389e-05            
  -1                    -3.5656e-05           -6e-14                1e-13                 3.566e-05            
  -1.1                  -3.715e-05            -4e-14                2.2e-13               3.7176e-05           
  -1.2                  -3.8406e-05           -8e-14                1.2e-13               3.8434e-05           
  -1.3                  -3.9478e-05           -8e-14                2.8e-13               3.945e-05            
  -1.4                  -4.0248e-05           -4e-14                3.6e-13               4.0294e-05           
  -1.5                  -4.1026e-05           -8e-14                2.4e-13               4.1056e-05           
  -1.6                  -4.1694e-05           -2.2e-13              4e-14                 4.1712e-05           
  -1.7                  -4.2294e-05           -1.2e-13              6e-14                 4.2328e-05           
  -1.8                  -4.2856e-05           2e-14                 2.8e-13               4.2848e-05           
  -1.9                  -4.3302e-05           -8e-14                2e-13                 4.3318e-05           
  -2                    -4.3854e-05           2e-14                 1.8e-13               4.383e-05            
  -2.1                  -4.4218e-05           -8e-14                1.6e-13               4.425e-05            
  -2.2                  -4.4642e-05           0                     2e-13                 4.4666e-05           
  -2.3                  -4.5024e-05           -1.2e-13              2e-13                 4.5074e-05           
  -2.4                  -4.5408e-05           -4e-14                4.8e-13               4.5424e-05           
  -2.5                  -4.5774e-05           -1.4e-13              1.06e-12              4.5774e-05           
  -2.6                  -4.6104e-05           -6e-14                2.4e-12               4.6148e-05           
  -2.7                  -4.6482e-05           -6e-14                5.4e-12               4.651e-05            
  -2.8                  -4.6818e-05           -4e-14                1.184e-11             4.6824e-05           
  -2.9                  -4.7112e-05           4e-14                 2.532e-11             4.705e-05            
  -3                    -4.735e-05            -2e-14                5.094e-11             4.7384e-05           
  -3.1                  -4.7662e-05           0                     9.878e-11             4.7668e-05           
  -3.2                  -4.797e-05            -1e-13                1.8472e-10            4.7982e-05           
  -3.3                  -4.8232e-05           2e-14                 3.38e-10              4.8274e-05           
  -3.4                  -4.8536e-05           2e-14                 6.0524e-10            4.8524e-05           
  -3.5                  -4.8806e-05           -4e-14                1.05884e-09           4.8866e-05           
  -3.6                  -4.9148e-05           -2e-14                1.8416e-09            4.9072e-05           
END_DB

BEGIN_DB
 ICCAP_VAR vg         -3.6           
 ICCAP_VAR vb         3.6            
 ICCAP_VAR vs         -0             

 #vd                    id                    ig                    ib                    is                   
  -0                    2.7188e-09            -2.6e-13              4e-14                 -2.5116e-09          
  -0.1                  -6.5526e-06           -3.2e-13              1e-13                 6.5576e-06           
  -0.2                  -1.28e-05             -2.2e-13              1.2e-13               1.2826e-05           
  -0.3                  -1.8698e-05           -2e-13                1.4e-13               1.8712e-05           
  -0.4                  -2.4178e-05           -2e-13                2e-13                 2.4184e-05           
  -0.5                  -2.9234e-05           -8e-14                1.2e-13               2.9256e-05           
  -0.6                  -3.3868e-05           -6e-14                1.2e-13               3.3886e-05           
  -0.7                  -3.8064e-05           -2.2e-13              1.6e-13               3.809e-05            
  -0.8                  -4.1866e-05           -1.6e-13              2.2e-13               4.1866e-05           
