! VERSION = 6.00
BEGIN_HEADER
 ICCAP_INPUTS
  vd         V  D GROUND SMU1 0.1 LIN        1    -0         -3.6       37   -0.1      
  vg         V  G GROUND SMU2 0.001 LIST       2 3 -1.244 -1.444 -1.644
  vb         V  B GROUND SMU4 0.1 CON        3.6
  vs         V  S GROUND SMU3 0.1 CON        -0
 ICCAP_OUTPUTS
  id         I  D GROUND SMU1 B
  ig         I  G GROUND SMU2 B
  ib         I  B GROUND SMU4 B
  is         I  S GROUND SMU3 B
 ICCAP_VALUES
  MASTER_SETUP_TYPE "~dc_idvd~"
  LINVT_VALUE ""
  LISTVT_VALUE "|idvg|100.0n|-200.0m|1.000m|3|200.0m|200.0m|"
  TYPE "-1"
  TEMP " 27.0000 "
  IS_TNOM " 1.00000 "
  MAIN.W "150.0n"
  MAIN.L "330.0n"
  MAIN.AD "100.5f"
  MAIN.AS "100.5f"
  MAIN.PD "1.340u"
  MAIN.PS "1.340u"
  MAIN.NF "1.000"
  MAIN.M "1"
  MAIN.NRD "0.000"
  MAIN.NRS "0.000"
  MAIN.LDRIFT1 "1E-06"
  MAIN.LDRIFT2 "1E-06"
  MAIN.SA "0.000"
  MAIN.SB "0.000"
  MAIN.SD "0.000"
  MAIN.SCA "0.000"
  MAIN.SCB "0.000"
  MAIN.SCC "0.000"
  MAIN.SC "0.000"
  MODULE "S555"
  PIN_D "12"
  PIN_G "9"
  PIN_S "10"
  PIN_B "11"
  PIN_E ""
  PIN_6 ""
  XY_ID ""
  FUNC "Additional"
  STI "SA ref"
  WPE "WPE ref"
  COMMENT ""
  DIS_MEAS ""
  TypeTCI "10"
END_HEADER

BEGIN_DB
 ICCAP_VAR vg         -1.244         
 ICCAP_VAR vb         3.6            
 ICCAP_VAR vs         -0             

 #vd                    id                    ig                    ib                    is                   
  -0                    4e-13                 1.8e-13               4.6e-13               -6e-14               
  -0.1                  -1.77e-11             2.2e-13               3.4e-13               1.776e-11            
  -0.2                  -2.212e-11            -2e-14                4.4e-13               2.238e-11            
  -0.3                  -2.69e-11             2e-13                 3.4e-13               2.696e-11            
  -0.4                  -3.25e-11             4e-14                 3.2e-13               3.242e-11            
  -0.5                  -3.87e-11             2e-13                 3.2e-13               3.866e-11            
  -0.6                  -4.628e-11            2.6e-13               3e-13                 4.594e-11            
  -0.7                  -5.458e-11            3.8e-13               2.2e-13               5.424e-11            
  -0.8                  -6.46e-11             1.8e-13               2.8e-13               6.408e-11            
  -0.9                  -7.56e-11             2e-13                 1.2e-13               7.546e-11            
  -1                    -8.88e-11             2.6e-13               2e-13                 8.816e-11            
  -1.1                  -1.038e-10            1.6e-13               2e-13                 1.0348e-10           
  -1.2                  -1.2118e-10           0                     1.2e-13               1.211e-10            
  -1.3                  -1.4154e-10           8e-14                 1.6e-13               1.4106e-10           
  -1.4                  -1.6494e-10           2e-13                 8e-14                 1.6432e-10           
  -1.5                  -1.9202e-10           1.8e-13               1.2e-13               1.9152e-10           
  -1.6                  -2.2366e-10           1.8e-13               1.8e-13               2.2248e-10           
  -1.7                  -2.5954e-10           2.8e-13               2e-13                 2.5898e-10           
  -1.8                  -3.0058e-10           2e-14                 1e-13                 3.0062e-10           
  -1.9                  -3.4796e-10           1.4e-13               2e-13                 3.4734e-10           
  -2                    -4.03e-10             3.2e-13               8e-14                 4.0204e-10           
  -2.1                  -4.6476e-10           2e-14                 1e-13                 4.6468e-10           
  -2.2                  -5.3664e-10           1e-13                 0                     5.3622e-10           
  -2.3                  -6.1772e-10           1.8e-13               6e-14                 6.1674e-10           
  -2.4                  -7.1154e-10           0                     8e-14                 7.098e-10            
  -2.5                  -8.153e-10            1.4e-13               1.4e-13               8.1562e-10           
  -2.6                  -9.3728e-10           1.6e-13               2.2e-13               9.3524e-10           
  -2.7                  -1.0722e-09           2e-13                 3.4e-13               1.0727e-09           
  -2.8                  -1.2312e-09           6e-14                 3.8e-13               1.2368e-09           
  -2.9                  -1.4148e-09           2e-14                 5.2e-13               1.4158e-09           
  -3                    -1.6198e-09           2.4e-13               9e-13                 1.619e-09            
  -3.1                  -1.8394e-09           0                     1.66e-12              1.8306e-09           
  -3.2                  -2.0904e-09           1.8e-13               2.68e-12              2.0888e-09           
  -3.3                  -2.3952e-09           -4e-14                4.48e-12              2.3922e-09           
  -3.4                  -2.731e-09            0                     7.46e-12              2.7254e-09           
  -3.5                  -3.111e-09            8e-14                 1.192e-11             3.097e-09            
  -3.6                  -3.5328e-09           4e-14                 1.902e-11             3.5116e-09           
END_DB

BEGIN_DB
 ICCAP_VAR vg         -1.444         
 ICCAP_VAR vb         3.6            
 ICCAP_VAR vs         -0             

 #vd                    id                    ig                    ib                    is                   
  -0                    1.118e-11             -1.2e-13              2e-14                 -1.034e-11           
  -0.1                  -5.564e-09            6e-14                 1e-13                 5.563e-09            
  -0.2                  -7.1792e-09           0                     6e-14                 7.1758e-09           
  -0.3                  -8.7214e-09           6e-14                 0                     8.7176e-09           
  -0.4                  -1.0386e-08           8e-14                 1.2e-13               1.0391e-08           
  -0.5                  -1.2228e-08           1e-13                 1.2e-13               1.2258e-08           
  -0.6                  -1.4276e-08           1.2e-13               1.8e-13               1.4296e-08           
  -0.7                  -1.6578e-08           -4e-14                4e-14                 1.6574e-08           
  -0.8                  -1.9156e-08           1.4e-13               1.4e-13               1.9178e-08           
  -0.9                  -2.2006e-08           -2e-14                1e-13                 2.2056e-08           
  -1                    -2.5184e-08           2e-14                 1e-13                 2.5198e-08           
  -1.1                  -2.8696e-08           1.4e-13               6e-14                 2.8738e-08           
  -1.2                  -3.2542e-08           8e-14                 8e-14                 3.2558e-08           
  -1.3                  -3.684e-08            -8e-14                8e-14                 3.6844e-08           
  -1.4                  -4.1512e-08           6e-14                 8e-14                 4.3266e-08           
  -1.5                  -4.8528e-08           8e-14                 1e-13                 4.858e-08            
  -1.6                  -5.4254e-08           4e-14                 1.6e-13               5.4296e-08           
  -1.7                  -6.044e-08            4e-14                 1.4e-13               6.043e-08            
  -1.8                  -6.7136e-08           -4e-14                1e-13                 6.7156e-08           
  -1.9                  -7.4302e-08           -1e-13                4e-14                 7.4308e-08           
  -2                    -8.193e-08            6e-14                 2.6e-13               8.1954e-08           
  -2.1                  -9.015e-08            0                     2.6e-13               9.0232e-08           
  -2.2                  -9.8884e-08           0                     4.6e-13               9.899e-08            
  -2.3                  -1.0808e-07           8e-14                 7.4e-13               1.08602e-07          
  -2.4                  -1.1848e-07           2e-14                 1.28e-12              1.1866e-07           
  -2.5                  -1.2884e-07           4e-14                 2.48e-12              1.2918e-07           
  -2.6                  -1.4006e-07           -4e-14                4.76e-12              1.4032e-07           
  -2.7                  -1.5174e-07           4e-14                 8.58e-12              1.5186e-07           
  -2.8                  -1.6374e-07           -2e-14                1.55e-11              1.6368e-07           
  -2.9                  -1.765e-07            8e-14                 2.732e-11             1.767e-07            
  -3                    -1.902e-07            1.2e-13               4.712e-11             1.9018e-07           
  -3.1                  -2.0428e-07           2e-14                 7.962e-11             2.045e-07            
  -3.2                  -2.1984e-07           0                     1.319e-10             2.2004e-07           
  -3.3                  -2.356e-07            1.2e-13               2.1658e-10            2.3542e-07           
  -3.4                  -2.5196e-07           -1e-13                3.4704e-10            2.5182e-07           
  -3.5                  -2.686e-07            -1e-13                5.4484e-10            2.684e-07            
  -3.6                  -2.868e-07            -8e-14                8.4264e-10            2.8604e-07           
END_DB

BEGIN_DB
 ICCAP_VAR vg         -1.644         
 ICCAP_VAR vb         3.6            
 ICCAP_VAR vs         -0             

 #vd                    id                    ig                    ib                    is                   
  -0                    1.838e-10             -1.8e-13              -1.4e-13              -1.8668e-10          
  -0.1                  -2.02e-07             0                     0                     2.0228e-07           
  -0.2                  -2.8722e-07           0                     -6e-14                2.8754e-07           
  -0.3                  -3.3588e-07           0                     1.4e-13               3.3592e-07           
  -0.4                  -3.7382e-07           -1e-13                1.2e-13               3.7434e-07           
  -0.5                  -4.094e-07            -2e-14                8e-14                 4.0958e-07           
  -0.6                  -4.4336e-07           0                     1.2e-13               4.4396e-07           
  -0.7                  -4.777e-07            2e-14                 1e-13                 4.7794e-07           
  -0.8                  -5.1214e-07           0                     1.2e-13               5.1236e-07           
  -0.9                  -5.4678e-07           -1.4e-13              8e-14                 5.4698e-07           
  -1                    -5.819e-07            8e-14                 8e-14                 5.8216e-07           
  -1.1                  -6.176e-07            2e-14                 4e-14                 6.176e-07            
  -1.2                  -6.537e-07            -6e-14                1.2e-13               6.539e-07            
  -1.3                  -6.9006e-07           0                     1e-13                 6.9082e-07           
  -1.4                  -7.2774e-07           -1e-13                6e-14                 7.2818e-07           
  -1.5                  -7.6546e-07           -2e-14                1e-13                 7.6514e-07           
  -1.6                  -8.0306e-07           2e-14                 1e-13                 8.035e-07            
  -1.7                  -8.4144e-07           -2e-13                1.4e-13               8.4194e-07           
  -1.8                  -8.8032e-07           -6e-14                2.2e-13               8.806e-07            
  -1.9                  -9.19e-07             -1.2e-13              1.6e-13               9.1962e-07           
  -2                    -9.588e-07            0                     2.4e-13               9.5926e-07           
  -2.1                  -9.9918e-07           6e-14                 4.8e-13               9.9918e-07           
  -2.2                  -1.03932e-06          -1.4e-13              1.02e-12              1.0396e-06           
  -2.3                  -1.08076e-06          -2.2e-13              2.18e-12              1.08082e-06          
  -2.4                  -1.12176e-06          4e-14                 4.36e-12              1.12232e-06          
  -2.5                  -1.1626e-06           0                     8.62e-12              1.1662e-06           
  -2.6                  -1.205e-06            -4e-14                1.626e-11             1.211e-06            
  -2.7                  -1.2482e-06           0                     3.014e-11             1.2526e-06           
  -2.8                  -1.2928e-06           -8e-14                5.388e-11             1.2962e-06           
  -2.9                  -1.3368e-06           0                     9.446e-11             1.3402e-06           
  -3                    -1.3846e-06           -4e-14                1.6052e-10            1.3854e-06           
  -3.1                  -1.429e-06            -2e-14                2.6994e-10            1.4318e-06           
  -3.2                  -1.4738e-06           -1.6e-13              4.4614e-10            1.4782e-06           
  -3.3                  -1.522e-06            -1e-13                7.2042e-10            1.5252e-06           
  -3.4                  -1.5706e-06           -2e-14                1.136e-09             1.5746e-06           
  -3.5                  -1.62e-06             6e-14                 1.7794e-09            1.622e-06            
  -3.6                  -1.6712e-06           0                     2.7352e-09            1.6766e-06           
END_DB

