! VERSION = 6.00
BEGIN_HEADER
 ICCAP_INPUTS
  vd         V  D GROUND SMU1 0.1 LIN        1    -0         -3.6       37   -0.1      
  vg         V  G GROUND SMU2 0.001 LIN        2    -1.944     -3.6       5    -0.414    
  vb         V  B GROUND SMU4 0.1 CON        3.6
  vs         V  S GROUND SMU3 0.1 CON        -0
 ICCAP_OUTPUTS
  id         I  D GROUND SMU1 B
  ig         I  G GROUND SMU2 B
  ib         I  B GROUND SMU4 B
  is         I  S GROUND SMU3 B
 ICCAP_VALUES
  MASTER_SETUP_TYPE "~dc_idvd~"
  LINVT_VALUE "|idvg|100.0n|100.0m|1.000m|5|3.600|"
  LISTVT_VALUE ""
  TYPE "-1"
  TEMP " 70.0000 "
  IS_TNOM " 0.00000 "
  MAIN.W "300.0n"
  MAIN.L "10.00u"
  MAIN.AD "102.0f"
  MAIN.AS "102.0f"
  MAIN.PD "1.280u"
  MAIN.PS "1.280u"
  MAIN.NF "1.000"
  MAIN.M "1"
  MAIN.NRD "0.000"
  MAIN.NRS "0.000"
  MAIN.LDRIFT1 "1E-06"
  MAIN.LDRIFT2 "1E-06"
  MAIN.SA "0.000"
  MAIN.SB "0.000"
  MAIN.SD "0.000"
  MAIN.SCA "0.000"
  MAIN.SCB "0.000"
  MAIN.SCC "0.000"
  MAIN.SC "0.000"
  MODULE "S555"
  PIN_D "14"
  PIN_G "7"
  PIN_S "8"
  PIN_B "13"
  PIN_E ""
  PIN_6 ""
  XY_ID ""
  FUNC "Narrow"
  STI "SA ref"
  WPE "WPE ref"
  COMMENT ""
  DIS_MEAS ""
  TypeTCI "10"
END_HEADER

BEGIN_DB
 ICCAP_VAR vg         -1.944         
 ICCAP_VAR vb         3.6            
 ICCAP_VAR vs         -0             

 #vd                    id                    ig                    ib                    is                   
  -0                    4.24e-12              -9.8e-13              1.206e-11             -4.74e-12            
  -0.1                  -7.944e-09            -6e-13                1.202e-11             7.9444e-09           
  -0.2                  -1.01064e-08          -4.6e-13              1.196e-11             1.01018e-08          
  -0.3                  -1.03304e-08          -6.4e-13              1.184e-11             1.03342e-08          
  -0.4                  -1.03476e-08          -3.2e-13              1.208e-11             1.034e-08            
  -0.5                  -1.03528e-08          -4.8e-13              1.192e-11             1.03454e-08          
  -0.6                  -1.03504e-08          -5.2e-13              1.194e-11             1.0341e-08           
  -0.7                  -1.0344e-08           -3.8e-13              1.186e-11             1.03462e-08          
  -0.8                  -1.0344e-08           -2.8e-13              1.182e-11             1.03478e-08          
  -0.9                  -1.035e-08            -2.2e-13              1.184e-11             1.0353e-08           
  -1                    -1.0348e-08           -2.8e-13              1.19e-11              1.03502e-08          
  -1.1                  -1.035e-08            -3.6e-13              1.178e-11             1.03472e-08          
  -1.2                  -1.035e-08            -1.6e-13              1.188e-11             1.0357e-08           
  -1.3                  -1.035e-08            -2.8e-13              1.178e-11             1.03486e-08          
  -1.4                  -1.0354e-08           -2e-13                1.182e-11             1.03488e-08          
  -1.5                  -1.0352e-08           -3e-13                1.176e-11             1.03596e-08          
  -1.6                  -1.0356e-08           -2e-13                1.164e-11             1.03618e-08          
  -1.7                  -1.0356e-08           -2.6e-13              1.172e-11             1.03624e-08          
  -1.8                  -1.0358e-08           -1.8e-13              1.176e-11             1.03598e-08          
  -1.9                  -1.036e-08            -3.6e-13              1.166e-11             1.03632e-08          
  -2                    -1.036e-08            -4e-13                1.17e-11              1.03628e-08          
  -2.1                  -1.036e-08            -4e-13                1.17e-11              1.03684e-08          
  -2.2                  -1.0364e-08           -1.4e-13              1.158e-11             1.03644e-08          
  -2.3                  -1.0372e-08           -2.4e-13              1.168e-11             1.03642e-08          
  -2.4                  -1.0366e-08           -1e-13                1.17e-11              1.03656e-08          
  -2.5                  -1.0366e-08           -1.4e-13              1.166e-11             1.03648e-08          
  -2.6                  -1.0368e-08           -1.4e-13              1.176e-11             1.03668e-08          
  -2.7                  -1.0366e-08           -1.6e-13              1.162e-11             1.03664e-08          
  -2.8                  -1.0368e-08           -3.2e-13              1.176e-11             1.03746e-08          
  -2.9                  -1.0362e-08           -4e-13                1.178e-11             1.03656e-08          
  -3                    -1.0362e-08           -2.4e-13              1.2e-11               1.03672e-08          
  -3.1                  -1.0368e-08           -2.2e-13              1.234e-11             1.03658e-08          
  -3.2                  -1.0366e-08           -1.6e-13              1.274e-11             1.03674e-08          
  -3.3                  -1.0368e-08           -2.6e-13              1.368e-11             1.0371e-08           
  -3.4                  -1.0376e-08           -1e-13                1.49e-11              1.03682e-08          
  -3.5                  -1.038e-08            -2.6e-13              1.704e-11             1.03708e-08          
  -3.6                  -1.0382e-08           -2.8e-13              2.01e-11              1.03716e-08          
END_DB

BEGIN_DB
 ICCAP_VAR vg         -2.358         
 ICCAP_VAR vb         3.6            
 ICCAP_VAR vs         -0             

 #vd                    id                    ig                    ib                    is                   
  -0                    1.566e-11             -3.2e-13              1.126e-11             -1.448e-11           
  -0.1                  -3.9778e-08           -2.4e-13              1.132e-11             3.9796e-08           
  -0.2                  -6.932e-08            -3.8e-13              1.136e-11             6.9356e-08           
  -0.3                  -8.903e-08            -3e-13                1.142e-11             8.9064e-08           
  -0.4                  -9.9926e-08           -3.4e-13              1.156e-11             9.9956e-08           
  -0.5                  -1.0424e-07           -4.2e-13              1.152e-11             1.04284e-07          
  -0.6                  -1.052e-07            -2.2e-13              1.146e-11             1.05266e-07          
  -0.7                  -1.0534e-07           -4.6e-13              1.144e-11             1.05398e-07          
  -0.8                  -1.054e-07            -2.8e-13              1.158e-11             1.05448e-07          
  -0.9                  -1.0542e-07           -2.8e-13              1.156e-11             1.05468e-07          
  -1                    -1.0546e-07           -2.2e-13              1.154e-11             1.055e-07            
  -1.1                  -1.0546e-07           -3.6e-13              1.158e-11             1.05508e-07          
  -1.2                  -1.055e-07            -4.2e-13              1.15e-11              1.05542e-07          
  -1.3                  -1.0554e-07           -2.8e-13              1.148e-11             1.05556e-07          
  -1.4                  -1.0552e-07           -3.6e-13              1.148e-11             1.0555e-07           
  -1.5                  -1.0552e-07           -3.2e-13              1.148e-11             1.05572e-07          
  -1.6                  -1.0554e-07           -3.8e-13              1.15e-11              1.05586e-07          
  -1.7                  -1.0556e-07           -3e-13                1.154e-11             1.05608e-07          
  -1.8                  -1.0556e-07           -2.2e-13              1.162e-11             1.056e-07            
  -1.9                  -1.0558e-07           -2.2e-13              1.156e-11             1.05598e-07          
  -2                    -1.0558e-07           -1.4e-13              1.156e-11             1.05616e-07          
  -2.1                  -1.0558e-07           -1.8e-13              1.15e-11              1.05608e-07          
  -2.2                  -1.0556e-07           -2e-13                1.15e-11              1.05646e-07          
  -2.3                  -1.056e-07            -2e-13                1.148e-11             1.05648e-07          
  -2.4                  -1.056e-07            -4e-13                1.154e-11             1.05664e-07          
  -2.5                  -1.0562e-07           -2.4e-13              1.154e-11             1.05668e-07          
  -2.6                  -1.0564e-07           -2e-14                1.158e-11             1.05658e-07          
  -2.7                  -1.0564e-07           -2.6e-13              1.158e-11             1.05674e-07          
  -2.8                  -1.0566e-07           -1.2e-13              1.162e-11             1.05706e-07          
  -2.9                  -1.0566e-07           -6e-14                1.162e-11             1.05722e-07          
  -3                    -1.0568e-07           -3e-13                1.182e-11             1.05726e-07          
  -3.1                  -1.0568e-07           -2.2e-13              1.23e-11              1.0573e-07           
  -3.2                  -1.057e-07            -2.6e-13              1.314e-11             1.0575e-07           
  -3.3                  -1.0574e-07           -1.8e-13              1.446e-11             1.05754e-07          
  -3.4                  -1.0574e-07           -1.8e-13              1.676e-11             1.05776e-07          
  -3.5                  -1.0574e-07           -3.4e-13              2.066e-11             1.05746e-07          
  -3.6                  -1.0572e-07           -2.4e-13              2.704e-11             1.05762e-07          
END_DB

BEGIN_DB
 ICCAP_VAR vg         -2.772         
 ICCAP_VAR vb         3.6            
 ICCAP_VAR vs         -0             

 #vd                    id                    ig                    ib                    is                   
  -0                    2.846e-11             -3.8e-13              1.124e-11             -2.848e-11           
  -0.1                  -7.3428e-08           -3.2e-13              1.134e-11             7.3458e-08           
  -0.2                  -1.3664e-07           -4.2e-13              1.146e-11             1.3668e-07           
  -0.3                  -1.8948e-07           -2.4e-13              1.15e-11              1.8952e-07           
  -0.4                  -2.3198e-07           -2.8e-13              1.146e-11             2.3204e-07           
  -0.5                  -2.6458e-07           -2.8e-13              1.158e-11             2.647e-07            
  -0.6                  -2.8762e-07           -2.2e-13              1.15e-11              2.8772e-07           
  -0.7                  -3.0194e-07           -3.4e-13              1.15e-11              3.0204e-07           
  -0.8                  -3.091e-07            -1.6e-13              1.158e-11             3.0918e-07           
  -0.9                  -3.1166e-07           -1.8e-13              1.168e-11             3.1166e-07           
  -1                    -3.1226e-07           -3.6e-13              1.164e-11             3.123e-07            
  -1.1                  -3.125e-07            -2e-13                1.16e-11              3.1254e-07           
  -1.2                  -3.126e-07            -2.8e-13              1.162e-11             3.1272e-07           
  -1.3                  -3.1278e-07           -2.4e-13              1.152e-11             3.1282e-07           
  -1.4                  -3.1278e-07           -1.6e-13              1.15e-11              3.128e-07            
  -1.5                  -3.1284e-07           -1.8e-13              1.156e-11             3.129e-07            
  -1.6                  -3.1288e-07           -3.4e-13              1.152e-11             3.1294e-07           
  -1.7                  -3.1288e-07           -2.8e-13              1.148e-11             3.13e-07             
  -1.8                  -3.1302e-07           -3.4e-13              1.16e-11              3.131e-07            
  -1.9                  -3.1312e-07           -2.4e-13              1.156e-11             3.1314e-07           
  -2                    -3.1312e-07           -1.8e-13              1.16e-11              3.1314e-07           
  -2.1                  -3.1306e-07           -1.2e-13              1.15e-11              3.1318e-07           
  -2.2                  -3.1318e-07           -1.4e-13              1.15e-11              3.1324e-07           
  -2.3                  -3.132e-07            -1.6e-13              1.16e-11              3.1328e-07           
  -2.4                  -3.1324e-07           -2.4e-13              1.158e-11             3.1332e-07           
  -2.5                  -3.1326e-07           -2.4e-13              1.148e-11             3.1332e-07           
  -2.6                  -3.1326e-07           -1.8e-13              1.156e-11             3.1332e-07           
  -2.7                  -3.133e-07            -3e-13                1.148e-11             3.1332e-07           
  -2.8                  -3.1334e-07           -2.2e-13              1.162e-11             3.1338e-07           
  -2.9                  -3.1338e-07           6e-14                 1.154e-11             3.1344e-07           
  -3                    -3.1342e-07           -1.8e-13              1.166e-11             3.1342e-07           
  -3.1                  -3.134e-07            -1.8e-13              1.18e-11              3.1346e-07           
  -3.2                  -3.1342e-07           -1.8e-13              1.2e-11               3.1346e-07           
  -3.3                  -3.1346e-07           -3e-13                1.242e-11             3.1358e-07           
  -3.4                  -3.1358e-07           -1.8e-13              1.326e-11             3.1364e-07           
  -3.5                  -3.136e-07            -2e-13                1.48e-11              3.1372e-07           
  -3.6                  -3.1364e-07           -2.2e-13              1.758e-11             3.1368e-07           
END_DB

BEGIN_DB
 ICCAP_VAR vg         -3.186         
 ICCAP_VAR vb         3.6            
 ICCAP_VAR vs         -0             

 #vd                    id                    ig                    ib                    is                   
  -0                    4.024e-11             -4.8e-13              1.122e-11             -4.394e-11           
  -0.1                  -1.0554e-07           -3.2e-13              1.128e-11             1.0558e-07           
  -0.2                  -2.012e-07            -2.4e-13              1.136e-11             2.0134e-07           
  -0.3                  -2.8678e-07           -2.8e-13              1.138e-11             2.869e-07            
  -0.4                  -3.621e-07            -4e-13                1.142e-11             3.622e-07            
  -0.5                  -4.2756e-07           -3e-13                1.14e-11              4.2772e-07           
  -0.6                  -4.8308e-07           -4.2e-13              1.15e-11              4.832e-07            
  -0.7                  -5.2864e-07           -4.8e-13              1.16e-11              5.2872e-07           
  -0.8                  -5.6452e-07           -2.6e-13              1.168e-11             5.6476e-07           
  -0.9                  -5.9118e-07           -2.6e-13              1.162e-11             5.9128e-07           
  -1                    -6.0908e-07           -2e-13                1.168e-11             6.091e-07            
  -1.1                  -6.1936e-07           -1.4e-13              1.16e-11              6.1946e-07           
  -1.2                  -6.2434e-07           -2.2e-13              1.158e-11             6.2444e-07           
  -1.3                  -6.2602e-07           -3.6e-13              1.16e-11              6.2608e-07           
  -1.4                  -6.2648e-07           -3e-13                1.164e-11             6.266e-07            
  -1.5                  -6.268e-07            -4.2e-13              1.166e-11             6.2694e-07           
  -1.6                  -6.2714e-07           -3.2e-13              1.158e-11             6.2718e-07           
  -1.7                  -6.2724e-07           -3.6e-13              1.16e-11              6.2738e-07           
  -1.8                  -6.273e-07            -2.6e-13              1.156e-11             6.2746e-07           
  -1.9                  -6.275e-07            -1.8e-13              1.16e-11              6.2768e-07           
  -2                    -6.2764e-07           -3.4e-13              1.172e-11             6.2772e-07           
  -2.1                  -6.277e-07            -3.8e-13              1.16e-11              6.2758e-07           
  -2.2                  -6.2772e-07           -2.8e-13              1.162e-11             6.2786e-07           
  -2.3                  -6.279e-07            -4.4e-13              1.162e-11             6.2798e-07           
  -2.4                  -6.2788e-07           -3.8e-13              1.15e-11              6.2796e-07           
  -2.5                  -6.2792e-07           -3.6e-13              1.16e-11              6.281e-07            
  -2.6                  -6.2806e-07           -1.8e-13              1.16e-11              6.2814e-07           
  -2.7                  -6.2814e-07           0                     1.156e-11             6.2836e-07           
  -2.8                  -6.2836e-07           0                     1.17e-11              6.2834e-07           
  -2.9                  -6.2832e-07           -1.4e-13              1.176e-11             6.2834e-07           
  -3                    -6.282e-07            -1.4e-13              1.166e-11             6.2844e-07           
  -3.1                  -6.2842e-07           -4e-14                1.164e-11             6.2852e-07           
  -3.2                  -6.2848e-07           -2.4e-13              1.172e-11             6.2858e-07           
  -3.3                  -6.2848e-07           -1e-13                1.174e-11             6.2856e-07           
  -3.4                  -6.2866e-07           -1.4e-13              1.194e-11             6.2874e-07           
  -3.5                  -6.2864e-07           -3.8e-13              1.218e-11             6.288e-07            
  -3.6                  -6.2874e-07           -3.2e-13              1.278e-11             6.2882e-07           
END_DB

BEGIN_DB
 ICCAP_VAR vg         -3.6           
 ICCAP_VAR vb         3.6            
 ICCAP_VAR vs         -0             

 #vd                    id                    ig                    ib                    is                   
  -0                    5.012e-11             -4.2e-13              1.12e-11              -5.274e-11           
  -0.1                  -1.3558e-07           -4.2e-13              1.124e-11             1.3564e-07           
  -0.2                  -2.6182e-07           -3.4e-13              1.126e-11             2.6194e-07           
  -0.3                  -3.7834e-07           -4.4e-13              1.136e-11             3.7842e-07           
  -0.4                  -4.85e-07             -3.4e-13              1.14e-11              4.8506e-07           
  -0.5                  -5.821e-07            -3.6e-13              1.152e-11             5.822e-07            
  -0.6                  -6.6952e-07           -4e-13                1.15e-11              6.6962e-07           
  -0.7                  -7.469e-07            -3.8e-13              1.152e-11             7.4706e-07           
  -0.8                  -8.148e-07            -2.6e-13              1.16e-11              8.15e-07             
