! VERSION = 6.00
BEGIN_HEADER
 ICCAP_INPUTS
  vd         V  D GROUND SMU1 0.1 LIN        1    -0         -3.6       37   -0.1      
  vg         V  G GROUND SMU2 0.001 LIST       2 3 -1.683 -1.883 -2.083
  vb         V  B GROUND SMU4 0.1 CON        3.6
  vs         V  S GROUND SMU3 0.1 CON        -0
 ICCAP_OUTPUTS
  id         I  D GROUND SMU1 B
  ig         I  G GROUND SMU2 B
  ib         I  B GROUND SMU4 B
  is         I  S GROUND SMU3 B
 ICCAP_VALUES
  MASTER_SETUP_TYPE "~dc_idvd~"
  LINVT_VALUE ""
  LISTVT_VALUE "|idvg|100.0n|-200.0m|1.000m|3|200.0m|200.0m|"
  TYPE "-1"
  TEMP " 27.0000 "
  IS_TNOM " 1.00000 "
  MAIN.W "2.000u"
  MAIN.L "3.000u"
  MAIN.AD "680.0f"
  MAIN.AS "680.0f"
  MAIN.PD "4.680u"
  MAIN.PS "4.680u"
  MAIN.NF "1.000"
  MAIN.M "1"
  MAIN.NRD "0.000"
  MAIN.NRS "0.000"
  MAIN.LDRIFT1 "1E-06"
  MAIN.LDRIFT2 "1E-06"
  MAIN.SA "0.000"
  MAIN.SB "0.000"
  MAIN.SD "0.000"
  MAIN.SCA "0.000"
  MAIN.SCB "0.000"
  MAIN.SCC "0.000"
  MAIN.SC "0.000"
  MODULE "S563"
  PIN_D "14"
  PIN_G "7"
  PIN_S "8"
  PIN_B "13"
  PIN_E ""
  PIN_6 ""
  XY_ID ""
  FUNC "LW Scale"
  STI "SA ref"
  WPE "WPE ref"
  COMMENT ""
  DIS_MEAS ""
  TypeTCI "10"
END_HEADER

BEGIN_DB
 ICCAP_VAR vg         -1.683         
 ICCAP_VAR vb         3.6            
 ICCAP_VAR vs         -0             

 #vd                    id                    ig                    ib                    is                   
  -0                    7.2e-13               -2.8e-13              6e-13                 -9.4e-13             
  -0.1                  -6.3876e-10           2.2e-13               5e-13                 6.3834e-10           
  -0.2                  -6.5356e-10           1e-13                 4e-13                 6.5344e-10           
  -0.3                  -6.5472e-10           2.4e-13               3.4e-13               6.5442e-10           
  -0.4                  -6.5568e-10           -6e-14                2.8e-13               6.5524e-10           
  -0.5                  -6.5592e-10           4e-14                 2e-13                 6.556e-10            
  -0.6                  -6.5668e-10           4e-14                 2e-13                 6.5622e-10           
  -0.7                  -6.5724e-10           -2e-14                8e-14                 6.5678e-10           
  -0.8                  -6.5762e-10           1.2e-13               8e-14                 6.5692e-10           
  -0.9                  -6.5814e-10           4e-13                 1.6e-13               6.5738e-10           
  -1                    -6.5822e-10           -2e-14                1.4e-13               6.579e-10            
  -1.1                  -6.5836e-10           6e-14                 4e-14                 6.5768e-10           
  -1.2                  -6.592e-10            1.8e-13               1e-13                 6.5862e-10           
  -1.3                  -6.5946e-10           2.6e-13               -2e-14                6.5828e-10           
  -1.4                  -6.5972e-10           3e-13                 0                     6.5876e-10           
  -1.5                  -6.6024e-10           2e-14                 -4e-14                6.5934e-10           
  -1.6                  -6.6024e-10           1.6e-13               0                     6.597e-10            
  -1.7                  -6.6058e-10           6e-14                 4e-14                 6.599e-10            
  -1.8                  -6.6102e-10           0                     -6e-14                6.6016e-10           
  -1.9                  -6.6118e-10           1e-13                 -2e-14                6.607e-10            
  -2                    -6.6168e-10           4.4e-13               -2e-14                6.6056e-10           
  -2.1                  -6.6184e-10           1e-13                 -1.2e-13              6.6108e-10           
  -2.2                  -6.6202e-10           -1.4e-13              8e-14                 6.6116e-10           
  -2.3                  -6.6238e-10           4e-14                 -4e-14                6.6158e-10           
  -2.4                  -6.6314e-10           -8e-14                1e-13                 6.6224e-10           
  -2.5                  -6.632e-10            1.6e-13               4e-14                 6.6216e-10           
  -2.6                  -6.6372e-10           2e-13                 -2e-14                6.628e-10            
  -2.7                  -6.6418e-10           6e-14                 -6e-14                6.634e-10            
  -2.8                  -6.6446e-10           -2e-14                0                     6.6364e-10           
  -2.9                  -6.6478e-10           1.8e-13               8e-14                 6.6354e-10           
  -3                    -6.6468e-10           -1.6e-13              1e-13                 6.6392e-10           
  -3.1                  -6.6548e-10           6e-14                 2.6e-13               6.6382e-10           
  -3.2                  -6.658e-10            -1e-13                3e-13                 6.6416e-10           
  -3.3                  -6.6552e-10           8e-14                 3.4e-13               6.6414e-10           
  -3.4                  -6.6674e-10           2.6e-13               6.4e-13               6.6468e-10           
  -3.5                  -6.6722e-10           3.2e-13               1.18e-12              6.6478e-10           
  -3.6                  -6.6776e-10           8e-14                 1.66e-12              6.6512e-10           
END_DB

BEGIN_DB
 ICCAP_VAR vg         -1.883         
 ICCAP_VAR vb         3.6            
 ICCAP_VAR vs         -0             

 #vd                    id                    ig                    ib                    is                   
  -0                    6.464e-11             -1.6e-13              1e-13                 -6.918e-11           
  -0.1                  -6.3358e-08           -2e-14                4e-14                 6.339e-08            
  -0.2                  -6.9218e-08           -1.2e-13              -4e-14                6.9206e-08           
  -0.3                  -6.9556e-08           -2e-13                0                     6.9606e-08           
  -0.4                  -6.9678e-08           -8e-14                4e-14                 6.9692e-08           
  -0.5                  -6.9746e-08           -4e-14                -1.6e-13              6.9768e-08           
  -0.6                  -6.981e-08            -2e-13                0                     6.9826e-08           
  -0.7                  -6.9886e-08           -8e-14                -1.2e-13              6.9914e-08           
  -0.8                  -6.9928e-08           -2e-13                -4e-14                6.9964e-08           
  -0.9                  -6.9964e-08           0                     4e-14                 6.9994e-08           
  -1                    -7.0012e-08           1e-13                 -4e-14                7.0046e-08           
  -1.1                  -7.0064e-08           6e-14                 -4e-14                7.007e-08            
  -1.2                  -7.0078e-08           -8e-14                -4e-14                7.0108e-08           
  -1.3                  -7.0094e-08           -1e-13                -1.2e-13              7.014e-08            
  -1.4                  -7.0134e-08           1.8e-13               -1.4e-13              7.0168e-08           
  -1.5                  -7.0168e-08           2.2e-13               -1.8e-13              7.0206e-08           
  -1.6                  -7.0224e-08           1.2e-13               -1.4e-13              7.0254e-08           
  -1.7                  -7.0276e-08           4e-14                 -1.4e-13              7.0294e-08           
  -1.8                  -7.0278e-08           8e-14                 -1.4e-13              7.0324e-08           
  -1.9                  -7.0316e-08           0                     -1.6e-13              7.0328e-08           
  -2                    -7.0326e-08           2e-14                 -1.6e-13              7.039e-08            
  -2.1                  -7.041e-08            4e-14                 -1.4e-13              7.0438e-08           
  -2.2                  -7.0426e-08           -4e-14                -1e-13                7.0454e-08           
  -2.3                  -7.0464e-08           -4e-14                -6e-14                7.0506e-08           
  -2.4                  -7.049e-08            2e-14                 -8e-14                7.0532e-08           
  -2.5                  -7.0516e-08           2e-14                 2e-14                 7.0542e-08           
  -2.6                  -7.0536e-08           -2e-14                3.2e-13               7.0556e-08           
  -2.7                  -7.0516e-08           -8e-14                6.2e-13               7.0534e-08           
  -2.8                  -7.0554e-08           1.4e-13               1.24e-12              7.0582e-08           
  -2.9                  -7.059e-08            2.6e-13               2.44e-12              7.0632e-08           
  -3                    -7.0596e-08           2e-13                 4.3e-12               7.0628e-08           
  -3.1                  -7.062e-08            1.2e-13               7.74e-12              7.0616e-08           
  -3.2                  -7.0598e-08           6e-14                 1.334e-11             7.0636e-08           
  -3.3                  -7.0688e-08           1.2e-13               2.224e-11             7.0692e-08           
  -3.4                  -7.0692e-08           2.2e-13               3.642e-11             7.0708e-08           
  -3.5                  -7.0754e-08           -1.2e-13              5.862e-11             7.0734e-08           
  -3.6                  -7.082e-08            -2.4e-13              9.238e-11             7.0748e-08           
END_DB

BEGIN_DB
 ICCAP_VAR vg         -2.083         
 ICCAP_VAR vb         3.6            
 ICCAP_VAR vs         -0             

 #vd                    id                    ig                    ib                    is                   
  -0                    2.3192e-10            -2e-14                1.2e-13               -2.4524e-10          
  -0.1                  -3.5328e-07           -1e-13                4e-14                 3.534e-07            
  -0.2                  -5.0704e-07           1.4e-13               -2e-14                5.0732e-07           
  -0.3                  -5.4152e-07           -2e-14                -2e-14                5.419e-07            
  -0.4                  -5.4604e-07           -1.8e-13              -4e-14                5.4622e-07           
  -0.5                  -5.4712e-07           -1.8e-13              8e-14                 5.4726e-07           
  -0.6                  -5.4782e-07           1e-13                 0                     5.4808e-07           
  -0.7                  -5.4832e-07           6e-14                 -4e-14                5.486e-07            
  -0.8                  -5.4864e-07           4e-14                 -2e-14                5.4896e-07           
  -0.9                  -5.491e-07            1.6e-13               0                     5.4924e-07           
  -1                    -5.494e-07            1.4e-13               -2e-14                5.4978e-07           
  -1.1                  -5.4984e-07           -1e-13                -1.4e-13              5.5014e-07           
  -1.2                  -5.5016e-07           -1.4e-13              -1.2e-13              5.5042e-07           
  -1.3                  -5.504e-07            -2.4e-13              -4e-14                5.506e-07            
  -1.4                  -5.505e-07            2e-14                 -6e-14                5.5082e-07           
  -1.5                  -5.5076e-07           2.4e-13               -1.8e-13              5.51e-07             
  -1.6                  -5.5096e-07           1.6e-13               -1.2e-13              5.512e-07            
  -1.7                  -5.5128e-07           -2e-14                -8e-14                5.5146e-07           
  -1.8                  -5.5132e-07           0                     -1.2e-13              5.5146e-07           
  -1.9                  -5.5162e-07           -8e-14                -1.2e-13              5.5182e-07           
  -2                    -5.5164e-07           4e-14                 -6e-14                5.521e-07            
  -2.1                  -5.5196e-07           -1e-13                -6e-14                5.522e-07            
  -2.2                  -5.5212e-07           -1.8e-13              -8e-14                5.5238e-07           
  -2.3                  -5.5226e-07           8e-14                 0                     5.5254e-07           
  -2.4                  -5.5248e-07           2.4e-13               -2e-14                5.5282e-07           
  -2.5                  -5.5274e-07           2.4e-13               2e-13                 5.5286e-07           
  -2.6                  -5.528e-07            1.8e-13               6.8e-13               5.53e-07             
  -2.7                  -5.5298e-07           -1.6e-13              1.52e-12              5.5324e-07           
  -2.8                  -5.5318e-07           8e-14                 3.26e-12              5.5352e-07           
  -2.9                  -5.534e-07            0                     6.42e-12              5.5368e-07           
  -3                    -5.5364e-07           -1.6e-13              1.232e-11             5.5384e-07           
  -3.1                  -5.5374e-07           1.2e-13               2.288e-11             5.5396e-07           
  -3.2                  -5.5384e-07           6e-14                 4.084e-11             5.5398e-07           
  -3.3                  -5.54e-07             2e-13                 7.1e-11               5.5414e-07           
  -3.4                  -5.5406e-07           2.4e-13               1.2094e-10            5.5428e-07           
  -3.5                  -5.545e-07            -1.4e-13              2.0174e-10            5.5454e-07           
  -3.6                  -5.5488e-07           -3.2e-13              3.289e-10             5.5486e-07           
END_DB

