! VERSION = 6.00
BEGIN_HEADER
 ICCAP_INPUTS
  vg         V  G GROUND SMU2 0.001 LIN        1    0.5        -3.6       83   -0.05     
  vb         V  B GROUND SMU4 0.1 LIN        2    0          3.6        5    0.9       
  vd         V  D GROUND SMU1 0.1 LIN        3    -0.1       -3.3       3    -1.6      
  vs         V  S GROUND SMU3 0.1 CON        -0
 ICCAP_OUTPUTS
  id         I  D GROUND SMU1 B
  ig         I  G GROUND SMU2 B
  ib         I  B GROUND SMU4 B
  is         I  S GROUND SMU3 B
 ICCAP_VALUES
  MASTER_SETUP_TYPE "~dc_idvg~"
  LINVT_VALUE ""
  LISTVT_VALUE ""
  TYPE "-1"
  TEMP " 27.0000 "
  IS_TNOM " 1.00000 "
  MAIN.W "600.0n"
  MAIN.L "10.00u"
  MAIN.AD "204.0f"
  MAIN.AS "204.0f"
  MAIN.PD "1.880u"
  MAIN.PS "1.880u"
  MAIN.NF "1.000"
  MAIN.M "1"
  MAIN.NRD "0.000"
  MAIN.NRS "0.000"
  MAIN.LDRIFT1 "1E-06"
  MAIN.LDRIFT2 "1E-06"
  MAIN.SA "0.000"
  MAIN.SB "0.000"
  MAIN.SD "0.000"
  MAIN.SCA "0.000"
  MAIN.SCB "0.000"
  MAIN.SCC "0.000"
  MAIN.SC "0.000"
  MODULE "S564"
  PIN_D "12"
  PIN_G "9"
  PIN_S "10"
  PIN_B "11"
  PIN_E ""
  PIN_6 ""
  XY_ID ""
  FUNC "W Scale"
  STI "SA ref"
  WPE "WPE ref"
  COMMENT ""
  DIS_MEAS ""
  TypeTCI "10"
END_HEADER

BEGIN_DB
 ICCAP_VAR vb         0              
 ICCAP_VAR vd         -0.1           
 ICCAP_VAR vs         -0             

 #vg                    id                    ig                    ib                    is                   
  0.5                   -1.6e-13              1.856e-11             -4.42e-12             1e-13                
  0.45                  1e-13                 2.88e-12              -7.6e-13              2e-14                
  0.4                   -1.2e-13              5.6e-13               -1e-13                6e-14                
  0.35                  0                     -2e-14                2e-14                 8e-14                
  0.3                   -1.4e-13              0                     -1e-13                1.6e-13              
  0.25                  -2e-14                -1.4e-13              -2e-14                2e-14                
  0.2                   -1.4e-13              -1.2e-13              -2e-14                6e-14                
  0.15                  4e-14                 -3.8e-13              2e-14                 3.2e-13              
  0.1                   -1.4e-13              -1.2e-13              -2e-14                8e-14                
  0.05                  2e-14                 -3.6e-13              4e-14                 2.4e-13              
  0                     -2e-13                -3e-13                -1.2e-13              1.4e-13              
  -0.05                 -1e-13                -2.4e-13              -6e-14                2e-13                
  -0.1                  -1e-13                -2.8e-13              2e-14                 1.4e-13              
  -0.15                 -1.8e-13              -3.8e-13              -1.4e-13              1.6e-13              
  -0.2                  -2.4e-13              -3.6e-13              -1e-13                1.2e-13              
  -0.25                 -1.8e-13              -3.4e-13              -6e-14                1.6e-13              
  -0.3                  -8.4e-13              -3.4e-13              -4e-14                8.4e-13              
  -0.35                 -2.76e-12             -5e-13                -6e-14                2.88e-12             
  -0.4                  -9.38e-12             -2e-13                0                     9.36e-12             
  -0.45                 -3.28e-11             -5.6e-13              -6e-14                3.306e-11            
  -0.5                  -1.1522e-10           -3.8e-13              0                     1.1502e-10           
  -0.55                 -3.9358e-10           -5.2e-13              2e-14                 3.9378e-10           
  -0.6                  -1.2302e-09           -4e-13                -2e-14                1.2328e-09           
  -0.65                 -3.334e-09            -3.2e-13              -8e-14                3.3374e-09           
  -0.7                  -7.553e-09            -4.4e-13              4e-14                 7.552e-09            
  -0.75                 -1.4444e-08           -4.8e-13              -4e-14                1.447e-08            
  -0.8                  -2.3876e-08           -5.6e-13              -1e-13                2.3904e-08           
  -0.85                 -3.5296e-08           -5e-13                0                     3.5328e-08           
  -0.9                  -4.794e-08            -6.2e-13              -4e-14                4.7976e-08           
  -0.95                 -6.1368e-08           -6e-13                -4e-14                6.1402e-08           
  -1                    -7.5142e-08           -5.8e-13              -4e-14                7.5172e-08           
  -1.05                 -8.9136e-08           -6.4e-13              -4e-14                8.9166e-08           
  -1.1                  -1.03106e-07          -6e-13                -6e-14                1.03148e-07          
  -1.15                 -1.1702e-07           -5e-13                -2e-14                1.1722e-07           
  -1.2                  -1.3086e-07           -7.2e-13              -1e-13                1.3106e-07           
  -1.25                 -1.4464e-07           -6e-13                -2e-14                1.4484e-07           
  -1.3                  -1.5828e-07           -7.2e-13              -8e-14                1.5848e-07           
  -1.35                 -1.7172e-07           -6.2e-13              -2.2e-13              1.7192e-07           
  -1.4                  -1.8502e-07           -7e-13                8e-14                 1.8524e-07           
  -1.45                 -1.9812e-07           -6.4e-13              -2e-14                1.9834e-07           
  -1.5                  -2.111e-07            -5.8e-13              -1e-13                2.1132e-07           
  -1.55                 -2.2386e-07           -6.8e-13              -4e-14                2.2408e-07           
  -1.6                  -2.3648e-07           -7.4e-13              1e-13                 2.367e-07            
  -1.65                 -2.4888e-07           -6.2e-13              -1e-13                2.491e-07            
  -1.7                  -2.6112e-07           -7.2e-13              -1e-13                2.6134e-07           
  -1.75                 -2.7322e-07           -6.2e-13              2e-14                 2.7344e-07           
  -1.8                  -2.851e-07            -6.6e-13              -1e-13                2.8532e-07           
  -1.85                 -2.9678e-07           -6.2e-13              -4e-14                2.9698e-07           
  -1.9                  -3.0828e-07           -7.6e-13              1e-13                 3.0852e-07           
  -1.95                 -3.1972e-07           -6.4e-13              -1.4e-13              3.1996e-07           
  -2                    -3.3088e-07           -6e-13                0                     3.3112e-07           
  -2.05                 -3.419e-07            -7e-13                -4e-14                3.4214e-07           
  -2.1                  -3.528e-07            -6.4e-13              -8e-14                3.5306e-07           
  -2.15                 -3.635e-07            -7.2e-13              4e-14                 3.637e-07            
  -2.2                  -3.7398e-07           -8.6e-13              -1.2e-13              3.742e-07            
  -2.25                 -3.843e-07            -7.2e-13              1.2e-13               3.8456e-07           
  -2.3                  -3.9458e-07           -9e-13                -4e-14                3.948e-07            
  -2.35                 -4.046e-07            -7.4e-13              -1e-13                4.0486e-07           
  -2.4                  -4.1454e-07           -8.8e-13              -1.4e-13              4.1476e-07           
  -2.45                 -4.2426e-07           -7e-13                0                     4.2446e-07           
  -2.5                  -4.3386e-07           -6.8e-13              -4e-14                4.3408e-07           
  -2.55                 -4.4322e-07           -7.8e-13              -8e-14                4.4346e-07           
  -2.6                  -4.5258e-07           -6.4e-13              -1.2e-13              4.5282e-07           
  -2.65                 -4.6176e-07           -8.2e-13              -2e-14                4.6198e-07           
  -2.7                  -4.7068e-07           -7e-13                2e-14                 4.7088e-07           
  -2.75                 -4.7956e-07           -8.4e-13              -4e-14                4.7976e-07           
  -2.8                  -4.8828e-07           -8.2e-13              2e-14                 4.8852e-07           
  -2.85                 -4.9688e-07           -7.6e-13              0                     4.9708e-07           
  -2.9                  -5.053e-07            -8.2e-13              -4e-14                5.0556e-07           
  -2.95                 -5.1356e-07           -7.2e-13              -1e-13                5.1378e-07           
  -3                    -5.2168e-07           -7.8e-13              0                     5.2196e-07           
  -3.05                 -5.2976e-07           -8e-13                -1.2e-13              5.3004e-07           
  -3.1                  -5.377e-07            -8.4e-13              -1e-13                5.379e-07            
  -3.15                 -5.455e-07            -9.6e-13              -2e-14                5.4574e-07           
  -3.2                  -5.5318e-07           -7.4e-13              -2e-14                5.5342e-07           
  -3.25                 -5.6064e-07           -8e-13                -1.4e-13              5.609e-07            
  -3.3                  -5.6812e-07           -8.6e-13              0                     5.6828e-07           
  -3.35                 -5.7536e-07           -8.2e-13              0                     5.7562e-07           
  -3.4                  -5.8258e-07           -7.2e-13              -8e-14                5.8282e-07           
  -3.45                 -5.8962e-07           -1e-12                -1.6e-13              5.898e-07            
  -3.5                  -5.965e-07            -9.4e-13              -6e-14                5.9676e-07           
  -3.55                 -6.033e-07            -9.2e-13              -8e-14                6.0354e-07           
  -3.6                  -6.1008e-07           -8.4e-13              0                     6.1034e-07           
END_DB

BEGIN_DB
 ICCAP_VAR vb         0.9            
 ICCAP_VAR vd         -0.1           
 ICCAP_VAR vs         -0             

 #vg                    id                    ig                    ib                    is                   
  0.5                   -6e-14                7e-13                 2.6e-13               1.8e-13              
  0.45                  0                     4.6e-13               2e-13                 2e-14                
  0.4                   -2e-14                2.6e-13               3.2e-13               3e-13                
  0.35                  1.6e-13               4.4e-13               8e-14                 -2e-14               
  0.3                   -3.6e-13              2.4e-13               1e-13                 1e-13                
  0.25                  1.4e-13               1e-13                 3.2e-13               8e-14                
  0.2                   6e-14                 6e-14                 1.6e-13               0                    
  0.15                  0                     -2e-14                6e-14                 1.4e-13              
  0.1                   -2e-14                2e-14                 2.2e-13               -1e-13               
  0.05                  -2e-14                0                     6e-14                 1.6e-13              
  0                     -1e-13                -1.2e-13              1.6e-13               1.6e-13              
  -0.05                 1e-13                 -1.2e-13              1.2e-13               8e-14                
  -0.1                  -1e-13                -1.6e-13              4e-14                 2e-13                
  -0.15                 -6e-14                -1.6e-13              8e-14                 1.6e-13              
  -0.2                  2e-14                 -2.8e-13              0                     2.2e-13              
  -0.25                 -1.2e-13              -2.4e-13              8e-14                 2.2e-13              
  -0.3                  6e-14                 -3e-13                6e-14                 1.2e-13              
  -0.35                 4e-14                 -3.2e-13              1.4e-13               2.6e-13              
  -0.4                  -1.4e-13              -3.6e-13              -4e-14                2e-14                
  -0.45                 -6e-14                -2.4e-13              1.2e-13               1.2e-13              
  -0.5                  1.4e-13               -2e-13                1.2e-13               1.4e-13              
  -0.55                 -1.4e-13              -2.6e-13              1.2e-13               6e-14                
  -0.6                  1e-13                 -2.8e-13              4e-14                 6e-14                
  -0.65                 -3e-13                -4.4e-13              2e-14                 2e-13                
  -0.7                  -5.6e-13              -4.2e-13              4e-14                 7.2e-13              
  -0.75                 -2.48e-12             -3.6e-13              6e-14                 2.46e-12             
  -0.8                  -9.66e-12             -5.2e-13              1e-13                 9.88e-12             
  -0.85                 -3.934e-11            -5.2e-13              -2e-14                3.944e-11            
  -0.9                  -1.537e-10            -4.2e-13              6e-14                 1.538e-10            
  -0.95                 -5.6288e-10           -5.2e-13              0                     5.6314e-10           
  -1                    -1.7656e-09           -2.2e-13              4e-14                 1.7662e-09           
  -1.05                 -4.5436e-09           -3.8e-13              1e-13                 4.5442e-09           
  -1.1                  -9.5176e-09           -4.8e-13              8e-14                 9.5182e-09           
  -1.15                 -1.6818e-08           -5e-13                0                     1.6838e-08           
  -1.2                  -2.596e-08            -4.2e-13              -8e-14                2.599e-08            
  -1.25                 -3.6412e-08           -5.4e-13              2e-14                 3.6438e-08           
  -1.3                  -4.7646e-08           -5.6e-13              1.2e-13               4.7672e-08           
  -1.35                 -5.9284e-08           -5e-13                -2e-14                5.9306e-08           
  -1.4                  -7.12e-08             -5.8e-13              -4e-14                7.1238e-08           
  -1.45                 -8.3172e-08           -4.6e-13              6e-14                 8.3208e-08           
  -1.5                  -9.5216e-08           -6.4e-13              0                     9.5264e-08           
  -1.55                 -1.07194e-07          -4.8e-13              8e-14                 1.0723e-07           
  -1.6                  -1.191e-07            -6e-13                0                     1.1928e-07           
  -1.65                 -1.3092e-07           -4.4e-13              8e-14                 1.3114e-07           
  -1.7                  -1.4268e-07           -5.2e-13              -2e-14                1.4288e-07           
  -1.75                 -1.5436e-07           -6.4e-13              0                     1.5456e-07           
  -1.8                  -1.6588e-07           -5e-13                -4e-14                1.6608e-07           
  -1.85                 -1.7728e-07           -5.8e-13              0                     1.7752e-07           
  -1.9                  -1.8858e-07           -5.2e-13              2e-14                 1.888e-07            
  -1.95                 -1.9978e-07           -6e-13                -6e-14                1.9996e-07           
  -2                    -2.1078e-07           -6.4e-13              4e-14                 2.1096e-07           
  -2.05                 -2.2168e-07           -6.8e-13              0                     2.2188e-07           
  -2.1                  -2.3246e-07           -5.4e-13              1.4e-13               2.3266e-07           
  -2.15                 -2.4308e-07           -8e-13                0                     2.4328e-07           
  -2.2                  -2.5354e-07           -5.4e-13              0                     2.5376e-07           
  -2.25                 -2.639e-07            -7.6e-13              1.2e-13               2.641e-07            
  -2.3                  -2.7414e-07           -7e-13                -6e-14                2.7436e-07           
  -2.35                 -2.842e-07            -6.8e-13              2e-14                 2.844e-07            
  -2.4                  -2.9416e-07           -7e-13                -4e-14                2.9438e-07           
  -2.45                 -3.0396e-07           -8e-13                0                     3.0416e-07           
  -2.5                  -3.1366e-07           -6.2e-13              0                     3.1392e-07           
  -2.55                 -3.2322e-07           -9.2e-13              8e-14                 3.234e-07            
  -2.6                  -3.3266e-07           -6e-13                -2e-14                3.3288e-07           
  -2.65                 -3.4196e-07           -8e-13                6e-14                 3.4218e-07           
  -2.7                  -3.5108e-07           -6.4e-13              2e-14                 3.5132e-07           
  -2.75                 -3.6018e-07           -6.8e-13              8e-14                 3.604e-07            
  -2.8                  -3.6908e-07           -6.6e-13              -4e-14                3.693e-07            
  -2.85                 -3.7788e-07           -6.4e-13              1.2e-13               3.781e-07            
  -2.9                  -3.8654e-07           -7.4e-13              -1.4e-13              3.8674e-07           
  -2.95                 -3.9502e-07           -6.4e-13              2e-14                 3.9522e-07           
  -3                    -4.0344e-07           -7.2e-13              6e-14                 4.0362e-07           
  -3.05                 -4.1172e-07           -7.8e-13              0                     4.1196e-07           
  -3.1                  -4.199e-07            -7.6e-13              0                     4.201e-07            
  -3.15                 -4.2798e-07           -8.8e-13              8e-14                 4.2824e-07           
  -3.2                  -4.3586e-07           -8.2e-13              2e-14                 4.361e-07            
  -3.25                 -4.4364e-07           -8e-13                -4e-14                4.4392e-07           
  -3.3                  -4.5136e-07           -9.2e-13              4e-14                 4.5162e-07           
  -3.35                 -4.5898e-07           -7.2e-13              4e-14                 4.5918e-07           
  -3.4                  -4.6642e-07           -8.4e-13              0                     4.6668e-07           
  -3.45                 -4.7378e-07           -8.4e-13              0                     4.74e-07             
