! VERSION = 6.00
BEGIN_HEADER
 ICCAP_INPUTS
  vd         V  D GROUND SMU1 0.1 LIN        1    -0         -3.6       37   -0.1      
  vg         V  G GROUND SMU2 0.001 LIST       2 3 -0.496 -0.696 -0.896
  vb         V  B GROUND SMU4 0.1 CON        -0
  vs         V  S GROUND SMU3 0.1 CON        -0
 ICCAP_OUTPUTS
  id         I  D GROUND SMU1 B
  ig         I  G GROUND SMU2 B
  ib         I  B GROUND SMU4 B
  is         I  S GROUND SMU3 B
 ICCAP_VALUES
  MASTER_SETUP_TYPE "~dc_idvd~"
  LINVT_VALUE ""
  LISTVT_VALUE "|idvg|100.0n|-200.0m|1.000m|3|200.0m|200.0m|"
  TYPE "-1"
  TEMP " 27.0000 "
  IS_TNOM " 1.00000 "
  MAIN.W "5.000u"
  MAIN.L "10.00u"
  MAIN.AD "1.700p"
  MAIN.AS "1.700p"
  MAIN.PD "10.68u"
  MAIN.PS "10.68u"
  MAIN.NF "1.000"
  MAIN.M "1"
  MAIN.NRD "0.000"
  MAIN.NRS "0.000"
  MAIN.LDRIFT1 "1E-06"
  MAIN.LDRIFT2 "1E-06"
  MAIN.SA "0.000"
  MAIN.SB "0.000"
  MAIN.SD "0.000"
  MAIN.SCA "0.000"
  MAIN.SCB "0.000"
  MAIN.SCC "0.000"
  MAIN.SC "0.000"
  MODULE "S563"
  PIN_D "20"
  PIN_G "1"
  PIN_S "2"
  PIN_B "19"
  PIN_E ""
  PIN_6 ""
  XY_ID ""
  FUNC "W Scale"
  STI "SA ref"
  WPE "WPE ref"
  COMMENT ""
  DIS_MEAS ""
  TypeTCI "10"
END_HEADER

BEGIN_DB
 ICCAP_VAR vg         -0.496         
 ICCAP_VAR vb         -0             
 ICCAP_VAR vs         -0             

 #vd                    id                    ig                    ib                    is                   
  -0                    8e-13                 4.6e-13               -4e-14                -1.22e-12            
  -0.1                  -6.431e-10            3.6e-13               -1.4e-13              6.4274e-10           
  -0.2                  -6.571e-10            3.2e-13               -6e-14                6.571e-10            
  -0.3                  -6.5772e-10           4e-13                 -2e-14                6.5752e-10           
  -0.4                  -6.5778e-10           4.2e-13               4e-14                 6.5736e-10           
  -0.5                  -6.582e-10            3e-13                 -6e-14                6.5784e-10           
  -0.6                  -6.5836e-10           3.2e-13               2e-14                 6.5804e-10           
  -0.7                  -6.5866e-10           2.4e-13               -6e-14                6.581e-10            
  -0.8                  -6.5886e-10           2.6e-13               -8e-14                6.5814e-10           
  -0.9                  -6.59e-10             2.6e-13               0                     6.582e-10            
  -1                    -6.5904e-10           1.4e-13               -1.6e-13              6.5826e-10           
  -1.1                  -6.5922e-10           2.4e-13               -1.2e-13              6.5844e-10           
  -1.2                  -6.5936e-10           2.2e-13               -1e-13                6.5844e-10           
  -1.3                  -6.5952e-10           1.6e-13               -1.6e-13              6.5856e-10           
  -1.4                  -6.5972e-10           1.6e-13               -8e-14                6.5858e-10           
  -1.5                  -6.5974e-10           8e-14                 -1.8e-13              6.5876e-10           
  -1.6                  -6.5968e-10           1.6e-13               -1.2e-13              6.5878e-10           
  -1.7                  -6.5996e-10           2e-13                 -1e-13                6.5862e-10           
  -1.8                  -6.6014e-10           1.6e-13               0                     6.5892e-10           
  -1.9                  -6.6008e-10           1.6e-13               -8e-14                6.5882e-10           
  -2                    -6.6018e-10           1.8e-13               -1.4e-13              6.5892e-10           
  -2.1                  -6.6048e-10           1.8e-13               -2e-14                6.5896e-10           
  -2.2                  -6.6032e-10           1.4e-13               -1e-13                6.5922e-10           
  -2.3                  -6.6044e-10           6e-14                 -1.4e-13              6.5922e-10           
  -2.4                  -6.6054e-10           -2e-14                -8e-14                6.5934e-10           
  -2.5                  -6.6062e-10           2e-14                 0                     6.5956e-10           
  -2.6                  -6.6094e-10           0                     1.4e-13               6.5922e-10           
  -2.7                  -6.6108e-10           2.2e-13               8e-14                 6.5952e-10           
  -2.8                  -6.6112e-10           1.4e-13               1e-13                 6.5964e-10           
  -2.9                  -6.614e-10            1.4e-13               3.6e-13               6.5942e-10           
  -3                    -6.6164e-10           6e-14                 5.4e-13               6.597e-10            
  -3.1                  -6.6216e-10           1.2e-13               1.06e-12              6.5982e-10           
  -3.2                  -6.6262e-10           1e-13                 1.4e-12               6.5974e-10           
  -3.3                  -6.6324e-10           8e-14                 1.96e-12              6.6e-10              
  -3.4                  -6.6436e-10           2e-14                 2.86e-12              6.6006e-10           
  -3.5                  -6.6574e-10           1.4e-13               3.94e-12              6.6008e-10           
  -3.6                  -6.6722e-10           2e-14                 5.52e-12              6.6006e-10           
END_DB

BEGIN_DB
 ICCAP_VAR vg         -0.696         
 ICCAP_VAR vb         -0             
 ICCAP_VAR vs         -0             

 #vd                    id                    ig                    ib                    is                   
  -0                    5.214e-11             2.2e-13               -1e-13                -5.398e-11           
  -0.1                  -4.805e-08            4e-14                 -4e-14                4.8076e-08           
  -0.2                  -5.0344e-08           4e-14                 4e-14                 5.0382e-08           
  -0.3                  -5.0424e-08           8e-14                 -1e-13                5.0452e-08           
  -0.4                  -5.0448e-08           -8e-14                -1e-13                5.0478e-08           
  -0.5                  -5.046e-08            8e-14                 -8e-14                5.0488e-08           
  -0.6                  -5.047e-08            -6e-14                -1e-13                5.0496e-08           
  -0.7                  -5.048e-08            0                     0                     5.0512e-08           
  -0.8                  -5.0488e-08           2e-14                 -4e-14                5.0516e-08           
  -0.9                  -5.0492e-08           0                     -6e-14                5.052e-08            
  -1                    -5.0508e-08           0                     0                     5.0534e-08           
  -1.1                  -5.0516e-08           -2e-14                -2e-14                5.0546e-08           
  -1.2                  -5.0526e-08           -6e-14                -4e-14                5.055e-08            
  -1.3                  -5.0532e-08           -8e-14                -4e-14                5.056e-08            
  -1.4                  -5.0534e-08           -8e-14                -1.4e-13              5.0564e-08           
  -1.5                  -5.0542e-08           -4e-14                -6e-14                5.057e-08            
  -1.6                  -5.0548e-08           2e-14                 2e-14                 5.0574e-08           
  -1.7                  -5.0556e-08           0                     0                     5.0584e-08           
  -1.8                  -5.056e-08            -4e-14                0                     5.059e-08            
  -1.9                  -5.0568e-08           -1e-13                1.2e-13               5.0596e-08           
  -2                    -5.057e-08            -6e-14                8e-14                 5.0598e-08           
  -2.1                  -5.0582e-08           -2e-14                3e-13                 5.0606e-08           
  -2.2                  -5.0588e-08           -2e-14                3.6e-13               5.0618e-08           
  -2.3                  -5.0594e-08           -8e-14                5.6e-13               5.0624e-08           
  -2.4                  -5.0598e-08           -2e-14                1.16e-12              5.062e-08            
  -2.5                  -5.0604e-08           -8e-14                2.36e-12              5.0628e-08           
  -2.6                  -5.061e-08            -1.2e-13              4.06e-12              5.0634e-08           
  -2.7                  -5.0614e-08           -6e-14                6.62e-12              5.0634e-08           
  -2.8                  -5.062e-08            -2e-13                1.064e-11             5.064e-08            
  -2.9                  -5.0638e-08           -1.2e-13              1.692e-11             5.0642e-08           
  -3                    -5.0646e-08           -1.2e-13              2.644e-11             5.0652e-08           
  -3.1                  -5.0672e-08           -1.4e-13              4.048e-11             5.0652e-08           
  -3.2                  -5.0692e-08           -8e-14                6.066e-11             5.0658e-08           
  -3.3                  -5.0724e-08           -1.4e-13              8.922e-11             5.0658e-08           
  -3.4                  -5.0762e-08           0                     1.2908e-10            5.066e-08            
  -3.5                  -5.0826e-08           -4e-14                1.841e-10             5.0664e-08           
  -3.6                  -5.0904e-08           -6e-14                2.5788e-10            5.0666e-08           
END_DB

BEGIN_DB
 ICCAP_VAR vg         -0.896         
 ICCAP_VAR vb         -0             
 ICCAP_VAR vs         -0             

 #vd                    id                    ig                    ib                    is                   
  -0                    2.085e-10             2e-14                 -1e-13                -2.2752e-10          
  -0.1                  -3.3938e-07           4e-14                 4e-14                 3.396e-07            
  -0.2                  -4.3744e-07           -4e-14                -1.4e-13              4.3766e-07           
  -0.3                  -4.4604e-07           -8e-14                -1.8e-13              4.463e-07            
  -0.4                  -4.4658e-07           0                     4e-14                 4.468e-07            
  -0.5                  -4.4674e-07           -1.4e-13              8e-14                 4.4698e-07           
  -0.6                  -4.4686e-07           -8e-14                -4e-14                4.4708e-07           
  -0.7                  -4.4694e-07           -1.4e-13              -6e-14                4.472e-07            
  -0.8                  -4.4704e-07           0                     -1e-13                4.4728e-07           
  -0.9                  -4.4716e-07           -1.4e-13              -8e-14                4.4738e-07           
  -1                    -4.472e-07            -2e-14                -6e-14                4.4746e-07           
  -1.1                  -4.4728e-07           -1.8e-13              -6e-14                4.4752e-07           
  -1.2                  -4.473e-07            0                     -1e-13                4.4754e-07           
  -1.3                  -4.4738e-07           -1e-13                2e-14                 4.4764e-07           
  -1.4                  -4.4744e-07           -1e-13                0                     4.4772e-07           
  -1.5                  -4.475e-07            -6e-14                -1e-13                4.4776e-07           
  -1.6                  -4.4756e-07           -1.8e-13              -1.2e-13              4.4782e-07           
  -1.7                  -4.4762e-07           -1.6e-13              -8e-14                4.4786e-07           
  -1.8                  -4.4766e-07           -1.4e-13              4e-14                 4.479e-07            
  -1.9                  -4.4774e-07           -1.2e-13              6e-14                 4.4798e-07           
  -2                    -4.4778e-07           -2e-13                2e-14                 4.48e-07             
  -2.1                  -4.478e-07            -1.4e-13              5.4e-13               4.4806e-07           
  -2.2                  -4.4788e-07           -8e-14                1.08e-12              4.481e-07            
  -2.3                  -4.4794e-07           -1.2e-13              2.26e-12              4.4814e-07           
  -2.4                  -4.4794e-07           -2.2e-13              4.34e-12              4.4818e-07           
  -2.5                  -4.48e-07             -2e-14                8.14e-12              4.4822e-07           
  -2.6                  -4.4808e-07           -6e-14                1.472e-11             4.4828e-07           
  -2.7                  -4.481e-07            -8e-14                2.576e-11             4.4832e-07           
  -2.8                  -4.4816e-07           -1.4e-13              4.354e-11             4.4836e-07           
  -2.9                  -4.4822e-07           -1.6e-13              7.182e-11             4.4838e-07           
  -3                    -4.4828e-07           -1.6e-13              1.1584e-10            4.4842e-07           
  -3.1                  -4.484e-07            -2e-14                1.825e-10             4.4848e-07           
  -3.2                  -4.4852e-07           -2.8e-13              2.8228e-10            4.4852e-07           
  -3.3                  -4.4874e-07           -1.2e-13              4.2836e-10            4.4858e-07           
  -3.4                  -4.4902e-07           -4e-14                6.3776e-10            4.486e-07            
  -3.5                  -4.4936e-07           -8e-14                9.3366e-10            4.4866e-07           
  -3.6                  -4.4978e-07           -6e-14                1.344e-09             4.4864e-07           
END_DB

