! VERSION = 6.00
BEGIN_HEADER
 ICCAP_INPUTS
  vd         V  D GROUND SMU1 0.1 LIN        1    -0         -3.6       37   -0.1      
  vg         V  G GROUND SMU2 0.001 LIST       2 3 -1.607 -1.807 -2.007
  vb         V  B GROUND SMU4 0.1 CON        3.6
  vs         V  S GROUND SMU3 0.1 CON        -0
 ICCAP_OUTPUTS
  id         I  D GROUND SMU1 B
  ig         I  G GROUND SMU2 B
  ib         I  B GROUND SMU4 B
  is         I  S GROUND SMU3 B
 ICCAP_VALUES
  MASTER_SETUP_TYPE "~dc_idvd~"
  LINVT_VALUE ""
  LISTVT_VALUE "|idvg|100.0n|-200.0m|1.000m|3|200.0m|200.0m|"
  TYPE "-1"
  TEMP " 125.000 "
  IS_TNOM " 0.00000 "
  MAIN.W "300.0n"
  MAIN.L "10.00u"
  MAIN.AD "102.0f"
  MAIN.AS "102.0f"
  MAIN.PD "1.280u"
  MAIN.PS "1.280u"
  MAIN.NF "1.000"
  MAIN.M "1"
  MAIN.NRD "0.000"
  MAIN.NRS "0.000"
  MAIN.LDRIFT1 "1E-06"
  MAIN.LDRIFT2 "1E-06"
  MAIN.SA "0.000"
  MAIN.SB "0.000"
  MAIN.SD "0.000"
  MAIN.SCA "0.000"
  MAIN.SCB "0.000"
  MAIN.SCC "0.000"
  MAIN.SC "0.000"
  MODULE "S555"
  PIN_D "14"
  PIN_G "7"
  PIN_S "8"
  PIN_B "13"
  PIN_E ""
  PIN_6 ""
  XY_ID ""
  FUNC "Narrow"
  STI "SA ref"
  WPE "WPE ref"
  COMMENT ""
  DIS_MEAS ""
  TypeTCI "10"
END_HEADER

BEGIN_DB
 ICCAP_VAR vg         -1.607         
 ICCAP_VAR vb         3.6            
 ICCAP_VAR vs         -0             

 #vd                    id                    ig                    ib                    is                   
  -0                    -8.54e-12             -4.48e-12             3.5394e-09            -6.44e-12            
  -0.1                  -8.748e-11            -4.38e-12             3.4994e-09            7.218e-11            
  -0.2                  -9.162e-11            -4.1e-12              3.4372e-09            7.666e-11            
  -0.3                  -9.184e-11            -4.06e-12             3.369e-09             7.706e-11            
  -0.4                  -9.176e-11            -3.96e-12             3.293e-09             7.746e-11            
  -0.5                  -9.16e-11             -4.02e-12             3.206e-09             7.76e-11             
  -0.6                  -9.148e-11            -3.76e-12             2.9976e-09            7.752e-11            
  -0.7                  -8.642e-11            -5.6e-13              1.355e-10             8.216e-11            
  -0.8                  -8.474e-11            -1.4e-13              8.934e-11             8.254e-11            
  -0.9                  -8.48e-11             -1.4e-13              7.344e-11             8.232e-11            
  -1                    -8.496e-11            -1.4e-13              6.35e-11              8.25e-11             
  -1.1                  -8.508e-11            2e-14                 5.564e-11             8.254e-11            
  -1.2                  -8.514e-11            -1.6e-13              5.04e-11              8.276e-11            
  -1.3                  -8.524e-11            -1.2e-13              4.628e-11             8.252e-11            
  -1.4                  -8.53e-11             -1.6e-13              4.262e-11             8.262e-11            
  -1.5                  -8.54e-11             -6e-14                3.96e-11              8.252e-11            
  -1.6                  -8.528e-11            -1.8e-13              3.714e-11             8.264e-11            
  -1.7                  -8.546e-11            -1e-13                3.514e-11             8.268e-11            
  -1.8                  -8.552e-11            -1.4e-13              3.328e-11             8.262e-11            
  -1.9                  -8.55e-11             -8e-14                3.154e-11             8.258e-11            
  -2                    -8.568e-11            4e-14                 3.024e-11             8.258e-11            
  -2.1                  -8.562e-11            -3.2e-13              2.91e-11              8.26e-11             
  -2.2                  -8.566e-11            -3.2e-13              2.786e-11             8.258e-11            
  -2.3                  -8.568e-11            -4e-14                2.718e-11             8.244e-11            
  -2.4                  -8.574e-11            -8e-14                2.66e-11              8.258e-11            
  -2.5                  -8.572e-11            -1e-13                2.538e-11             8.268e-11            
  -2.6                  -8.58e-11             -2.2e-13              2.434e-11             8.274e-11            
  -2.7                  -8.584e-11            -1e-13                2.408e-11             8.26e-11             
  -2.8                  -8.58e-11             -3e-13                2.356e-11             8.26e-11             
  -2.9                  -8.594e-11            -4e-14                2.284e-11             8.248e-11            
  -3                    -8.608e-11            4e-14                 2.214e-11             8.25e-11             
  -3.1                  -8.606e-11            -3.2e-13              2.2e-11               8.282e-11            
  -3.2                  -8.608e-11            -1.2e-13              2.188e-11             8.248e-11            
  -3.3                  -8.632e-11            -1.8e-13              2.116e-11             8.26e-11             
  -3.4                  -8.64e-11             4e-14                 2.114e-11             8.262e-11            
  -3.5                  -8.644e-11            -1.2e-13              2.074e-11             8.262e-11            
  -3.6                  -8.668e-11            -1.4e-13              2.056e-11             8.276e-11            
END_DB

BEGIN_DB
 ICCAP_VAR vg         -1.807         
 ICCAP_VAR vb         3.6            
 ICCAP_VAR vs         -0             

 #vd                    id                    ig                    ib                    is                   
  -0                    1.82e-12              -4e-13                1.824e-11             -2.1e-12             
  -0.1                  -2.715e-09            -3.2e-13              1.784e-11             2.7124e-09           
  -0.2                  -3.117e-09            -3.2e-13              1.824e-11             3.1138e-09           
  -0.3                  -3.145e-09            -4e-13                1.804e-11             3.144e-09            
  -0.4                  -3.148e-09            -1.6e-13              1.854e-11             3.1446e-09           
  -0.5                  -3.1502e-09           -2.6e-13              1.83e-11              3.147e-09            
  -0.6                  -3.151e-09            -2e-13                1.788e-11             3.1474e-09           
  -0.7                  -3.1518e-09           -2.4e-13              1.864e-11             3.1484e-09           
  -0.8                  -3.152e-09            -1.2e-13              1.814e-11             3.1484e-09           
  -0.9                  -3.1584e-09           -2.6e-13              1.768e-11             3.155e-09            
  -1                    -3.1586e-09           -2.2e-13              1.742e-11             3.1486e-09           
  -1.1                  -3.1586e-09           -3.8e-13              1.8e-11               3.1558e-09           
  -1.2                  -3.16e-09             -1.8e-13              1.76e-11              3.1552e-09           
  -1.3                  -3.161e-09            -3.4e-13              1.738e-11             3.1564e-09           
  -1.4                  -3.1604e-09           -2.8e-13              1.746e-11             3.1566e-09           
  -1.5                  -3.1558e-09           -3.6e-13              1.702e-11             3.1514e-09           
  -1.6                  -3.1602e-09           -2e-13                1.748e-11             3.155e-09            
  -1.7                  -3.1612e-09           -2.6e-13              1.716e-11             3.1568e-09           
  -1.8                  -3.1592e-09           -3.4e-13              1.682e-11             3.1558e-09           
  -1.9                  -3.1608e-09           -2e-13                1.708e-11             3.1578e-09           
  -2                    -3.1616e-09           -3.2e-13              1.682e-11             3.1566e-09           
  -2.1                  -3.1622e-09           -2.2e-13              1.7e-11               3.1584e-09           
  -2.2                  -3.1624e-09           -3e-13                1.714e-11             3.1574e-09           
  -2.3                  -3.1618e-09           -3e-13                1.714e-11             3.158e-09            
  -2.4                  -3.1618e-09           -1.6e-13              1.656e-11             3.1566e-09           
  -2.5                  -3.1612e-09           -1.8e-13              1.688e-11             3.1572e-09           
  -2.6                  -3.1614e-09           -1.8e-13              1.652e-11             3.1566e-09           
  -2.7                  -3.1618e-09           -1.8e-13              1.658e-11             3.1574e-09           
  -2.8                  -3.1628e-09           -2.4e-13              1.666e-11             3.1578e-09           
  -2.9                  -3.1618e-09           -2.8e-13              1.648e-11             3.1574e-09           
  -3                    -3.162e-09            -1.6e-13              1.65e-11              3.1572e-09           
  -3.1                  -3.1634e-09           -1.4e-13              1.656e-11             3.1568e-09           
  -3.2                  -3.1648e-09           -3.8e-13              1.668e-11             3.1588e-09           
  -3.3                  -3.163e-09            -1.6e-13              1.74e-11              3.1546e-09           
  -3.4                  -3.1608e-09           -2.6e-13              1.794e-11             3.1542e-09           
  -3.5                  -3.162e-09            -2.2e-13              1.866e-11             3.1546e-09           
  -3.6                  -3.163e-09            -3.2e-13              1.992e-11             3.1546e-09           
END_DB

BEGIN_DB
 ICCAP_VAR vg         -2.007         
 ICCAP_VAR vb         3.6            
 ICCAP_VAR vs         -0             

 #vd                    id                    ig                    ib                    is                   
  -0                    4.9e-12               -3e-13                1.478e-11             -5.38e-12            
  -0.1                  -1.2662e-08           -2.2e-13              1.404e-11             1.2682e-08           
  -0.2                  -1.8498e-08           -5.2e-13              1.724e-11             1.8512e-08           
  -0.3                  -2.006e-08            -3e-13                1.766e-11             2.0078e-08           
  -0.4                  -2.0266e-08           -2.6e-13              1.778e-11             2.0292e-08           
  -0.5                  -2.0294e-08           -4e-13                1.774e-11             2.0316e-08           
  -0.6                  -2.0304e-08           -2.2e-13              1.752e-11             2.0312e-08           
  -0.7                  -2.03e-08             -2.2e-13              1.734e-11             2.0316e-08           
  -0.8                  -2.031e-08            -4.2e-13              1.772e-11             2.0324e-08           
  -0.9                  -2.0302e-08           -2.4e-13              1.726e-11             2.032e-08            
  -1                    -2.0318e-08           -1.4e-13              1.706e-11             2.0334e-08           
  -1.1                  -2.032e-08            -4.2e-13              1.752e-11             2.033e-08            
  -1.2                  -2.0322e-08           -2.4e-13              1.742e-11             2.0334e-08           
  -1.3                  -2.0318e-08           -2.2e-13              1.724e-11             2.0338e-08           
  -1.4                  -2.0326e-08           -5.2e-13              1.702e-11             2.0336e-08           
  -1.5                  -2.0328e-08           -3.8e-13              1.736e-11             2.034e-08            
  -1.6                  -2.0326e-08           -3.6e-13              1.74e-11              2.033e-08            
  -1.7                  -2.0324e-08           -3e-13                1.702e-11             2.0338e-08           
  -1.8                  -2.0332e-08           -2e-13                1.756e-11             2.0344e-08           
  -1.9                  -2.0338e-08           -4e-13                1.712e-11             2.0352e-08           
  -2                    -2.034e-08            -2.6e-13              1.702e-11             2.035e-08            
  -2.1                  -2.0346e-08           -1.2e-13              1.756e-11             2.0356e-08           
  -2.2                  -2.035e-08            -3e-13                1.708e-11             2.0364e-08           
  -2.3                  -2.036e-08            -3.2e-13              1.656e-11             2.0376e-08           
  -2.4                  -2.0362e-08           -1.2e-13              1.716e-11             2.0374e-08           
  -2.5                  -2.035e-08            -3.8e-13              1.716e-11             2.0358e-08           
  -2.6                  -2.0348e-08           -2.8e-13              1.722e-11             2.0358e-08           
  -2.7                  -2.034e-08            -2.8e-13              1.712e-11             2.0352e-08           
  -2.8                  -2.0348e-08           -4e-13                1.716e-11             2.036e-08            
  -2.9                  -2.0352e-08           -3.6e-13              1.764e-11             2.0358e-08           
  -3                    -2.0354e-08           -4.8e-13              1.752e-11             2.0368e-08           
  -3.1                  -2.035e-08            -5.2e-13              1.762e-11             2.036e-08            
  -3.2                  -2.0378e-08           -5.2e-13              1.898e-11             2.0378e-08           
  -3.3                  -2.0378e-08           -4.4e-13              1.98e-11              2.0382e-08           
  -3.4                  -2.0376e-08           -5e-13                2.164e-11             2.038e-08            
  -3.5                  -2.0378e-08           -4e-13                2.438e-11             2.0382e-08           
  -3.6                  -2.039e-08            -4e-13                2.89e-11              2.0384e-08           
END_DB

