! VERSION = 6.00
BEGIN_HEADER
 ICCAP_INPUTS
  vd         V  D GROUND SMU1 0.1 LIN        1    -0         -3.6       37   -0.1      
  vg         V  G GROUND SMU2 0.001 LIST       2 3 -0.439 -0.639 -0.839
  vb         V  B GROUND SMU4 0.1 CON        -0
  vs         V  S GROUND SMU3 0.1 CON        -0
 ICCAP_OUTPUTS
  id         I  D GROUND SMU1 B
  ig         I  G GROUND SMU2 B
  ib         I  B GROUND SMU4 B
  is         I  S GROUND SMU3 B
 ICCAP_VALUES
  MASTER_SETUP_TYPE "~dc_idvd~"
  LINVT_VALUE ""
  LISTVT_VALUE "|idvg|100.0n|-200.0m|1.000m|3|200.0m|200.0m|"
  TYPE "-1"
  TEMP " 27.0000 "
  IS_TNOM " 1.00000 "
  MAIN.W "10.00u"
  MAIN.L "350.0n"
  MAIN.AD "3.400p"
  MAIN.AS "3.400p"
  MAIN.PD "20.68u"
  MAIN.PS "20.68u"
  MAIN.NF "1.000"
  MAIN.M "1"
  MAIN.NRD "0.000"
  MAIN.NRS "0.000"
  MAIN.LDRIFT1 "1E-06"
  MAIN.LDRIFT2 "1E-06"
  MAIN.SA "0.000"
  MAIN.SB "0.000"
  MAIN.SD "0.000"
  MAIN.SCA "0.000"
  MAIN.SCB "0.000"
  MAIN.SCC "0.000"
  MAIN.SC "0.000"
  MODULE "S561"
  PIN_D "16"
  PIN_G "5"
  PIN_S "6"
  PIN_B "15"
  PIN_E ""
  PIN_6 ""
  XY_ID ""
  FUNC "Short"
  STI "SA ref"
  WPE "WPE ref"
  COMMENT ""
  DIS_MEAS ""
  TypeTCI "10"
END_HEADER

BEGIN_DB
 ICCAP_VAR vg         -0.439         
 ICCAP_VAR vb         -0             
 ICCAP_VAR vs         -0             

 #vd                    id                    ig                    ib                    is                   
  -0                    1.748e-11             2.8e-13               -2.6e-13              -4.622e-11           
  -0.1                  -2.075e-08            4.4e-13               -1.4e-13              2.0768e-08           
  -0.2                  -2.2238e-08           4.6e-13               -1e-13                2.2274e-08           
  -0.3                  -2.311e-08            3.8e-13               -2e-14                2.315e-08            
  -0.4                  -2.3894e-08           4e-13                 -1e-13                2.391e-08            
  -0.5                  -2.4594e-08           4e-13                 2e-14                 2.4626e-08           
  -0.6                  -2.5252e-08           5.2e-13               2e-14                 2.5274e-08           
  -0.7                  -2.5876e-08           4.2e-13               -1e-13                2.5912e-08           
  -0.8                  -2.6484e-08           3.8e-13               -4e-14                2.6518e-08           
  -0.9                  -2.7064e-08           3.4e-13               0                     2.7102e-08           
  -1                    -2.7622e-08           3.4e-13               2e-14                 2.7638e-08           
  -1.1                  -2.8176e-08           3.4e-13               6e-14                 2.8198e-08           
  -1.2                  -2.872e-08            3.6e-13               1.4e-13               2.875e-08            
  -1.3                  -2.9276e-08           2.8e-13               -2e-14                2.9298e-08           
  -1.4                  -2.9828e-08           4e-13                 6e-14                 2.9852e-08           
  -1.5                  -3.0372e-08           4e-13                 1.6e-13               3.0408e-08           
  -1.6                  -3.0912e-08           3.6e-13               6e-14                 3.095e-08            
  -1.7                  -3.1476e-08           4.6e-13               1.2e-13               3.1508e-08           
  -1.8                  -3.2036e-08           3.6e-13               1e-13                 3.2068e-08           
  -1.9                  -3.26e-08             2.8e-13               2.8e-13               3.2628e-08           
  -2                    -3.3158e-08           3.6e-13               4e-13                 3.319e-08            
  -2.1                  -3.375e-08            3.8e-13               6e-13                 3.3802e-08           
  -2.2                  -3.437e-08            3.4e-13               1.04e-12              3.439e-08            
  -2.3                  -3.4932e-08           3.4e-13               1.8e-12               3.4948e-08           
  -2.4                  -3.5504e-08           3.6e-13               3.08e-12              3.553e-08            
  -2.5                  -3.6096e-08           3.8e-13               5.16e-12              3.6124e-08           
  -2.6                  -3.6674e-08           3.6e-13               8.34e-12              3.6728e-08           
  -2.7                  -3.7316e-08           3.6e-13               1.322e-11             3.736e-08            
  -2.8                  -3.7944e-08           3e-13                 2.088e-11             3.7948e-08           
  -2.9                  -3.8586e-08           4.2e-13               3.212e-11             3.859e-08            
  -3                    -3.9226e-08           2.8e-13               4.864e-11             3.9212e-08           
  -3.1                  -3.9856e-08           3.4e-13               7.228e-11             3.9848e-08           
  -3.2                  -4.0572e-08           2.8e-13               1.0568e-10            4.05e-08             
  -3.3                  -4.127e-08            2e-13                 1.5224e-10            4.1158e-08           
  -3.4                  -4.2028e-08           3.4e-13               2.159e-10             4.1856e-08           
  -3.5                  -4.28e-08             3.6e-13               3.0144e-10            4.2528e-08           
  -3.6                  -4.3584e-08           2.4e-13               4.1484e-10            4.3172e-08           
END_DB

BEGIN_DB
 ICCAP_VAR vg         -0.639         
 ICCAP_VAR vb         -0             
 ICCAP_VAR vs         -0             

 #vd                    id                    ig                    ib                    is                   
  -0                    2.3564e-09            2e-14                 -1e-13                -2.201e-09           
  -0.1                  -1.9146e-06           0                     -6e-14                1.9182e-06           
  -0.2                  -2.129e-06            2.4e-13               -2e-14                2.1334e-06           
  -0.3                  -2.2252e-06           1.4e-13               -4e-14                2.2288e-06           
  -0.4                  -2.3e-06              1.4e-13               -6e-14                2.3052e-06           
  -0.5                  -2.3644e-06           6e-14                 6e-14                 2.37e-06             
  -0.6                  -2.4238e-06           1.8e-13               -2e-14                2.4268e-06           
  -0.7                  -2.4774e-06           1.8e-13               1e-13                 2.4824e-06           
  -0.8                  -2.529e-06            8e-14                 8e-14                 2.5288e-06           
  -0.9                  -2.5742e-06           1.6e-13               8e-14                 2.5778e-06           
  -1                    -2.618e-06            2e-13                 2e-14                 2.623e-06            
  -1.1                  -2.6648e-06           1.4e-13               4e-14                 2.6696e-06           
  -1.2                  -2.7106e-06           1.4e-13               1.8e-13               2.7104e-06           
  -1.3                  -2.7492e-06           4e-14                 1e-13                 2.753e-06            
  -1.4                  -2.7898e-06           1.2e-13               4e-14                 2.7938e-06           
  -1.5                  -2.8374e-06           1.4e-13               8e-14                 2.8408e-06           
  -1.6                  -2.8774e-06           1e-13                 3.8e-13               2.8828e-06           
  -1.7                  -2.9194e-06           1.4e-13               7.2e-13               2.9254e-06           
  -1.8                  -2.9624e-06           1.4e-13               1.9e-12               2.9644e-06           
  -1.9                  -3.0032e-06           1.6e-13               4.18e-12              3.004e-06            
  -2                    -3.0436e-06           1.4e-13               9.06e-12              3.047e-06            
  -2.1                  -3.0832e-06           2.6e-13               1.852e-11             3.0884e-06           
  -2.2                  -3.1272e-06           3.6e-13               3.564e-11             3.1288e-06           
  -2.3                  -3.1688e-06           1.4e-13               6.616e-11             3.1732e-06           
  -2.4                  -3.211e-06            1.6e-13               1.1858e-10            3.2142e-06           
  -2.5                  -3.2522e-06           1.4e-13               2.064e-10             3.2558e-06           
  -2.6                  -3.2946e-06           1.6e-13               3.4992e-10            3.2984e-06           
  -2.7                  -3.3362e-06           1e-13                 5.798e-10             3.3408e-06           
  -2.8                  -3.3804e-06           2.6e-13               9.3768e-10            3.3826e-06           
  -2.9                  -3.424e-06            2e-13                 1.4882e-09            3.429e-06            
  -3                    -3.4694e-06           1e-13                 2.3142e-09            3.4728e-06           
  -3.1                  -3.5188e-06           1.2e-13               3.5298e-09            3.5196e-06           
  -3.2                  -3.5656e-06           1.8e-13               5.2948e-09            3.5648e-06           
  -3.3                  -3.6172e-06           1.6e-13               7.7872e-09            3.6156e-06           
  -3.4                  -3.671e-06            1.2e-13               1.12714e-08           3.666e-06            
  -3.5                  -3.7418e-06           1.8e-13               1.6124e-08            3.7378e-06           
  -3.6                  -3.8012e-06           1.4e-13               2.2684e-08            3.7906e-06           
END_DB

BEGIN_DB
 ICCAP_VAR vg         -0.839         
 ICCAP_VAR vb         -0             
 ICCAP_VAR vs         -0             

 #vd                    id                    ig                    ib                    is                   
  -0                    1.652e-08             -2e-14                -4e-14                -1.695e-08           
  -0.1                  -2.0186e-05           -8e-14                -1.8e-13              2.0206e-05           
  -0.2                  -2.6666e-05           6e-14                 -4e-14                2.6674e-05           
  -0.3                  -2.8638e-05           2e-14                 6e-14                 2.8672e-05           
  -0.4                  -2.9636e-05           2e-14                 4e-14                 2.9664e-05           
  -0.5                  -3.0362e-05           1e-13                 0                     3.039e-05            
  -0.6                  -3.095e-05            0                     6e-14                 3.0974e-05           
  -0.7                  -3.1448e-05           1.4e-13               8e-14                 3.148e-05            
  -0.8                  -3.1928e-05           1.4e-13               -4e-14                3.1948e-05           
  -0.9                  -3.2344e-05           2e-14                 -4e-14                3.2344e-05           
  -1                    -3.271e-05            4e-14                 6e-14                 3.2744e-05           
  -1.1                  -3.3096e-05           1e-13                 0                     3.3102e-05           
  -1.2                  -3.3442e-05           1.6e-13               2e-14                 3.345e-05            
  -1.3                  -3.3794e-05           1.2e-13               4e-14                 3.38e-05             
  -1.4                  -3.4116e-05           4e-14                 1e-13                 3.4136e-05           
  -1.5                  -3.4452e-05           1e-13                 2.4e-13               3.4462e-05           
  -1.6                  -3.4754e-05           1.8e-13               7e-13                 3.4772e-05           
  -1.7                  -3.5062e-05           -2e-14                2e-12                 3.5074e-05           
  -1.8                  -3.5382e-05           1e-13                 5.62e-12              3.5414e-05           
  -1.9                  -3.5688e-05           1.2e-13               1.46e-11              3.5714e-05           
  -2                    -3.599e-05            4e-14                 3.444e-11             3.6044e-05           
  -2.1                  -3.6306e-05           6e-14                 7.562e-11             3.6318e-05           
  -2.2                  -3.661e-05            1e-13                 1.5632e-10            3.6596e-05           
  -2.3                  -3.6886e-05           1.4e-13               3.0704e-10            3.6902e-05           
  -2.4                  -3.719e-05            1.2e-13               5.7692e-10            3.7196e-05           
  -2.5                  -3.7494e-05           2.4e-13               1.0471e-09            3.7542e-05           
  -2.6                  -3.7822e-05           1.2e-13               1.841e-09             3.784e-05            
  -2.7                  -3.8108e-05           2e-13                 3.149e-09             3.8108e-05           
  -2.8                  -3.8396e-05           4e-14                 5.254e-09             3.8416e-05           
  -2.9                  -3.873e-05            0                     8.5688e-09            3.8736e-05           
  -3                    -3.9054e-05           2e-13                 1.3668e-08            3.9052e-05           
  -3.1                  -3.9356e-05           1e-13                 2.1372e-08            3.9392e-05           
  -3.2                  -3.9716e-05           1.2e-13               3.2766e-08            3.9704e-05           
  -3.3                  -4.005e-05            1e-13                 4.9372e-08            4.0044e-05           
  -3.4                  -4.0466e-05           4e-14                 7.3058e-08            4.0468e-05           
  -3.5                  -4.0858e-05           2e-14                 1.06176e-07           4.0776e-05           
  -3.6                  -4.1378e-05           1.4e-13               1.524e-07             4.1338e-05           
END_DB

