! VERSION = 6.00
BEGIN_HEADER
 ICCAP_INPUTS
  vd         V  D GROUND SMU1 0.1 LIN        1    -0         -3.6       37   -0.1      
  vg         V  G GROUND SMU2 0.001 LIN        2    -0.8       -3.6       5    -0.7      
  vb         V  B GROUND SMU4 0.1 CON        -0
  vs         V  S GROUND SMU3 0.1 CON        -0
 ICCAP_OUTPUTS
  id         I  D GROUND SMU1 B
  ig         I  G GROUND SMU2 B
  ib         I  B GROUND SMU4 B
  is         I  S GROUND SMU3 B
 ICCAP_VALUES
  MASTER_SETUP_TYPE "~dc_idvd~"
  LINVT_VALUE "|idvg|100.0n|100.0m|1.000m|5|3.600|"
  LISTVT_VALUE ""
  TYPE "-1"
  TEMP " 27.0000 "
  IS_TNOM " 1.00000 "
  MAIN.W "5.000u"
  MAIN.L "10.00u"
  MAIN.AD "1.700p"
  MAIN.AS "1.700p"
  MAIN.PD "10.68u"
  MAIN.PS "10.68u"
  MAIN.NF "1.000"
  MAIN.M "1"
  MAIN.NRD "0.000"
  MAIN.NRS "0.000"
  MAIN.LDRIFT1 "1E-06"
  MAIN.LDRIFT2 "1E-06"
  MAIN.SA "0.000"
  MAIN.SB "0.000"
  MAIN.SD "0.000"
  MAIN.SCA "0.000"
  MAIN.SCB "0.000"
  MAIN.SCC "0.000"
  MAIN.SC "0.000"
  MODULE "S563"
  PIN_D "20"
  PIN_G "1"
  PIN_S "2"
  PIN_B "19"
  PIN_E ""
  PIN_6 ""
  XY_ID ""
  FUNC "W Scale"
  STI "SA ref"
  WPE "WPE ref"
  COMMENT ""
  DIS_MEAS ""
  TypeTCI "10"
END_HEADER

BEGIN_DB
 ICCAP_VAR vg         -0.8           
 ICCAP_VAR vb         -0             
 ICCAP_VAR vs         -0             

 #vd                    id                    ig                    ib                    is                   
  -0                    9.202e-11             -6e-14                -9.6e-13              -1.1794e-10          
  -0.1                  -1.6928e-07           8e-14                 -8.8e-13              1.6946e-07           
  -0.2                  -1.921e-07            4e-14                 -8.6e-13              1.9232e-07           
  -0.3                  -1.9304e-07           -6e-14                -8.2e-13              1.9326e-07           
  -0.4                  -1.9314e-07           6e-14                 -8.6e-13              1.9336e-07           
  -0.5                  -1.932e-07            -6e-14                -7.8e-13              1.9342e-07           
  -0.6                  -1.9326e-07           0                     -6.8e-13              1.9348e-07           
  -0.7                  -1.9328e-07           -2e-14                -7.6e-13              1.935e-07            
  -0.8                  -1.9334e-07           -6e-14                -6.8e-13              1.9354e-07           
  -0.9                  -1.9338e-07           -6e-14                -6.6e-13              1.9358e-07           
  -1                    -1.934e-07            2e-14                 -7e-13                1.936e-07            
  -1.1                  -1.9342e-07           -2e-14                -6e-13                1.9364e-07           
  -1.2                  -1.9346e-07           -6e-14                -7e-13                1.9366e-07           
  -1.3                  -1.9348e-07           2e-14                 -6e-13                1.9368e-07           
  -1.4                  -1.9348e-07           -1e-13                -6.6e-13              1.937e-07            
  -1.5                  -1.935e-07            4e-14                 -5.8e-13              1.9372e-07           
  -1.6                  -1.9354e-07           0                     -5.4e-13              1.9374e-07           
  -1.7                  -1.9354e-07           -1e-13                -5.4e-13              1.9376e-07           
  -1.8                  -1.9358e-07           -1e-13                -6e-13                1.938e-07            
  -1.9                  -1.936e-07            -1e-13                -6.8e-13              1.9382e-07           
  -2                    -1.9364e-07           -6e-14                -3.6e-13              1.9384e-07           
  -2.1                  -1.9364e-07           -1.4e-13              -6e-14                1.9388e-07           
  -2.2                  -1.9368e-07           -4e-14                3.4e-13               1.9388e-07           
  -2.3                  -1.937e-07            0                     1.14e-12              1.9388e-07           
  -2.4                  -1.937e-07            -1.2e-13              2.54e-12              1.939e-07            
  -2.5                  -1.9372e-07           -1.2e-13              5.16e-12              1.9392e-07           
  -2.6                  -1.9372e-07           -2.2e-13              9.4e-12               1.9394e-07           
  -2.7                  -1.9376e-07           -1.6e-13              1.628e-11             1.9394e-07           
  -2.8                  -1.938e-07            -2e-14                2.716e-11             1.9396e-07           
  -2.9                  -1.9382e-07           -8e-14                4.436e-11             1.94e-07             
  -3                    -1.9386e-07           -1.2e-13              7.058e-11             1.9402e-07           
  -3.1                  -1.9394e-07           -2e-14                1.095e-10             1.9404e-07           
  -3.2                  -1.9402e-07           -1.4e-13              1.6702e-10            1.9406e-07           
  -3.3                  -1.9412e-07           -1.6e-13              2.4972e-10            1.9408e-07           
  -3.4                  -1.9426e-07           -2e-14                3.6698e-10            1.941e-07            
  -3.5                  -1.9444e-07           -1.2e-13              5.3014e-10            1.9412e-07           
  -3.6                  -1.9468e-07           -4e-14                7.5334e-10            1.9412e-07           
END_DB

BEGIN_DB
 ICCAP_VAR vg         -1.5           
 ICCAP_VAR vb         -0             
 ICCAP_VAR vs         -0             

 #vd                    id                    ig                    ib                    is                   
  -0                    6.526e-10             -3.6e-13              -4.2e-13              -6.1264e-10          
  -0.1                  -1.5404e-06           -1.6e-13              -3.2e-13              1.5442e-06           
  -0.2                  -2.7824e-06           -2e-13                -2.4e-13              2.7862e-06           
  -0.3                  -3.7244e-06           -1.8e-13              -3.2e-13              3.728e-06            
  -0.4                  -4.3714e-06           -2.6e-13              -2.8e-13              4.3752e-06           
  -0.5                  -4.7422e-06           -2.2e-13              -2.6e-13              4.746e-06            
  -0.6                  -4.8828e-06           -2e-13                -2.6e-13              4.8864e-06           
  -0.7                  -4.9096e-06           -2e-13                -3e-13                4.9134e-06           
  -0.8                  -4.9148e-06           -1.8e-13              -2.6e-13              4.9184e-06           
  -0.9                  -4.9168e-06           -2.2e-13              -2.8e-13              4.9206e-06           
  -1                    -4.9184e-06           -1.8e-13              -3.4e-13              4.922e-06            
  -1.1                  -4.9194e-06           -2.4e-13              -2.8e-13              4.923e-06            
  -1.2                  -4.9204e-06           -1.6e-13              -3.8e-13              4.9242e-06           
  -1.3                  -4.9214e-06           -2e-13                -2.6e-13              4.9252e-06           
  -1.4                  -4.9222e-06           -1.6e-13              -3.2e-13              4.926e-06            
  -1.5                  -4.9228e-06           -1.8e-13              -2.8e-13              4.9266e-06           
  -1.6                  -4.9236e-06           -2.6e-13              -3e-13                4.9274e-06           
  -1.7                  -4.9242e-06           -2e-13                -2.6e-13              4.928e-06            
  -1.8                  -4.9248e-06           -1.4e-13              -1.2e-13              4.9286e-06           
  -1.9                  -4.9254e-06           -1.6e-13              -2.6e-13              4.9292e-06           
  -2                    -4.926e-06            -2e-13                -3e-13                4.9298e-06           
  -2.1                  -4.9264e-06           -2.4e-13              -1.6e-13              4.9304e-06           
  -2.2                  -4.9272e-06           -2.4e-13              -4e-14                4.9308e-06           
  -2.3                  -4.9276e-06           -2e-13                6e-14                 4.9312e-06           
  -2.4                  -4.9282e-06           -1.2e-13              7e-13                 4.9316e-06           
  -2.5                  -4.9286e-06           -2.2e-13              2.44e-12              4.9324e-06           
  -2.6                  -4.9292e-06           -1.6e-13              6.12e-12              4.9328e-06           
  -2.7                  -4.9296e-06           -2.2e-13              1.306e-11             4.9332e-06           
  -2.8                  -4.93e-06             -1.8e-13              2.666e-11             4.9338e-06           
  -2.9                  -4.9306e-06           -2.4e-13              5.188e-11             4.9344e-06           
  -3                    -4.9312e-06           -1.4e-13              9.662e-11             4.9346e-06           
  -3.1                  -4.9314e-06           -1.2e-13              1.7326e-10            4.9348e-06           
  -3.2                  -4.9322e-06           -1.4e-13              3.0174e-10            4.9356e-06           
  -3.3                  -4.9324e-06           -1.4e-13              5.1166e-10            4.9358e-06           
  -3.4                  -4.9334e-06           -1.6e-13              8.4552e-10            4.9362e-06           
  -3.5                  -4.9344e-06           -1.2e-13              1.3678e-09            4.9368e-06           
  -3.6                  -4.9356e-06           -2.2e-13              2.1634e-09            4.937e-06            
END_DB

BEGIN_DB
 ICCAP_VAR vg         -2.2           
 ICCAP_VAR vb         -0             
 ICCAP_VAR vs         -0             

 #vd                    id                    ig                    ib                    is                   
  -0                    1.1128e-09            -2.6e-13              -1.6e-13              -1.0795e-09          
  -0.1                  -2.7028e-06           -1.2e-13              -2.2e-13              2.7066e-06           
  -0.2                  -5.1466e-06           -2.8e-13              -1.8e-13              5.1504e-06           
  -0.3                  -7.3242e-06           -3e-13                -8e-14                7.3282e-06           
  -0.4                  -9.2338e-06           -2.6e-13              -1.8e-13              9.2376e-06           
  -0.5                  -1.08844e-05          -2.2e-13              -1.6e-13              1.08884e-05          
  -0.6                  -1.2264e-05           -8e-14                -1.8e-13              1.2284e-05           
  -0.7                  -1.3388e-05           -1.8e-13              -1.4e-13              1.3408e-05           
  -0.8                  -1.4254e-05           -1.8e-13              -1e-13                1.4274e-05           
  -0.9                  -1.4866e-05           -2.8e-13              -1.2e-13              1.4886e-05           
  -1                    -1.5236e-05           -2.8e-13              -2.2e-13              1.5256e-05           
  -1.1                  -1.5406e-05           -1.8e-13              -1.6e-13              1.5426e-05           
  -1.2                  -1.5458e-05           -3.4e-13              -1.4e-13              1.5478e-05           
  -1.3                  -1.5472e-05           -2.6e-13              0                     1.5492e-05           
  -1.4                  -1.548e-05            -2.4e-13              -1.6e-13              1.55e-05             
  -1.5                  -1.5486e-05           -2e-13                -1.6e-13              1.5506e-05           
  -1.6                  -1.549e-05            -1.6e-13              -2e-14                1.551e-05            
  -1.7                  -1.5492e-05           -1.8e-13              -1.8e-13              1.5512e-05           
  -1.8                  -1.5496e-05           -2e-13                -2e-13                1.5516e-05           
  -1.9                  -1.5498e-05           -2.6e-13              -2e-14                1.5518e-05           
  -2                    -1.55e-05             -2.4e-13              -1.2e-13              1.552e-05            
  -2.1                  -1.5502e-05           -2.4e-13              -1.8e-13              1.5522e-05           
  -2.2                  -1.5504e-05           -3.2e-13              -2e-13                1.5524e-05           
  -2.3                  -1.5506e-05           -1.6e-13              0                     1.5526e-05           
  -2.4                  -1.5508e-05           -2.6e-13              -8e-14                1.5528e-05           
  -2.5                  -1.551e-05            -2.4e-13              -4e-14                1.553e-05            
  -2.6                  -1.5512e-05           -2.6e-13              -4e-14                1.5532e-05           
  -2.7                  -1.5514e-05           -1.8e-13              1.6e-13               1.5534e-05           
  -2.8                  -1.5514e-05           -2.2e-13              4.2e-13               1.5534e-05           
  -2.9                  -1.5516e-05           -2.6e-13              1.42e-12              1.5536e-05           
  -3                    -1.5518e-05           -2.4e-13              4.08e-12              1.5538e-05           
  -3.1                  -1.552e-05            -1.6e-13              1.02e-11              1.554e-05            
  -3.2                  -1.552e-05            -2.2e-13              2.298e-11             1.554e-05            
  -3.3                  -1.5522e-05           -2.4e-13              4.888e-11             1.5542e-05           
  -3.4                  -1.5524e-05           -2e-14                9.828e-11             1.5544e-05           
  -3.5                  -1.5526e-05           -2.8e-13              1.8908e-10            1.5544e-05           
  -3.6                  -1.5526e-05           -2.6e-13              3.5048e-10            1.5546e-05           
END_DB

BEGIN_DB
 ICCAP_VAR vg         -2.9           
 ICCAP_VAR vb         -0             
 ICCAP_VAR vs         -0             

 #vd                    id                    ig                    ib                    is                   
  -0                    1.3692e-09            -3.4e-13              -1.8e-13              -1.1548e-09          
  -0.1                  -3.6296e-06           -3.4e-13              -4e-14                3.6334e-06           
  -0.2                  -7.0344e-06           -2.6e-13              -6e-14                7.0382e-06           
  -0.3                  -1.02054e-05          -3.4e-13              -1.6e-13              1.02094e-05          
  -0.4                  -1.313e-05            -3e-13                -1e-13                1.315e-05            
  -0.5                  -1.5838e-05           -2.2e-13              -1e-13                1.5858e-05           
  -0.6                  -1.8316e-05           -3.6e-13              -2e-14                1.8336e-05           
  -0.7                  -2.0558e-05           -2.8e-13              -6e-14                2.0578e-05           
  -0.8                  -2.2572e-05           -2e-13                -2.8e-13              2.2592e-05           
  -0.9                  -2.4356e-05           -3e-13                -1.6e-13              2.4376e-05           
  -1                    -2.5902e-05           -2.8e-13              -1e-13                2.5924e-05           
  -1.1                  -2.722e-05            -2e-13                -4e-14                2.724e-05            
  -1.2                  -2.8304e-05           -2.2e-13              -1.8e-13              2.8326e-05           
  -1.3                  -2.9158e-05           -3e-13                -8e-14                2.9178e-05           
  -1.4                  -2.9782e-05           -3.6e-13              -4e-14                2.9802e-05           
  -1.5                  -3.0192e-05           -2.4e-13              -1e-13                3.0212e-05           
  -1.6                  -3.0416e-05           -2.6e-13              -1.2e-13              3.0436e-05           
  -1.7                  -3.0512e-05           -2.2e-13              -2e-14                3.0532e-05           
  -1.8                  -3.0548e-05           -3.4e-13              -1.8e-13              3.0568e-05           
  -1.9                  -3.0566e-05           -1.8e-13              -2.4e-13              3.0586e-05           
  -2                    -3.0578e-05           -3.6e-13              -8e-14                3.0598e-05           
  -2.1                  -3.0586e-05           -2.6e-13              -6e-14                3.0606e-05           
  -2.2                  -3.0592e-05           -2.2e-13              -1.4e-13              3.0614e-05           
  -2.3                  -3.06e-05             -3.4e-13              -1.2e-13              3.062e-05            
  -2.4                  -3.0604e-05           -3e-13                -2e-14                3.0624e-05           
  -2.5                  -3.0608e-05           -2.8e-13              -6e-14                3.063e-05            
  -2.6                  -3.0614e-05           -1.6e-13              -1e-13                3.0634e-05           
  -2.7                  -3.0618e-05           -1.4e-13              -1.4e-13              3.0638e-05           
  -2.8                  -3.0622e-05           -2.8e-13              -1e-13                3.064e-05            
  -2.9                  -3.0626e-05           -3e-13                -1.2e-13              3.0644e-05           
  -3                    -3.0628e-05           -3.2e-13              -1.2e-13              3.0648e-05           
  -3.1                  -3.063e-05            -2.4e-13              -4e-14                3.065e-05            
  -3.2                  -3.0634e-05           -2.4e-13              1.6e-13               3.0654e-05           
  -3.3                  -3.0636e-05           -2.4e-13              3.8e-13               3.0658e-05           
  -3.4                  -3.064e-05            -2.4e-13              1.3e-12               3.066e-05            
  -3.5                  -3.0644e-05           -2.8e-13              3.88e-12              3.0664e-05           
  -3.6                  -3.0646e-05           -3e-13                9.9e-12               3.0666e-05           
END_DB

BEGIN_DB
 ICCAP_VAR vg         -3.6           
 ICCAP_VAR vb         -0             
 ICCAP_VAR vs         -0             

 #vd                    id                    ig                    ib                    is                   
  -0                    1.5982e-09            -2.6e-13              -8e-14                -1.3714e-09          
  -0.1                  -4.3676e-06           -3e-13                -1.8e-13              4.3714e-06           
  -0.2                  -8.5396e-06           -3.8e-13              -1e-13                8.5438e-06           
  -0.3                  -1.2498e-05           -2.2e-13              0                     1.2518e-05           
  -0.4                  -1.625e-05            -4e-13                -2e-14                1.627e-05            
  -0.5                  -1.981e-05            -2.8e-13              -1.6e-13              1.983e-05            
  -0.6                  -2.3166e-05           -2.6e-13              -8e-14                2.3188e-05           
  -0.7                  -2.6314e-05           -3e-13                -2e-14                2.6334e-05           
  -0.8                  -2.9264e-05           -2.8e-13              -1e-13                2.9284e-05           
