! VERSION = 6.00
BEGIN_HEADER
 ICCAP_INPUTS
  vd         V  D GROUND SMU1 0.1 LIN        1    -0         -3.6       37   -0.1      
  vg         V  G GROUND SMU2 0.001 LIST       2 3 -0.483 -0.683 -0.883
  vb         V  B GROUND SMU4 0.1 CON        -0
  vs         V  S GROUND SMU3 0.1 CON        -0
 ICCAP_OUTPUTS
  id         I  D GROUND SMU1 B
  ig         I  G GROUND SMU2 B
  ib         I  B GROUND SMU4 B
  is         I  S GROUND SMU3 B
 ICCAP_VALUES
  MASTER_SETUP_TYPE "~dc_idvd~"
  LINVT_VALUE ""
  LISTVT_VALUE "|idvg|100.0n|-200.0m|1.000m|3|200.0m|200.0m|"
  TYPE "-1"
  TEMP " 27.0000 "
  IS_TNOM " 1.00000 "
  MAIN.W "600.0n"
  MAIN.L "10.00u"
  MAIN.AD "204.0f"
  MAIN.AS "204.0f"
  MAIN.PD "1.880u"
  MAIN.PS "1.880u"
  MAIN.NF "1.000"
  MAIN.M "1"
  MAIN.NRD "0.000"
  MAIN.NRS "0.000"
  MAIN.LDRIFT1 "1E-06"
  MAIN.LDRIFT2 "1E-06"
  MAIN.SA "0.000"
  MAIN.SB "0.000"
  MAIN.SD "0.000"
  MAIN.SCA "0.000"
  MAIN.SCB "0.000"
  MAIN.SCC "0.000"
  MAIN.SC "0.000"
  MODULE "S564"
  PIN_D "12"
  PIN_G "9"
  PIN_S "10"
  PIN_B "11"
  PIN_E ""
  PIN_6 ""
  XY_ID ""
  FUNC "W Scale"
  STI "SA ref"
  WPE "WPE ref"
  COMMENT ""
  DIS_MEAS ""
  TypeTCI "10"
END_HEADER

BEGIN_DB
 ICCAP_VAR vg         -0.483         
 ICCAP_VAR vb         -0             
 ICCAP_VAR vs         -0             

 #vd                    id                    ig                    ib                    is                   
  -0                    4.2e-13               5e-13                 -1e-13                2e-13                
  -0.1                  -7.506e-11            5.4e-13               -4e-14                7.506e-11            
  -0.2                  -7.666e-11            4.4e-13               -6e-14                7.67e-11             
  -0.3                  -7.676e-11            2.2e-13               -1.2e-13              7.706e-11            
  -0.4                  -7.682e-11            4.4e-13               4e-14                 7.676e-11            
  -0.5                  -7.692e-11            4e-13                 -2e-14                7.666e-11            
  -0.6                  -7.696e-11            2.8e-13               0                     7.676e-11            
  -0.7                  -7.714e-11            3.6e-13               -6e-14                7.682e-11            
  -0.8                  -7.712e-11            4.2e-13               -8e-14                7.678e-11            
  -0.9                  -7.714e-11            3e-13                 -6e-14                7.702e-11            
  -1                    -7.736e-11            3.6e-13               -2e-14                7.698e-11            
  -1.1                  -7.732e-11            3.4e-13               -4e-14                7.688e-11            
  -1.2                  -7.748e-11            3e-13                 -1.4e-13              7.704e-11            
  -1.3                  -7.73e-11             2.2e-13               -2e-14                7.694e-11            
  -1.4                  -7.73e-11             1.6e-13               -6e-14                7.684e-11            
  -1.5                  -7.738e-11            2.4e-13               -1.2e-13              7.684e-11            
  -1.6                  -7.738e-11            3.4e-13               -1.8e-13              7.698e-11            
  -1.7                  -7.724e-11            1.8e-13               -6e-14                7.694e-11            
  -1.8                  -7.75e-11             2e-13                 -2e-14                7.706e-11            
  -1.9                  -7.764e-11            1.4e-13               -1.2e-13              7.71e-11             
  -2                    -7.768e-11            2.2e-13               4e-14                 7.702e-11            
  -2.1                  -7.768e-11            2.2e-13               4e-14                 7.708e-11            
  -2.2                  -7.788e-11            1.6e-13               -4e-14                7.708e-11            
  -2.3                  -7.762e-11            1.2e-13               -1.2e-13              7.712e-11            
  -2.4                  -7.756e-11            1.8e-13               0                     7.714e-11            
  -2.5                  -7.762e-11            1.8e-13               -4e-14                7.706e-11            
  -2.6                  -7.778e-11            1.6e-13               4e-14                 7.706e-11            
  -2.7                  -7.792e-11            2.6e-13               -6e-14                7.708e-11            
  -2.8                  -7.768e-11            1.8e-13               0                     7.722e-11            
  -2.9                  -7.798e-11            2.6e-13               4e-14                 7.712e-11            
  -3                    -7.798e-11            2.2e-13               0                     7.7e-11              
  -3.1                  -7.774e-11            2.2e-13               6e-14                 7.72e-11             
  -3.2                  -7.79e-11             2e-14                 2e-13                 7.728e-11            
  -3.3                  -7.81e-11             1.8e-13               1.4e-13               7.702e-11            
  -3.4                  -7.826e-11            1.2e-13               1.6e-13               7.708e-11            
  -3.5                  -7.81e-11             1.2e-13               4.2e-13               7.71e-11             
  -3.6                  -7.844e-11            2e-13                 5.2e-13               7.692e-11            
END_DB

BEGIN_DB
 ICCAP_VAR vg         -0.683         
 ICCAP_VAR vb         -0             
 ICCAP_VAR vs         -0             

 #vd                    id                    ig                    ib                    is                   
  -0                    1.058e-11             8e-14                 -1e-13                -9.48e-12            
  -0.1                  -5.8186e-09           -6e-14                -8e-14                5.8196e-09           
  -0.2                  -6.0846e-09           0                     -2.2e-13              6.0874e-09           
  -0.3                  -6.0964e-09           -8e-14                -1.4e-13              6.0932e-09           
  -0.4                  -6.0968e-09           -4e-14                -8e-14                6.0996e-09           
  -0.5                  -6.0952e-09           1.2e-13               -1.8e-13              6.0962e-09           
  -0.6                  -6.0962e-09           1e-13                 4e-14                 6.1014e-09           
  -0.7                  -6.103e-09            8e-14                 -2e-14                6.0984e-09           
  -0.8                  -6.0984e-09           4e-14                 2e-14                 6.103e-09            
  -0.9                  -6.1008e-09           1.8e-13               0                     6.1028e-09           
  -1                    -6.1004e-09           4e-14                 -1.4e-13              6.1026e-09           
  -1.1                  -6.1032e-09           2e-13                 2e-14                 6.0994e-09           
  -1.2                  -6.1008e-09           1.4e-13               6e-14                 6.101e-09            
  -1.3                  -6.1064e-09           1e-13                 -1.2e-13              6.1056e-09           
  -1.4                  -6.1056e-09           1e-13                 6e-14                 6.102e-09            
  -1.5                  -6.1032e-09           0                     0                     6.107e-09            
  -1.6                  -6.1088e-09           8e-14                 -1e-13                6.1096e-09           
  -1.7                  -6.1054e-09           0                     -4e-14                6.1048e-09           
  -1.8                  -6.108e-09            6e-14                 0                     6.11e-09             
  -1.9                  -6.1066e-09           0                     -6e-14                6.1114e-09           
  -2                    -6.1076e-09           -4e-14                2e-14                 6.1072e-09           
  -2.1                  -6.1094e-09           1.6e-13               -2e-14                6.1132e-09           
  -2.2                  -6.109e-09            4e-14                 1e-13                 6.1074e-09           
  -2.3                  -6.1092e-09           1e-13                 4e-14                 6.1132e-09           
  -2.4                  -6.1138e-09           0                     2.8e-13               6.113e-09            
  -2.5                  -6.111e-09            0                     2.6e-13               6.1138e-09           
  -2.6                  -6.1114e-09           1.4e-13               4.8e-13               6.1088e-09           
  -2.7                  -6.1122e-09           1.2e-13               8.6e-13               6.1134e-09           
  -2.8                  -6.1114e-09           2e-14                 1.16e-12              6.1142e-09           
  -2.9                  -6.1134e-09           1.4e-13               1.9e-12               6.1138e-09           
  -3                    -6.1182e-09           4e-14                 3.02e-12              6.1088e-09           
  -3.1                  -6.118e-09            1.4e-13               4.66e-12              6.1148e-09           
  -3.2                  -6.1172e-09           -2e-14                6.96e-12              6.1096e-09           
  -3.3                  -6.1264e-09           6e-14                 1.034e-11             6.1142e-09           
  -3.4                  -6.1288e-09           4e-14                 1.472e-11             6.1102e-09           
  -3.5                  -6.1356e-09           -6e-14                2.12e-11              6.1112e-09           
  -3.6                  -6.144e-09            4e-14                 2.956e-11             6.1188e-09           
END_DB

BEGIN_DB
 ICCAP_VAR vg         -0.883         
 ICCAP_VAR vb         -0             
 ICCAP_VAR vs         -0             

 #vd                    id                    ig                    ib                    is                   
  -0                    3.976e-11             -1.2e-13              -1.2e-13              -3.808e-11           
  -0.1                  -4.3428e-08           -8e-14                -1.6e-13              4.3448e-08           
  -0.2                  -5.5398e-08           -2e-14                0                     5.5426e-08           
  -0.3                  -5.6394e-08           4e-14                 0                     5.6422e-08           
  -0.4                  -5.6448e-08           -4e-14                -2e-14                5.6468e-08           
  -0.5                  -5.6456e-08           8e-14                 2e-14                 5.6482e-08           
  -0.6                  -5.6474e-08           -8e-14                -2e-14                5.6504e-08           
  -0.7                  -5.6484e-08           0                     4e-14                 5.6514e-08           
  -0.8                  -5.6494e-08           -4e-14                2e-14                 5.6522e-08           
  -0.9                  -5.6502e-08           -1.4e-13              2e-14                 5.6534e-08           
  -1                    -5.6516e-08           6e-14                 -2e-14                5.6534e-08           
  -1.1                  -5.652e-08            -4e-14                -4e-14                5.6548e-08           
  -1.2                  -5.6524e-08           -1.6e-13              0                     5.6546e-08           
  -1.3                  -5.653e-08            0                     0                     5.655e-08            
  -1.4                  -5.653e-08            -2e-14                -1e-13                5.6562e-08           
  -1.5                  -5.6536e-08           0                     0                     5.6566e-08           
  -1.6                  -5.6546e-08           6e-14                 -6e-14                5.6576e-08           
  -1.7                  -5.6544e-08           2e-14                 -8e-14                5.6582e-08           
  -1.8                  -5.6558e-08           1.2e-13               8e-14                 5.658e-08            
  -1.9                  -5.6556e-08           2e-14                 6e-14                 5.659e-08            
  -2                    -5.656e-08            1e-13                 6e-14                 5.6594e-08           
  -2.1                  -5.6568e-08           -2e-14                1.8e-13               5.6596e-08           
  -2.2                  -5.6574e-08           0                     2e-13                 5.6598e-08           
  -2.3                  -5.6582e-08           -1.2e-13              3.2e-13               5.66e-08             
  -2.4                  -5.6574e-08           -8e-14                6e-13                 5.6606e-08           
  -2.5                  -5.6578e-08           -8e-14                9.6e-13               5.661e-08            
  -2.6                  -5.6586e-08           -8e-14                1.82e-12              5.661e-08            
  -2.7                  -5.6584e-08           -6e-14                3.16e-12              5.6614e-08           
  -2.8                  -5.6594e-08           6e-14                 5.36e-12              5.6624e-08           
  -2.9                  -5.6606e-08           4e-14                 8.76e-12              5.6628e-08           
  -3                    -5.661e-08            -4e-14                1.41e-11              5.6638e-08           
  -3.1                  -5.6642e-08           0                     2.202e-11             5.6636e-08           
  -3.2                  -5.6644e-08           8e-14                 3.414e-11             5.6646e-08           
  -3.3                  -5.667e-08            2e-13                 5.166e-11             5.6644e-08           
  -3.4                  -5.6696e-08           4e-14                 7.692e-11             5.665e-08            
  -3.5                  -5.6738e-08           4e-14                 1.1254e-10            5.6648e-08           
  -3.6                  -5.6784e-08           1e-13                 1.6216e-10            5.6654e-08           
END_DB

