! VERSION = 6.00
BEGIN_HEADER
 ICCAP_INPUTS
  vd         V  D GROUND SMU1 0.1 LIN        1    -0         -3.6       37   -0.1      
  vg         V  G GROUND SMU2 0.001 LIST       2 3 -0.398 -0.598 -0.798
  vb         V  B GROUND SMU4 0.1 CON        -0
  vs         V  S GROUND SMU3 0.1 CON        -0
 ICCAP_OUTPUTS
  id         I  D GROUND SMU1 B
  ig         I  G GROUND SMU2 B
  ib         I  B GROUND SMU4 B
  is         I  S GROUND SMU3 B
 ICCAP_VALUES
  MASTER_SETUP_TYPE "~dc_idvd~"
  LINVT_VALUE ""
  LISTVT_VALUE "|idvg|100.0n|-200.0m|1.000m|3|200.0m|200.0m|"
  TYPE "-1"
  TEMP " 27.0000 "
  IS_TNOM " 1.00000 "
  MAIN.W "300.0n"
  MAIN.L "300.0n"
  MAIN.AD "102.0f"
  MAIN.AS "102.0f"
  MAIN.PD "1.280u"
  MAIN.PS "1.280u"
  MAIN.NF "1.000"
  MAIN.M "1"
  MAIN.NRD "0.000"
  MAIN.NRS "0.000"
  MAIN.LDRIFT1 "1E-06"
  MAIN.LDRIFT2 "1E-06"
  MAIN.SA "0.000"
  MAIN.SB "0.000"
  MAIN.SD "0.000"
  MAIN.SCA "0.000"
  MAIN.SCB "0.000"
  MAIN.SCC "0.000"
  MAIN.SC "0.000"
  MODULE "S565"
  PIN_D "20"
  PIN_G "1"
  PIN_S "2"
  PIN_B "19"
  PIN_E ""
  PIN_6 ""
  XY_ID ""
  FUNC "Additional"
  STI "SA ref"
  WPE "WPE ref"
  COMMENT ""
  DIS_MEAS ""
  TypeTCI "10"
END_HEADER

BEGIN_DB
 ICCAP_VAR vg         -0.398         
 ICCAP_VAR vb         -0             
 ICCAP_VAR vs         -0             

 #vd                    id                    ig                    ib                    is                   
  -0                    1.4e-12               4.8e-13               -1e-13                -1.64e-12            
  -0.1                  -7.8516e-10           5e-13                 -4e-14                7.832e-10            
  -0.2                  -8.4476e-10           4.6e-13               0                     8.4384e-10           
  -0.3                  -8.8288e-10           5e-13                 -1.2e-13              8.816e-10            
  -0.4                  -9.1546e-10           3.6e-13               -2e-13                9.1472e-10           
  -0.5                  -9.4806e-10           4.2e-13               -1.2e-13              9.4664e-10           
  -0.6                  -9.7996e-10           3e-13                 -1.2e-13              9.7844e-10           
  -0.7                  -1.0102e-09           4.4e-13               4e-14                 1.0097e-09           
  -0.8                  -1.0394e-09           1.6e-13               -2e-14                1.04004e-09          
  -0.9                  -1.0708e-09           2.8e-13               -4e-14                1.07072e-09          
  -1                    -1.0994e-09           1.6e-13               -1.2e-13              1.1006e-09           
  -1.1                  -1.1322e-09           3.4e-13               4e-14                 1.13e-09             
  -1.2                  -1.1602e-09           3e-13                 -1.8e-13              1.1588e-09           
  -1.3                  -1.1914e-09           1.8e-13               -1e-13                1.1894e-09           
  -1.4                  -1.2216e-09           3.2e-13               -8e-14                1.221e-09            
  -1.5                  -1.251e-09            1.6e-13               -2e-14                1.2526e-09           
  -1.6                  -1.2844e-09           2.2e-13               -1.6e-13              1.2826e-09           
  -1.7                  -1.3146e-09           1.2e-13               2e-14                 1.3146e-09           
  -1.8                  -1.3466e-09           2.2e-13               -6e-14                1.349e-09            
  -1.9                  -1.3788e-09           1.8e-13               -4e-14                1.379e-09            
  -2                    -1.4116e-09           1.4e-13               -6e-14                1.4122e-09           
  -2.1                  -1.4486e-09           1.8e-13               2e-14                 1.4462e-09           
  -2.2                  -1.4828e-09           8e-14                 6e-14                 1.4802e-09           
  -2.3                  -1.5158e-09           2e-13                 2e-14                 1.5158e-09           
  -2.4                  -1.5498e-09           8e-14                 -8e-14                1.5496e-09           
  -2.5                  -1.586e-09            6e-14                 2.4e-13               1.5844e-09           
  -2.6                  -1.6212e-09           1.6e-13               2e-13                 1.6228e-09           
  -2.7                  -1.663e-09            6e-14                 5e-13                 1.659e-09            
  -2.8                  -1.7042e-09           1.4e-13               7.2e-13               1.7004e-09           
  -2.9                  -1.7416e-09           1.2e-13               1.28e-12              1.74e-09             
  -3                    -1.7836e-09           8e-14                 1.98e-12              1.7814e-09           
  -3.1                  -1.8276e-09           6e-14                 3.08e-12              1.8234e-09           
  -3.2                  -1.8738e-09           2e-14                 4.68e-12              1.8648e-09           
  -3.3                  -1.9156e-09           1e-13                 6.82e-12              1.9102e-09           
  -3.4                  -1.9634e-09           2e-14                 9.62e-12              1.9532e-09           
  -3.5                  -2.016e-09            0                     1.372e-11             1.9994e-09           
  -3.6                  -2.0676e-09           8e-14                 1.894e-11             2.0588e-09           
END_DB

BEGIN_DB
 ICCAP_VAR vg         -0.598         
 ICCAP_VAR vb         -0             
 ICCAP_VAR vs         -0             

 #vd                    id                    ig                    ib                    is                   
  -0                    9.878e-11             1.2e-13               -1.2e-13              -9.742e-11           
  -0.1                  -6.511e-08            8e-14                 -1.4e-13              6.5076e-08           
  -0.2                  -7.2928e-08           4e-14                 -1e-13                7.2992e-08           
  -0.3                  -7.6496e-08           4e-14                 -1.4e-13              7.6514e-08           
  -0.4                  -7.9336e-08           0                     0                     7.9364e-08           
  -0.5                  -8.1804e-08           6e-14                 0                     8.1916e-08           
  -0.6                  -8.4218e-08           1.4e-13               -1e-13                8.42e-08             
  -0.7                  -8.6514e-08           6e-14                 8e-14                 8.647e-08            
  -0.8                  -8.8708e-08           6e-14                 -2e-14                8.877e-08            
  -0.9                  -9.0742e-08           0                     4e-14                 9.0882e-08           
  -1                    -9.2898e-08           -1.2e-13              4e-14                 9.2942e-08           
  -1.1                  -9.5028e-08           -1.2e-13              -2e-14                9.5078e-08           
  -1.2                  -9.7008e-08           4e-14                 -4e-14                9.7126e-08           
  -1.3                  -9.9134e-08           6e-14                 0                     9.9108e-08           
  -1.4                  -1.01e-07             0                     -1.6e-13              1.01122e-07          
  -1.5                  -1.0298e-07           6e-14                 0                     1.03152e-07          
  -1.6                  -1.0506e-07           -4e-14                -4e-14                1.05182e-07          
  -1.7                  -1.0714e-07           0                     -8e-14                1.07262e-07          
  -1.8                  -1.0928e-07           0                     8e-14                 1.0929e-07           
  -1.9                  -1.1134e-07           -6e-14                1e-13                 1.1136e-07           
  -2                    -1.1338e-07           -4e-14                2.4e-13               1.13696e-07          
  -2.1                  -1.1546e-07           0                     6.4e-13               1.1568e-07           
  -2.2                  -1.1752e-07           -4e-14                1.28e-12              1.178e-07            
  -2.3                  -1.1984e-07           -2e-14                2.56e-12              1.1992e-07           
  -2.4                  -1.2208e-07           4e-14                 4.62e-12              1.2226e-07           
  -2.5                  -1.2426e-07           -2e-14                8.1e-12               1.2444e-07           
  -2.6                  -1.265e-07            -1.4e-13              1.362e-11             1.2672e-07           
  -2.7                  -1.2884e-07           -8e-14                2.244e-11             1.2896e-07           
  -2.8                  -1.3116e-07           -6e-14                3.648e-11             1.3128e-07           
  -2.9                  -1.336e-07            -8e-14                5.76e-11              1.3376e-07           
  -3                    -1.36e-07             -1.2e-13              8.97e-11              1.3618e-07           
  -3.1                  -1.3854e-07           4e-14                 1.3712e-10            1.3858e-07           
  -3.2                  -1.4148e-07           -6e-14                2.058e-10             1.4122e-07           
  -3.3                  -1.4394e-07           -1.2e-13              3.0404e-10            1.4386e-07           
  -3.4                  -1.4672e-07           -1e-13                4.4214e-10            1.4654e-07           
  -3.5                  -1.497e-07            -1.4e-13              6.3266e-10            1.493e-07            
  -3.6                  -1.5272e-07           -2e-14                8.902e-10             1.5184e-07           
END_DB

BEGIN_DB
 ICCAP_VAR vg         -0.798         
 ICCAP_VAR vb         -0             
 ICCAP_VAR vs         -0             

 #vd                    id                    ig                    ib                    is                   
  -0                    6.2744e-10            8e-14                 -1.6e-13              -6.2414e-10          
  -0.1                  -7.2318e-07           -6e-14                -2.4e-13              7.228e-07            
  -0.2                  -9.6058e-07           2e-14                 -6e-14                9.6062e-07           
  -0.3                  -1.04244e-06          -2e-14                0                     1.04224e-06          
  -0.4                  -1.086e-06            -1e-13                6e-14                 1.08644e-06          
  -0.5                  -1.11966e-06          -6e-14                -6e-14                1.11996e-06          
  -0.6                  -1.1454e-06           2e-14                 4e-14                 1.14728e-06          
  -0.7                  -1.1708e-06           -2e-14                -6e-14                1.1748e-06           
  -0.8                  -1.1936e-06           -2e-14                -4e-14                1.1978e-06           
  -0.9                  -1.2164e-06           -6e-14                -4e-14                1.2206e-06           
  -1                    -1.2362e-06           -2e-14                -1.2e-13              1.24e-06             
  -1.1                  -1.2562e-06           -1.4e-13              -1.2e-13              1.2596e-06           
  -1.2                  -1.2754e-06           -8e-14                -2e-14                1.2786e-06           
  -1.3                  -1.2948e-06           -8e-14                -8e-14                1.2986e-06           
  -1.4                  -1.3128e-06           -2e-13                -8e-14                1.3164e-06           
  -1.5                  -1.3308e-06           -8e-14                -1.2e-13              1.3346e-06           
  -1.6                  -1.349e-06            -6e-14                -8e-14                1.3524e-06           
  -1.7                  -1.3668e-06           -1.2e-13              8e-14                 1.3708e-06           
  -1.8                  -1.384e-06            -2e-14                3.8e-13               1.388e-06            
  -1.9                  -1.4014e-06           -6e-14                8e-13                 1.4058e-06           
  -2                    -1.4192e-06           -6e-14                1.9e-12               1.423e-06            
  -2.1                  -1.4366e-06           -1.4e-13              4.1e-12               1.441e-06            
  -2.2                  -1.454e-06            -1.2e-13              8e-12                 1.4576e-06           
  -2.3                  -1.4716e-06           -1.2e-13              1.558e-11             1.4762e-06           
  -2.4                  -1.4888e-06           -1e-13                2.836e-11             1.4926e-06           
  -2.5                  -1.5066e-06           -8e-14                5.002e-11             1.51e-06             
  -2.6                  -1.5252e-06           -1.2e-13              8.614e-11             1.5278e-06           
  -2.7                  -1.5412e-06           -1e-13                1.4516e-10            1.5452e-06           
  -2.8                  -1.5586e-06           -1e-13                2.3898e-10            1.5626e-06           
  -2.9                  -1.5774e-06           -4e-14                3.8488e-10            1.581e-06            
  -3                    -1.5956e-06           -1.2e-13              6.0748e-10            1.5984e-06           
  -3.1                  -1.6142e-06           -1.4e-13              9.411e-10             1.6162e-06           
  -3.2                  -1.633e-06            -4e-14                1.4294e-09            1.6376e-06           
  -3.3                  -1.6522e-06           -1.4e-13              2.1398e-09            1.6544e-06           
  -3.4                  -1.6736e-06           -8e-14                3.1446e-09            1.6742e-06           
  -3.5                  -1.6934e-06           -1.2e-13              4.6056e-09            1.6938e-06           
  -3.6                  -1.741e-06            -8e-14                6.5898e-09            1.7474e-06           
END_DB

