! VERSION = 6.00
BEGIN_HEADER
 ICCAP_INPUTS
  vg         V  G GROUND SMU2 0.001 LIN        1    0.5        -3.6       83   -0.05     
  vb         V  B GROUND SMU4 0.1 LIN        2    0          3.6        5    0.9       
  vd         V  D GROUND SMU1 0.1 LIN        3    -0.1       -3.3       3    -1.6      
  vs         V  S GROUND SMU3 0.1 CON        -0
 ICCAP_OUTPUTS
  id         I  D GROUND SMU1 B
  ig         I  G GROUND SMU2 B
  ib         I  B GROUND SMU4 B
  is         I  S GROUND SMU3 B
 ICCAP_VALUES
  MASTER_SETUP_TYPE "~dc_idvg~"
  LINVT_VALUE ""
  LISTVT_VALUE ""
  TYPE "-1"
  TEMP " 27.0000 "
  IS_TNOM " 1.00000 "
  MAIN.W "600.0n"
  MAIN.L "350.0n"
  MAIN.AD "204.0f"
  MAIN.AS "204.0f"
  MAIN.PD "1.880u"
  MAIN.PS "1.880u"
  MAIN.NF "1.000"
  MAIN.M "1"
  MAIN.NRD "0.000"
  MAIN.NRS "0.000"
  MAIN.LDRIFT1 "1E-06"
  MAIN.LDRIFT2 "1E-06"
  MAIN.SA "0.000"
  MAIN.SB "0.000"
  MAIN.SD "0.000"
  MAIN.SCA "0.000"
  MAIN.SCB "0.000"
  MAIN.SCC "0.000"
  MAIN.SC "0.000"
  MODULE "S564"
  PIN_D "18"
  PIN_G "3"
  PIN_S "4"
  PIN_B "17"
  PIN_E ""
  PIN_6 ""
  XY_ID ""
  FUNC "LW Scale"
  STI "SA ref"
  WPE "WPE ref"
  COMMENT ""
  DIS_MEAS ""
  TypeTCI "10"
END_HEADER

BEGIN_DB
 ICCAP_VAR vb         0              
 ICCAP_VAR vd         -0.1           
 ICCAP_VAR vs         -0             

 #vg                    id                    ig                    ib                    is                   
  0.5                   -1.4e-13              1.844e-11             -4.52e-12             2e-13                
  0.45                  -6e-14                2.84e-12              -8e-13                0                    
  0.4                   8e-14                 4.6e-13               -3.6e-13              1.8e-13              
  0.35                  -4e-14                6e-14                 -1.6e-13              4e-14                
  0.3                   6e-14                 -1e-13                -1.2e-13              6e-14                
  0.25                  2e-14                 -4e-14                -1.8e-13              8e-14                
  0.2                   -6e-14                -2.2e-13              -1e-13                6e-14                
  0.15                  0                     -1.2e-13              -2.2e-13              6e-14                
  0.1                   -6e-14                -2.6e-13              -4e-14                6e-14                
  0.05                  2e-14                 -2.2e-13              -1.8e-13              1.6e-13              
  0                     -2e-14                -3.2e-13              -6e-14                1.4e-13              
  -0.05                 -1.2e-13              -1.4e-13              -8e-14                1e-13                
  -0.1                  -3.6e-13              -2.4e-13              -1.8e-13              6.8e-13              
  -0.15                 -1.78e-12             -3.4e-13              -1.4e-13              1.74e-12             
  -0.2                  -5.28e-12             -3.8e-13              -1.6e-13              5.6e-12              
  -0.25                 -1.864e-11            -4e-13                -8e-14                1.884e-11            
  -0.3                  -6.428e-11            -4.4e-13              -6e-14                6.43e-11             
  -0.35                 -2.2372e-10           -3.4e-13              -1.4e-13              2.2408e-10           
  -0.4                  -7.7734e-10           -4.2e-13              -1.8e-13              7.7794e-10           
  -0.45                 -2.685e-09            -2.2e-13              -1.2e-13              2.6864e-09           
  -0.5                  -9.0664e-09           -3.2e-13              -1.2e-13              9.057e-09            
  -0.55                 -2.9088e-08           -2.8e-13              -6e-14                2.9136e-08           
  -0.6                  -8.3738e-08           -3.4e-13              -2.8e-13              8.3688e-08           
  -0.65                 -2.061e-07            -3.6e-13              -2e-14                2.0596e-07           
  -0.7                  -4.2626e-07           -4.2e-13              -2.4e-13              4.266e-07            
  -0.75                 -7.501e-07            -5.2e-13              -1.6e-13              7.5254e-07           
  -0.8                  -1.1566e-06           -3.2e-13              -2.2e-13              1.1628e-06           
  -0.85                 -1.6208e-06           -4.4e-13              -4e-14                1.6192e-06           
  -0.9                  -2.1112e-06           -5.4e-13              -1.4e-13              2.113e-06            
  -0.95                 -2.6102e-06           -5.6e-13              -2e-13                2.6116e-06           
  -1                    -3.1044e-06           -5e-13                -8e-14                3.1098e-06           
  -1.05                 -3.5946e-06           -5e-13                -2e-13                3.5988e-06           
  -1.1                  -4.0716e-06           -4.4e-13              -1e-13                4.0754e-06           
  -1.15                 -4.5366e-06           -6.4e-13              -2.2e-13              4.5406e-06           
  -1.2                  -4.987e-06            -5.8e-13              -1.6e-13              4.9902e-06           
  -1.25                 -5.424e-06            -5.4e-13              -4e-14                5.4282e-06           
  -1.3                  -5.8498e-06           -4e-13                -1.2e-13              5.8534e-06           
  -1.35                 -6.2614e-06           -5.2e-13              -1e-13                6.265e-06            
  -1.4                  -6.658e-06            -4.8e-13              0                     6.6612e-06           
  -1.45                 -7.0462e-06           -6e-13                -1e-13                7.0498e-06           
  -1.5                  -7.4258e-06           -6e-13                -8e-14                7.4294e-06           
  -1.55                 -7.7942e-06           -6e-13                -1.4e-13              7.7968e-06           
  -1.6                  -8.1548e-06           -4.8e-13              8e-14                 8.1566e-06           
  -1.65                 -8.5034e-06           -6.8e-13              -2.4e-13              8.5076e-06           
  -1.7                  -8.845e-06            -5.4e-13              -2e-14                8.8452e-06           
  -1.75                 -9.176e-06            -5.8e-13              -6e-14                9.1796e-06           
  -1.8                  -9.4998e-06           -6.4e-13              -2e-14                9.5042e-06           
  -1.85                 -9.8178e-06           -5.6e-13              -1.4e-13              9.8228e-06           
  -1.9                  -1.0128e-05           -6.6e-13              -4e-14                1.01314e-05          
  -1.95                 -1.04286e-05          -6.2e-13              -1e-13                1.04332e-05          
  -2                    -1.07264e-05          -6e-13                -1.4e-13              1.07314e-05          
  -2.05                 -1.1017e-05           -6.8e-13              -1.8e-13              1.10202e-05          
  -2.1                  -1.13018e-05          -6.6e-13              -8e-14                1.13052e-05          
  -2.15                 -1.1576e-05           -5.6e-13              -6e-14                1.1596e-05           
  -2.2                  -1.1846e-05           -5.6e-13              -6e-14                1.1866e-05           
  -2.25                 -1.2116e-05           -4.8e-13              -8e-14                1.2136e-05           
  -2.3                  -1.2378e-05           -6.6e-13              -4e-14                1.2398e-05           
  -2.35                 -1.263e-05            -6.2e-13              -4e-14                1.2648e-05           
  -2.4                  -1.288e-05            -6.4e-13              -6e-14                1.2898e-05           
  -2.45                 -1.3128e-05           -6.6e-13              -2e-14                1.3148e-05           
  -2.5                  -1.3372e-05           -7e-13                -1e-13                1.3392e-05           
  -2.55                 -1.3606e-05           -6.4e-13              -2e-14                1.3624e-05           
  -2.6                  -1.3836e-05           -6.8e-13              -1e-13                1.3856e-05           
  -2.65                 -1.4064e-05           -5.6e-13              -1e-13                1.4084e-05           
  -2.7                  -1.4284e-05           -8.2e-13              -8e-14                1.4308e-05           
  -2.75                 -1.4502e-05           -6.2e-13              -3.4e-13              1.4526e-05           
  -2.8                  -1.4722e-05           -7.4e-13              -1e-13                1.4738e-05           
  -2.85                 -1.493e-05            -7.6e-13              -8e-14                1.4952e-05           
  -2.9                  -1.5136e-05           -6.8e-13              -1e-13                1.5158e-05           
  -2.95                 -1.5338e-05           -6e-13                -1.8e-13              1.5358e-05           
  -3                    -1.5534e-05           -6.8e-13              -1.2e-13              1.5554e-05           
  -3.05                 -1.573e-05            -5.6e-13              -1.2e-13              1.575e-05            
  -3.1                  -1.5922e-05           -7e-13                -1.4e-13              1.594e-05            
  -3.15                 -1.6106e-05           -6.2e-13              -8e-14                1.6128e-05           
  -3.2                  -1.6294e-05           -8.6e-13              -1.6e-13              1.6314e-05           
  -3.25                 -1.6476e-05           -6.2e-13              -6e-14                1.6494e-05           
  -3.3                  -1.6652e-05           -7e-13                -1.2e-13              1.6672e-05           
  -3.35                 -1.6826e-05           -7.6e-13              0                     1.6848e-05           
  -3.4                  -1.6998e-05           -6.8e-13              0                     1.702e-05            
  -3.45                 -1.7168e-05           -6.6e-13              -8e-14                1.7188e-05           
  -3.5                  -1.7336e-05           -7.2e-13              -1.2e-13              1.7354e-05           
  -3.55                 -1.75e-05             -7e-13                0                     1.7522e-05           
  -3.6                  -1.766e-05            -6.6e-13              -1e-13                1.768e-05            
END_DB

BEGIN_DB
 ICCAP_VAR vb         0.9            
 ICCAP_VAR vd         -0.1           
 ICCAP_VAR vs         -0             

 #vg                    id                    ig                    ib                    is                   
  0.5                   6e-14                 5.8e-13               4.4e-13               2e-14                
  0.45                  6e-14                 3e-13                 3.8e-13               8e-14                
  0.4                   -8e-14                3e-13                 3.8e-13               -6e-14               
  0.35                  1.2e-13               1.6e-13               3.6e-13               2e-14                
  0.3                   2e-14                 1.8e-13               3.2e-13               4e-14                
  0.25                  8e-14                 -2e-14                2.4e-13               1e-13                
  0.2                   2e-14                 0                     2.4e-13               1.8e-13              
  0.15                  2e-14                 -2e-14                2.6e-13               1.2e-13              
  0.1                   4e-14                 -8e-14                1.6e-13               2.4e-13              
  0.05                  -4e-14                -1.2e-13              2.4e-13               -1e-13               
  0                     1e-13                 0                     2.6e-13               1.2e-13              
  -0.05                 4e-14                 -8e-14                2.2e-13               1e-13                
  -0.1                  4e-14                 -1.2e-13              1.8e-13               1e-13                
  -0.15                 -6e-14                -2e-13                4e-14                 1e-13                
  -0.2                  2e-14                 -2.4e-13              4e-13                 -1.2e-13             
  -0.25                 2e-13                 -1.6e-13              0                     1.8e-13              
  -0.3                  0                     -1.4e-13              2.2e-13               0                    
  -0.35                 1.2e-13               -3e-13                1e-13                 8e-14                
  -0.4                  1.6e-13               -3e-13                2.4e-13               6e-14                
  -0.45                 -2e-14                -3.8e-13              1.6e-13               1.6e-13              
  -0.5                  -3.6e-13              -3.2e-13              1e-13                 5.2e-13              
  -0.55                 -1.84e-12             -3.4e-13              1.6e-13               2.12e-12             
  -0.6                  -7.72e-12             -2.8e-13              1e-13                 7.94e-12             
  -0.65                 -3.124e-11            -4.4e-13              0                     3.144e-11            
  -0.7                  -1.2464e-10           -4.8e-13              1.2e-13               1.2444e-10           
  -0.75                 -4.9524e-10           -4.2e-13              -8e-14                4.9534e-10           
  -0.8                  -1.9244e-09           -2.8e-13              1.4e-13               1.9258e-09           
  -0.85                 -7.2744e-09           -4.2e-13              8e-14                 7.2774e-09           
  -0.9                  -2.534e-08            -3.4e-13              8e-14                 2.542e-08            
  -0.95                 -7.8466e-08           -4e-13                1e-13                 7.8478e-08           
  -1                    -2.0032e-07           -3e-13                -6e-14                2.004e-07            
  -1.05                 -4.1868e-07           -5.2e-13              1.2e-13               4.1968e-07           
  -1.1                  -7.3406e-07           -4.8e-13              -8e-14                7.3628e-07           
  -1.15                 -1.13162e-06          -3.2e-13              1e-13                 1.12902e-06          
  -1.2                  -1.5654e-06           -3.4e-13              0                     1.5702e-06           
  -1.25                 -2.0314e-06           -4.2e-13              2e-14                 2.0348e-06           
  -1.3                  -2.5022e-06           -4.4e-13              6e-14                 2.505e-06            
  -1.35                 -2.9664e-06           -4.4e-13              6e-14                 2.97e-06             
  -1.4                  -3.4234e-06           -4e-13                1.6e-13               3.4276e-06           
  -1.45                 -3.8666e-06           -4.8e-13              4e-14                 3.87e-06             
  -1.5                  -4.2972e-06           -3e-13                4e-14                 4.301e-06            
  -1.55                 -4.7142e-06           -4.6e-13              4e-14                 4.7188e-06           
  -1.6                  -5.1206e-06           -5e-13                4e-14                 5.1252e-06           
  -1.65                 -5.5132e-06           -4e-13                4e-14                 5.5162e-06           
  -1.7                  -5.8952e-06           -6e-13                6e-14                 5.8998e-06           
  -1.75                 -6.2686e-06           -4.4e-13              0                     6.2712e-06           
  -1.8                  -6.628e-06            -6e-13                1e-13                 6.6318e-06           
  -1.85                 -6.9788e-06           -5.8e-13              2e-14                 6.9826e-06           
  -1.9                  -7.32e-06             -4.8e-13              4e-14                 7.3232e-06           
  -1.95                 -7.6542e-06           -5.4e-13              -2e-14                7.6586e-06           
  -2                    -7.9786e-06           -5.8e-13              1.4e-13               7.982e-06            
  -2.05                 -8.297e-06            -6.2e-13              -8e-14                8.2998e-06           
  -2.1                  -8.6068e-06           -6.4e-13              1.2e-13               8.6104e-06           
  -2.15                 -8.9086e-06           -6.4e-13              -6e-14                8.9094e-06           
  -2.2                  -9.2002e-06           -6.4e-13              8e-14                 9.208e-06            
  -2.25                 -9.4896e-06           -5.4e-13              -1.2e-13              9.4936e-06           
  -2.3                  -9.7736e-06           -5.8e-13              8e-14                 9.7766e-06           
  -2.35                 -1.00478e-05          -6.6e-13              0                     1.00508e-05          
  -2.4                  -1.03178e-05          -5.6e-13              1.2e-13               1.03212e-05          
  -2.45                 -1.05866e-05          -6e-13                2e-14                 1.05894e-05          
  -2.5                  -1.08442e-05          -5.2e-13              1e-13                 1.08474e-05          
  -2.55                 -1.10984e-05          -4.8e-13              0                     1.11022e-05          
  -2.6                  -1.13476e-05          -6e-13                6e-14                 1.13496e-05          
  -2.65                 -1.1582e-05           -5e-13                0                     1.1602e-05           
  -2.7                  -1.1822e-05           -6.2e-13              1.6e-13               1.1842e-05           
  -2.75                 -1.2058e-05           -6.6e-13              -4e-14                1.2078e-05           
  -2.8                  -1.229e-05            -7e-13                -1e-13                1.231e-05            
  -2.85                 -1.2512e-05           -6.2e-13              2e-14                 1.2534e-05           
  -2.9                  -1.2736e-05           -7e-13                -6e-14                1.2756e-05           
  -2.95                 -1.2952e-05           -6e-13                0                     1.2974e-05           
  -3                    -1.317e-05            -7e-13                -4e-14                1.3188e-05           
  -3.05                 -1.3376e-05           -5.2e-13              0                     1.3394e-05           
  -3.1                  -1.3582e-05           -8.2e-13              6e-14                 1.3602e-05           
  -3.15                 -1.3782e-05           -5.8e-13              -8e-14                1.3808e-05           
  -3.2                  -1.3984e-05           -5.6e-13              8e-14                 1.4004e-05           
  -3.25                 -1.4178e-05           -6.4e-13              -6e-14                1.4198e-05           
  -3.3                  -1.4364e-05           -6.2e-13              2e-13                 1.4384e-05           
  -3.35                 -1.4556e-05           -7.4e-13              2e-14                 1.457e-05            
  -3.4                  -1.474e-05            -6.6e-13              -4e-14                1.4758e-05           
  -3.45                 -1.4916e-05           -6.8e-13              1e-13                 1.4936e-05           
