! VERSION = 6.00
BEGIN_HEADER
 ICCAP_INPUTS
  vd         V  D GROUND SMU1 0.1 LIN        1    -0         -3.6       37   -0.1      
  vg         V  G GROUND SMU2 0.001 LIN        2    -0.74      -3.6       5    -0.715    
  vb         V  B GROUND SMU4 0.1 CON        -0
  vs         V  S GROUND SMU3 0.1 CON        -0
 ICCAP_OUTPUTS
  id         I  D GROUND SMU1 B
  ig         I  G GROUND SMU2 B
  ib         I  B GROUND SMU4 B
  is         I  S GROUND SMU3 B
 ICCAP_VALUES
  MASTER_SETUP_TYPE "~dc_idvd~"
  LINVT_VALUE "|idvg|100.0n|100.0m|1.000m|5|3.600|"
  LISTVT_VALUE ""
  TYPE "-1"
  TEMP " 27.0000 "
  IS_TNOM " 1.00000 "
  MAIN.W "300.0n"
  MAIN.L "350.0n"
  MAIN.AD "102.0f"
  MAIN.AS "102.0f"
  MAIN.PD "1.280u"
  MAIN.PS "1.280u"
  MAIN.NF "1.000"
  MAIN.M "1"
  MAIN.NRD "0.000"
  MAIN.NRS "0.000"
  MAIN.LDRIFT1 "1E-06"
  MAIN.LDRIFT2 "1E-06"
  MAIN.SA "0.000"
  MAIN.SB "0.000"
  MAIN.SD "0.000"
  MAIN.SCA "0.000"
  MAIN.SCB "0.000"
  MAIN.SCC "0.000"
  MAIN.SC "0.000"
  MODULE "S565"
  PIN_D "16"
  PIN_G "5"
  PIN_S "6"
  PIN_B "15"
  PIN_E ""
  PIN_6 ""
  XY_ID ""
  FUNC "Small"
  STI "SA ref"
  WPE "WPE ref"
  COMMENT ""
  DIS_MEAS ""
  TypeTCI "10"
END_HEADER

BEGIN_DB
 ICCAP_VAR vg         -0.74          
 ICCAP_VAR vb         -0             
 ICCAP_VAR vs         -0             

 #vd                    id                    ig                    ib                    is                   
  -0                    1.7598e-10            -2e-14                -8e-13                -2.5984e-10          
  -0.1                  -3.0712e-07           4e-14                 -7.4e-13              3.0816e-07           
  -0.2                  -3.6448e-07           1e-13                 -6.8e-13              3.6472e-07           
  -0.3                  -3.7926e-07           8e-14                 -7.2e-13              3.794e-07            
  -0.4                  -3.8824e-07           6e-14                 -6.8e-13              3.8864e-07           
  -0.5                  -3.9574e-07           2e-14                 -7.6e-13              3.9694e-07           
  -0.6                  -4.0246e-07           4e-14                 -6.4e-13              4.033e-07            
  -0.7                  -4.0984e-07           1e-13                 -6.2e-13              4.101e-07            
  -0.8                  -4.1566e-07           2e-14                 -4.4e-13              4.158e-07            
  -0.9                  -4.2114e-07           4e-14                 -6.6e-13              4.213e-07            
  -1                    -4.2634e-07           1.4e-13               -5.2e-13              4.255e-07            
  -1.1                  -4.3144e-07           1.6e-13               -3.8e-13              4.3072e-07           
  -1.2                  -4.3632e-07           1e-13                 -3.8e-13              4.3656e-07           
  -1.3                  -4.4106e-07           1.6e-13               -4e-13                4.4122e-07           
  -1.4                  -4.4498e-07           1e-13                 -4.2e-13              4.4596e-07           
  -1.5                  -4.5008e-07           1.4e-13               -3.6e-13              4.504e-07            
  -1.6                  -4.5424e-07           8e-14                 -3.8e-13              4.5446e-07           
  -1.7                  -4.5888e-07           8e-14                 -3.8e-13              4.592e-07            
  -1.8                  -4.622e-07            1.2e-13               -3.2e-13              4.6262e-07           
  -1.9                  -4.6806e-07           8e-14                 -8e-14                4.681e-07            
  -2                    -4.7234e-07           8e-14                 3e-13                 4.727e-07            
  -2.1                  -4.7662e-07           1e-13                 1.22e-12              4.7694e-07           
  -2.2                  -4.8078e-07           8e-14                 2.94e-12              4.8142e-07           
  -2.3                  -4.856e-07            0                     6e-12                 4.857e-07            
  -2.4                  -4.9028e-07           8e-14                 1.138e-11             4.888e-07            
  -2.5                  -4.948e-07            1.8e-13               2.064e-11             4.9492e-07           
  -2.6                  -4.9916e-07           1.2e-13               3.604e-11             4.9932e-07           
  -2.7                  -5.0374e-07           4e-14                 6.068e-11             5.0432e-07           
  -2.8                  -5.0694e-07           1.8e-13               9.886e-11             5.071e-07            
  -2.9                  -5.1172e-07           1.8e-13               1.5988e-10            5.1336e-07           
  -3                    -5.182e-07            1.6e-13               2.5178e-10            5.181e-07            
  -3.1                  -5.232e-07            6e-14                 3.8722e-10            5.2304e-07           
  -3.2                  -5.2902e-07           4e-14                 5.8664e-10            5.283e-07            
  -3.3                  -5.3282e-07           1.2e-13               8.7456e-10            5.3294e-07           
  -3.4                  -5.4e-07              1.4e-13               1.2774e-09            5.3964e-07           
  -3.5                  -5.4632e-07           1e-13                 1.854e-09             5.4646e-07           
  -3.6                  -5.6038e-07           1.6e-13               2.6248e-09            5.587e-07            
END_DB

BEGIN_DB
 ICCAP_VAR vg         -1.455         
 ICCAP_VAR vb         -0             
 ICCAP_VAR vs         -0             

 #vd                    id                    ig                    ib                    is                   
  -0                    1.3634e-09            -2.8e-13              -2.6e-13              -1.193e-09           
  -0.1                  -3.6094e-06           -2.4e-13              -2.6e-13              3.6136e-06           
  -0.2                  -6.574e-06            -2e-13                -2.4e-13              6.579e-06            
  -0.3                  -8.871e-06            -2e-13                -2.4e-13              8.875e-06            
  -0.4                  -1.05276e-05          -6e-14                -2.4e-13              1.05316e-05          
  -0.5                  -1.1636e-05           -2e-14                -1.8e-13              1.1656e-05           
  -0.6                  -1.2346e-05           -4e-14                -2e-13                1.2366e-05           
  -0.7                  -1.2794e-05           -4e-14                -2.4e-13              1.2816e-05           
  -0.8                  -1.3094e-05           -1.6e-13              -1e-13                1.3114e-05           
  -0.9                  -1.3314e-05           -4e-14                -1.6e-13              1.3334e-05           
  -1                    -1.3476e-05           -8e-14                -2.4e-13              1.348e-05            
  -1.1                  -1.3608e-05           -6e-14                -2.2e-13              1.3626e-05           
  -1.2                  -1.3736e-05           -8e-14                -2e-13                1.3752e-05           
  -1.3                  -1.385e-05            2e-14                 -1.4e-13              1.3868e-05           
  -1.4                  -1.3954e-05           0                     -6e-14                1.3974e-05           
  -1.5                  -1.4052e-05           6e-14                 -2.4e-13              1.4072e-05           
  -1.6                  -1.4144e-05           2e-14                 -2e-14                1.416e-05            
  -1.7                  -1.4228e-05           -1.4e-13              -2.6e-13              1.4248e-05           
  -1.8                  -1.4308e-05           1e-13                 -1.8e-13              1.4326e-05           
  -1.9                  -1.4384e-05           0                     4e-14                 1.4404e-05           
  -2                    -1.4456e-05           -2e-14                2.2e-13               1.4476e-05           
  -2.1                  -1.4526e-05           6e-14                 1.02e-12              1.4546e-05           
  -2.2                  -1.4596e-05           2e-14                 2.92e-12              1.4618e-05           
  -2.3                  -1.4664e-05           1.2e-13               7.32e-12              1.4686e-05           
  -2.4                  -1.473e-05            -6e-14                1.66e-11              1.475e-05            
  -2.5                  -1.4796e-05           8e-14                 3.534e-11             1.4816e-05           
  -2.6                  -1.4862e-05           8e-14                 7.066e-11             1.4882e-05           
  -2.7                  -1.4928e-05           1.6e-13               1.351e-10             1.4948e-05           
  -2.8                  -1.499e-05            0                     2.4946e-10            1.5012e-05           
  -2.9                  -1.5054e-05           2e-14                 4.46e-10              1.5074e-05           
  -3                    -1.5124e-05           1e-13                 7.6414e-10            1.5144e-05           
  -3.1                  -1.519e-05            -2e-14                1.2936e-09            1.52e-05             
  -3.2                  -1.525e-05            2e-13                 2.1402e-09            1.5266e-05           
  -3.3                  -1.5312e-05           4e-14                 3.4638e-09            1.5326e-05           
  -3.4                  -1.5374e-05           2e-14                 5.49e-09              1.5388e-05           
  -3.5                  -1.5438e-05           1.6e-13               8.5398e-09            1.5446e-05           
  -3.6                  -1.5504e-05           0                     1.3032e-08            1.5508e-05           
END_DB

BEGIN_DB
 ICCAP_VAR vg         -2.17          
 ICCAP_VAR vb         -0             
 ICCAP_VAR vs         -0             

 #vd                    id                    ig                    ib                    is                   
  -0                    1.8038e-09            -3.8e-13              -1.8e-13              -1.598e-09           
  -0.1                  -6.0366e-06           -3.6e-13              -1.2e-13              6.0404e-06           
  -0.2                  -1.154e-05            -2.4e-13              -1.4e-13              1.1562e-05           
  -0.3                  -1.647e-05            -2.6e-13              -1.6e-13              1.649e-05            
  -0.4                  -2.078e-05            -1.4e-13              -1e-13                2.0796e-05           
  -0.5                  -2.4482e-05           -2.2e-13              -1.4e-13              2.4502e-05           
  -0.6                  -2.7586e-05           -1.6e-13              -1.4e-13              2.7608e-05           
  -0.7                  -3.0122e-05           -2.4e-13              -1.4e-13              3.0142e-05           
  -0.8                  -3.2148e-05           -1e-13                0                     3.2168e-05           
  -0.9                  -3.3752e-05           -1.8e-13              -2e-14                3.3774e-05           
  -1                    -3.4988e-05           -1.2e-13              -2e-13                3.5006e-05           
  -1.1                  -3.5936e-05           -2.4e-13              -4e-14                3.5952e-05           
  -1.2                  -3.6678e-05           -4e-14                -6e-14                3.6688e-05           
  -1.3                  -3.726e-05            -1.4e-13              -1.4e-13              3.7282e-05           
  -1.4                  -3.7736e-05           -1e-13                -8e-14                3.775e-05            
  -1.5                  -3.813e-05            -6e-14                0                     3.8148e-05           
  -1.6                  -3.846e-05            -1e-13                0                     3.8448e-05           
  -1.7                  -3.8728e-05           -2e-14                -2e-14                3.8752e-05           
  -1.8                  -3.9e-05              -8e-14                2e-14                 3.9022e-05           
  -1.9                  -3.9242e-05           -8e-14                -4e-14                3.9264e-05           
  -2                    -3.9468e-05           -6e-14                -1.2e-13              3.9484e-05           
  -2.1                  -3.9672e-05           -1.2e-13              2e-14                 3.969e-05            
  -2.2                  -3.986e-05            4e-14                 1.8e-13               3.9884e-05           
  -2.3                  -4.0036e-05           0                     7e-13                 4.0056e-05           
  -2.4                  -4.0206e-05           -2e-14                1.94e-12              4.022e-05            
  -2.5                  -4.0368e-05           4e-14                 4.68e-12              4.0378e-05           
  -2.6                  -4.052e-05            -2e-14                1.114e-11             4.0538e-05           
  -2.7                  -4.0664e-05           0                     2.49e-11              4.0682e-05           
  -2.8                  -4.081e-05            6e-14                 5.248e-11             4.0828e-05           
  -2.9                  -4.0948e-05           8e-14                 1.0566e-10            4.0966e-05           
  -3                    -4.1082e-05           -1.2e-13              2.0482e-10            4.11e-05             
  -3.1                  -4.1214e-05           -4e-14                3.807e-10             4.1234e-05           
  -3.2                  -4.1358e-05           -1.6e-13              6.8676e-10            4.1368e-05           
  -3.3                  -4.1482e-05           -6e-14                1.1912e-09            4.1528e-05           
  -3.4                  -4.1638e-05           0                     2.0438e-09            4.1652e-05           
  -3.5                  -4.1756e-05           -4e-14                3.4254e-09            4.1778e-05           
  -3.6                  -4.188e-05            2e-14                 5.672e-09             4.1882e-05           
END_DB

BEGIN_DB
 ICCAP_VAR vg         -2.885         
 ICCAP_VAR vb         -0             
 ICCAP_VAR vs         -0             

 #vd                    id                    ig                    ib                    is                   
  -0                    2.1002e-09            -3.2e-13              -1.8e-13              -2.0368e-09          
  -0.1                  -7.8382e-06           -3.6e-13              -1.4e-13              7.8424e-06           
  -0.2                  -1.5232e-05           -2.4e-13              -1.8e-13              1.525e-05            
  -0.3                  -2.2114e-05           -2e-13                -6e-14                2.2136e-05           
  -0.4                  -2.8426e-05           -2.4e-13              -6e-14                2.8434e-05           
  -0.5                  -3.417e-05            -2.2e-13              -4e-14                3.4198e-05           
  -0.6                  -3.9372e-05           -2e-14                -6e-14                3.9396e-05           
  -0.7                  -4.397e-05            -2.2e-13              -6e-14                4.3978e-05           
  -0.8                  -4.8054e-05           -3.2e-13              2e-14                 4.809e-05            
  -0.9                  -5.1596e-05           -1.8e-13              -2e-14                5.1562e-05           
  -1                    -5.4642e-05           0                     6e-14                 5.4602e-05           
  -1.1                  -5.7152e-05           -1.6e-13              -8e-14                5.7154e-05           
  -1.2                  -5.9442e-05           -1.4e-13              -4e-14                5.9468e-05           
  -1.3                  -6.1298e-05           -6e-14                8e-14                 6.1312e-05           
  -1.4                  -6.2814e-05           -2e-13                0                     6.286e-05            
  -1.5                  -6.4144e-05           -1.2e-13              4e-14                 6.416e-05            
  -1.6                  -6.5192e-05           -2e-14                -1e-13                6.5254e-05           
  -1.7                  -6.615e-05            -6e-14                -2e-14                6.6162e-05           
  -1.8                  -6.6888e-05           2e-14                 2e-14                 6.6916e-05           
  -1.9                  -6.7574e-05           -1e-13                -2e-14                6.7576e-05           
  -2                    -6.815e-05            -1.2e-13              -1.2e-13              6.8154e-05           
  -2.1                  -6.8646e-05           -8e-14                -2e-14                6.8656e-05           
  -2.2                  -6.9108e-05           -1.2e-13              1.2e-13               6.9158e-05           
  -2.3                  -6.956e-05            -6e-14                4e-14                 6.9568e-05           
  -2.4                  -6.9924e-05           -1.6e-13              0                     6.9882e-05           
  -2.5                  -7.0256e-05           1e-13                 3.6e-13               7.0278e-05           
  -2.6                  -7.0574e-05           -6e-14                1.06e-12              7.06e-05             
  -2.7                  -7.086e-05            -1.6e-13              2.9e-12               7.0882e-05           
  -2.8                  -7.1134e-05           4e-14                 7.08e-12              7.115e-05            
  -2.9                  -7.1392e-05           -4e-14                1.598e-11             7.1414e-05           
  -3                    -7.1624e-05           -6e-14                3.396e-11             7.1642e-05           
  -3.1                  -7.1854e-05           -1e-13                6.908e-11             7.1848e-05           
  -3.2                  -7.2078e-05           0                     1.3614e-10            7.208e-05            
  -3.3                  -7.2292e-05           -1.4e-13              2.5836e-10            7.2306e-05           
  -3.4                  -7.2454e-05           -1e-13                4.7542e-10            7.243e-05            
  -3.5                  -7.2708e-05           4e-14                 8.5276e-10            7.2724e-05           
  -3.6                  -7.2906e-05           -4e-14                1.4872e-09            7.292e-05            
END_DB

BEGIN_DB
 ICCAP_VAR vg         -3.6           
 ICCAP_VAR vb         -0             
 ICCAP_VAR vs         -0             

 #vd                    id                    ig                    ib                    is                   
  -0                    2.1096e-09            -4.6e-13              -8e-14                -2.2338e-09          
  -0.1                  -9.25e-06             -3e-13                -1.4e-13              9.254e-06            
  -0.2                  -1.8112e-05           -3.2e-13              -4e-14                1.813e-05            
  -0.3                  -2.6526e-05           -4.4e-13              -1.2e-13              2.6542e-05           
  -0.4                  -3.441e-05            -2.2e-13              -8e-14                3.443e-05            
  -0.5                  -4.1792e-05           -1.6e-13              -6e-14                4.1812e-05           
  -0.6                  -4.8624e-05           -3.6e-13              -8e-14                4.8642e-05           
  -0.7                  -5.4886e-05           -3e-13                -1.6e-13              5.4908e-05           
  -0.8                  -6.0622e-05           -1.4e-13              4e-14                 6.0646e-05           
