! VERSION = 6.00
BEGIN_HEADER
 ICCAP_INPUTS
  vd         V  D GROUND SMU1 0.1 LIN        1    -0         -3.6       37   -0.1      
  vg         V  G GROUND SMU2 0.001 LIST       2 3 -0.44 -0.64 -0.84
  vb         V  B GROUND SMU4 0.1 CON        -0
  vs         V  S GROUND SMU3 0.1 CON        -0
 ICCAP_OUTPUTS
  id         I  D GROUND SMU1 B
  ig         I  G GROUND SMU2 B
  ib         I  B GROUND SMU4 B
  is         I  S GROUND SMU3 B
 ICCAP_VALUES
  MASTER_SETUP_TYPE "~dc_idvd~"
  LINVT_VALUE ""
  LISTVT_VALUE "|idvg|100.0n|-200.0m|1.000m|3|200.0m|200.0m|"
  TYPE "-1"
  TEMP " 70.0000 "
  IS_TNOM " 0.00000 "
  MAIN.W "300.0n"
  MAIN.L "10.00u"
  MAIN.AD "102.0f"
  MAIN.AS "102.0f"
  MAIN.PD "1.280u"
  MAIN.PS "1.280u"
  MAIN.NF "1.000"
  MAIN.M "1"
  MAIN.NRD "0.000"
  MAIN.NRS "0.000"
  MAIN.LDRIFT1 "1E-06"
  MAIN.LDRIFT2 "1E-06"
  MAIN.SA "0.000"
  MAIN.SB "0.000"
  MAIN.SD "0.000"
  MAIN.SCA "0.000"
  MAIN.SCB "0.000"
  MAIN.SCC "0.000"
  MAIN.SC "0.000"
  MODULE "S555"
  PIN_D "14"
  PIN_G "7"
  PIN_S "8"
  PIN_B "13"
  PIN_E ""
  PIN_6 ""
  XY_ID ""
  FUNC "Narrow"
  STI "SA ref"
  WPE "WPE ref"
  COMMENT ""
  DIS_MEAS ""
  TypeTCI "10"
END_HEADER

BEGIN_DB
 ICCAP_VAR vg         -0.44          
 ICCAP_VAR vb         -0             
 ICCAP_VAR vs         -0             

 #vd                    id                    ig                    ib                    is                   
  -0                    5.8e-13               7.8e-13               -1.554e-11            8e-14                
  -0.1                  -6.7e-11              7e-13                 -1.486e-11            6.67e-11             
  -0.2                  -6.918e-11            4.2e-13               -1.378e-11            6.904e-11            
  -0.3                  -6.938e-11            5.2e-13               -1.264e-11            6.91e-11             
  -0.4                  -6.946e-11            4.2e-13               -1.136e-11            6.93e-11             
  -0.5                  -6.96e-11             5.8e-13               -1.024e-11            6.918e-11            
  -0.6                  -6.97e-11             4.2e-13               -9.16e-12             6.918e-11            
  -0.7                  -6.978e-11            3.4e-13               -8.18e-12             6.934e-11            
  -0.8                  -6.982e-11            3.2e-13               -7.22e-12             6.918e-11            
  -0.9                  -6.988e-11            2.8e-13               -6.28e-12             6.916e-11            
  -1                    -6.998e-11            5e-13                 -5.66e-12             6.928e-11            
  -1.1                  -7e-11                1.8e-13               -4.9e-12              6.922e-11            
  -1.2                  -6.99e-11             3e-13                 -4.26e-12             6.926e-11            
  -1.3                  -7e-11                3e-13                 -3.52e-12             6.912e-11            
  -1.4                  -6.998e-11            3.8e-13               -3.06e-12             6.918e-11            
  -1.5                  -7.012e-11            4.2e-13               -2.54e-12             6.914e-11            
  -1.6                  -7.012e-11            1.6e-13               -2.06e-12             6.922e-11            
  -1.7                  -7.028e-11            2.6e-13               -1.7e-12              6.928e-11            
  -1.8                  -7.02e-11             2.2e-13               -1.16e-12             6.93e-11             
  -1.9                  -7.016e-11            2.4e-13               -9.4e-13              6.93e-11             
  -2                    -7.018e-11            1.6e-13               -4e-13                6.936e-11            
  -2.1                  -7.034e-11            2.6e-13               -2.4e-13              6.928e-11            
  -2.2                  -7.02e-11             2.2e-13               1.4e-13               6.914e-11            
  -2.3                  -7.034e-11            2.8e-13               5.8e-13               6.924e-11            
  -2.4                  -7.038e-11            2.4e-13               8.6e-13               6.924e-11            
  -2.5                  -7.044e-11            2.8e-13               1.04e-12              6.926e-11            
  -2.6                  -7.034e-11            2e-13                 1.28e-12              6.934e-11            
  -2.7                  -7.04e-11             1.2e-13               1.56e-12              6.938e-11            
  -2.8                  -7.042e-11            2.6e-13               1.88e-12              6.914e-11            
  -2.9                  -7.056e-11            2.2e-13               2e-12                 6.938e-11            
  -3                    -7.06e-11             1.2e-13               2.24e-12              6.932e-11            
  -3.1                  -7.082e-11            1.4e-13               2.52e-12              6.936e-11            
  -3.2                  -7.066e-11            8e-14                 2.68e-12              6.932e-11            
  -3.3                  -7.076e-11            1.2e-13               3e-12                 6.946e-11            
  -3.4                  -7.104e-11            3.4e-13               3.34e-12              6.934e-11            
  -3.5                  -7.098e-11            1.2e-13               3.46e-12              6.93e-11             
  -3.6                  -7.126e-11            1e-13                 3.78e-12              6.942e-11            
END_DB

BEGIN_DB
 ICCAP_VAR vg         -0.64          
 ICCAP_VAR vb         -0             
 ICCAP_VAR vs         -0             

 #vd                    id                    ig                    ib                    is                   
  -0                    3.28e-12              2e-14                 -7.78e-12             -2.4e-12             
  -0.1                  -2.8844e-09           1.4e-13               -7.68e-12             2.8822e-09           
  -0.2                  -3.0796e-09           -2e-14                -7.34e-12             3.0794e-09           
  -0.3                  -3.0886e-09           4e-14                 -6.84e-12             3.0874e-09           
  -0.4                  -3.0902e-09           6e-14                 -6.32e-12             3.089e-09            
  -0.5                  -3.0916e-09           -2e-14                -5.68e-12             3.0902e-09           
  -0.6                  -3.092e-09            8e-14                 -5.08e-12             3.0908e-09           
  -0.7                  -3.0922e-09           -4e-14                -4.48e-12             3.0912e-09           
  -0.8                  -3.0922e-09           2e-14                 -4.02e-12             3.091e-09            
  -0.9                  -3.093e-09            8e-14                 -3.4e-12              3.091e-09            
  -1                    -3.0924e-09           0                     -2.82e-12             3.091e-09            
  -1.1                  -3.0942e-09           -2e-14                -2.52e-12             3.0918e-09           
  -1.2                  -3.0944e-09           1.4e-13               -1.92e-12             3.0924e-09           
  -1.3                  -3.0948e-09           1.6e-13               -1.44e-12             3.093e-09            
  -1.4                  -3.0938e-09           6e-14                 -1.18e-12             3.092e-09            
  -1.5                  -3.0944e-09           2.2e-13               -7.6e-13              3.0936e-09           
  -1.6                  -3.0966e-09           6e-14                 -4e-13                3.094e-09            
  -1.7                  -3.0958e-09           -1e-13                -6e-14                3.0944e-09           
  -1.8                  -3.0966e-09           1e-13                 2.8e-13               3.0944e-09           
  -1.9                  -3.0966e-09           8e-14                 6e-13                 3.0944e-09           
  -2                    -3.0976e-09           4e-14                 9e-13                 3.094e-09            
  -2.1                  -3.0968e-09           4e-14                 1.12e-12              3.0948e-09           
  -2.2                  -3.0978e-09           -8e-14                1.52e-12              3.0952e-09           
  -2.3                  -3.0972e-09           2e-14                 1.7e-12               3.0952e-09           
  -2.4                  -3.0976e-09           -1.2e-13              1.96e-12              3.0948e-09           
  -2.5                  -3.0978e-09           1.2e-13               2.36e-12              3.095e-09            
  -2.6                  -3.0986e-09           1e-13                 2.66e-12              3.0964e-09           
  -2.7                  -3.0992e-09           -2e-14                3e-12                 3.0958e-09           
  -2.8                  -3.0994e-09           2.4e-13               3.52e-12              3.096e-09            
  -2.9                  -3.1002e-09           4e-14                 4.04e-12              3.0966e-09           
  -3                    -3.1004e-09           1.4e-13               4.98e-12              3.0968e-09           
  -3.1                  -3.1024e-09           0                     5.9e-12               3.097e-09            
  -3.2                  -3.1036e-09           2e-14                 7.54e-12              3.0964e-09           
  -3.3                  -3.1052e-09           6e-14                 9.38e-12              3.0982e-09           
  -3.4                  -3.11e-09             2e-14                 1.204e-11             3.0988e-09           
  -3.5                  -3.1132e-09           6e-14                 1.552e-11             3.0986e-09           
  -3.6                  -3.118e-09            0                     2.012e-11             3.0996e-09           
END_DB

BEGIN_DB
 ICCAP_VAR vg         -0.84          
 ICCAP_VAR vb         -0             
 ICCAP_VAR vs         -0             

 #vd                    id                    ig                    ib                    is                   
  -0                    1.046e-11             -4e-14                -5.74e-12             -1.006e-11           
  -0.1                  -1.868e-08            2e-14                 -5.78e-12             1.8696e-08           
  -0.2                  -2.4314e-08           -4e-14                -5.56e-12             2.4326e-08           
  -0.3                  -2.4942e-08           0                     -5.22e-12             2.4964e-08           
  -0.4                  -2.4982e-08           -6e-14                -4.78e-12             2.5006e-08           
  -0.5                  -2.4994e-08           -1e-13                -4.4e-12              2.502e-08            
  -0.6                  -2.501e-08            -4e-14                -3.88e-12             2.5024e-08           
  -0.7                  -2.5016e-08           -2e-13                -3.52e-12             2.503e-08            
  -0.8                  -2.5016e-08           -1e-13                -3.02e-12             2.5034e-08           
  -0.9                  -2.5024e-08           4e-14                 -2.62e-12             2.504e-08            
  -1                    -2.5028e-08           -1.2e-13              -2.16e-12             2.5046e-08           
  -1.1                  -2.5032e-08           8e-14                 -1.64e-12             2.5044e-08           
  -1.2                  -2.5028e-08           -8e-14                -1.3e-12              2.5042e-08           
  -1.3                  -2.5038e-08           -1.6e-13              -8.8e-13              2.506e-08            
  -1.4                  -2.5044e-08           -4e-14                -4.8e-13              2.5062e-08           
  -1.5                  -2.505e-08            -4e-14                -1.2e-13              2.5064e-08           
  -1.6                  -2.5054e-08           1.4e-13               1.4e-13               2.507e-08            
  -1.7                  -2.5058e-08           2e-13                 4.8e-13               2.507e-08            
  -1.8                  -2.506e-08            -1e-13                6.4e-13               2.5066e-08           
  -1.9                  -2.5058e-08           -2e-14                1.02e-12              2.507e-08            
  -2                    -2.5062e-08           0                     1.4e-12               2.5074e-08           
  -2.1                  -2.506e-08            2e-14                 1.62e-12              2.5082e-08           
  -2.2                  -2.5074e-08           0                     1.98e-12              2.5084e-08           
  -2.3                  -2.5068e-08           -8e-14                2.22e-12              2.5088e-08           
  -2.4                  -2.5076e-08           0                     2.54e-12              2.5088e-08           
  -2.5                  -2.5072e-08           1.6e-13               3.16e-12              2.5086e-08           
  -2.6                  -2.5076e-08           0                     3.74e-12              2.5092e-08           
  -2.7                  -2.5078e-08           -4e-14                4.64e-12              2.5092e-08           
  -2.8                  -2.5082e-08           1.2e-13               6.06e-12              2.5096e-08           
  -2.9                  -2.5088e-08           -1.2e-13              7.94e-12              2.5102e-08           
  -3                    -2.5092e-08           6e-14                 1.088e-11             2.5092e-08           
  -3.1                  -2.509e-08            1.6e-13               1.512e-11             2.508e-08            
  -3.2                  -2.51e-08             -4e-14                2.118e-11             2.51e-08             
  -3.3                  -2.5116e-08           6e-14                 2.988e-11             2.5114e-08           
  -3.4                  -2.5134e-08           -4e-14                4.214e-11             2.511e-08            
  -3.5                  -2.5144e-08           -2e-14                5.926e-11             2.511e-08            
  -3.6                  -2.5178e-08           -6e-14                8.264e-11             2.5114e-08           
END_DB

