! VERSION = 6.00
BEGIN_HEADER
 ICCAP_INPUTS
  vg         V  G GROUND SMU2 0.001 LIN        1    0.5        -3.6       83   -0.05     
  vb         V  B GROUND SMU4 0.1 LIN        2    0          3.6        5    0.9       
  vd         V  D GROUND SMU1 0.1 LIN        3    -0.1       -3.3       3    -1.6      
  vs         V  S GROUND SMU3 0.1 CON        -0
 ICCAP_OUTPUTS
  id         I  D GROUND SMU1 B
  ig         I  G GROUND SMU2 B
  ib         I  B GROUND SMU4 B
  is         I  S GROUND SMU3 B
 ICCAP_VALUES
  MASTER_SETUP_TYPE "~dc_idvg~"
  LINVT_VALUE ""
  LISTVT_VALUE ""
  TYPE "-1"
  TEMP " 27.0000 "
  IS_TNOM " 1.00000 "
  MAIN.W "600.0n"
  MAIN.L "330.0n"
  MAIN.AD "204.0f"
  MAIN.AS "204.0f"
  MAIN.PD "1.880u"
  MAIN.PS "1.880u"
  MAIN.NF "1.000"
  MAIN.M "1"
  MAIN.NRD "0.000"
  MAIN.NRS "0.000"
  MAIN.LDRIFT1 "1E-06"
  MAIN.LDRIFT2 "1E-06"
  MAIN.SA "0.000"
  MAIN.SB "0.000"
  MAIN.SD "0.000"
  MAIN.SCA "0.000"
  MAIN.SCB "0.000"
  MAIN.SCC "0.000"
  MAIN.SC "0.000"
  MODULE "S564"
  PIN_D "20"
  PIN_G "1"
  PIN_S "2"
  PIN_B "19"
  PIN_E ""
  PIN_6 ""
  XY_ID ""
  FUNC "Additional"
  STI "SA ref"
  WPE "WPE ref"
  COMMENT ""
  DIS_MEAS ""
  TypeTCI "10"
END_HEADER

BEGIN_DB
 ICCAP_VAR vb         0              
 ICCAP_VAR vd         -0.1           
 ICCAP_VAR vs         -0             

 #vg                    id                    ig                    ib                    is                   
  0.5                   -2e-14                1.896e-11             -4.82e-12             6e-14                
  0.45                  -1.2e-13              2.94e-12              -7.8e-13              4e-14                
  0.4                   -8e-14                4.2e-13               -1.8e-13              8e-14                
  0.35                  -1.2e-13              4e-14                 0                     1.8e-13              
  0.3                   -1.2e-13              -4e-14                -6e-14                6e-14                
  0.25                  -6e-14                -2.4e-13              2e-14                 1.4e-13              
  0.2                   -1.8e-13              -2.6e-13              -1.2e-13              8e-14                
  0.15                  -4e-14                -3.2e-13              0                     2e-14                
  0.1                   -1.2e-13              -2.6e-13              -8e-14                1e-13                
  0.05                  -8e-14                -3e-13                -6e-14                6e-14                
  0                     -1.8e-13              -4e-13                0                     1.8e-13              
  -0.05                 -3.6e-13              -4e-13                -8e-14                4.4e-13              
  -0.1                  -1.02e-12             -3.4e-13              -8e-14                1.2e-12              
  -0.15                 -3.68e-12             -4.2e-13              -1e-13                3.78e-12             
  -0.2                  -1.268e-11            -4.4e-13              -2e-14                1.266e-11            
  -0.25                 -4.394e-11            -4.6e-13              -1.8e-13              4.386e-11            
  -0.3                  -1.5278e-10           -4.4e-13              0                     1.5282e-10           
  -0.35                 -5.3646e-10           -5e-13                -8e-14                5.3596e-10           
  -0.4                  -1.8716e-09           -3.2e-13              -2e-14                1.872e-09            
  -0.45                 -6.3808e-09           -4.4e-13              2e-14                 6.3726e-09           
  -0.5                  -2.0804e-08           -4.6e-13              -4e-14                2.0832e-08           
  -0.55                 -6.2248e-08           -3.4e-13              -2e-14                6.231e-08            
  -0.6                  -1.6116e-07           -4.8e-13              -8e-14                1.6112e-07           
  -0.65                 -3.5308e-07           -4.8e-13              6e-14                 3.5302e-07           
  -0.7                  -6.5706e-07           -5.8e-13              -1.2e-13              6.5762e-07           
  -0.75                 -1.06582e-06          -6.2e-13              6e-14                 1.06626e-06          
  -0.8                  -1.5428e-06           -4.6e-13              0                     1.549e-06            
  -0.85                 -2.0642e-06           -5.8e-13              -6e-14                2.0668e-06           
  -0.9                  -2.5962e-06           -5e-13                -8e-14                2.599e-06            
  -0.95                 -3.1286e-06           -5.4e-13              -4e-14                3.131e-06            
  -1                    -3.65e-06             -6.2e-13              2e-14                 3.6534e-06           
  -1.05                 -4.1604e-06           -6.2e-13              -1e-13                4.1656e-06           
  -1.1                  -4.6548e-06           -6.6e-13              4e-14                 4.6602e-06           
  -1.15                 -5.1376e-06           -5.6e-13              0                     5.137e-06            
  -1.2                  -5.6046e-06           -6e-13                -2e-14                5.6048e-06           
  -1.25                 -6.059e-06            -6.4e-13              -1e-13                6.0602e-06           
  -1.3                  -6.4978e-06           -7e-13                0                     6.5022e-06           
  -1.35                 -6.9274e-06           -6.8e-13              -1.6e-13              6.931e-06            
  -1.4                  -7.3448e-06           -6.4e-13              8e-14                 7.3498e-06           
  -1.45                 -7.749e-06            -6.2e-13              -2.2e-13              7.7534e-06           
  -1.5                  -8.145e-06            -6.2e-13              2e-14                 8.1482e-06           
  -1.55                 -8.5262e-06           -7e-13                -1e-13                8.5302e-06           
  -1.6                  -8.9024e-06           -7.4e-13              -8e-14                8.9058e-06           
  -1.65                 -9.2666e-06           -6.4e-13              -1e-13                9.271e-06            
  -1.7                  -9.6234e-06           -7.2e-13              4e-14                 9.628e-06            
  -1.75                 -9.9736e-06           -7e-13                -1.2e-13              9.9758e-06           
  -1.8                  -1.03118e-05          -7e-13                -2e-14                1.03148e-05          
  -1.85                 -1.06448e-05          -6.2e-13              -8e-14                1.06464e-05          
  -1.9                  -1.09668e-05          -6.8e-13              0                     1.09698e-05          
  -1.95                 -1.12844e-05          -6.8e-13              -1.6e-13              1.12882e-05          
  -2                    -1.1578e-05           -5.6e-13              0                     1.16e-05             
  -2.05                 -1.1884e-05           -7.2e-13              -1.6e-13              1.1904e-05           
  -2.1                  -1.2182e-05           -6.2e-13              -6e-14                1.22e-05             
  -2.15                 -1.247e-05            -6.8e-13              -8e-14                1.249e-05            
  -2.2                  -1.2756e-05           -7.2e-13              -4e-14                1.2774e-05           
  -2.25                 -1.3032e-05           -7.2e-13              -1e-13                1.3052e-05           
  -2.3                  -1.3306e-05           -7.2e-13              -6e-14                1.3326e-05           
  -2.35                 -1.3572e-05           -7.8e-13              -1.4e-13              1.3592e-05           
  -2.4                  -1.3836e-05           -7.6e-13              -1e-13                1.3856e-05           
  -2.45                 -1.4094e-05           -6.8e-13              -1.6e-13              1.4112e-05           
  -2.5                  -1.4344e-05           -7.6e-13              -6e-14                1.4364e-05           
  -2.55                 -1.459e-05            -7.2e-13              -4e-14                1.4612e-05           
  -2.6                  -1.4832e-05           -7.8e-13              -2e-14                1.4854e-05           
  -2.65                 -1.507e-05            -8.2e-13              -6e-14                1.5082e-05           
  -2.7                  -1.5302e-05           -8e-13                -2e-14                1.5322e-05           
  -2.75                 -1.5532e-05           -7.4e-13              -8e-14                1.5552e-05           
  -2.8                  -1.5752e-05           -8.6e-13              2e-14                 1.5774e-05           
  -2.85                 -1.5974e-05           -7.6e-13              -1e-13                1.5992e-05           
  -2.9                  -1.619e-05            -8.2e-13              -2e-14                1.6206e-05           
  -2.95                 -1.6402e-05           -8.2e-13              -1.2e-13              1.6412e-05           
  -3                    -1.6604e-05           -8e-13                -1.2e-13              1.6618e-05           
  -3.05                 -1.6804e-05           -8.8e-13              -1.2e-13              1.682e-05            
  -3.1                  -1.6996e-05           -7.8e-13              -8e-14                1.7018e-05           
  -3.15                 -1.7202e-05           -8.4e-13              -2e-14                1.722e-05            
  -3.2                  -1.7388e-05           -9e-13                0                     1.7408e-05           
  -3.25                 -1.758e-05            -8.2e-13              -6e-14                1.7588e-05           
  -3.3                  -1.7766e-05           -8.2e-13              -1e-13                1.7772e-05           
  -3.35                 -1.7936e-05           -7.4e-13              -4e-14                1.7952e-05           
  -3.4                  -1.8114e-05           -7.8e-13              -2.2e-13              1.8144e-05           
  -3.45                 -1.8288e-05           -8.6e-13              -4e-14                1.832e-05            
  -3.5                  -1.846e-05            -8.8e-13              -2.6e-13              1.848e-05            
  -3.55                 -1.864e-05            -7.6e-13              2e-14                 1.8662e-05           
  -3.6                  -1.8798e-05           -8.8e-13              -2.2e-13              1.881e-05            
END_DB

BEGIN_DB
 ICCAP_VAR vb         0.9            
 ICCAP_VAR vd         -0.1           
 ICCAP_VAR vs         -0             

 #vg                    id                    ig                    ib                    is                   
  0.5                   8e-14                 6.4e-13               3.6e-13               2.2e-13              
  0.45                  4e-14                 3.2e-13               4.2e-13               6e-14                
  0.4                   4e-14                 2e-13                 2.8e-13               1.4e-13              
  0.35                  4e-14                 1e-13                 3.2e-13               1.6e-13              
  0.3                   4e-14                 1.2e-13               2e-13                 1.4e-13              
  0.25                  1e-13                 2e-14                 2.2e-13               1.4e-13              
  0.2                   2e-14                 -1e-13                1.2e-13               8e-14                
  0.15                  0                     -1.4e-13              2e-13                 2.4e-13              
  0.1                   4e-14                 -1.2e-13              8e-14                 1e-13                
  0.05                  8e-14                 -1.2e-13              1.6e-13               1e-13                
  0                     -6e-14                -1.8e-13              2.6e-13               4e-14                
  -0.05                 0                     -2.4e-13              1.2e-13               1.4e-13              
  -0.1                  6e-14                 -2e-13                2e-13                 1.2e-13              
  -0.15                 0                     -2.4e-13              2e-14                 8e-14                
  -0.2                  6e-14                 -2.6e-13              1.8e-13               4e-14                
  -0.25                 -2e-14                -3.6e-13              1.6e-13               1.4e-13              
  -0.3                  -2e-14                -3.6e-13              1.8e-13               8e-14                
  -0.35                 0                     -4.4e-13              8e-14                 1.2e-13              
  -0.4                  -8e-14                -3.8e-13              1e-13                 2e-13                
  -0.45                 -5.2e-13              -3.6e-13              1.6e-13               6.4e-13              
  -0.5                  -2e-12                -4.4e-13              1e-13                 2.08e-12             
  -0.55                 -8.2e-12              -4e-13                -2e-14                8.36e-12             
  -0.6                  -3.262e-11            -3.4e-13              2e-14                 3.272e-11            
  -0.65                 -1.2846e-10           -3.2e-13              6e-14                 1.2876e-10           
  -0.7                  -5.0246e-10           -4.8e-13              2e-14                 5.0266e-10           
  -0.75                 -1.9322e-09           -3e-13                1.2e-13               1.935e-09            
  -0.8                  -7.0882e-09           -3.8e-13              6e-14                 7.1134e-09           
  -0.85                 -2.4426e-08           -3.4e-13              1e-13                 2.4478e-08           
  -0.9                  -7.4152e-08           -3.8e-13              6e-14                 7.4188e-08           
  -0.95                 -1.9014e-07           -6e-13                4e-14                 1.9004e-07           
  -1                    -4.0476e-07           -4.6e-13              0                     4.0492e-07           
  -1.05                 -7.285e-07            -4.6e-13              -6e-14                7.2926e-07           
  -1.1                  -1.13894e-06          -4.6e-13              0                     1.14026e-06          
  -1.15                 -1.603e-06            -3.8e-13              -2e-14                1.6078e-06           
  -1.2                  -2.095e-06            -4.6e-13              -4e-14                2.1014e-06           
  -1.25                 -2.5968e-06           -6e-13                8e-14                 2.603e-06            
  -1.3                  -3.0928e-06           -6e-13                -1e-13                3.0968e-06           
  -1.35                 -3.5754e-06           -5.6e-13              8e-14                 3.5838e-06           
  -1.4                  -4.0512e-06           -5.4e-13              -6e-14                4.0532e-06           
  -1.45                 -4.5082e-06           -4.8e-13              0                     4.5116e-06           
  -1.5                  -4.9554e-06           -5.8e-13              1.2e-13               4.9588e-06           
  -1.55                 -5.3876e-06           -6.8e-13              -1.4e-13              5.3908e-06           
  -1.6                  -5.8086e-06           -6e-13                1.2e-13               5.813e-06            
  -1.65                 -6.2176e-06           -6.2e-13              -4e-14                6.222e-06            
  -1.7                  -6.614e-06            -7e-13                8e-14                 6.618e-06            
  -1.75                 -7.0014e-06           -6.4e-13              -2e-14                7.0068e-06           
  -1.8                  -7.378e-06            -7e-13                -2e-14                7.3812e-06           
  -1.85                 -7.7448e-06           -6.4e-13              -2e-14                7.7472e-06           
  -1.9                  -8.101e-06            -6.2e-13              1e-13                 8.1054e-06           
  -1.95                 -8.4508e-06           -6.6e-13              -6e-14                8.454e-06            
  -2                    -8.7896e-06           -6.2e-13              4e-14                 8.7932e-06           
  -2.05                 -9.1208e-06           -6.6e-13              -8e-14                9.125e-06            
  -2.1                  -9.4452e-06           -6.4e-13              -8e-14                9.4486e-06           
  -2.15                 -9.7606e-06           -6.6e-13              -6e-14                9.765e-06            
  -2.2                  -1.007e-05            -7e-13                0                     1.00734e-05          
  -2.25                 -1.03712e-05          -8e-13                -4e-14                1.03754e-05          
  -2.3                  -1.06684e-05          -8e-13                -4e-14                1.06726e-05          
  -2.35                 -1.09572e-05          -6.2e-13              2e-14                 1.09616e-05          
  -2.4                  -1.12406e-05          -7e-13                -2e-14                1.12446e-05          
  -2.45                 -1.1508e-05           -6.2e-13              -4e-14                1.1528e-05           
  -2.5                  -1.1778e-05           -7e-13                -4e-14                1.1798e-05           
  -2.55                 -1.2044e-05           -6.8e-13              6e-14                 1.2062e-05           
  -2.6                  -1.2302e-05           -6.4e-13              -2e-14                1.2322e-05           
  -2.65                 -1.2552e-05           -7e-13                2e-14                 1.2572e-05           
  -2.7                  -1.2802e-05           -6.4e-13              0                     1.282e-05            
  -2.75                 -1.3044e-05           -7.4e-13              -4e-14                1.3066e-05           
  -2.8                  -1.3294e-05           -7.2e-13              0                     1.3312e-05           
  -2.85                 -1.3528e-05           -7.4e-13              -1.8e-13              1.3548e-05           
  -2.9                  -1.3754e-05           -6.6e-13              2e-14                 1.3774e-05           
  -2.95                 -1.3982e-05           -7.6e-13              -1.6e-13              1.3996e-05           
  -3                    -1.4204e-05           -7e-13                0                     1.4224e-05           
  -3.05                 -1.4422e-05           -8e-13                -2e-13                1.444e-05            
  -3.1                  -1.4628e-05           -8.4e-13              -6e-14                1.4656e-05           
  -3.15                 -1.4836e-05           -8.2e-13              -4e-14                1.486e-05            
  -3.2                  -1.5042e-05           -7.4e-13              -2e-14                1.507e-05            
  -3.25                 -1.524e-05            -8.8e-13              -1.2e-13              1.5262e-05           
  -3.3                  -1.5436e-05           -7.4e-13              0                     1.5464e-05           
  -3.35                 -1.5632e-05           -7.8e-13              -4e-14                1.566e-05            
  -3.4                  -1.5818e-05           -8.6e-13              -2e-14                1.5838e-05           
  -3.45                 -1.601e-05            -9e-13                0                     1.6014e-05           
