! VERSION = 6.00
BEGIN_HEADER
 ICCAP_INPUTS
  vd         V  D GROUND SMU1 0.1 LIN        1    -0         -3.6       37   -0.1      
  vg         V  G GROUND SMU2 0.001 LIN        2    -1.592     -3.6       5    -0.502    
  vb         V  B GROUND SMU4 0.1 CON        3.6
  vs         V  S GROUND SMU3 0.1 CON        -0
 ICCAP_OUTPUTS
  id         I  D GROUND SMU1 B
  ig         I  G GROUND SMU2 B
  ib         I  B GROUND SMU4 B
  is         I  S GROUND SMU3 B
 ICCAP_VALUES
  MASTER_SETUP_TYPE "~dc_idvd~"
  LINVT_VALUE "|idvg|100.0n|100.0m|1.000m|5|3.600|"
  LISTVT_VALUE ""
  TYPE "-1"
  TEMP " 27.0000 "
  IS_TNOM " 1.00000 "
  MAIN.W "600.0n"
  MAIN.L "330.0n"
  MAIN.AD "204.0f"
  MAIN.AS "204.0f"
  MAIN.PD "1.880u"
  MAIN.PS "1.880u"
  MAIN.NF "1.000"
  MAIN.M "1"
  MAIN.NRD "0.000"
  MAIN.NRS "0.000"
  MAIN.LDRIFT1 "1E-06"
  MAIN.LDRIFT2 "1E-06"
  MAIN.SA "0.000"
  MAIN.SB "0.000"
  MAIN.SD "0.000"
  MAIN.SCA "0.000"
  MAIN.SCB "0.000"
  MAIN.SCC "0.000"
  MAIN.SC "0.000"
  MODULE "S564"
  PIN_D "20"
  PIN_G "1"
  PIN_S "2"
  PIN_B "19"
  PIN_E ""
  PIN_6 ""
  XY_ID ""
  FUNC "Additional"
  STI "SA ref"
  WPE "WPE ref"
  COMMENT ""
  DIS_MEAS ""
  TypeTCI "10"
END_HEADER

BEGIN_DB
 ICCAP_VAR vg         -1.592         
 ICCAP_VAR vb         3.6            
 ICCAP_VAR vs         -0             

 #vd                    id                    ig                    ib                    is                   
  -0                    2.6884e-10            -5.6e-13              1.46e-12              -3.5022e-10          
  -0.1                  -2.976e-07            -4.4e-13              1.42e-12              2.9798e-07           
  -0.2                  -3.9236e-07           -4e-13                1.22e-12              3.9208e-07           
  -0.3                  -4.5602e-07           -3.4e-13              1.18e-12              4.5644e-07           
  -0.4                  -5.1258e-07           -3.6e-13              1.18e-12              5.1134e-07           
  -0.5                  -5.625e-07            -3.4e-13              1.12e-12              5.5932e-07           
  -0.6                  -6.0766e-07           -3.8e-13              1.04e-12              6.0764e-07           
  -0.7                  -6.5414e-07           -2.6e-13              1.04e-12              6.533e-07            
  -0.8                  -6.9992e-07           -2.8e-13              9.8e-13               7.0078e-07           
  -0.9                  -7.4488e-07           -3e-13                9.8e-13               7.4446e-07           
  -1                    -7.9002e-07           -2.6e-13              9.8e-13               7.8768e-07           
  -1.1                  -8.3342e-07           -3.2e-13              8.8e-13               8.3324e-07           
  -1.2                  -8.7584e-07           -2.6e-13              1e-12                 8.7884e-07           
  -1.3                  -9.2386e-07           -1.8e-13              8.2e-13               9.2374e-07           
  -1.4                  -9.6506e-07           -2.6e-13              7.6e-13               9.6912e-07           
  -1.5                  -1.0132e-06           -2.2e-13              9.2e-13               1.01322e-06          
  -1.6                  -1.05596e-06          -2.6e-13              8e-13                 1.0584e-06           
  -1.7                  -1.10452e-06          -2.6e-13              7.2e-13               1.1002e-06           
  -1.8                  -1.1486e-06           -1.6e-13              8.2e-13               1.1528e-06           
  -1.9                  -1.1946e-06           -2e-13                7.4e-13               1.1974e-06           
  -2                    -1.2426e-06           -1.8e-13              1.02e-12              1.2426e-06           
  -2.1                  -1.2916e-06           -1.8e-13              1.52e-12              1.2934e-06           
  -2.2                  -1.338e-06            -1.8e-13              2.52e-12              1.3396e-06           
  -2.3                  -1.3904e-06           -1.8e-13              4.98e-12              1.3966e-06           
  -2.4                  -1.4362e-06           -2.4e-13              9.86e-12              1.4428e-06           
  -2.5                  -1.4914e-06           -2.2e-13              1.902e-11             1.492e-06            
  -2.6                  -1.541e-06            -1.2e-13              3.638e-11             1.5426e-06           
  -2.7                  -1.5926e-06           -2.8e-13              6.846e-11             1.5974e-06           
  -2.8                  -1.6524e-06           -1.8e-13              1.2384e-10            1.6508e-06           
  -2.9                  -1.7094e-06           -2.6e-13              2.2014e-10            1.7058e-06           
  -3                    -1.7618e-06           -1.6e-13              3.8286e-10            1.7636e-06           
  -3.1                  -1.815e-06            -2.4e-13              6.4846e-10            1.822e-06            
  -3.2                  -1.875e-06            -3.2e-13              1.0806e-09            1.8802e-06           
  -3.3                  -1.939e-06            -2.6e-13              1.7682e-09            1.9376e-06           
  -3.4                  -1.9984e-06           -2.8e-13              2.8424e-09            2.0012e-06           
  -3.5                  -2.0658e-06           -2e-13                4.4736e-09            2.0718e-06           
  -3.6                  -2.1406e-06           -1.6e-13              6.9324e-09            2.1338e-06           
END_DB

BEGIN_DB
 ICCAP_VAR vg         -2.094         
 ICCAP_VAR vb         3.6            
 ICCAP_VAR vs         -0             

 #vd                    id                    ig                    ib                    is                   
  -0                    2.3486e-09            -1.6e-13              2.8e-13               -2.1826e-09          
  -0.1                  -4.3588e-06           -1.6e-13              3.6e-13               4.3616e-06           
  -0.2                  -7.7838e-06           -2.4e-13              3.8e-13               7.7856e-06           
  -0.3                  -1.03026e-05          -2.8e-13              4e-13                 1.03008e-05          
  -0.4                  -1.2044e-05           -2.2e-13              3.4e-13               1.2064e-05           
  -0.5                  -1.3252e-05           -2.6e-13              3.6e-13               1.3272e-05           
  -0.6                  -1.4112e-05           -2.8e-13              5e-13                 1.4134e-05           
  -0.7                  -1.476e-05            -2.2e-13              3e-13                 1.4782e-05           
  -0.8                  -1.5298e-05           -1.8e-13              2.6e-13               1.5316e-05           
  -0.9                  -1.5754e-05           -2e-13                3.2e-13               1.5774e-05           
  -1                    -1.6146e-05           -3.2e-13              3.2e-13               1.6172e-05           
  -1.1                  -1.6518e-05           -1e-13                3.2e-13               1.6538e-05           
  -1.2                  -1.6858e-05           -2.2e-13              4e-13                 1.6878e-05           
  -1.3                  -1.7176e-05           -2e-13                3.6e-13               1.7198e-05           
  -1.4                  -1.7484e-05           -2.8e-13              1.4e-13               1.7498e-05           
  -1.5                  -1.7772e-05           -1.8e-13              3.8e-13               1.7796e-05           
  -1.6                  -1.8054e-05           -2.2e-13              4.2e-13               1.807e-05            
  -1.7                  -1.8318e-05           -3e-13                2.8e-13               1.834e-05            
  -1.8                  -1.859e-05            -2.4e-13              2e-13                 1.861e-05            
  -1.9                  -1.8846e-05           -2.2e-13              4e-13                 1.8864e-05           
  -2                    -1.9096e-05           -2e-13                4.2e-13               1.9114e-05           
  -2.1                  -1.935e-05            -2.4e-13              9.2e-13               1.9362e-05           
  -2.2                  -1.9596e-05           -1.6e-13              2.16e-12              1.962e-05            
  -2.3                  -1.984e-05            -2.6e-13              4.88e-12              1.9856e-05           
  -2.4                  -2.0082e-05           -2.6e-13              1.1e-11               2.0106e-05           
  -2.5                  -2.0324e-05           -1.4e-13              2.394e-11             2.0344e-05           
  -2.6                  -2.0562e-05           -1e-13                5.016e-11             2.0582e-05           
  -2.7                  -2.08e-05             -2.4e-13              1.0176e-10            2.082e-05            
  -2.8                  -2.1038e-05           -2.4e-13              1.9918e-10            2.1052e-05           
  -2.9                  -2.1272e-05           -2.2e-13              3.7806e-10            2.129e-05            
  -3                    -2.1512e-05           -2e-13                6.978e-10             2.1528e-05           
  -3.1                  -2.173e-05            -1.6e-13              1.2524e-09            2.1746e-05           
  -3.2                  -2.1984e-05           -1.4e-13              2.2046e-09            2.1968e-05           
  -3.3                  -2.212e-05            -2.6e-13              3.7868e-09            2.214e-05            
  -3.4                  -2.2354e-05           -1.8e-13              6.3488e-09            2.2336e-05           
  -3.5                  -2.2554e-05           -1.2e-13              1.05502e-08           2.256e-05            
  -3.6                  -2.2732e-05           -1e-13                1.7062e-08            2.2772e-05           
END_DB

BEGIN_DB
 ICCAP_VAR vg         -2.596         
 ICCAP_VAR vb         3.6            
 ICCAP_VAR vs         -0             

 #vd                    id                    ig                    ib                    is                   
  -0                    2.9194e-09            -2.6e-13              4e-14                 -3.258e-09           
  -0.1                  -7.7838e-06           -2e-13                1.6e-13               7.788e-06            
  -0.2                  -1.4792e-05           -1.8e-13              0                     1.4812e-05           
  -0.3                  -2.0962e-05           -1.6e-13              1.2e-13               2.0982e-05           
  -0.4                  -2.6246e-05           -2.6e-13              2.6e-13               2.6268e-05           
  -0.5                  -3.068e-05            -2e-13                3e-13                 3.0674e-05           
  -0.6                  -3.4302e-05           -2e-13                1.8e-13               3.4324e-05           
  -0.7                  -3.7198e-05           -2.2e-13              1e-13                 3.7214e-05           
  -0.8                  -3.9468e-05           -2.4e-13              1.6e-13               3.9498e-05           
  -0.9                  -4.1296e-05           -1.8e-13              2.2e-13               4.1322e-05           
  -1                    -4.2752e-05           -2.2e-13              2e-13                 4.2776e-05           
  -1.1                  -4.3948e-05           -3.2e-13              1e-13                 4.3966e-05           
  -1.2                  -4.4946e-05           -1e-13                1.4e-13               4.4968e-05           
  -1.3                  -4.5806e-05           -1.4e-13              2.6e-13               4.583e-05            
  -1.4                  -4.6574e-05           -2.4e-13              1.2e-13               4.6592e-05           
  -1.5                  -4.7264e-05           -2.8e-13              8e-14                 4.7276e-05           
  -1.6                  -4.7888e-05           -2e-13                1.8e-13               4.7914e-05           
  -1.7                  -4.8486e-05           -2.6e-13              1.6e-13               4.8502e-05           
  -1.8                  -4.9066e-05           -2.4e-13              1.8e-13               4.908e-05            
  -1.9                  -4.9588e-05           -2e-13                2.2e-13               4.9604e-05           
  -2                    -5.0086e-05           -1.8e-13              2.4e-13               5.0106e-05           
  -2.1                  -5.057e-05            -2.8e-13              2.4e-13               5.0582e-05           
  -2.2                  -5.103e-05            -2.6e-13              5e-13                 5.1058e-05           
  -2.3                  -5.1432e-05           -2.4e-13              1.2e-12               5.1506e-05           
  -2.4                  -5.1922e-05           -2.8e-13              2.96e-12              5.1948e-05           
  -2.5                  -5.2358e-05           -1.4e-13              7.26e-12              5.2372e-05           
  -2.6                  -5.2774e-05           -2.6e-13              1.658e-11             5.2802e-05           
  -2.7                  -5.3192e-05           -2.8e-13              3.656e-11             5.3202e-05           
  -2.8                  -5.3596e-05           -2.6e-13              7.666e-11             5.3616e-05           
  -2.9                  -5.3994e-05           -2.8e-13              1.5464e-10            5.4014e-05           
  -3                    -5.4384e-05           -1.8e-13              3.02e-10              5.4414e-05           
  -3.1                  -5.4778e-05           -2.8e-13              5.7336e-10            5.4792e-05           
  -3.2                  -5.5142e-05           -2.2e-13              1.06048e-09           5.5162e-05           
  -3.3                  -5.5544e-05           -1.8e-13              1.9072e-09            5.553e-05            
  -3.4                  -5.5934e-05           -1.2e-13              3.3706e-09            5.5944e-05           
  -3.5                  -5.6312e-05           -1.6e-13              5.8162e-09            5.6272e-05           
  -3.6                  -5.6568e-05           -2.4e-13              9.818e-09             5.6596e-05           
END_DB

BEGIN_DB
 ICCAP_VAR vg         -3.098         
 ICCAP_VAR vb         3.6            
 ICCAP_VAR vs         -0             

 #vd                    id                    ig                    ib                    is                   
  -0                    3.1834e-09            -2e-13                1e-13                 -4.14e-09            
  -0.1                  -1.047e-05            -1.8e-13              1.4e-13               1.049e-05            
  -0.2                  -2.0304e-05           -2.8e-13              8e-14                 2.0328e-05           
  -0.3                  -2.94e-05             -2e-13                1e-13                 2.942e-05            
  -0.4                  -3.7672e-05           -3.4e-13              2e-13                 3.7706e-05           
  -0.5                  -4.5166e-05           -3e-13                2.6e-13               4.5188e-05           
  -0.6                  -5.1794e-05           -2.2e-13              2e-14                 5.184e-05            
  -0.7                  -5.762e-05            -1.4e-13              6e-14                 5.7636e-05           
  -0.8                  -6.2646e-05           -2.6e-13              2.6e-13               6.2672e-05           
  -0.9                  -6.6952e-05           -1.8e-13              2.2e-13               6.6972e-05           
  -1                    -7.059e-05            -2.8e-13              1.2e-13               7.0592e-05           
  -1.1                  -7.3618e-05           -2.4e-13              8e-14                 7.364e-05            
  -1.2                  -7.6172e-05           -2.4e-13              1.2e-13               7.6186e-05           
  -1.3                  -7.8328e-05           -3.2e-13              1e-13                 7.8354e-05           
  -1.4                  -8.017e-05            -2.4e-13              1.2e-13               8.0182e-05           
  -1.5                  -8.17e-05             -1.6e-13              2.4e-13               8.1706e-05           
  -1.6                  -8.307e-05            -3.2e-13              2e-13                 8.3106e-05           
  -1.7                  -8.4216e-05           -3e-13                4e-14                 8.427e-05            
  -1.8                  -8.5324e-05           -2.8e-13              6e-14                 8.5348e-05           
  -1.9                  -8.6286e-05           -1.6e-13              1e-13                 8.6308e-05           
  -2                    -8.7126e-05           -2.2e-13              1.4e-13               8.7146e-05           
  -2.1                  -8.7958e-05           -2e-13                1.2e-13               8.7986e-05           
  -2.2                  -8.8742e-05           -2.6e-13              2.2e-13               8.8762e-05           
  -2.3                  -8.948e-05            -2.2e-13              2.2e-13               8.948e-05            
  -2.4                  -9.0132e-05           -2.4e-13              5e-13                 9.0184e-05           
  -2.5                  -9.0816e-05           -2.2e-13              1.62e-12              9.083e-05            
  -2.6                  -9.1446e-05           -3e-13                3.9e-12               9.1506e-05           
  -2.7                  -9.2078e-05           -2.8e-13              9.3e-12               9.212e-05            
  -2.8                  -9.269e-05            -3.6e-13              2.106e-11             9.2718e-05           
  -2.9                  -9.3266e-05           -2.6e-13              4.598e-11             9.33e-05             
  -3                    -9.3844e-05           -1.8e-13              9.534e-11             9.3856e-05           
  -3.1                  -9.4394e-05           -2.8e-13              1.9074e-10            9.4414e-05           
  -3.2                  -9.499e-05            -2e-13                3.7208e-10            9.4996e-05           
  -3.3                  -9.5558e-05           -2.8e-13              6.9574e-10            9.5564e-05           
  -3.4                  -9.5992e-05           -2.4e-13              1.277e-09             9.6016e-05           
  -3.5                  -9.6436e-05           -2e-13                2.3084e-09            9.6438e-05           
  -3.6                  -9.6964e-05           -2.2e-13              4.0478e-09            9.6988e-05           
END_DB

BEGIN_DB
 ICCAP_VAR vg         -3.6           
 ICCAP_VAR vb         3.6            
 ICCAP_VAR vs         -0             

 #vd                    id                    ig                    ib                    is                   
  -0                    3.007e-09             -2.6e-13              1e-13                 -4.6784e-09          
  -0.1                  -1.2644e-05           -2.2e-13              1e-13                 1.2672e-05           
  -0.2                  -2.4776e-05           -2.8e-13              1.2e-13               2.4792e-05           
  -0.3                  -3.6216e-05           -3.4e-13              6e-14                 3.6268e-05           
  -0.4                  -4.6954e-05           -1.6e-13              2.2e-13               4.6964e-05           
  -0.5                  -5.6902e-05           -2.2e-13              2.6e-13               5.6938e-05           
  -0.6                  -6.6092e-05           -3e-13                1e-13                 6.6132e-05           
  -0.7                  -7.4436e-05           -2.4e-13              -2e-14                7.4466e-05           
  -0.8                  -8.2006e-05           -2.4e-13              1.6e-13               8.2046e-05           
