! VERSION = 6.00
BEGIN_HEADER
 ICCAP_INPUTS
  vg         V  G GROUND SMU2 0.001 LIN        1    0.5        -3.6       83   -0.05     
  vb         V  B GROUND SMU4 0.1 LIN        2    0          3.6        5    0.9       
  vd         V  D GROUND SMU1 0.1 LIN        3    -0.1       -3.3       3    -1.6      
  vs         V  S GROUND SMU3 0.1 CON        -0
 ICCAP_OUTPUTS
  id         I  D GROUND SMU1 B
  ig         I  G GROUND SMU2 B
  ib         I  B GROUND SMU4 B
  is         I  S GROUND SMU3 B
 ICCAP_VALUES
  MASTER_SETUP_TYPE "~dc_idvg~"
  LINVT_VALUE ""
  LISTVT_VALUE ""
  TYPE "-1"
  TEMP " 27.0000 "
  IS_TNOM " 1.00000 "
  MAIN.W "300.0n"
  MAIN.L "500.0n"
  MAIN.AD "102.0f"
  MAIN.AS "102.0f"
  MAIN.PD "1.280u"
  MAIN.PS "1.280u"
  MAIN.NF "1.000"
  MAIN.M "1"
  MAIN.NRD "0.000"
  MAIN.NRS "0.000"
  MAIN.LDRIFT1 "1E-06"
  MAIN.LDRIFT2 "1E-06"
  MAIN.SA "0.000"
  MAIN.SB "0.000"
  MAIN.SD "0.000"
  MAIN.SCA "0.000"
  MAIN.SCB "0.000"
  MAIN.SCC "0.000"
  MAIN.SC "0.000"
  MODULE "S565"
  PIN_D "14"
  PIN_G "7"
  PIN_S "8"
  PIN_B "13"
  PIN_E ""
  PIN_6 ""
  XY_ID ""
  FUNC "LW Scale"
  STI "SA ref"
  WPE "WPE ref"
  COMMENT ""
  DIS_MEAS ""
  TypeTCI "10"
END_HEADER

BEGIN_DB
 ICCAP_VAR vb         0              
 ICCAP_VAR vd         -0.1           
 ICCAP_VAR vs         -0             

 #vg                    id                    ig                    ib                    is                   
  0.5                   -1.8e-13              1.964e-11             -5.18e-12             1.2e-13              
  0.45                  -6e-14                3e-12                 -8.6e-13              8e-14                
  0.4                   -1.6e-13              5.6e-13               -1.8e-13              -2e-14               
  0.35                  -4e-14                8e-14                 -2e-14                8e-14                
  0.3                   0                     -2e-14                -6e-14                -8e-14               
  0.25                  -4e-14                6e-14                 -6e-14                1.2e-13              
  0.2                   2e-14                 -1.6e-13              -1e-13                -1e-13               
  0.15                  2e-14                 -2e-13                -1.4e-13              2.4e-13              
  0.1                   -1e-13                -4e-13                -4e-14                8e-14                
  0.05                  -8e-14                -3.2e-13              -8e-14                1.2e-13              
  0                     -8e-14                -4.2e-13              -8e-14                8e-14                
  -0.05                 -4e-14                -4.8e-13              -1.6e-13              1.4e-13              
  -0.1                  -1.4e-13              -3.4e-13              -8e-14                1.2e-13              
  -0.15                 -2.4e-13              -4.2e-13              -2e-14                2.6e-13              
  -0.2                  -7.2e-13              -5.8e-13              -8e-14                8e-13                
  -0.25                 -2.28e-12             -4.4e-13              -1.6e-13              2.3e-12              
  -0.3                  -7.74e-12             -7.6e-13              0                     7.78e-12             
  -0.35                 -2.666e-11            -3.4e-13              -1.4e-13              2.65e-11             
  -0.4                  -9.214e-11            -5.2e-13              -8e-14                9.218e-11            
  -0.45                 -3.2064e-10           -5.8e-13              -8e-14                3.2106e-10           
  -0.5                  -1.11906e-09          -5.2e-13              -4e-14                1.11766e-09          
  -0.55                 -3.822e-09            -6e-13                -4e-14                3.8246e-09           
  -0.6                  -1.2186e-08           -4.6e-13              -1.6e-13              1.2222e-08           
  -0.65                 -3.4426e-08           -5e-13                -2e-14                3.4472e-08           
  -0.7                  -7.8626e-08           -6.4e-13              -1e-13                7.904e-08            
  -0.75                 -1.5716e-07           -5.4e-13              -1.6e-13              1.5734e-07           
  -0.8                  -2.6732e-07           -6.4e-13              -4e-14                2.6762e-07           
  -0.85                 -4.0254e-07           -6.6e-13              -1.4e-13              4.027e-07            
  -0.9                  -5.5142e-07           -6.8e-13              -8e-14                5.5176e-07           
  -0.95                 -7.0908e-07           -7.2e-13              0                     7.0934e-07           
  -1                    -8.6718e-07           -6.2e-13              -1.6e-13              8.675e-07            
  -1.05                 -1.03018e-06          -7.4e-13              -6e-14                1.03046e-06          
  -1.1                  -1.1874e-06           -5.4e-13              -1.6e-13              1.1916e-06           
  -1.15                 -1.3458e-06           -8.6e-13              0                     1.3496e-06           
  -1.2                  -1.5e-06              -6.2e-13              -1.4e-13              1.5046e-06           
  -1.25                 -1.6534e-06           -8.2e-13              -8e-14                1.6552e-06           
  -1.3                  -1.801e-06            -6e-13                -8e-14                1.806e-06            
  -1.35                 -1.9484e-06           -1.08e-12             -1.4e-13              1.9476e-06           
  -1.4                  -2.0898e-06           -6.4e-13              -1.4e-13              2.0942e-06           
  -1.45                 -2.23e-06             -9.8e-13              0                     2.2326e-06           
  -1.5                  -2.3676e-06           -7e-13                -1e-13                2.3724e-06           
  -1.55                 -2.5048e-06           -9e-13                -8e-14                2.5068e-06           
  -1.6                  -2.6362e-06           -9e-13                -1.6e-13              2.6388e-06           
  -1.65                 -2.765e-06            -5.8e-13              -6e-14                2.769e-06            
  -1.7                  -2.892e-06            -9.6e-13              -1.2e-13              2.8958e-06           
  -1.75                 -3.0178e-06           -6.8e-13              -2e-14                3.0214e-06           
  -1.8                  -3.1402e-06           -8.2e-13              -1.2e-13              3.1448e-06           
  -1.85                 -3.2608e-06           -1e-12                -8e-14                3.265e-06            
  -1.9                  -3.378e-06            -6.6e-13              -6e-14                3.3828e-06           
  -1.95                 -3.4948e-06           -9.8e-13              -2e-13                3.4998e-06           
  -2                    -3.61e-06             -8.8e-13              -1e-13                3.6134e-06           
  -2.05                 -3.7186e-06           -7.8e-13              -1.6e-13              3.7238e-06           
  -2.1                  -3.829e-06            -1e-12                -8e-14                3.8342e-06           
  -2.15                 -3.9362e-06           -7.6e-13              -6e-14                3.9408e-06           
  -2.2                  -4.0454e-06           -1e-12                -8e-14                4.0474e-06           
  -2.25                 -4.148e-06            -8e-13                -6e-14                4.1516e-06           
  -2.3                  -4.2496e-06           -1e-12                0                     4.2548e-06           
  -2.35                 -4.3522e-06           -7.8e-13              -6e-14                4.3562e-06           
  -2.4                  -4.4496e-06           -9.6e-13              -1.2e-13              4.4528e-06           
  -2.45                 -4.547e-06            -9e-13                -8e-14                4.5496e-06           
  -2.5                  -4.6406e-06           -1e-12                -1.2e-13              4.6438e-06           
  -2.55                 -4.7346e-06           -9.2e-13              -1.2e-13              4.7376e-06           
  -2.6                  -4.825e-06            -1.22e-12             -1e-13                4.8296e-06           
  -2.65                 -4.9152e-06           -8e-13                -1.8e-13              4.919e-06            
  -2.7                  -5.0038e-06           -1.1e-12              -8e-14                5.0076e-06           
  -2.75                 -5.0874e-06           -9e-13                -2.2e-13              5.0922e-06           
  -2.8                  -5.1716e-06           -8.4e-13              -1.4e-13              5.1738e-06           
  -2.85                 -5.255e-06            -1.16e-12             -1.4e-13              5.2588e-06           
  -2.9                  -5.3382e-06           -9.6e-13              -1.4e-13              5.3422e-06           
  -2.95                 -5.4202e-06           -1.1e-12              -1e-13                5.4232e-06           
  -3                    -5.5008e-06           -8.8e-13              -4e-14                5.5028e-06           
  -3.05                 -5.5784e-06           -9.4e-13              -1e-13                5.5814e-06           
  -3.1                  -5.6562e-06           -9.6e-13              -1.6e-13              5.6588e-06           
  -3.15                 -5.731e-06            -8e-13                -6e-14                5.734e-06            
  -3.2                  -5.807e-06            -1.04e-12             -6e-14                5.811e-06            
  -3.25                 -5.8812e-06           -8.2e-13              -8e-14                5.8856e-06           
  -3.3                  -5.955e-06            -1.28e-12             -4e-14                5.9574e-06           
  -3.35                 -6.0238e-06           -9e-13                -1.2e-13              6.0286e-06           
  -3.4                  -6.0932e-06           -1.1e-12              -4e-14                6.0986e-06           
  -3.45                 -6.1598e-06           -9.2e-13              -1.6e-13              6.1658e-06           
  -3.5                  -6.2282e-06           -1.16e-12             -8e-14                6.2318e-06           
  -3.55                 -6.296e-06            -9.6e-13              -1.2e-13              6.3008e-06           
  -3.6                  -6.36e-06             -1.2e-12              -1e-13                6.3612e-06           
END_DB

BEGIN_DB
 ICCAP_VAR vb         0.9            
 ICCAP_VAR vd         -0.1           
 ICCAP_VAR vs         -0             

 #vg                    id                    ig                    ib                    is                   
  0.5                   8e-14                 8.4e-13               4.2e-13               2.2e-13              
  0.45                  -2e-14                4.6e-13               2.8e-13               8e-14                
  0.4                   6e-14                 4e-13                 3e-13                 1.2e-13              
  0.35                  8e-14                 1.2e-13               2.6e-13               1.6e-13              
  0.3                   1.2e-13               8e-14                 1.8e-13               1.6e-13              
  0.25                  2e-14                 0                     8e-14                 1e-13                
  0.2                   1e-13                 -4e-14                1.6e-13               1.4e-13              
  0.15                  6e-14                 1.8e-13               8e-14                 0                    
  0.1                   4e-14                 -6e-14                1.2e-13               1.2e-13              
  0.05                  2e-14                 -2e-14                1.2e-13               0                    
  0                     8e-14                 -1.4e-13              1.2e-13               1.4e-13              
  -0.05                 0                     -2.2e-13              0                     1e-13                
  -0.1                  -4e-14                -1e-13                8e-14                 -6e-14               
  -0.15                 1.2e-13               -2.2e-13              2.2e-13               8e-14                
  -0.2                  2e-14                 -1.8e-13              8e-14                 0                    
  -0.25                 6e-14                 -4.4e-13              1e-13                 1.2e-13              
  -0.3                  2e-14                 -2.4e-13              6e-14                 2e-14                
  -0.35                 0                     -5e-13                6e-14                 1e-13                
  -0.4                  4e-14                 -4e-13                0                     2e-13                
  -0.45                 4e-14                 -4.2e-13              8e-14                 1e-13                
  -0.5                  2e-14                 -5.4e-13              -2e-14                1.4e-13              
  -0.55                 -1e-13                -4.2e-13              8e-14                 2e-13                
  -0.6                  -5.6e-13              -4.4e-13              -4e-14                6.6e-13              
  -0.65                 -1.94e-12             -6e-13                1.2e-13               2.14e-12             
  -0.7                  -8.08e-12             -2.8e-13              0                     8.12e-12             
  -0.75                 -3.262e-11            -5.2e-13              2e-14                 3.272e-11            
  -0.8                  -1.302e-10            -4.6e-13              -4e-14                1.3042e-10           
  -0.85                 -5.1872e-10           -6.6e-13              -4e-14                5.1884e-10           
  -0.9                  -2.0122e-09           -7.2e-13              2e-14                 2.013e-09            
  -0.95                 -6.9826e-09           -4.8e-13              0                     6.922e-09            
  -1                    -2.224e-08            -3.8e-13              6e-14                 2.2282e-08           
  -1.05                 -5.9046e-08           -4.6e-13              -6e-14                5.9042e-08           
  -1.1                  -1.2592e-07           -5.2e-13              -4e-14                1.2614e-07           
  -1.15                 -2.2378e-07           -5e-13                1e-13                 2.2402e-07           
  -1.2                  -3.4432e-07           -5.6e-13              -2e-14                3.4474e-07           
  -1.25                 -4.7938e-07           -4.8e-13              2e-14                 4.798e-07            
  -1.3                  -6.2146e-07           -8e-13                0                     6.22e-07             
  -1.35                 -7.6614e-07           -5e-13                -4e-14                7.6664e-07           
  -1.4                  -9.1148e-07           -8.2e-13              2e-14                 9.1086e-07           
  -1.45                 -1.05582e-06          -6e-13                -6e-14                1.05456e-06          
  -1.5                  -1.1956e-06           -5.6e-13              2e-14                 1.199e-06            
  -1.55                 -1.3374e-06           -7.4e-13              -4e-14                1.3408e-06           
  -1.6                  -1.4752e-06           -7e-13                0                     1.4766e-06           
  -1.65                 -1.6088e-06           -7.6e-13              -2e-14                1.6122e-06           
  -1.7                  -1.7424e-06           -7.4e-13              -2e-14                1.7478e-06           
  -1.75                 -1.877e-06            -9.2e-13              -2e-14                1.8796e-06           
  -1.8                  -2.0066e-06           -5.6e-13              -4e-14                2.0082e-06           
  -1.85                 -2.132e-06            -1.02e-12             -1e-13                2.1358e-06           
  -1.9                  -2.2582e-06           -6.4e-13              0                     2.2614e-06           
  -1.95                 -2.3812e-06           -9.2e-13              -2e-14                2.3848e-06           
  -2                    -2.5022e-06           -6.8e-13              -1e-13                2.5056e-06           
  -2.05                 -2.6198e-06           -7e-13                -1e-13                2.624e-06            
  -2.1                  -2.738e-06            -8e-13                -1e-13                2.7416e-06           
  -2.15                 -2.8508e-06           -7.8e-13              0                     2.8552e-06           
  -2.2                  -2.9638e-06           -6.6e-13              -1e-13                2.9674e-06           
  -2.25                 -3.076e-06            -1.04e-12             -6e-14                3.0792e-06           
  -2.3                  -3.1846e-06           -8.6e-13              -4e-14                3.1884e-06           
  -2.35                 -3.2904e-06           -9.2e-13              -8e-14                3.2934e-06           
  -2.4                  -3.3934e-06           -8e-13                -2e-14                3.3984e-06           
  -2.45                 -3.4966e-06           -8.6e-13              -2e-14                3.4996e-06           
  -2.5                  -3.5982e-06           -7e-13                -6e-14                3.6012e-06           
  -2.55                 -3.699e-06            -9.8e-13              2e-14                 3.7014e-06           
  -2.6                  -3.7962e-06           -6.2e-13              -8e-14                3.799e-06            
  -2.65                 -3.8918e-06           -1.26e-12             -8e-14                3.8966e-06           
  -2.7                  -3.983e-06            -8e-13                -8e-14                3.9876e-06           
  -2.75                 -4.0762e-06           -9.4e-13              -1e-13                4.0808e-06           
  -2.8                  -4.1652e-06           -9.6e-13              -4e-14                4.169e-06            
  -2.85                 -4.256e-06            -7.6e-13              -8e-14                4.259e-06            
  -2.9                  -4.3438e-06           -1.02e-12             -2e-14                4.3478e-06           
  -2.95                 -4.431e-06            -1e-12                0                     4.4344e-06           
  -3                    -4.5164e-06           -8e-13                -6e-14                4.5166e-06           
  -3.05                 -4.597e-06            -9.6e-13              -6e-14                4.6016e-06           
  -3.1                  -4.6816e-06           -1.08e-12             -6e-14                4.6846e-06           
  -3.15                 -4.7628e-06           -7.6e-13              4e-14                 4.7654e-06           
  -3.2                  -4.8424e-06           -1.14e-12             -1e-13                4.8472e-06           
  -3.25                 -4.9206e-06           -6.8e-13              -6e-14                4.925e-06            
  -3.3                  -4.999e-06            -1.26e-12             -2e-14                5.0036e-06           
  -3.35                 -5.077e-06            -7.6e-13              -6e-14                5.08e-06             
  -3.4                  -5.1496e-06           -8.8e-13              0                     5.1532e-06           
  -3.45                 -5.2226e-06           -9e-13                -1.4e-13              5.227e-06            
