! VERSION = 6.00
BEGIN_HEADER
 ICCAP_INPUTS
  vd         V  D GROUND SMU1 0.1 LIN        1    -0         -3.6       37   -0.1      
  vg         V  G GROUND SMU2 0.001 LIST       2 3 -0.403 -0.603 -0.803
  vb         V  B GROUND SMU4 0.1 CON        -0
  vs         V  S GROUND SMU3 0.1 CON        -0
 ICCAP_OUTPUTS
  id         I  D GROUND SMU1 B
  ig         I  G GROUND SMU2 B
  ib         I  B GROUND SMU4 B
  is         I  S GROUND SMU3 B
 ICCAP_VALUES
  MASTER_SETUP_TYPE "~dc_idvd~"
  LINVT_VALUE ""
  LISTVT_VALUE "|idvg|100.0n|-200.0m|1.000m|3|200.0m|200.0m|"
  TYPE "-1"
  TEMP " 27.0000 "
  IS_TNOM " 1.00000 "
  MAIN.W "5.000u"
  MAIN.L "330.0n"
  MAIN.AD "1.700p"
  MAIN.AS "1.700p"
  MAIN.PD "10.68u"
  MAIN.PS "10.68u"
  MAIN.NF "1.000"
  MAIN.M "1"
  MAIN.NRD "0.000"
  MAIN.NRS "0.000"
  MAIN.LDRIFT1 "1E-06"
  MAIN.LDRIFT2 "1E-06"
  MAIN.SA "0.000"
  MAIN.SB "0.000"
  MAIN.SD "0.000"
  MAIN.SCA "0.000"
  MAIN.SCB "0.000"
  MAIN.SCC "0.000"
  MAIN.SC "0.000"
  MODULE "S562"
  PIN_D "14"
  PIN_G "7"
  PIN_S "8"
  PIN_B "13"
  PIN_E ""
  PIN_6 ""
  XY_ID ""
  FUNC "Additional"
  STI "SA ref"
  WPE "WPE ref"
  COMMENT ""
  DIS_MEAS ""
  TypeTCI "10"
END_HEADER

BEGIN_DB
 ICCAP_VAR vg         -0.403         
 ICCAP_VAR vb         -0             
 ICCAP_VAR vs         -0             

 #vd                    id                    ig                    ib                    is                   
  -0                    3.46e-12              5.8e-13               0                     -1.9e-11             
  -0.1                  -1.0246e-08           5e-13                 -1e-13                1.0276e-08           
  -0.2                  -1.1046e-08           4.6e-13               -2e-14                1.107e-08            
  -0.3                  -1.1546e-08           5.2e-13               -2e-14                1.1562e-08           
  -0.4                  -1.199e-08            4e-13                 6e-14                 1.2012e-08           
  -0.5                  -1.2378e-08           4.2e-13               -1e-13                1.2402e-08           
  -0.6                  -1.2742e-08           3.8e-13               -1.8e-13              1.276e-08            
  -0.7                  -1.3072e-08           1e-13                 -1.8e-13              1.3102e-08           
  -0.8                  -1.3404e-08           2.6e-13               -1.2e-13              1.3438e-08           
  -0.9                  -1.3724e-08           3.4e-13               -1.4e-13              1.3758e-08           
  -1                    -1.4036e-08           4.6e-13               -2.6e-13              1.4072e-08           
  -1.1                  -1.4352e-08           4.2e-13               -2e-13                1.4384e-08           
  -1.2                  -1.4676e-08           2.8e-13               -2e-13                1.4686e-08           
  -1.3                  -1.4968e-08           1.4e-13               -1.2e-13              1.4994e-08           
  -1.4                  -1.5262e-08           3.6e-13               -1.4e-13              1.5298e-08           
  -1.5                  -1.5592e-08           5.6e-13               -2.4e-13              1.5614e-08           
  -1.6                  -1.5898e-08           4.6e-13               -2.6e-13              1.5914e-08           
  -1.7                  -1.6196e-08           5.2e-13               -1e-13                1.623e-08            
  -1.8                  -1.6516e-08           5.2e-13               -1e-13                1.6532e-08           
  -1.9                  -1.6814e-08           4.8e-13               0                     1.683e-08            
  -2                    -1.7122e-08           4e-13                 -2e-14                1.7152e-08           
  -2.1                  -1.7424e-08           3.4e-13               1e-13                 1.7466e-08           
  -2.2                  -1.7756e-08           2e-13                 4e-13                 1.7772e-08           
  -2.3                  -1.8078e-08           3e-13                 8.4e-13               1.811e-08            
  -2.4                  -1.84e-08             1.8e-13               1.52e-12              1.8442e-08           
  -2.5                  -1.8738e-08           3.6e-13               2.64e-12              1.8756e-08           
  -2.6                  -1.9068e-08           2.6e-13               4.32e-12              1.9078e-08           
  -2.7                  -1.9418e-08           3e-13                 7.16e-12              1.9418e-08           
  -2.8                  -1.9742e-08           3e-13                 1.128e-11             1.9758e-08           
  -2.9                  -2.008e-08            3.6e-13               1.732e-11             2.0106e-08           
  -3                    -2.045e-08            3e-13                 2.622e-11             2.0446e-08           
  -3.1                  -2.0826e-08           1.8e-13               3.906e-11             2.0808e-08           
  -3.2                  -2.1172e-08           2e-14                 5.724e-11             2.1162e-08           
  -3.3                  -2.1582e-08           2.8e-13               8.242e-11             2.1528e-08           
  -3.4                  -2.1966e-08           4.8e-13               1.1658e-10            2.1868e-08           
  -3.5                  -2.2386e-08           3.2e-13               1.6296e-10            2.2274e-08           
  -3.6                  -2.2844e-08           2.6e-13               2.2442e-10            2.266e-08            
END_DB

BEGIN_DB
 ICCAP_VAR vg         -0.603         
 ICCAP_VAR vb         -0             
 ICCAP_VAR vs         -0             

 #vd                    id                    ig                    ib                    is                   
  -0                    1.2144e-09            -2e-14                -4e-14                -1.101e-09           
  -0.1                  -9.6256e-07           8e-14                 -1e-13                9.6296e-07           
  -0.2                  -1.07602e-06          2.8e-13               -1e-13                1.07564e-06          
  -0.3                  -1.1292e-06           2.4e-13               -8e-14                1.1294e-06           
  -0.4                  -1.1722e-06           1e-13                 -6e-14                1.1748e-06           
  -0.5                  -1.2082e-06           2.8e-13               -2e-14                1.2114e-06           
  -0.6                  -1.24e-06             3.8e-13               -6e-14                1.2412e-06           
  -0.7                  -1.2692e-06           1.8e-13               -1e-13                1.2744e-06           
  -0.8                  -1.2968e-06           4e-14                 -2e-14                1.2982e-06           
  -0.9                  -1.3246e-06           1.6e-13               -1e-13                1.33e-06             
  -1                    -1.3524e-06           2.8e-13               -2.2e-13              1.3558e-06           
  -1.1                  -1.3762e-06           1.8e-13               -1.2e-13              1.3796e-06           
  -1.2                  -1.4022e-06           4e-14                 -1.2e-13              1.4056e-06           
  -1.3                  -1.4256e-06           1e-13                 -1.6e-13              1.4296e-06           
  -1.4                  -1.4498e-06           2e-14                 -2e-13                1.453e-06            
  -1.5                  -1.4734e-06           -8e-14                -8e-14                1.4772e-06           
  -1.6                  -1.4968e-06           -8e-14                0                     1.4948e-06           
  -1.7                  -1.5184e-06           1.4e-13               1.8e-13               1.5244e-06           
  -1.8                  -1.5436e-06           1.8e-13               9.2e-13               1.5466e-06           
  -1.9                  -1.5668e-06           -4e-14                2.3e-12               1.5678e-06           
  -2                    -1.587e-06            -2e-14                5.24e-12              1.5908e-06           
  -2.1                  -1.612e-06            2.2e-13               1.074e-11             1.6178e-06           
  -2.2                  -1.6362e-06           1.2e-13               2.062e-11             1.64e-06             
  -2.3                  -1.6606e-06           -8e-14                3.84e-11              1.6636e-06           
  -2.4                  -1.6842e-06           1e-13                 6.864e-11             1.688e-06            
  -2.5                  -1.708e-06            2.4e-13               1.1888e-10            1.7122e-06           
  -2.6                  -1.7312e-06           1.6e-13               2.0026e-10            1.7308e-06           
  -2.7                  -1.7504e-06           -1e-13                3.3014e-10            1.7546e-06           
  -2.8                  -1.7756e-06           1.6e-13               5.335e-10             1.7818e-06           
  -2.9                  -1.8046e-06           2.4e-13               8.4338e-10            1.8072e-06           
  -3                    -1.828e-06            -1.6e-13              1.3082e-09            1.8328e-06           
  -3.1                  -1.8554e-06           2e-14                 1.9882e-09            1.8572e-06           
  -3.2                  -1.8832e-06           2e-14                 2.9712e-09            1.8836e-06           
  -3.3                  -1.9094e-06           6e-14                 4.358e-09             1.9108e-06           
  -3.4                  -1.9404e-06           0                     6.2998e-09            1.9382e-06           
  -3.5                  -1.974e-06            4e-14                 8.9624e-09            1.9702e-06           
  -3.6                  -2.005e-06            -4e-14                1.2564e-08            1.9992e-06           
END_DB

BEGIN_DB
 ICCAP_VAR vg         -0.803         
 ICCAP_VAR vb         -0             
 ICCAP_VAR vs         -0             

 #vd                    id                    ig                    ib                    is                   
  -0                    9.552e-09             1.2e-13               6e-14                 -2.5118e-09          
  -0.1                  -1.0782e-05           0                     1e-13                 1.081e-05            
  -0.2                  -1.4274e-05           1.6e-13               -1e-13                1.4298e-05           
  -0.3                  -1.5398e-05           8e-14                 -8e-14                1.5404e-05           
  -0.4                  -1.5966e-05           4e-14                 -8e-14                1.5986e-05           
  -0.5                  -1.6396e-05           -8e-14                -1e-13                1.6408e-05           
  -0.6                  -1.6736e-05           2.2e-13               -4e-14                1.6758e-05           
  -0.7                  -1.7036e-05           1.6e-13               0                     1.7056e-05           
  -0.8                  -1.73e-05             -4e-14                -1.2e-13              1.732e-05            
  -0.9                  -1.7556e-05           1e-13                 -2e-13                1.7586e-05           
  -1                    -1.7796e-05           4e-14                 -2e-13                1.7818e-05           
  -1.1                  -1.8018e-05           0                     -1.6e-13              1.8028e-05           
  -1.2                  -1.8228e-05           -1e-13                -2.2e-13              1.8264e-05           
  -1.3                  -1.8428e-05           2e-13                 -1.2e-13              1.844e-05            
  -1.4                  -1.8622e-05           4e-14                 -1e-13                1.8642e-05           
  -1.5                  -1.882e-05            2e-14                 -2e-14                1.8838e-05           
  -1.6                  -1.9004e-05           -6e-14                2e-13                 1.9044e-05           
  -1.7                  -1.9194e-05           1e-13                 1.06e-12              1.9214e-05           
  -1.8                  -1.9378e-05           -8e-14                3.54e-12              1.94e-05             
  -1.9                  -1.956e-05            0                     9.38e-12              1.9578e-05           
  -2                    -1.9736e-05           0                     2.206e-11             1.9746e-05           
  -2.1                  -1.9902e-05           -2e-14                4.796e-11             1.9918e-05           
  -2.2                  -2.0076e-05           6e-14                 9.85e-11              2.0098e-05           
  -2.3                  -2.0254e-05           -4e-14                1.9194e-10            2.0306e-05           
  -2.4                  -2.0448e-05           0                     3.5776e-10            2.0466e-05           
  -2.5                  -2.0622e-05           -2e-14                6.4484e-10            2.0644e-05           
  -2.6                  -2.0786e-05           -1.2e-13              1.1263e-09            2.082e-05            
  -2.7                  -2.0972e-05           4e-14                 1.9152e-09            2.0988e-05           
  -2.8                  -2.1136e-05           3e-13                 3.1778e-09            2.1152e-05           
  -2.9                  -2.1318e-05           -1.6e-13              5.1568e-09            2.1332e-05           
  -3                    -2.1508e-05           0                     8.1942e-09            2.1508e-05           
  -3.1                  -2.1696e-05           -2.4e-13              1.2748e-08            2.1714e-05           
  -3.2                  -2.1872e-05           6e-14                 1.9482e-08            2.189e-05            
  -3.3                  -2.2082e-05           -8e-14                2.9246e-08            2.2078e-05           
  -3.4                  -2.2286e-05           0                     4.313e-08             2.2308e-05           
  -3.5                  -2.254e-05            1.2e-13               6.2492e-08            2.2498e-05           
  -3.6                  -2.2746e-05           -2e-14                8.913e-08             2.267e-05            
END_DB

