! VERSION = 6.00
BEGIN_HEADER
 ICCAP_INPUTS
  vd         V  D GROUND SMU1 0.1 LIN        1    -0         -3.6       37   -0.1      
  vg         V  G GROUND SMU2 0.001 LIST       2 3 -1.723 -1.923 -2.123
  vb         V  B GROUND SMU4 0.1 CON        3.6
  vs         V  S GROUND SMU3 0.1 CON        -0
 ICCAP_OUTPUTS
  id         I  D GROUND SMU1 B
  ig         I  G GROUND SMU2 B
  ib         I  B GROUND SMU4 B
  is         I  S GROUND SMU3 B
 ICCAP_VALUES
  MASTER_SETUP_TYPE "~dc_idvd~"
  LINVT_VALUE ""
  LISTVT_VALUE "|idvg|100.0n|-200.0m|1.000m|3|200.0m|200.0m|"
  TYPE "-1"
  TEMP "-40.0000 "
  IS_TNOM " 0.00000 "
  MAIN.W "2.000u"
  MAIN.L "1.200u"
  MAIN.AD "680.0f"
  MAIN.AS "680.0f"
  MAIN.PD "4.680u"
  MAIN.PS "4.680u"
  MAIN.NF "1.000"
  MAIN.M "1"
  MAIN.NRD "0.000"
  MAIN.NRS "0.000"
  MAIN.LDRIFT1 "1E-06"
  MAIN.LDRIFT2 "1E-06"
  MAIN.SA "0.000"
  MAIN.SB "0.000"
  MAIN.SD "0.000"
  MAIN.SCA "0.000"
  MAIN.SCB "0.000"
  MAIN.SCC "0.000"
  MAIN.SC "0.000"
  MODULE "S563"
  PIN_D "16"
  PIN_G "5"
  PIN_S "6"
  PIN_B "15"
  PIN_E ""
  PIN_6 ""
  XY_ID ""
  FUNC "LW Scale"
  STI "SA ref"
  WPE "WPE ref"
  COMMENT ""
  DIS_MEAS ""
  TypeTCI "10"
END_HEADER

BEGIN_DB
 ICCAP_VAR vg         -1.723         
 ICCAP_VAR vb         3.6            
 ICCAP_VAR vs         -0             

 #vd                    id                    ig                    ib                    is                   
  -0                    4.2e-13               0                     4.6e-13               -1.14e-12            
  -0.1                  -4.557e-10            -2e-14                4.8e-13               4.5588e-10           
  -0.2                  -4.6078e-10           -2.8e-13              3e-13                 4.6072e-10           
  -0.3                  -4.6176e-10           2e-14                 2.8e-13               4.6192e-10           
  -0.4                  -4.6338e-10           -1.6e-13              1.8e-13               4.6338e-10           
  -0.5                  -4.6352e-10           4.6e-13               2.6e-13               4.6382e-10           
  -0.6                  -4.6448e-10           6e-14                 2.2e-13               4.6458e-10           
  -0.7                  -4.6528e-10           3e-13                 1.8e-13               4.6506e-10           
  -0.8                  -4.6628e-10           -2e-14                1.4e-13               4.656e-10            
  -0.9                  -4.6678e-10           4.6e-13               2e-13                 4.6672e-10           
  -1                    -4.677e-10            2e-14                 1.2e-13               4.6706e-10           
  -1.1                  -4.6758e-10           1.4e-13               1.4e-13               4.673e-10            
  -1.2                  -4.6862e-10           2e-13                 1.6e-13               4.6848e-10           
  -1.3                  -4.6898e-10           2e-13                 8e-14                 4.6842e-10           
  -1.4                  -4.6942e-10           1.4e-13               1.4e-13               4.6922e-10           
  -1.5                  -4.6942e-10           -4e-14                2e-14                 4.6892e-10           
  -1.6                  -4.7026e-10           -1e-13                1.6e-13               4.696e-10            
  -1.7                  -4.7042e-10           -4e-14                1.6e-13               4.6964e-10           
  -1.8                  -4.7066e-10           2.8e-13               4e-14                 4.7008e-10           
  -1.9                  -4.714e-10            3.2e-13               2e-14                 4.711e-10            
  -2                    -4.7156e-10           -8e-14                0                     4.7116e-10           
  -2.1                  -4.721e-10            2.2e-13               8e-14                 4.714e-10            
  -2.2                  -4.7274e-10           -1.8e-13              1e-13                 4.7172e-10           
  -2.3                  -4.7284e-10           6.4e-13               8e-14                 4.7264e-10           
  -2.4                  -4.7362e-10           -3e-13                8e-14                 4.73e-10             
  -2.5                  -4.741e-10            4.2e-13               1.6e-13               4.734e-10            
  -2.6                  -4.7466e-10           -1.4e-13              6e-14                 4.7356e-10           
  -2.7                  -4.7454e-10           -6e-14                -6e-14                4.7394e-10           
  -2.8                  -4.7536e-10           3.2e-13               6e-14                 4.7406e-10           
  -2.9                  -4.7538e-10           6e-14                 1.6e-13               4.7448e-10           
  -3                    -4.752e-10            4.2e-13               6e-14                 4.7474e-10           
  -3.1                  -4.7596e-10           8e-14                 2.8e-13               4.7478e-10           
  -3.2                  -4.7624e-10           3.2e-13               2.6e-13               4.7556e-10           
  -3.3                  -4.7696e-10           -4e-13                3.2e-13               4.761e-10            
  -3.4                  -4.7752e-10           1.8e-13               6.8e-13               4.7634e-10           
  -3.5                  -4.7866e-10           2.6e-13               8.6e-13               4.7716e-10           
  -3.6                  -4.793e-10            -8e-14                1.5e-12               4.7698e-10           
END_DB

BEGIN_DB
 ICCAP_VAR vg         -1.923         
 ICCAP_VAR vb         3.6            
 ICCAP_VAR vs         -0             

 #vd                    id                    ig                    ib                    is                   
  -0                    1.4962e-10            0                     -8e-14                -1.598e-10           
  -0.1                  -1.6164e-07           0                     -4e-14                1.6174e-07           
  -0.2                  -1.7318e-07           -2.4e-13              8e-14                 1.7342e-07           
  -0.3                  -1.7426e-07           8e-14                 2e-14                 1.744e-07            
  -0.4                  -1.7472e-07           2.4e-13               8e-14                 1.7494e-07           
  -0.5                  -1.7506e-07           -1.6e-13              8e-14                 1.7512e-07           
  -0.6                  -1.7532e-07           2.2e-13               -6e-14                1.7548e-07           
  -0.7                  -1.7558e-07           -2e-14                4e-14                 1.7578e-07           
  -0.8                  -1.7578e-07           -1.8e-13              8e-14                 1.7596e-07           
  -0.9                  -1.7606e-07           6e-14                 1e-13                 1.7624e-07           
  -1                    -1.7626e-07           -3e-13                2.2e-13               1.7634e-07           
  -1.1                  -1.7636e-07           -3.4e-13              4e-14                 1.7656e-07           
  -1.2                  -1.7644e-07           0                     0                     1.7664e-07           
  -1.3                  -1.7674e-07           -2e-14                0                     1.7678e-07           
  -1.4                  -1.768e-07            -2e-14                0                     1.7702e-07           
  -1.5                  -1.7694e-07           3.6e-13               6e-14                 1.7712e-07           
  -1.6                  -1.7718e-07           0                     6e-14                 1.7732e-07           
  -1.7                  -1.7718e-07           1.4e-13               8e-14                 1.7748e-07           
  -1.8                  -1.7728e-07           0                     -2e-14                1.7758e-07           
  -1.9                  -1.7756e-07           3e-13                 1.2e-13               1.7764e-07           
  -2                    -1.7762e-07           -8e-14                2e-13                 1.7764e-07           
  -2.1                  -1.7724e-07           -2e-13                8e-14                 1.7744e-07           
  -2.2                  -1.7746e-07           -1e-13                1e-13                 1.7768e-07           
  -2.3                  -1.7758e-07           -6e-14                1.4e-13               1.7774e-07           
  -2.4                  -1.776e-07            6e-14                 2.6e-13               1.7792e-07           
  -2.5                  -1.7782e-07           0                     4e-13                 1.78e-07             
  -2.6                  -1.7784e-07           2e-14                 7.8e-13               1.7812e-07           
  -2.7                  -1.7802e-07           6e-14                 1.56e-12              1.7824e-07           
  -2.8                  -1.7816e-07           0                     2.98e-12              1.7842e-07           
  -2.9                  -1.7828e-07           -6e-14                5.64e-12              1.784e-07            
  -3                    -1.7836e-07           -1.2e-13              1.036e-11             1.7858e-07           
  -3.1                  -1.7854e-07           0                     1.866e-11             1.787e-07            
  -3.2                  -1.7864e-07           2e-14                 3.288e-11             1.7882e-07           
  -3.3                  -1.7882e-07           1.2e-13               5.644e-11             1.7892e-07           
  -3.4                  -1.7886e-07           3.6e-13               9.464e-11             1.7892e-07           
  -3.5                  -1.79e-07             0                     1.5552e-10            1.7916e-07           
  -3.6                  -1.7936e-07           3.2e-13               2.4994e-10            1.793e-07            
END_DB

BEGIN_DB
 ICCAP_VAR vg         -2.123         
 ICCAP_VAR vb         3.6            
 ICCAP_VAR vs         -0             

 #vd                    id                    ig                    ib                    is                   
  -0                    5.5722e-10            -1.8e-13              -4e-14                -5.4144e-10          
  -0.1                  -1.1285e-06           1.8e-13               4e-14                 1.12866e-06          
  -0.2                  -1.6094e-06           2e-14                 0                     1.6124e-06           
  -0.3                  -1.73e-06             1e-13                 0                     1.7326e-06           
  -0.4                  -1.7524e-06           1e-13                 1.4e-13               1.756e-06            
  -0.5                  -1.7606e-06           -6e-14                1.4e-13               1.7638e-06           
  -0.6                  -1.7654e-06           -4e-14                -4e-14                1.7694e-06           
  -0.7                  -1.77e-06             4.4e-13               -4e-14                1.7734e-06           
  -0.8                  -1.7722e-06           -6e-14                2e-14                 1.7762e-06           
  -0.9                  -1.7752e-06           -1.2e-13              4e-14                 1.7786e-06           
  -1                    -1.7776e-06           -3e-13                4e-14                 1.7814e-06           
  -1.1                  -1.7792e-06           -3.8e-13              4e-14                 1.7836e-06           
  -1.2                  -1.7818e-06           1.8e-13               8e-14                 1.7854e-06           
  -1.3                  -1.7824e-06           -8e-14                2e-14                 1.7872e-06           
  -1.4                  -1.7854e-06           -2e-14                6e-14                 1.789e-06            
  -1.5                  -1.787e-06            -2.4e-13              8e-14                 1.791e-06            
  -1.6                  -1.7884e-06           -8e-14                2e-13                 1.791e-06            
  -1.7                  -1.7902e-06           4.2e-13               2.2e-13               1.7938e-06           
  -1.8                  -1.7916e-06           -1e-13                1.8e-13               1.795e-06            
  -1.9                  -1.793e-06            2e-14                 4e-14                 1.7964e-06           
  -2                    -1.794e-06            2.4e-13               1.6e-13               1.7978e-06           
  -2.1                  -1.7954e-06           1.4e-13               1e-13                 1.7992e-06           
  -2.2                  -1.797e-06            1e-13                 8e-14                 1.8004e-06           
  -2.3                  -1.7972e-06           -1.2e-13              1.8e-13               1.801e-06            
  -2.4                  -1.7992e-06           1.6e-13               4.2e-13               1.8024e-06           
  -2.5                  -1.8004e-06           -2e-14                8e-13                 1.804e-06            
  -2.6                  -1.8016e-06           -2e-14                1.9e-12               1.8052e-06           
  -2.7                  -1.8026e-06           0                     4.14e-12              1.806e-06            
  -2.8                  -1.8036e-06           -8e-14                8.76e-12              1.8064e-06           
  -2.9                  -1.8048e-06           2.6e-13               1.798e-11             1.8072e-06           
  -3                    -1.806e-06            -1.4e-13              3.554e-11             1.8094e-06           
  -3.1                  -1.8072e-06           0                     6.756e-11             1.8108e-06           
  -3.2                  -1.8088e-06           -3.2e-13              1.253e-10             1.812e-06            
  -3.3                  -1.8098e-06           4e-13                 2.2584e-10            1.813e-06            
  -3.4                  -1.811e-06            -2.2e-13              3.9576e-10            1.8138e-06           
  -3.5                  -1.812e-06            0                     6.784e-10             1.8144e-06           
  -3.6                  -1.8136e-06           -2e-14                1.13866e-09           1.8162e-06           
END_DB

