! VERSION = 6.00
BEGIN_HEADER
 ICCAP_INPUTS
  vd         V  D GROUND SMU1 0.1 LIN        1    -0         -3.6       37   -0.1      
  vg         V  G GROUND SMU2 0.001 LIN        2    -0.688     -3.6       5    -0.728    
  vb         V  B GROUND SMU4 0.1 CON        -0
  vs         V  S GROUND SMU3 0.1 CON        -0
 ICCAP_OUTPUTS
  id         I  D GROUND SMU1 B
  ig         I  G GROUND SMU2 B
  ib         I  B GROUND SMU4 B
  is         I  S GROUND SMU3 B
 ICCAP_VALUES
  MASTER_SETUP_TYPE "~dc_idvd~"
  LINVT_VALUE "|idvg|100.0n|100.0m|1.000m|5|3.600|"
  LISTVT_VALUE ""
  TYPE "-1"
  TEMP " 125.000 "
  IS_TNOM " 0.00000 "
  MAIN.W "2.000u"
  MAIN.L "1.200u"
  MAIN.AD "680.0f"
  MAIN.AS "680.0f"
  MAIN.PD "4.680u"
  MAIN.PS "4.680u"
  MAIN.NF "1.000"
  MAIN.M "1"
  MAIN.NRD "0.000"
  MAIN.NRS "0.000"
  MAIN.LDRIFT1 "1E-06"
  MAIN.LDRIFT2 "1E-06"
  MAIN.SA "0.000"
  MAIN.SB "0.000"
  MAIN.SD "0.000"
  MAIN.SCA "0.000"
  MAIN.SCB "0.000"
  MAIN.SCC "0.000"
  MAIN.SC "0.000"
  MODULE "S563"
  PIN_D "16"
  PIN_G "5"
  PIN_S "6"
  PIN_B "15"
  PIN_E ""
  PIN_6 ""
  XY_ID ""
  FUNC "LW Scale"
  STI "SA ref"
  WPE "WPE ref"
  COMMENT ""
  DIS_MEAS ""
  TypeTCI "10"
END_HEADER

BEGIN_DB
 ICCAP_VAR vg         -0.688         
 ICCAP_VAR vb         -0             
 ICCAP_VAR vs         -0             

 #vd                    id                    ig                    ib                    is                   
  -0                    1.5176e-10            1.2e-13               -9.534e-11            -2.1974e-10          
  -0.1                  -4.4614e-07           4e-14                 -8.892e-11            4.4624e-07           
  -0.2                  -5.338e-07            3.6e-13               -8.06e-11             5.338e-07            
  -0.3                  -5.4374e-07           8e-14                 -7.634e-11            5.439e-07            
  -0.4                  -5.4638e-07           3.4e-13               -7.246e-11            5.4652e-07           
  -0.5                  -5.4788e-07           2.2e-13               -6.898e-11            5.4802e-07           
  -0.6                  -5.489e-07            1e-13                 -6.614e-11            5.4876e-07           
  -0.7                  -5.495e-07            1e-13                 -6.316e-11            5.4974e-07           
  -0.8                  -5.5038e-07           8e-14                 -6.028e-11            5.5052e-07           
  -0.9                  -5.5112e-07           1.2e-13               -5.784e-11            5.512e-07            
  -1                    -5.518e-07            3.2e-13               -5.492e-11            5.516e-07            
  -1.1                  -5.5224e-07           4.2e-13               -5.368e-11            5.5236e-07           
  -1.2                  -5.5282e-07           1.6e-13               -5.172e-11            5.5316e-07           
  -1.3                  -5.5376e-07           4e-14                 -4.938e-11            5.5386e-07           
  -1.4                  -5.5424e-07           2e-14                 -4.756e-11            5.5412e-07           
  -1.5                  -5.5466e-07           8e-14                 -4.616e-11            5.5446e-07           
  -1.6                  -5.5468e-07           1.8e-13               -4.414e-11            5.5482e-07           
  -1.7                  -5.5512e-07           1.2e-13               -4.29e-11             5.552e-07            
  -1.8                  -5.5554e-07           3e-13                 -4.14e-11             5.5588e-07           
  -1.9                  -5.5612e-07           2.4e-13               -3.952e-11            5.5626e-07           
  -2                    -5.5636e-07           2e-13                 -3.794e-11            5.5644e-07           
  -2.1                  -5.5666e-07           1.6e-13               -3.49e-11             5.5678e-07           
  -2.2                  -5.5744e-07           1.4e-13               -3.198e-11            5.5738e-07           
  -2.3                  -5.5786e-07           4e-14                 -2.764e-11            5.5772e-07           
  -2.4                  -5.579e-07            2.2e-13               -1.996e-11            5.5794e-07           
  -2.5                  -5.5824e-07           2e-13                 -8.76e-12             5.5816e-07           
  -2.6                  -5.585e-07            8e-14                 8.08e-12              5.5842e-07           
  -2.7                  -5.5894e-07           1.8e-13               3.412e-11             5.5896e-07           
  -2.8                  -5.5932e-07           1e-13                 7.232e-11             5.5934e-07           
  -2.9                  -5.597e-07            2e-14                 1.2984e-10            5.5966e-07           
  -3                    -5.602e-07            1e-13                 2.1296e-10            5.5982e-07           
  -3.1                  -5.6044e-07           3.8e-13               3.33e-10              5.6018e-07           
  -3.2                  -5.6128e-07           4e-14                 5.0306e-10            5.6098e-07           
  -3.3                  -5.6218e-07           1.6e-13               7.4216e-10            5.617e-07            
  -3.4                  -5.6302e-07           2.6e-13               1.0694e-09            5.6192e-07           
  -3.5                  -5.6346e-07           -8e-14                1.5172e-09            5.6202e-07           
  -3.6                  -5.6468e-07           1e-13                 2.1134e-09            5.6262e-07           
END_DB

BEGIN_DB
 ICCAP_VAR vg         -1.416         
 ICCAP_VAR vb         -0             
 ICCAP_VAR vs         -0             

 #vd                    id                    ig                    ib                    is                   
  -0                    1.10128e-09           -5.6e-13              -3.106e-11            -1.11842e-09         
  -0.1                  -4.0222e-06           -3.6e-13              -2.992e-11            4.0254e-06           
  -0.2                  -7.2876e-06           -2.4e-13              -2.526e-11            7.2904e-06           
  -0.3                  -9.8028e-06           -4.6e-13              -2.394e-11            9.806e-06            
  -0.4                  -1.1598e-05           -2e-13                -2.62e-11             1.1606e-05           
  -0.5                  -1.2746e-05           -4e-13                -2.196e-11            1.2754e-05           
  -0.6                  -1.3362e-05           -3.2e-13              -2.142e-11            1.3366e-05           
  -0.7                  -1.3626e-05           -3.6e-13              -2.058e-11            1.3632e-05           
  -0.8                  -1.3738e-05           -2.8e-13              -2e-11                1.3744e-05           
  -0.9                  -1.3796e-05           -2.2e-13              -2.006e-11            1.3804e-05           
  -1                    -1.3836e-05           -2.6e-13              -1.874e-11            1.3842e-05           
  -1.1                  -1.3866e-05           -2.8e-13              -1.79e-11             1.3874e-05           
  -1.2                  -1.3892e-05           -1.4e-13              -1.802e-11            1.39e-05             
  -1.3                  -1.3916e-05           -2.6e-13              -1.732e-11            1.392e-05            
  -1.4                  -1.3934e-05           -1.6e-13              -1.704e-11            1.3942e-05           
  -1.5                  -1.3952e-05           -2e-13                -1.666e-11            1.396e-05            
  -1.6                  -1.3972e-05           -2.2e-13              -1.604e-11            1.3978e-05           
  -1.7                  -1.3986e-05           -2.4e-13              -1.58e-11             1.3992e-05           
  -1.8                  -1.4e-05              -6e-14                -1.55e-11             1.4008e-05           
  -1.9                  -1.4012e-05           -8e-14                -1.522e-11            1.402e-05            
  -2                    -1.4026e-05           -1.4e-13              -1.452e-11            1.4034e-05           
  -2.1                  -1.404e-05            -2e-14                -1.336e-11            1.4046e-05           
  -2.2                  -1.4052e-05           -1.8e-13              -1.218e-11            1.4058e-05           
  -2.3                  -1.4064e-05           -1.6e-13              -9.86e-12             1.407e-05            
  -2.4                  -1.4074e-05           -2.4e-13              -3.74e-12             1.4082e-05           
  -2.5                  -1.4084e-05           -1e-13                7.12e-12              1.4092e-05           
  -2.6                  -1.4092e-05           -1e-13                2.722e-11             1.41e-05             
  -2.7                  -1.4104e-05           -2e-14                6.51e-11              1.411e-05            
  -2.8                  -1.4116e-05           -1.2e-13              1.31e-10              1.4124e-05           
  -2.9                  -1.413e-05            -1.4e-13              2.4336e-10            1.4136e-05           
  -3                    -1.414e-05            -6e-14                4.291e-10             1.4144e-05           
  -3.1                  -1.415e-05            -1.2e-13              7.2798e-10            1.4156e-05           
  -3.2                  -1.416e-05            -1.8e-13              1.1972e-09            1.4168e-05           
  -3.3                  -1.4172e-05           -1.2e-13              1.932e-09             1.4176e-05           
  -3.4                  -1.418e-05            -6e-14                3.04e-09              1.4184e-05           
  -3.5                  -1.4192e-05           -6e-14                4.6974e-09            1.4196e-05           
  -3.6                  -1.4206e-05           -1.2e-13              7.1258e-09            1.4204e-05           
END_DB

BEGIN_DB
 ICCAP_VAR vg         -2.144         
 ICCAP_VAR vb         -0             
 ICCAP_VAR vs         -0             

 #vd                    id                    ig                    ib                    is                   
  -0                    1.5748e-09            -6.8e-13              -1.736e-11            -1.4316e-09          
  -0.1                  -7.1276e-06           -6.6e-13              -1.62e-11             7.1306e-06           
  -0.2                  -1.3588e-05           -4.2e-13              -1.582e-11            1.3594e-05           
  -0.3                  -1.9376e-05           -5e-13                -1.23e-11             1.9384e-05           
  -0.4                  -2.4484e-05           -5.4e-13              -1.154e-11            2.4494e-05           
  -0.5                  -2.895e-05            -5.4e-13              -1.056e-11            2.896e-05            
  -0.6                  -3.2772e-05           -4.8e-13              -1.076e-11            3.2778e-05           
  -0.7                  -3.595e-05            -4.4e-13              -1.016e-11            3.5958e-05           
  -0.8                  -3.8506e-05           -4.4e-13              -9.86e-12             3.8514e-05           
  -0.9                  -4.048e-05            -2.4e-13              -9.42e-12             4.0494e-05           
  -1                    -4.1906e-05           -3.8e-13              -9.24e-12             4.1912e-05           
  -1.1                  -4.2856e-05           -3.6e-13              -9e-12                4.2866e-05           
  -1.2                  -4.3454e-05           -2.2e-13              -8.76e-12             4.346e-05            
  -1.3                  -4.38e-05             -3e-13                -8.04e-12             4.3806e-05           
  -1.4                  -4.4018e-05           -2.8e-13              -8.4e-12              4.4022e-05           
  -1.5                  -4.4164e-05           -3.6e-13              -7.72e-12             4.4176e-05           
  -1.6                  -4.4276e-05           -3.2e-13              -7.38e-12             4.4284e-05           
  -1.7                  -4.4368e-05           -2.2e-13              -7.8e-12              4.4378e-05           
  -1.8                  -4.4446e-05           -2e-13                -7.28e-12             4.4456e-05           
  -1.9                  -4.4518e-05           -1.6e-13              -7.08e-12             4.4528e-05           
  -2                    -4.4574e-05           -2.4e-13              -7.18e-12             4.4582e-05           
  -2.1                  -4.4628e-05           -2.8e-13              -6.46e-12             4.464e-05            
  -2.2                  -4.4686e-05           -2.4e-13              -6.34e-12             4.4696e-05           
  -2.3                  -4.4734e-05           -2e-13                -6.52e-12             4.4742e-05           
  -2.4                  -4.4778e-05           -3.6e-13              -6.02e-12             4.4782e-05           
  -2.5                  -4.481e-05            -2e-13                -5.34e-12             4.482e-05            
  -2.6                  -4.4856e-05           -2.2e-13              -4.7e-12              4.4858e-05           
  -2.7                  -4.4892e-05           -2.4e-13              -2.3e-12              4.49e-05             
  -2.8                  -4.4922e-05           -2e-13                3e-12                 4.4934e-05           
  -2.9                  -4.4972e-05           -2.2e-13              1.38e-11              4.498e-05            
  -3                    -4.5006e-05           -2.2e-13              3.666e-11             4.5016e-05           
  -3.1                  -4.5038e-05           -1.4e-13              8.114e-11             4.5044e-05           
  -3.2                  -4.5068e-05           -2.6e-13              1.6334e-10            4.5076e-05           
  -3.3                  -4.5106e-05           -1.8e-13              3.1222e-10            4.5112e-05           
  -3.4                  -4.514e-05            -1.2e-13              5.7034e-10            4.5144e-05           
  -3.5                  -4.5172e-05           -1.8e-13              1.0049e-09            4.5178e-05           
  -3.6                  -4.5208e-05           -3.6e-13              1.721e-09             4.5208e-05           
END_DB

BEGIN_DB
 ICCAP_VAR vg         -2.872         
 ICCAP_VAR vb         -0             
 ICCAP_VAR vs         -0             

 #vd                    id                    ig                    ib                    is                   
  -0                    1.5196e-09            -7.4e-13              -1.164e-11            -1.6504e-09          
  -0.1                  -9.662e-06            -5.6e-13              -1.086e-11            9.666e-06            
  -0.2                  -1.8734e-05           -7.4e-13              -1.054e-11            1.8742e-05           
  -0.3                  -2.7206e-05           -6e-13                -6.42e-12             2.7212e-05           
  -0.4                  -3.5066e-05           -6.4e-13              -6.02e-12             3.507e-05            
  -0.5                  -4.2348e-05           -5.8e-13              -5.98e-12             4.2354e-05           
  -0.6                  -4.9046e-05           -6e-13                -5.44e-12             4.9056e-05           
  -0.7                  -5.5164e-05           -4.8e-13              -5.56e-12             5.517e-05            
  -0.8                  -6.0708e-05           -6.2e-13              -5.34e-12             6.071e-05            
  -0.9                  -6.5674e-05           -6.4e-13              -4.68e-12             6.5676e-05           
  -1                    -7.0056e-05           -5e-13                -4.8e-12              7.0066e-05           
  -1.1                  -7.389e-05            -4.6e-13              -4.86e-12             7.3896e-05           
  -1.2                  -7.7168e-05           -5e-13                -4.28e-12             7.7184e-05           
  -1.3                  -7.9906e-05           -4.6e-13              -4.36e-12             7.991e-05            
  -1.4                  -8.2136e-05           -3.8e-13              -3.92e-12             8.2154e-05           
  -1.5                  -8.3902e-05           -4.4e-13              -4.02e-12             8.3916e-05           
  -1.6                  -8.522e-05            -4.4e-13              -4.08e-12             8.5218e-05           
  -1.7                  -8.6172e-05           -3.6e-13              -3.58e-12             8.6184e-05           
  -1.8                  -8.6846e-05           -5e-13                -3.06e-12             8.685e-05            
  -1.9                  -8.731e-05            -4.6e-13              -3.3e-12              8.733e-05            
  -2                    -8.7656e-05           -3.2e-13              -3.1e-12              8.767e-05            
  -2.1                  -8.7906e-05           -3.8e-13              -2.8e-12              8.7902e-05           
  -2.2                  -8.81e-05             -3.4e-13              -3.36e-12             8.811e-05            
  -2.3                  -8.8268e-05           -3e-13                -2.78e-12             8.8286e-05           
  -2.4                  -8.8404e-05           -2.4e-13              -2.7e-12              8.8424e-05           
  -2.5                  -8.8556e-05           -3.8e-13              -3.1e-12              8.8554e-05           
  -2.6                  -8.8664e-05           -3.4e-13              -2.3e-12              8.8664e-05           
  -2.7                  -8.8772e-05           -3.4e-13              -2.18e-12             8.8778e-05           
  -2.8                  -8.8858e-05           -2.6e-13              -2.32e-12             8.8878e-05           
  -2.9                  -8.8958e-05           -2.6e-13              -1.88e-12             8.8954e-05           
  -3                    -8.9034e-05           -2.4e-13              -1.04e-12             8.905e-05            
  -3.1                  -8.9116e-05           -3.6e-13              0                     8.9116e-05           
  -3.2                  -8.9176e-05           -2.8e-13              4e-12                 8.9194e-05           
  -3.3                  -8.9252e-05           -1.4e-13              1.104e-11             8.927e-05            
  -3.4                  -8.933e-05            -3.6e-13              2.706e-11             8.933e-05            
  -3.5                  -8.938e-05            -2.6e-13              6.012e-11             8.9386e-05           
  -3.6                  -8.9448e-05           -2.8e-13              1.236e-10             8.9452e-05           
END_DB

BEGIN_DB
 ICCAP_VAR vg         -3.6           
 ICCAP_VAR vb         -0             
 ICCAP_VAR vs         -0             

 #vd                    id                    ig                    ib                    is                   
  -0                    1.7896e-09            -8.6e-13              -8.4e-12              -2.0382e-09          
  -0.1                  -1.1744e-05           -7.6e-13              -6.92e-12             1.175e-05            
  -0.2                  -2.2966e-05           -6.8e-13              -3.74e-12             2.2974e-05           
  -0.3                  -3.3646e-05           -7.2e-13              -3.22e-12             3.3656e-05           
  -0.4                  -4.3772e-05           -7e-13                -3e-12                4.378e-05            
  -0.5                  -5.3386e-05           -7e-13                -3.02e-12             5.3392e-05           
  -0.6                  -6.248e-05            -5.6e-13              -3.04e-12             6.2482e-05           
  -0.7                  -7.103e-05            -4.8e-13              -3.1e-12              7.1032e-05           
  -0.8                  -7.9068e-05           -6.8e-13              -2.36e-12             7.9082e-05           
