! VERSION = 6.00
BEGIN_HEADER
 ICCAP_INPUTS
  vd         V  D GROUND SMU1 0.1 LIN        1    -0         -3.6       37   -0.1      
  vg         V  G GROUND SMU2 0.001 LIST       2 3 -0.498 -0.698 -0.898
  vb         V  B GROUND SMU4 0.1 CON        -0
  vs         V  S GROUND SMU3 0.1 CON        -0
 ICCAP_OUTPUTS
  id         I  D GROUND SMU1 B
  ig         I  G GROUND SMU2 B
  ib         I  B GROUND SMU4 B
  is         I  S GROUND SMU3 B
 ICCAP_VALUES
  MASTER_SETUP_TYPE "~dc_idvd~"
  LINVT_VALUE ""
  LISTVT_VALUE "|idvg|100.0n|-200.0m|1.000m|3|200.0m|200.0m|"
  TYPE "-1"
  TEMP " 27.0000 "
  IS_TNOM " 1.00000 "
  MAIN.W "10.00u"
  MAIN.L "5.000u"
  MAIN.AD "3.400p"
  MAIN.AS "3.400p"
  MAIN.PD "20.68u"
  MAIN.PS "20.68u"
  MAIN.NF "1.000"
  MAIN.M "1"
  MAIN.NRD "0.000"
  MAIN.NRS "0.000"
  MAIN.LDRIFT1 "1E-06"
  MAIN.LDRIFT2 "1E-06"
  MAIN.SA "0.000"
  MAIN.SB "0.000"
  MAIN.SD "0.000"
  MAIN.SCA "0.000"
  MAIN.SCB "0.000"
  MAIN.SCC "0.000"
  MAIN.SC "0.000"
  MODULE "S562"
  PIN_D "18"
  PIN_G "3"
  PIN_S "4"
  PIN_B "17"
  PIN_E ""
  PIN_6 ""
  XY_ID ""
  FUNC "L Scale"
  STI "SA ref"
  WPE "WPE ref"
  COMMENT ""
  DIS_MEAS ""
  TypeTCI "10"
END_HEADER

BEGIN_DB
 ICCAP_VAR vg         -0.498         
 ICCAP_VAR vb         -0             
 ICCAP_VAR vs         -0             

 #vd                    id                    ig                    ib                    is                   
  -0                    2.38e-12              5.4e-13               -1.4e-13              -5.96e-12            
  -0.1                  -2.6184e-09           5.2e-13               0                     2.6196e-09           
  -0.2                  -2.6772e-09           3.2e-13               -8e-14                2.6782e-09           
  -0.3                  -2.6798e-09           4.4e-13               0                     2.6808e-09           
  -0.4                  -2.6816e-09           3.4e-13               -4e-14                2.682e-09            
  -0.5                  -2.683e-09            5e-13                 6e-14                 2.6832e-09           
  -0.6                  -2.684e-09            3e-13                 -6e-14                2.684e-09            
  -0.7                  -2.6844e-09           1.8e-13               -6e-14                2.685e-09            
  -0.8                  -2.6852e-09           4.2e-13               -2e-14                2.6854e-09           
  -0.9                  -2.6858e-09           2.4e-13               -1e-13                2.6864e-09           
  -1                    -2.6866e-09           3.2e-13               -2e-14                2.687e-09            
  -1.1                  -2.6872e-09           2.8e-13               -2e-14                2.6876e-09           
  -1.2                  -2.688e-09            4e-13                 -1.4e-13              2.6882e-09           
  -1.3                  -2.689e-09            3.4e-13               4e-14                 2.689e-09            
  -1.4                  -2.6892e-09           2.8e-13               -1.8e-13              2.6896e-09           
  -1.5                  -2.6898e-09           2.6e-13               2e-14                 2.6902e-09           
  -1.6                  -2.6906e-09           3.6e-13               -4e-14                2.6906e-09           
  -1.7                  -2.6912e-09           2.6e-13               0                     2.6908e-09           
  -1.8                  -2.6922e-09           2.8e-13               -2e-14                2.6918e-09           
  -1.9                  -2.6924e-09           2.2e-13               6e-14                 2.692e-09            
  -2                    -2.6926e-09           3.6e-13               1e-13                 2.6926e-09           
  -2.1                  -2.6936e-09           2.4e-13               1.4e-13               2.693e-09            
  -2.2                  -2.694e-09            2.8e-13               -2e-14                2.6938e-09           
  -2.3                  -2.6944e-09           1.8e-13               1e-13                 2.694e-09            
  -2.4                  -2.6952e-09           2.6e-13               1e-13                 2.6946e-09           
  -2.5                  -2.6962e-09           2.8e-13               3.8e-13               2.6952e-09           
  -2.6                  -2.6964e-09           1.4e-13               4.6e-13               2.6958e-09           
  -2.7                  -2.6972e-09           2.6e-13               7e-13                 2.6962e-09           
  -2.8                  -2.6982e-09           1.6e-13               1.24e-12              2.6966e-09           
  -2.9                  -2.6994e-09           1.8e-13               1.62e-12              2.697e-09            
  -3                    -2.701e-09            1.8e-13               2.82e-12              2.6976e-09           
  -3.1                  -2.7028e-09           1.6e-13               4.06e-12              2.698e-09            
  -3.2                  -2.705e-09            2e-13                 5.98e-12              2.6986e-09           
  -3.3                  -2.7078e-09           3e-13                 8.6e-12               2.699e-09            
  -3.4                  -2.7116e-09           4e-14                 1.21e-11              2.699e-09            
  -3.5                  -2.7168e-09           2.4e-13               1.686e-11             2.6996e-09           
  -3.6                  -2.7232e-09           6e-14                 2.29e-11              2.6998e-09           
END_DB

BEGIN_DB
 ICCAP_VAR vg         -0.698         
 ICCAP_VAR vb         -0             
 ICCAP_VAR vs         -0             

 #vd                    id                    ig                    ib                    is                   
  -0                    2.6484e-10            1e-13                 -1.4e-13              -2.622e-10           
  -0.1                  -1.922e-07            8e-14                 -2.2e-13              1.924e-07            
  -0.2                  -2.0168e-07           2e-14                 -1.4e-13              2.0192e-07           
  -0.3                  -2.0208e-07           2.2e-13               1e-13                 2.023e-07            
  -0.4                  -2.0224e-07           1e-13                 2e-14                 2.0244e-07           
  -0.5                  -2.0232e-07           6e-14                 2e-14                 2.0256e-07           
  -0.6                  -2.024e-07            8e-14                 1e-13                 2.0262e-07           
  -0.7                  -2.0248e-07           8e-14                 1.4e-13               2.027e-07            
  -0.8                  -2.0256e-07           4e-14                 8e-14                 2.0278e-07           
  -0.9                  -2.0262e-07           1.8e-13               -4e-14                2.0282e-07           
  -1                    -2.0268e-07           2e-13                 -6e-14                2.0286e-07           
  -1.1                  -2.0272e-07           2.8e-13               -6e-14                2.0292e-07           
  -1.2                  -2.0276e-07           1.4e-13               2e-14                 2.0298e-07           
  -1.3                  -2.0282e-07           6e-14                 -1e-13                2.03e-07             
  -1.4                  -2.0282e-07           0                     -2e-14                2.0304e-07           
  -1.5                  -2.0288e-07           8e-14                 -8e-14                2.0308e-07           
  -1.6                  -2.029e-07            4e-14                 0                     2.0312e-07           
  -1.7                  -2.0296e-07           6e-14                 6e-14                 2.0318e-07           
  -1.8                  -2.0298e-07           8e-14                 2e-14                 2.0322e-07           
  -1.9                  -2.0304e-07           4e-14                 1.6e-13               2.0326e-07           
  -2                    -2.0306e-07           1e-13                 5.2e-13               2.0328e-07           
  -2.1                  -2.0312e-07           1.4e-13               8.8e-13               2.033e-07            
  -2.2                  -2.0314e-07           2.2e-13               1.66e-12              2.0336e-07           
  -2.3                  -2.0318e-07           1e-13                 3.08e-12              2.0338e-07           
  -2.4                  -2.0318e-07           1e-13                 5.52e-12              2.0338e-07           
  -2.5                  -2.0324e-07           1.6e-13               9.7e-12               2.0344e-07           
  -2.6                  -2.0326e-07           1.2e-13               1.644e-11             2.0348e-07           
  -2.7                  -2.0332e-07           6e-14                 2.718e-11             2.0352e-07           
  -2.8                  -2.0336e-07           2e-13                 4.4e-11               2.0354e-07           
  -2.9                  -2.0342e-07           3e-13                 6.982e-11             2.0358e-07           
  -3                    -2.0352e-07           1.4e-13               1.0844e-10            2.0362e-07           
  -3.1                  -2.0362e-07           -6e-14                1.6522e-10            2.0368e-07           
  -3.2                  -2.0376e-07           4e-14                 2.4718e-10            2.037e-07            
  -3.3                  -2.0388e-07           6e-14                 3.6358e-10            2.0372e-07           
  -3.4                  -2.0406e-07           1.6e-13               5.2562e-10            2.0374e-07           
  -3.5                  -2.043e-07            2e-13                 7.482e-10             2.0376e-07           
  -3.6                  -2.0464e-07           1.2e-13               1.04848e-09           2.038e-07            
END_DB

BEGIN_DB
 ICCAP_VAR vg         -0.898         
 ICCAP_VAR vb         -0             
 ICCAP_VAR vs         -0             

 #vd                    id                    ig                    ib                    is                   
  -0                    9.4442e-10            -8e-14                -1.2e-13              -9.41e-10            
  -0.1                  -1.334e-06            -4e-14                -8e-14                1.3376e-06           
  -0.2                  -1.7258e-06           0                     0                     1.7296e-06           
  -0.3                  -1.7634e-06           0                     0                     1.7672e-06           
  -0.4                  -1.7664e-06           1e-13                 -1e-13                1.7702e-06           
  -0.5                  -1.7676e-06           6e-14                 -2e-14                1.7716e-06           
  -0.6                  -1.7686e-06           4e-14                 0                     1.7722e-06           
  -0.7                  -1.7692e-06           -8e-14                6e-14                 1.773e-06            
  -0.8                  -1.7702e-06           4e-14                 -1.4e-13              1.7738e-06           
  -0.9                  -1.7706e-06           2e-14                 -2e-14                1.7744e-06           
  -1                    -1.771e-06            1e-13                 0                     1.775e-06            
  -1.1                  -1.7716e-06           -6e-14                -1.2e-13              1.7754e-06           
  -1.2                  -1.772e-06            0                     -6e-14                1.7758e-06           
  -1.3                  -1.7724e-06           2e-14                 6e-14                 1.7762e-06           
  -1.4                  -1.773e-06            4e-14                 6e-14                 1.7766e-06           
  -1.5                  -1.773e-06            -6e-14                -1.4e-13              1.777e-06            
  -1.6                  -1.7736e-06           2e-14                 4e-14                 1.7774e-06           
  -1.7                  -1.774e-06            1.4e-13               2e-14                 1.7778e-06           
  -1.8                  -1.7744e-06           2e-14                 2e-13                 1.7782e-06           
  -1.9                  -1.7746e-06           2e-14                 3.6e-13               1.7784e-06           
  -2                    -1.775e-06            6e-14                 1.06e-12              1.7788e-06           
  -2.1                  -1.7752e-06           1.8e-13               2.32e-12              1.779e-06            
  -2.2                  -1.7756e-06           8e-14                 4.68e-12              1.7792e-06           
  -2.3                  -1.7758e-06           1.6e-13               9.58e-12              1.7796e-06           
  -2.4                  -1.776e-06            1e-13                 1.846e-11             1.78e-06             
  -2.5                  -1.7764e-06           1e-13                 3.42e-11              1.7802e-06           
  -2.6                  -1.7768e-06           8e-14                 6.068e-11             1.7804e-06           
  -2.7                  -1.7772e-06           8e-14                 1.0492e-10            1.7808e-06           
  -2.8                  -1.7774e-06           6e-14                 1.7696e-10            1.781e-06            
  -2.9                  -1.7778e-06           8e-14                 2.9138e-10            1.7812e-06           
  -3                    -1.7782e-06           4e-14                 4.6844e-10            1.7816e-06           
  -3.1                  -1.7788e-06           2e-14                 7.3768e-10            1.7818e-06           
  -3.2                  -1.7794e-06           1.4e-13               1.1391e-09            1.782e-06            
  -3.3                  -1.781e-06            6e-14                 1.7278e-09            1.783e-06            
  -3.4                  -1.782e-06            1e-13                 2.5704e-09            1.783e-06            
  -3.5                  -1.7832e-06           0                     3.7588e-09            1.7832e-06           
  -3.6                  -1.7852e-06           -2e-14                5.4064e-09            1.7836e-06           
END_DB

