! VERSION = 6.00
BEGIN_HEADER
 ICCAP_INPUTS
  vg         V  G GROUND SMU2 0.001 LIN        1    0.5        -3.6       83   -0.05     
  vb         V  B GROUND SMU4 0.1 LIN        2    0          3.6        5    0.9       
  vd         V  D GROUND SMU1 0.1 LIN        3    -0.1       -3.3       3    -1.6      
  vs         V  S GROUND SMU3 0.1 CON        -0
 ICCAP_OUTPUTS
  id         I  D GROUND SMU1 B
  ig         I  G GROUND SMU2 B
  ib         I  B GROUND SMU4 B
  is         I  S GROUND SMU3 B
 ICCAP_VALUES
  MASTER_SETUP_TYPE "~dc_idvg~"
  LINVT_VALUE ""
  LISTVT_VALUE ""
  TYPE "-1"
  TEMP " 27.0000 "
  IS_TNOM " 1.00000 "
  MAIN.W "300.0n"
  MAIN.L "330.0n"
  MAIN.AD "102.0f"
  MAIN.AS "102.0f"
  MAIN.PD "1.280u"
  MAIN.PS "1.280u"
  MAIN.NF "1.000"
  MAIN.M "1"
  MAIN.NRD "0.000"
  MAIN.NRS "0.000"
  MAIN.LDRIFT1 "1E-06"
  MAIN.LDRIFT2 "1E-06"
  MAIN.SA "0.000"
  MAIN.SB "0.000"
  MAIN.SD "0.000"
  MAIN.SCA "0.000"
  MAIN.SCB "0.000"
  MAIN.SCC "0.000"
  MAIN.SC "0.000"
  MODULE "S565"
  PIN_D "18"
  PIN_G "3"
  PIN_S "4"
  PIN_B "17"
  PIN_E ""
  PIN_6 ""
  XY_ID ""
  FUNC "Additional"
  STI "SA ref"
  WPE "WPE ref"
  COMMENT ""
  DIS_MEAS ""
  TypeTCI "10"
END_HEADER

BEGIN_DB
 ICCAP_VAR vb         0              
 ICCAP_VAR vd         -0.1           
 ICCAP_VAR vs         -0             

 #vg                    id                    ig                    ib                    is                   
  0.5                   -1.2e-13              1.884e-11             -4.36e-12             4e-14                
  0.45                  -1e-13                2.88e-12              -7.2e-13              1.2e-13              
  0.4                   -8e-14                4.4e-13               2e-14                 -2e-14               
  0.35                  -2e-14                -2e-14                4e-14                 1e-13                
  0.3                   -6e-14                -1.2e-13              2e-14                 1e-13                
  0.25                  -8e-14                -8e-14                4e-14                 1.4e-13              
  0.2                   2e-14                 -1.6e-13              -4e-14                4e-14                
  0.15                  0                     -3.4e-13              -2e-14                2.6e-13              
  0.1                   -2e-13                -2e-13                0                     4e-14                
  0.05                  1.8e-13               -2.4e-13              4e-14                 1.8e-13              
  0                     -8e-14                -2e-13                -2e-14                1.2e-13              
  -0.05                 -1e-13                -2.4e-13              0                     2.2e-13              
  -0.1                  -2.8e-13              -3.2e-13              6e-14                 3e-13                
  -0.15                 -8.2e-13              -3.4e-13              6e-14                 8.6e-13              
  -0.2                  -2.52e-12             -2.8e-13              -6e-14                2.86e-12             
  -0.25                 -8.9e-12              -3e-13                6e-14                 8.88e-12             
  -0.3                  -3.006e-11            -3.2e-13              2e-14                 2.996e-11            
  -0.35                 -1.0232e-10           -4e-13                1.4e-13               1.0262e-10           
  -0.4                  -3.5212e-10           -4e-13                -6e-14                3.4992e-10           
  -0.45                 -1.1918e-09           -2.4e-13              -8e-14                1.187e-09            
  -0.5                  -4.0056e-09           -4e-13                0                     4.01e-09             
  -0.55                 -1.3044e-08           -3e-13                -6e-14                1.3062e-08           
  -0.6                  -3.8944e-08           -4.4e-13              1e-13                 3.8956e-08           
  -0.65                 -1.00518e-07          -4e-13                -4e-14                1.0042e-07           
  -0.7                  -2.1476e-07           -4.4e-13              -8e-14                2.1498e-07           
  -0.75                 -3.875e-07            -3.8e-13              1.6e-13               3.8878e-07           
  -0.8                  -6.0734e-07           -4.2e-13              -8e-14                6.0644e-07           
  -0.85                 -8.573e-07            -4.6e-13              0                     8.5772e-07           
  -0.9                  -1.1224e-06           -4.4e-13              -2e-14                1.1229e-06           
  -0.95                 -1.3928e-06           -5e-13                0                     1.397e-06            
  -1                    -1.6632e-06           -4.4e-13              6e-14                 1.667e-06            
  -1.05                 -1.9298e-06           -4e-13                -6e-14                1.9336e-06           
  -1.1                  -2.1886e-06           -4.6e-13              1.4e-13               2.1926e-06           
  -1.15                 -2.4418e-06           -4.8e-13              -1.2e-13              2.4458e-06           
  -1.2                  -2.6866e-06           -4.4e-13              -6e-14                2.6906e-06           
  -1.25                 -2.9256e-06           -5e-13                1e-13                 2.9294e-06           
  -1.3                  -3.1574e-06           -5.8e-13              -2e-14                3.1614e-06           
  -1.35                 -3.3822e-06           -5.4e-13              -4e-14                3.386e-06            
  -1.4                  -3.601e-06            -5.4e-13              4e-14                 3.6046e-06           
  -1.45                 -3.8128e-06           -5.4e-13              -1.4e-13              3.8162e-06           
  -1.5                  -4.0198e-06           -5.4e-13              -4e-14                4.024e-06            
  -1.55                 -4.2226e-06           -6e-13                -2e-14                4.2264e-06           
  -1.6                  -4.4204e-06           -4.6e-13              6e-14                 4.424e-06            
  -1.65                 -4.612e-06            -6.6e-13              -2.2e-13              4.615e-06            
  -1.7                  -4.7988e-06           -5.6e-13              -6e-14                4.8024e-06           
  -1.75                 -4.9818e-06           -6.4e-13              -4e-14                4.9872e-06           
  -1.8                  -5.1622e-06           -6e-13                2e-14                 5.163e-06            
  -1.85                 -5.3378e-06           -4.6e-13              -2e-13                5.3396e-06           
  -1.9                  -5.5072e-06           -6.6e-13              8e-14                 5.5104e-06           
  -1.95                 -5.676e-06            -5e-13                -1.8e-13              5.6774e-06           
  -2                    -5.8402e-06           -6.2e-13              1e-13                 5.8432e-06           
  -2.05                 -6.0004e-06           -6.2e-13              -2e-14                6.0042e-06           
  -2.1                  -6.1586e-06           -5.4e-13              0                     6.1624e-06           
  -2.15                 -6.3124e-06           -5e-13                -4e-14                6.316e-06            
  -2.2                  -6.4582e-06           -5.6e-13              1.4e-13               6.4682e-06           
  -2.25                 -6.6132e-06           -7e-13                -8e-14                6.6166e-06           
  -2.3                  -6.7578e-06           -5.6e-13              8e-14                 6.7598e-06           
  -2.35                 -6.9008e-06           -6e-13                -6e-14                6.9032e-06           
  -2.4                  -7.041e-06            -7.8e-13              4e-14                 7.046e-06            
  -2.45                 -7.1774e-06           -6e-13                -8e-14                7.1822e-06           
  -2.5                  -7.31e-06             -6.6e-13              -4e-14                7.3172e-06           
  -2.55                 -7.4372e-06           -7.2e-13              -6e-14                7.4378e-06           
  -2.6                  -7.567e-06            -7.6e-13              4e-14                 7.568e-06            
  -2.65                 -7.6918e-06           -7.2e-13              -8e-14                7.6888e-06           
  -2.7                  -7.817e-06            -5.8e-13              2e-14                 7.822e-06            
  -2.75                 -7.9414e-06           -7.8e-13              -2.8e-13              7.945e-06            
  -2.8                  -8.0612e-06           -7.2e-13              0                     8.063e-06            
  -2.85                 -8.18e-06             -6.6e-13              -4e-14                8.1848e-06           
  -2.9                  -8.298e-06            -6.8e-13              -4e-14                8.299e-06            
  -2.95                 -8.4022e-06           -7.2e-13              -4e-14                8.4042e-06           
  -3                    -8.524e-06            -7e-13                0                     8.528e-06            
  -3.05                 -8.6346e-06           -6.6e-13              -6e-14                8.6376e-06           
  -3.1                  -8.7412e-06           -7.2e-13              1.4e-13               8.7478e-06           
  -3.15                 -8.8458e-06           -7.4e-13              0                     8.8446e-06           
  -3.2                  -8.949e-06            -6.2e-13              1e-13                 8.951e-06            
  -3.25                 -9.0524e-06           -6.4e-13              -1e-13                9.0582e-06           
  -3.3                  -9.1564e-06           -7.8e-13              1.4e-13               9.1536e-06           
  -3.35                 -9.2554e-06           -6.2e-13              -4e-14                9.2558e-06           
  -3.4                  -9.355e-06            -7.6e-13              -4e-14                9.3566e-06           
  -3.45                 -9.4504e-06           -6.4e-13              -8e-14                9.4554e-06           
  -3.5                  -9.5456e-06           -7.4e-13              0                     9.5518e-06           
  -3.55                 -9.6406e-06           -7.4e-13              -1e-13                9.645e-06            
  -3.6                  -9.7422e-06           -9e-13                1.4e-13               9.7404e-06           
END_DB

BEGIN_DB
 ICCAP_VAR vb         0.9            
 ICCAP_VAR vd         -0.1           
 ICCAP_VAR vs         -0             

 #vg                    id                    ig                    ib                    is                   
  0.5                   -1.2e-13              6.8e-13               6e-13                 8e-14                
  0.45                  6e-14                 4e-13                 3.4e-13               4e-14                
  0.4                   2e-14                 2.6e-13               4.4e-13               6e-14                
  0.35                  -2e-14                1e-13                 4.2e-13               6e-14                
  0.3                   2e-14                 1.2e-13               4.4e-13               4e-14                
  0.25                  8e-14                 -4e-14                2.2e-13               0                    
  0.2                   0                     0                     2.6e-13               2e-14                
  0.15                  8e-14                 0                     1.6e-13               1.6e-13              
  0.1                   -4e-14                -4e-14                1.4e-13               4e-14                
  0.05                  8e-14                 -4e-14                2.6e-13               1.2e-13              
  0                     1.2e-13               -2e-13                1.6e-13               2e-14                
  -0.05                 -1e-13                2e-14                 2.4e-13               2e-14                
  -0.1                  1.4e-13               -2e-13                1.6e-13               6e-14                
  -0.15                 -2e-14                -6e-14                2.2e-13               6e-14                
  -0.2                  8e-14                 -2.8e-13              2.4e-13               2e-14                
  -0.25                 0                     -2.2e-13              2e-13                 0                    
  -0.3                  6e-14                 -1.8e-13              1.2e-13               1.2e-13              
  -0.35                 1.2e-13               -3.8e-13              3.6e-13               4e-14                
  -0.4                  4e-14                 -2.4e-13              8e-14                 1e-13                
  -0.45                 1.2e-13               -2.4e-13              1.6e-13               1.4e-13              
  -0.5                  -2e-13                -3.6e-13              8e-14                 3.6e-13              
  -0.55                 -8.8e-13              -3.2e-13              1e-13                 1.12e-12             
  -0.6                  -3.7e-12              -3.8e-13              4e-14                 3.86e-12             
  -0.65                 -1.498e-11            -4.6e-13              1.4e-13               1.502e-11            
  -0.7                  -5.822e-11            -4.2e-13              4e-14                 5.9e-11              
  -0.75                 -2.2962e-10           -3.2e-13              2e-13                 2.291e-10            
  -0.8                  -8.8008e-10           -2.6e-13              1e-13                 8.8064e-10           
  -0.85                 -3.3232e-09           -4.4e-13              1.2e-13               3.3266e-09           
  -0.9                  -1.1844e-08           -3.4e-13              6e-14                 1.187e-08            
  -0.95                 -3.7916e-08           -4.2e-13              -2e-14                3.7848e-08           
  -1                    -1.00812e-07          -4e-13                8e-14                 1.0083e-07           
  -1.05                 -2.1826e-07           -3.8e-13              0                     2.1844e-07           
  -1.1                  -3.9042e-07           -3.8e-13              4e-14                 3.9064e-07           
  -1.15                 -6.0496e-07           -3.2e-13              1.4e-13               6.051e-07            
  -1.2                  -8.4366e-07           -5.4e-13              -2e-14                8.4378e-07           
  -1.25                 -1.09534e-06          -4.6e-13              1.4e-13               1.09546e-06          
  -1.3                  -1.349e-06            -4.6e-13              1.2e-13               1.3528e-06           
  -1.35                 -1.6014e-06           -4.6e-13              2e-14                 1.6052e-06           
  -1.4                  -1.8498e-06           -4e-13                1.2e-13               1.8536e-06           
  -1.45                 -2.0914e-06           -3.6e-13              -4e-14                2.0954e-06           
  -1.5                  -2.3272e-06           -4.4e-13              1.6e-13               2.331e-06            
  -1.55                 -2.5552e-06           -4.8e-13              0                     2.559e-06            
  -1.6                  -2.7776e-06           -4.2e-13              1e-13                 2.7736e-06           
  -1.65                 -2.9846e-06           -5e-13                2e-14                 2.9886e-06           
  -1.7                  -3.1944e-06           -5.6e-13              6e-14                 3.1982e-06           
  -1.75                 -3.4066e-06           -4.6e-13              1.6e-13               3.4104e-06           
  -1.8                  -3.6042e-06           -6.2e-13              -2e-14                3.6082e-06           
  -1.85                 -3.7982e-06           -5.8e-13              1.2e-13               3.802e-06            
  -1.9                  -3.9866e-06           -5.8e-13              1.6e-13               3.9904e-06           
  -1.95                 -4.1698e-06           -5.4e-13              0                     4.1752e-06           
  -2                    -4.3504e-06           -5.6e-13              1.2e-13               4.3548e-06           
  -2.05                 -4.527e-06            -7.4e-13              0                     4.5304e-06           
  -2.1                  -4.6992e-06           -6.2e-13              1.4e-13               4.7028e-06           
  -2.15                 -4.8666e-06           -6.2e-13              -2e-14                4.8718e-06           
  -2.2                  -5.0304e-06           -5.8e-13              0                     5.0342e-06           
  -2.25                 -5.1916e-06           -6.4e-13              0                     5.1932e-06           
  -2.3                  -5.3494e-06           -6.2e-13              -2e-13                5.3536e-06           
  -2.35                 -5.5034e-06           -4.2e-13              1.2e-13               5.507e-06            
  -2.4                  -5.6548e-06           -6.4e-13              6e-14                 5.6576e-06           
  -2.45                 -5.8022e-06           -6.4e-13              -4e-14                5.807e-06            
  -2.5                  -5.9486e-06           -5.6e-13              4e-14                 5.953e-06            
  -2.55                 -6.0884e-06           -5.8e-13              4e-14                 6.0954e-06           
  -2.6                  -6.2254e-06           -5.8e-13              -2e-14                6.226e-06            
  -2.65                 -6.3618e-06           -5.6e-13              1.6e-13               6.3652e-06           
  -2.7                  -6.4954e-06           -6.4e-13              4e-14                 6.4946e-06           
  -2.75                 -6.6194e-06           -6.6e-13              4e-14                 6.624e-06            
  -2.8                  -6.7538e-06           -6.2e-13              1.8e-13               6.7514e-06           
  -2.85                 -6.8728e-06           -6.4e-13              4e-14                 6.8826e-06           
  -2.9                  -7.0028e-06           -7.4e-13              6e-14                 7.0118e-06           
  -2.95                 -7.132e-06            -7.2e-13              6e-14                 7.1332e-06           
  -3                    -7.2438e-06           -6.6e-13              0                     7.2532e-06           
  -3.05                 -7.3664e-06           -8e-13                4e-14                 7.3722e-06           
  -3.1                  -7.4854e-06           -6.2e-13              -4e-14                7.4924e-06           
  -3.15                 -7.5938e-06           -7.4e-13              -8e-14                7.5938e-06           
  -3.2                  -7.7034e-06           -7.4e-13              1e-13                 7.7058e-06           
  -3.25                 -7.814e-06            -6.6e-13              6e-14                 7.8166e-06           
  -3.3                  -7.923e-06            -8.2e-13              0                     7.9266e-06           
  -3.35                 -8.0368e-06           -6e-13                0                     8.042e-06            
  -3.4                  -8.14e-06             -7.2e-13              -2e-14                8.1442e-06           
  -3.45                 -8.2478e-06           -6.8e-13              -6e-14                8.251e-06            
