! VERSION = 6.00
BEGIN_HEADER
 ICCAP_INPUTS
  vd         V  D GROUND SMU1 0.1 LIN        1    -0         -3.6       37   -0.1      
  vg         V  G GROUND SMU2 0.001 LIST       2 3 -1.582 -1.782 -1.982
  vb         V  B GROUND SMU4 0.1 CON        3.6
  vs         V  S GROUND SMU3 0.1 CON        -0
 ICCAP_OUTPUTS
  id         I  D GROUND SMU1 B
  ig         I  G GROUND SMU2 B
  ib         I  B GROUND SMU4 B
  is         I  S GROUND SMU3 B
 ICCAP_VALUES
  MASTER_SETUP_TYPE "~dc_idvd~"
  LINVT_VALUE ""
  LISTVT_VALUE "|idvg|100.0n|-200.0m|1.000m|3|200.0m|200.0m|"
  TYPE "-1"
  TEMP " 27.0000 "
  IS_TNOM " 1.00000 "
  MAIN.W "300.0n"
  MAIN.L "500.0n"
  MAIN.AD "102.0f"
  MAIN.AS "102.0f"
  MAIN.PD "1.280u"
  MAIN.PS "1.280u"
  MAIN.NF "1.000"
  MAIN.M "1"
  MAIN.NRD "0.000"
  MAIN.NRS "0.000"
  MAIN.LDRIFT1 "1E-06"
  MAIN.LDRIFT2 "1E-06"
  MAIN.SA "0.000"
  MAIN.SB "0.000"
  MAIN.SD "0.000"
  MAIN.SCA "0.000"
  MAIN.SCB "0.000"
  MAIN.SCC "0.000"
  MAIN.SC "0.000"
  MODULE "S565"
  PIN_D "14"
  PIN_G "7"
  PIN_S "8"
  PIN_B "13"
  PIN_E ""
  PIN_6 ""
  XY_ID ""
  FUNC "LW Scale"
  STI "SA ref"
  WPE "WPE ref"
  COMMENT ""
  DIS_MEAS ""
  TypeTCI "10"
END_HEADER

BEGIN_DB
 ICCAP_VAR vg         -1.582         
 ICCAP_VAR vb         3.6            
 ICCAP_VAR vs         -0             

 #vd                    id                    ig                    ib                    is                   
  -0                    5e-13                 4e-14                 5.6e-13               -2e-13               
  -0.1                  -2.1128e-10           3e-13                 4e-13                 2.1096e-10           
  -0.2                  -2.2566e-10           1.4e-13               4.2e-13               2.255e-10            
  -0.3                  -2.3358e-10           1.8e-13               2e-13                 2.334e-10            
  -0.4                  -2.4148e-10           -2e-14                2.2e-13               2.413e-10            
  -0.5                  -2.4856e-10           1.6e-13               3e-13                 2.481e-10            
  -0.6                  -2.5496e-10           1e-13                 2.6e-13               2.5492e-10           
  -0.7                  -2.6112e-10           1e-13                 4e-14                 2.6142e-10           
  -0.8                  -2.6758e-10           1.8e-13               4e-14                 2.6662e-10           
  -0.9                  -2.7452e-10           2.2e-13               1.4e-13               2.7382e-10           
  -1                    -2.7958e-10           0                     1e-13                 2.7964e-10           
  -1.1                  -2.852e-10            2e-13                 8e-14                 2.8526e-10           
  -1.2                  -2.9154e-10           1.8e-13               8e-14                 2.9034e-10           
  -1.3                  -2.9794e-10           -1.4e-13              1.2e-13               2.9694e-10           
  -1.4                  -3.0202e-10           0                     0                     3.0234e-10           
  -1.5                  -3.0884e-10           -6e-14                -6e-14                3.0718e-10           
  -1.6                  -3.1282e-10           1.8e-13               2e-14                 3.1286e-10           
  -1.7                  -3.1946e-10           2.6e-13               4e-14                 3.171e-10            
  -1.8                  -3.2524e-10           3.4e-13               -2e-14                3.238e-10            
  -1.9                  -3.3092e-10           -6e-14                -1e-13                3.2968e-10           
  -2                    -3.341e-10            2e-13                 2e-14                 3.3402e-10           
  -2.1                  -3.417e-10            2.2e-13               6e-14                 3.4002e-10           
  -2.2                  -3.4714e-10           1.4e-13               2e-14                 3.4506e-10           
  -2.3                  -3.5178e-10           -8e-14                2e-14                 3.5164e-10           
  -2.4                  -3.5722e-10           4e-14                 2e-14                 3.5666e-10           
  -2.5                  -3.6312e-10           1.8e-13               -1e-13                3.6298e-10           
  -2.6                  -3.7034e-10           1.4e-13               -4e-14                3.695e-10            
  -2.7                  -3.7612e-10           1.8e-13               0                     3.7516e-10           
  -2.8                  -3.8106e-10           4e-14                 -4e-14                3.8128e-10           
  -2.9                  -3.8682e-10           1.2e-13               -6e-14                3.8634e-10           
  -3                    -3.9272e-10           -2e-14                1.6e-13               3.9026e-10           
  -3.1                  -3.9916e-10           6e-14                 1.4e-13               3.9774e-10           
  -3.2                  -4.0496e-10           1.4e-13               2.6e-13               4.0342e-10           
  -3.3                  -4.1328e-10           4e-14                 4.4e-13               4.1004e-10           
  -3.4                  -4.1758e-10           -4e-14                7.4e-13               4.1706e-10           
  -3.5                  -4.2552e-10           1.2e-13               1.14e-12              4.2338e-10           
  -3.6                  -4.3142e-10           2.4e-13               1.76e-12              4.2856e-10           
END_DB

BEGIN_DB
 ICCAP_VAR vg         -1.782         
 ICCAP_VAR vb         3.6            
 ICCAP_VAR vs         -0             

 #vd                    id                    ig                    ib                    is                   
  -0                    4.698e-11             0                     0                     -5.106e-11           
  -0.1                  -4.1734e-08           -1.2e-13              8e-14                 4.1764e-08           
  -0.2                  -4.6876e-08           -8e-14                6e-14                 4.6806e-08           
  -0.3                  -4.8888e-08           -4e-14                4e-14                 4.8902e-08           
  -0.4                  -5.0442e-08           1.4e-13               -8e-14                5.0382e-08           
  -0.5                  -5.1772e-08           -2e-14                -2e-14                5.1736e-08           
  -0.6                  -5.2822e-08           -6e-14                -4e-14                5.293e-08            
  -0.7                  -5.392e-08            -1e-13                -8e-14                5.4056e-08           
  -0.8                  -5.501e-08            -2e-14                -6e-14                5.5006e-08           
  -0.9                  -5.6012e-08           -6e-14                -2e-14                5.6032e-08           
  -1                    -5.7006e-08           -6e-14                -8e-14                5.6948e-08           
  -1.1                  -5.7842e-08           -1.8e-13              -1e-13                5.8074e-08           
  -1.2                  -5.8826e-08           -1.8e-13              -4e-14                5.879e-08            
  -1.3                  -5.9788e-08           -2e-14                -2e-13                5.9808e-08           
  -1.4                  -6.0536e-08           1.2e-13               -1.8e-13              6.063e-08            
  -1.5                  -6.1488e-08           -2e-14                -1.4e-13              6.1444e-08           
  -1.6                  -6.2114e-08           -1.4e-13              -1.2e-13              6.2266e-08           
  -1.7                  -6.303e-08            0                     -1.6e-13              6.3098e-08           
  -1.8                  -6.3884e-08           1.8e-13               -2.4e-13              6.392e-08            
  -1.9                  -6.4642e-08           1.6e-13               -1.4e-13              6.4694e-08           
  -2                    -6.5542e-08           -6e-14                -1e-13                6.5602e-08           
  -2.1                  -6.633e-08            -8e-14                -1e-13                6.6456e-08           
  -2.2                  -6.7206e-08           -1.2e-13              -1.6e-13              6.7112e-08           
  -2.3                  -6.795e-08            2.2e-13               -4e-14                6.8074e-08           
  -2.4                  -6.8896e-08           2.6e-13               0                     6.8816e-08           
  -2.5                  -6.9692e-08           -4e-14                3.4e-13               6.9664e-08           
  -2.6                  -7.0538e-08           4e-14                 7.2e-13               7.036e-08            
  -2.7                  -7.1334e-08           8e-14                 1.4e-12               7.135e-08            
  -2.8                  -7.2216e-08           2e-14                 2.84e-12              7.2096e-08           
  -2.9                  -7.2758e-08           1.2e-13               5.12e-12              7.2908e-08           
  -3                    -7.3656e-08           -4e-14                9.04e-12              7.3716e-08           
  -3.1                  -7.4572e-08           2e-14                 1.572e-11             7.4504e-08           
  -3.2                  -7.5438e-08           2.6e-13               2.616e-11             7.5252e-08           
  -3.3                  -7.613e-08            2.2e-13               4.302e-11             7.63e-08             
  -3.4                  -7.7134e-08           8e-14                 6.914e-11             7.7074e-08           
  -3.5                  -7.7908e-08           4e-14                 1.0946e-10            7.78e-08             
  -3.6                  -7.8938e-08           -1.4e-13              1.6978e-10            7.8702e-08           
END_DB

BEGIN_DB
 ICCAP_VAR vg         -1.982         
 ICCAP_VAR vb         3.6            
 ICCAP_VAR vs         -0             

 #vd                    id                    ig                    ib                    is                   
  -0                    2.9186e-10            2e-14                 2e-14                 -2.9694e-10          
  -0.1                  -3.9858e-07           -2.4e-13              -1e-13                3.988e-07            
  -0.2                  -5.6758e-07           8e-14                 -6e-14                5.6732e-07           
  -0.3                  -6.2696e-07           -2e-14                -1e-13                6.267e-07            
  -0.4                  -6.5144e-07           -2.4e-13              -6e-14                6.5192e-07           
  -0.5                  -6.6684e-07           4e-14                 -4e-14                6.6698e-07           
  -0.6                  -6.7886e-07           0                     -6e-14                6.7852e-07           
  -0.7                  -6.8874e-07           -4e-14                0                     6.891e-07            
  -0.8                  -6.9818e-07           -4e-14                6e-14                 6.9878e-07           
  -0.9                  -7.0658e-07           -4e-14                -2e-14                7.0696e-07           
  -1                    -7.143e-07            1.8e-13               -1.2e-13              7.1408e-07           
  -1.1                  -7.2162e-07           1.4e-13               -1.6e-13              7.2166e-07           
  -1.2                  -7.2862e-07           1.2e-13               -1.4e-13              7.2834e-07           
  -1.3                  -7.3594e-07           -8e-14                -2e-14                7.3542e-07           
  -1.4                  -7.42e-07             -6e-14                -6e-14                7.4202e-07           
  -1.5                  -7.4788e-07           0                     -2e-13                7.4768e-07           
  -1.6                  -7.5424e-07           2e-14                 -1.4e-13              7.5496e-07           
  -1.7                  -7.6008e-07           1e-13                 -1.2e-13              7.6108e-07           
  -1.8                  -7.6544e-07           4e-14                 -1e-13                7.6658e-07           
  -1.9                  -7.7178e-07           8e-14                 -2.4e-13              7.7212e-07           
  -2                    -7.7752e-07           1.4e-13               -1.8e-13              7.781e-07            
  -2.1                  -7.8376e-07           -1.2e-13              -1.2e-13              7.8352e-07           
  -2.2                  -7.89e-07             0                     6e-14                 7.8922e-07           
  -2.3                  -7.9414e-07           2.6e-13               1.6e-13               7.9466e-07           
  -2.4                  -7.9904e-07           1.2e-13               5.2e-13               7.9968e-07           
  -2.5                  -8.0524e-07           -2e-14                1.28e-12              8.0576e-07           
  -2.6                  -8.1054e-07           -4e-14                2.94e-12              8.1054e-07           
  -2.7                  -8.1584e-07           -6e-14                6.14e-12              8.1654e-07           
  -2.8                  -8.2134e-07           8e-14                 1.196e-11             8.2146e-07           
  -2.9                  -8.2678e-07           -4e-14                2.256e-11             8.2702e-07           
  -3                    -8.3244e-07           -2e-14                4.124e-11             8.3294e-07           
  -3.1                  -8.3736e-07           -2e-14                7.298e-11             8.3778e-07           
  -3.2                  -8.432e-07            -1.6e-13              1.2592e-10            8.434e-07            
  -3.3                  -8.4774e-07           1e-13                 2.1256e-10            8.482e-07            
  -3.4                  -8.535e-07            2e-14                 3.5154e-10            8.5374e-07           
  -3.5                  -8.5912e-07           -1e-13                5.7204e-10            8.5836e-07           
  -3.6                  -8.6442e-07           -2e-14                9.1382e-10            8.6356e-07           
END_DB

