! VERSION = 6.00
BEGIN_HEADER
 ICCAP_INPUTS
  vd         V  D GROUND SMU1 0.1 LIN        1    -0         -3.6       37   -0.1      
  vg         V  G GROUND SMU2 0.001 LIN        2    -1.908     -3.6       5    -0.423    
  vb         V  B GROUND SMU4 0.1 CON        3.6
  vs         V  S GROUND SMU3 0.1 CON        -0
 ICCAP_OUTPUTS
  id         I  D GROUND SMU1 B
  ig         I  G GROUND SMU2 B
  ib         I  B GROUND SMU4 B
  is         I  S GROUND SMU3 B
 ICCAP_VALUES
  MASTER_SETUP_TYPE "~dc_idvd~"
  LINVT_VALUE "|idvg|100.0n|100.0m|1.000m|5|3.600|"
  LISTVT_VALUE ""
  TYPE "-1"
  TEMP " 125.000 "
  IS_TNOM " 0.00000 "
  MAIN.W "300.0n"
  MAIN.L "10.00u"
  MAIN.AD "102.0f"
  MAIN.AS "102.0f"
  MAIN.PD "1.280u"
  MAIN.PS "1.280u"
  MAIN.NF "1.000"
  MAIN.M "1"
  MAIN.NRD "0.000"
  MAIN.NRS "0.000"
  MAIN.LDRIFT1 "1E-06"
  MAIN.LDRIFT2 "1E-06"
  MAIN.SA "0.000"
  MAIN.SB "0.000"
  MAIN.SD "0.000"
  MAIN.SCA "0.000"
  MAIN.SCB "0.000"
  MAIN.SCC "0.000"
  MAIN.SC "0.000"
  MODULE "S555"
  PIN_D "14"
  PIN_G "7"
  PIN_S "8"
  PIN_B "13"
  PIN_E ""
  PIN_6 ""
  XY_ID ""
  FUNC "Narrow"
  STI "SA ref"
  WPE "WPE ref"
  COMMENT ""
  DIS_MEAS ""
  TypeTCI "10"
END_HEADER

BEGIN_DB
 ICCAP_VAR vg         -1.908         
 ICCAP_VAR vb         3.6            
 ICCAP_VAR vs         -0             

 #vd                    id                    ig                    ib                    is                   
  -0                    -6.3e-12              -5.58e-12             3.5126e-09            -8.76e-12            
  -0.1                  -7.0238e-09           -5.16e-12             3.4372e-09            7.0074e-09           
  -0.2                  -9.1162e-09           -5e-12                3.3932e-09            9.0968e-09           
  -0.3                  -9.399e-09            -4.98e-12             3.3454e-09            9.38e-09             
  -0.4                  -9.42e-09             -4.92e-12             3.2948e-09            9.405e-09            
  -0.5                  -9.423e-09            -4.66e-12             3.239e-09             9.4064e-09           
  -0.6                  -9.4286e-09           -4.66e-12             3.176e-09             9.409e-09            
  -0.7                  -9.4302e-09           -4.4e-12              3.035e-09             9.413e-09            
  -0.8                  -9.4316e-09           -3.38e-12             8.466e-10             9.4168e-09           
  -0.9                  -9.4258e-09           -1.08e-12             1.5388e-10            9.417e-09            
  -1                    -9.4278e-09           -9.6e-13              1.3314e-10            9.421e-09            
  -1.1                  -9.4232e-09           -6.4e-13              1.2052e-10            9.418e-09            
  -1.2                  -9.4232e-09           -7.6e-13              1.1092e-10            9.4244e-09           
  -1.3                  -9.4406e-09           -7.2e-13              1.0372e-10            9.4352e-09           
  -1.4                  -9.4426e-09           -6.8e-13              9.694e-11             9.4366e-09           
  -1.5                  -9.4438e-09           -8.8e-13              9.138e-11             9.4354e-09           
  -1.6                  -9.4464e-09           -6e-13                8.734e-11             9.429e-09            
  -1.7                  -9.4372e-09           -7.2e-13              8.324e-11             9.4274e-09           
  -1.8                  -9.4346e-09           -7e-13                7.97e-11              9.4274e-09           
  -1.9                  -9.4332e-09           -7.4e-13              7.684e-11             9.4284e-09           
  -2                    -9.4364e-09           -7.4e-13              7.386e-11             9.432e-09            
  -2.1                  -9.4372e-09           -4.6e-13              7.102e-11             9.4324e-09           
  -2.2                  -9.4386e-09           -8.6e-13              6.856e-11             9.4358e-09           
  -2.3                  -9.4402e-09           -5e-13                6.68e-11              9.4384e-09           
  -2.4                  -9.4542e-09           -6.6e-13              6.46e-11              9.4446e-09           
  -2.5                  -9.454e-09            -4.6e-13              6.298e-11             9.447e-09            
  -2.6                  -9.4508e-09           -4.8e-13              6.118e-11             9.4346e-09           
  -2.7                  -9.4438e-09           -5.4e-13              5.972e-11             9.4374e-09           
  -2.8                  -9.446e-09            -4.4e-13              5.802e-11             9.4378e-09           
  -2.9                  -9.4464e-09           -5.6e-13              5.672e-11             9.4382e-09           
  -3                    -9.442e-09            -3.4e-13              5.604e-11             9.4366e-09           
  -3.1                  -9.4484e-09           -5.2e-13              5.466e-11             9.436e-09            
  -3.2                  -9.4584e-09           -4.8e-13              5.396e-11             9.4512e-09           
  -3.3                  -9.461e-09            -6e-13                5.406e-11             9.4542e-09           
  -3.4                  -9.463e-09            -4.6e-13              5.402e-11             9.456e-09            
  -3.5                  -9.4644e-09           -6.2e-13              5.506e-11             9.4514e-09           
  -3.6                  -9.47e-09             -6.2e-13              5.67e-11              9.4534e-09           
END_DB

BEGIN_DB
 ICCAP_VAR vg         -2.331         
 ICCAP_VAR vb         3.6            
 ICCAP_VAR vs         -0             

 #vd                    id                    ig                    ib                    is                   
  -0                    1.122e-11             -7.6e-13              3.934e-11             -1.114e-11           
  -0.1                  -3.4484e-08           -7.2e-13              3.792e-11             3.45e-08             
  -0.2                  -6.0286e-08           -7.4e-13              4.084e-11             6.0296e-08           
  -0.3                  -7.7744e-08           -7.2e-13              4.088e-11             7.7762e-08           
  -0.4                  -8.7692e-08           -6.2e-13              4.058e-11             8.772e-08            
  -0.5                  -9.1976e-08           -6e-13                4e-11                 9.203e-08            
  -0.6                  -9.311e-08            -8.4e-13              3.98e-11              9.312e-08            
  -0.7                  -9.3296e-08           -7.6e-13              3.964e-11             9.3292e-08           
  -0.8                  -9.3332e-08           -6.6e-13              3.896e-11             9.3344e-08           
  -0.9                  -9.3342e-08           -8.2e-13              3.86e-11              9.3364e-08           
  -1                    -9.3396e-08           -7e-13                3.844e-11             9.3374e-08           
  -1.1                  -9.34e-08             -5.4e-13              3.814e-11             9.3406e-08           
  -1.2                  -9.342e-08            -6.4e-13              3.786e-11             9.3442e-08           
  -1.3                  -9.347e-08            -5.8e-13              3.714e-11             9.3454e-08           
  -1.4                  -9.3444e-08           -6e-13                3.71e-11              9.3464e-08           
  -1.5                  -9.3464e-08           -7.4e-13              3.686e-11             9.3462e-08           
  -1.6                  -9.3458e-08           -6.8e-13              3.668e-11             9.3494e-08           
  -1.7                  -9.3472e-08           -7e-13                3.638e-11             9.3498e-08           
  -1.8                  -9.3502e-08           -5.4e-13              3.604e-11             9.353e-08            
  -1.9                  -9.3498e-08           -4e-13                3.554e-11             9.3558e-08           
  -2                    -9.3546e-08           -5.6e-13              3.556e-11             9.3548e-08           
  -2.1                  -9.3534e-08           -6.6e-13              3.53e-11              9.3566e-08           
  -2.2                  -9.3538e-08           -5e-13                3.504e-11             9.3574e-08           
  -2.3                  -9.354e-08            -7.4e-13              3.468e-11             9.3566e-08           
  -2.4                  -9.3568e-08           -7e-13                3.486e-11             9.3596e-08           
  -2.5                  -9.359e-08            -5e-13                3.454e-11             9.359e-08            
  -2.6                  -9.361e-08            -6.6e-13              3.404e-11             9.3654e-08           
  -2.7                  -9.3606e-08           -6.2e-13              3.422e-11             9.363e-08            
  -2.8                  -9.3628e-08           -5.6e-13              3.392e-11             9.3638e-08           
  -2.9                  -9.363e-08            -6e-13                3.386e-11             9.3642e-08           
  -3                    -9.3652e-08           -4.6e-13              3.394e-11             9.3664e-08           
  -3.1                  -9.364e-08            -4.8e-13              3.424e-11             9.3624e-08           
  -3.2                  -9.3622e-08           -5.8e-13              3.46e-11              9.3622e-08           
  -3.3                  -9.3614e-08           -4.6e-13              3.61e-11              9.3652e-08           
  -3.4                  -9.3646e-08           -4.8e-13              3.812e-11             9.3662e-08           
  -3.5                  -9.366e-08            -3.8e-13              4.182e-11             9.365e-08            
  -3.6                  -9.3678e-08           -4.6e-13              4.76e-11              9.3692e-08           
END_DB

BEGIN_DB
 ICCAP_VAR vg         -2.754         
 ICCAP_VAR vb         3.6            
 ICCAP_VAR vs         -0             

 #vd                    id                    ig                    ib                    is                   
  -0                    1.572e-11             -1.16e-12             2.652e-11             -1.906e-11           
  -0.1                  -6.3752e-08           -8.2e-13              2.572e-11             6.3766e-08           
  -0.2                  -1.1874e-07           -5.8e-13              2.674e-11             1.188e-07            
  -0.3                  -1.65e-07             -7.8e-13              2.888e-11             1.6506e-07           
  -0.4                  -2.0248e-07           -8e-13                2.91e-11              2.025e-07            
  -0.5                  -2.315e-07            -6.4e-13              2.934e-11             2.3158e-07           
  -0.6                  -2.523e-07            -7.2e-13              2.904e-11             2.5244e-07           
  -0.7                  -2.6566e-07           -7e-13                2.916e-11             2.6578e-07           
  -0.8                  -2.7274e-07           -7e-13                2.946e-11             2.7282e-07           
  -0.9                  -2.7554e-07           -7e-13                2.874e-11             2.7556e-07           
  -1                    -2.7626e-07           -5.8e-13              2.84e-11              2.7632e-07           
  -1.1                  -2.7648e-07           -6.6e-13              2.842e-11             2.7656e-07           
  -1.2                  -2.765e-07            -9.2e-13              2.862e-11             2.7662e-07           
  -1.3                  -2.7662e-07           -7.2e-13              2.832e-11             2.7678e-07           
  -1.4                  -2.7674e-07           -5.2e-13              2.82e-11              2.7678e-07           
  -1.5                  -2.7678e-07           -6.2e-13              2.81e-11              2.768e-07            
  -1.6                  -2.7682e-07           -5.4e-13              2.794e-11             2.7688e-07           
  -1.7                  -2.768e-07            -5.6e-13              2.75e-11              2.7684e-07           
  -1.8                  -2.7684e-07           -5.4e-13              2.794e-11             2.7696e-07           
  -1.9                  -2.7696e-07           -6.2e-13              2.766e-11             2.7704e-07           
  -2                    -2.7702e-07           -4.2e-13              2.752e-11             2.771e-07            
  -2.1                  -2.7702e-07           -5.8e-13              2.742e-11             2.771e-07            
  -2.2                  -2.771e-07            -6.4e-13              2.762e-11             2.7716e-07           
  -2.3                  -2.7714e-07           -7.2e-13              2.74e-11              2.7724e-07           
  -2.4                  -2.7716e-07           -6.6e-13              2.744e-11             2.7724e-07           
  -2.5                  -2.772e-07            -5.6e-13              2.714e-11             2.7726e-07           
  -2.6                  -2.7722e-07           -6.8e-13              2.72e-11              2.7728e-07           
  -2.7                  -2.7728e-07           -7.4e-13              2.69e-11              2.773e-07            
  -2.8                  -2.7722e-07           -6.2e-13              2.676e-11             2.773e-07            
  -2.9                  -2.7726e-07           -7e-13                2.708e-11             2.7738e-07           
  -3                    -2.7724e-07           -7.8e-13              2.684e-11             2.7728e-07           
  -3.1                  -2.7728e-07           -5.2e-13              2.674e-11             2.774e-07            
  -3.2                  -2.7734e-07           -6.4e-13              2.68e-11              2.7744e-07           
  -3.3                  -2.7738e-07           -5.6e-13              2.744e-11             2.7744e-07           
  -3.4                  -2.774e-07            -3.6e-13              2.844e-11             2.7746e-07           
  -3.5                  -2.7742e-07           -4.6e-13              2.998e-11             2.7742e-07           
  -3.6                  -2.7738e-07           -3.8e-13              3.252e-11             2.7744e-07           
END_DB

BEGIN_DB
 ICCAP_VAR vg         -3.177         
 ICCAP_VAR vb         3.6            
 ICCAP_VAR vs         -0             

 #vd                    id                    ig                    ib                    is                   
  -0                    2.67e-11              -8.2e-13              2.136e-11             -2.824e-11           
  -0.1                  -9.1784e-08           -8e-13                2.054e-11             9.1808e-08           
  -0.2                  -1.7516e-07           -6.6e-13              2.166e-11             1.7524e-07           
  -0.3                  -2.4992e-07           -7.4e-13              2.46e-11              2.4996e-07           
  -0.4                  -3.16e-07             -7e-13                2.454e-11             3.1606e-07           
  -0.5                  -3.7356e-07           -6.6e-13              2.454e-11             3.7364e-07           
  -0.6                  -4.2264e-07           -6.4e-13              2.488e-11             4.227e-07            
  -0.7                  -4.6324e-07           -8.2e-13              2.45e-11              4.6342e-07           
  -0.8                  -4.957e-07            -8e-13                2.436e-11             4.9582e-07           
  -0.9                  -5.201e-07            -8.8e-13              2.476e-11             5.2022e-07           
  -1                    -5.3704e-07           -7.6e-13              2.432e-11             5.3712e-07           
  -1.1                  -5.474e-07            -6.6e-13              2.458e-11             5.4746e-07           
  -1.2                  -5.5254e-07           -7.2e-13              2.426e-11             5.5264e-07           
  -1.3                  -5.5448e-07           -8.2e-13              2.424e-11             5.5466e-07           
  -1.4                  -5.5524e-07           -7.2e-13              2.47e-11              5.5536e-07           
  -1.5                  -5.5552e-07           -7.4e-13              2.43e-11              5.5552e-07           
  -1.6                  -5.5566e-07           -6.2e-13              2.384e-11             5.5588e-07           
  -1.7                  -5.5596e-07           -5.8e-13              2.416e-11             5.5606e-07           
  -1.8                  -5.562e-07            -7.4e-13              2.396e-11             5.5626e-07           
  -1.9                  -5.5624e-07           -5.6e-13              2.412e-11             5.5622e-07           
  -2                    -5.563e-07            -6e-13                2.394e-11             5.5636e-07           
  -2.1                  -5.5638e-07           -7.8e-13              2.36e-11              5.5654e-07           
  -2.2                  -5.5652e-07           -5.6e-13              2.422e-11             5.5658e-07           
  -2.3                  -5.5652e-07           -6.6e-13              2.374e-11             5.5664e-07           
  -2.4                  -5.5652e-07           -7.4e-13              2.4e-11               5.5674e-07           
  -2.5                  -5.5662e-07           -6.4e-13              2.36e-11              5.5672e-07           
  -2.6                  -5.5668e-07           -4.8e-13              2.344e-11             5.5682e-07           
  -2.7                  -5.5674e-07           -6.6e-13              2.352e-11             5.5694e-07           
  -2.8                  -5.569e-07            -6.2e-13              2.354e-11             5.5696e-07           
  -2.9                  -5.5696e-07           -5.8e-13              2.358e-11             5.571e-07            
  -3                    -5.571e-07            -8.2e-13              2.36e-11              5.5714e-07           
  -3.1                  -5.5712e-07           -7.4e-13              2.376e-11             5.5716e-07           
  -3.2                  -5.5718e-07           -6.4e-13              2.376e-11             5.5726e-07           
  -3.3                  -5.5714e-07           -5.6e-13              2.358e-11             5.573e-07            
  -3.4                  -5.5726e-07           -5.4e-13              2.33e-11              5.5732e-07           
  -3.5                  -5.572e-07            -6.6e-13              2.412e-11             5.574e-07            
  -3.6                  -5.5744e-07           -7.2e-13              2.452e-11             5.5738e-07           
END_DB

BEGIN_DB
 ICCAP_VAR vg         -3.6           
 ICCAP_VAR vb         3.6            
 ICCAP_VAR vs         -0             

 #vd                    id                    ig                    ib                    is                   
  -0                    3.406e-11             -9.2e-13              1.84e-11              -3.884e-11           
  -0.1                  -1.1816e-07           -9.8e-13              1.738e-11             1.1818e-07           
  -0.2                  -2.283e-07            -7e-13                2.13e-11              2.284e-07            
  -0.3                  -3.3018e-07           -7.4e-13              2.148e-11             3.303e-07            
  -0.4                  -4.2356e-07           -9.2e-13              2.146e-11             4.237e-07            
  -0.5                  -5.0872e-07           -9.2e-13              2.178e-11             5.0886e-07           
  -0.6                  -5.8572e-07           -8.8e-13              2.186e-11             5.8582e-07           
  -0.7                  -6.5416e-07           -8.2e-13              2.172e-11             6.5438e-07           
  -0.8                  -7.146e-07            -8.2e-13              2.17e-11              7.147e-07            
