! VERSION = 6.00
BEGIN_HEADER
 ICCAP_INPUTS
  vg         V  G GROUND SMU2 0.001 LIN        1    0.5        -3.6       83   -0.05     
  vb         V  B GROUND SMU4 0.1 LIN        2    0          3.6        5    0.9       
  vd         V  D GROUND SMU1 0.1 LIN        3    -0.1       -3.3       3    -1.6      
  vs         V  S GROUND SMU3 0.1 CON        -0
 ICCAP_OUTPUTS
  id         I  D GROUND SMU1 B
  ig         I  G GROUND SMU2 B
  ib         I  B GROUND SMU4 B
  is         I  S GROUND SMU3 B
 ICCAP_VALUES
  MASTER_SETUP_TYPE "~dc_idvg~"
  LINVT_VALUE ""
  LISTVT_VALUE ""
  TYPE "-1"
  TEMP " 70.0000 "
  IS_TNOM " 0.00000 "
  MAIN.W "10.00u"
  MAIN.L "10.00u"
  MAIN.AD "3.400p"
  MAIN.AS "3.400p"
  MAIN.PD "20.68u"
  MAIN.PS "20.68u"
  MAIN.NF "1.000"
  MAIN.M "1"
  MAIN.NRD "0.000"
  MAIN.NRS "0.000"
  MAIN.LDRIFT1 "1E-06"
  MAIN.LDRIFT2 "1E-06"
  MAIN.SA "0.000"
  MAIN.SB "0.000"
  MAIN.SD "0.000"
  MAIN.SCA "0.000"
  MAIN.SCB "0.000"
  MAIN.SCC "0.000"
  MAIN.SC "0.000"
  MODULE "S562"
  PIN_D "16"
  PIN_G "5"
  PIN_S "6"
  PIN_B "15"
  PIN_E ""
  PIN_6 ""
  XY_ID ""
  FUNC "Large"
  STI "SA ref"
  WPE "WPE ref"
  COMMENT ""
  DIS_MEAS ""
  TypeTCI "10"
END_HEADER

BEGIN_DB
 ICCAP_VAR vb         0              
 ICCAP_VAR vd         -0.1           
 ICCAP_VAR vs         -0             

 #vg                    id                    ig                    ib                    is                   
  0.5                   -5.8e-13              6.3832e-10            -4.1562e-10           -3.8e-13             
  0.45                  -1.4e-13              1.2004e-10            -2.0246e-10           2e-14                
  0.4                   4e-14                 2.294e-11             -1.1898e-10           3e-13                
  0.35                  8e-14                 4.66e-12              -8.36e-11             2e-13                
  0.3                   1.6e-13               9.2e-13               -6.512e-11            2.4e-13              
  0.25                  1.2e-13               1.2e-13               -5.362e-11            2.2e-13              
  0.2                   1.6e-13               -2e-14                -4.588e-11            3.2e-13              
  0.15                  1e-13                 -1.2e-13              -4.026e-11            3.2e-13              
  0.1                   0                     2e-14                 -3.572e-11            6e-14                
  0.05                  0                     -2.2e-13              -3.21e-11             1.6e-13              
  0                     -6e-14                -1.2e-13              -2.918e-11            4.2e-13              
  -0.05                 -3.4e-13              -3.2e-13              -2.662e-11            6.2e-13              
  -0.1                  -1.28e-12             -1.2e-13              -2.44e-11             1.3e-12              
  -0.15                 -3.8e-12              -2.4e-13              -2.244e-11            3.72e-12             
  -0.2                  -1.06e-11             -3e-13                -2.096e-11            1.104e-11            
  -0.25                 -3.074e-11            -3.6e-13              -1.934e-11            3.108e-11            
  -0.3                  -8.94e-11             -3e-13                -1.8e-11              8.964e-11            
  -0.35                 -2.6252e-10           -2.2e-13              -1.658e-11            2.6264e-10           
  -0.4                  -7.7194e-10           -5.2e-13              -1.538e-11            7.717e-10            
  -0.45                 -2.2642e-09           -2.6e-13              -1.38e-11             2.2636e-09           
  -0.5                  -6.5096e-09           -3.8e-13              -1.286e-11            6.5082e-09           
  -0.55                 -1.776e-08            -2.4e-13              -1.166e-11            1.7776e-08           
  -0.6                  -4.3586e-08           -4.8e-13              -1.118e-11            4.3602e-08           
  -0.65                 -9.3384e-08           -4e-13                -1.048e-11            9.341e-08            
  -0.7                  -1.7368e-07           -4e-13                -9.72e-12             1.7374e-07           
  -0.75                 -2.8488e-07           -4e-13                -9.02e-12             2.8496e-07           
  -0.8                  -4.2024e-07           -4.6e-13              -8.56e-12             4.2032e-07           
  -0.85                 -5.7284e-07           -5e-13                -8.02e-12             5.729e-07            
  -0.9                  -7.351e-07            -3.8e-13              -7.48e-12             7.3518e-07           
  -0.95                 -9.0352e-07           -5.2e-13              -6.86e-12             9.0362e-07           
  -1                    -1.074e-06            -5.4e-13              -6.38e-12             1.07416e-06          
  -1.05                 -1.245e-06            -5.2e-13              -5.62e-12             1.248e-06            
  -1.1                  -1.4162e-06           -4.4e-13              -5.5e-12              1.4192e-06           
  -1.15                 -1.5868e-06           -6.2e-13              -5.12e-12             1.5898e-06           
  -1.2                  -1.7554e-06           -4.8e-13              -4.54e-12             1.7586e-06           
  -1.25                 -1.923e-06            -6.8e-13              -4.32e-12             1.926e-06            
  -1.3                  -2.0886e-06           -6e-13                -4.02e-12             2.0916e-06           
  -1.35                 -2.2514e-06           -5e-13                -3.68e-12             2.2544e-06           
  -1.4                  -2.4126e-06           -5.2e-13              -3.34e-12             2.4156e-06           
  -1.45                 -2.5712e-06           -6.6e-13              -3.02e-12             2.5742e-06           
  -1.5                  -2.7282e-06           -7.2e-13              -2.74e-12             2.7312e-06           
  -1.55                 -2.8824e-06           -7.8e-13              -2.42e-12             2.8854e-06           
  -1.6                  -3.0352e-06           -6.2e-13              -2.24e-12             3.0382e-06           
  -1.65                 -3.1852e-06           -6.6e-13              -2.02e-12             3.1882e-06           
  -1.7                  -3.3332e-06           -4.8e-13              -1.8e-12              3.3362e-06           
  -1.75                 -3.4796e-06           -6e-13                -1.64e-12             3.4826e-06           
  -1.8                  -3.6234e-06           -7.2e-13              -1.28e-12             3.6264e-06           
  -1.85                 -3.765e-06            -6.6e-13              -1.12e-12             3.768e-06            
  -1.9                  -3.9048e-06           -6.4e-13              -1e-12                3.9078e-06           
  -1.95                 -4.0428e-06           -6.6e-13              -7.6e-13              4.0458e-06           
  -2                    -4.1784e-06           -8e-13                -6.6e-13              4.1814e-06           
  -2.05                 -4.3122e-06           -8.6e-13              -3e-13                4.315e-06            
  -2.1                  -4.4446e-06           -7e-13                -1.2e-13              4.4476e-06           
  -2.15                 -4.5744e-06           -7.4e-13              -1.6e-13              4.5774e-06           
  -2.2                  -4.7026e-06           -7.8e-13              1.6e-13               4.7054e-06           
  -2.25                 -4.8286e-06           -7.8e-13              2e-13                 4.8314e-06           
  -2.3                  -4.9534e-06           -8e-13                4.2e-13               4.9564e-06           
  -2.35                 -5.0762e-06           -8e-13                5e-13                 5.079e-06            
  -2.4                  -5.1972e-06           -8.4e-13              6.4e-13               5.2002e-06           
  -2.45                 -5.3162e-06           -7.2e-13              9.2e-13               5.3192e-06           
  -2.5                  -5.434e-06            -7.2e-13              1.02e-12              5.437e-06            
  -2.55                 -5.5498e-06           -8.6e-13              1.1e-12               5.5526e-06           
  -2.6                  -5.6644e-06           -9e-13                1.18e-12              5.6672e-06           
  -2.65                 -5.777e-06            -8e-13                1.46e-12              5.78e-06             
  -2.7                  -5.8878e-06           -9.2e-13              1.46e-12              5.8906e-06           
  -2.75                 -5.9976e-06           -7e-13                1.5e-12               6.0004e-06           
  -2.8                  -6.1054e-06           -8e-13                1.76e-12              6.1084e-06           
  -2.85                 -6.2116e-06           -9.2e-13              1.74e-12              6.2142e-06           
  -2.9                  -6.3164e-06           -8.2e-13              1.9e-12               6.3194e-06           
  -2.95                 -6.4198e-06           -7.8e-13              2.02e-12              6.4226e-06           
  -3                    -6.5216e-06           -8.8e-13              2.08e-12              6.5244e-06           
  -3.05                 -6.6224e-06           -8.8e-13              2.16e-12              6.625e-06            
  -3.1                  -6.7208e-06           -8.2e-13              2.24e-12              6.7236e-06           
  -3.15                 -6.819e-06            -8.8e-13              2.24e-12              6.8214e-06           
  -3.2                  -6.9146e-06           -9.4e-13              2.42e-12              6.9176e-06           
  -3.25                 -7.0094e-06           -8.2e-13              2.6e-12               7.0122e-06           
  -3.3                  -7.1028e-06           -1e-12                2.56e-12              7.1056e-06           
  -3.35                 -7.1952e-06           -8.8e-13              2.68e-12              7.198e-06            
  -3.4                  -7.2858e-06           -8.8e-13              2.7e-12               7.2884e-06           
  -3.45                 -7.375e-06            -9.4e-13              2.76e-12              7.3778e-06           
  -3.5                  -7.4632e-06           -9.6e-13              3.06e-12              7.466e-06            
  -3.55                 -7.5502e-06           -9e-13                3.04e-12              7.553e-06            
  -3.6                  -7.6358e-06           -8.6e-13              3e-12                 7.6384e-06           
END_DB

BEGIN_DB
 ICCAP_VAR vb         0.9            
 ICCAP_VAR vd         -0.1           
 ICCAP_VAR vs         -0             

 #vg                    id                    ig                    ib                    is                   
  0.5                   -1.2e-13              7.4e-13               1.19e-11              2e-14                
  0.45                  -1.6e-13              4e-13                 1.172e-11             1.2e-13              
  0.4                   -6e-14                3.4e-13               1.18e-11              1e-13                
  0.35                  -1.4e-13              2e-13                 1.17e-11              2e-14                
  0.3                   -1e-13                2.4e-13               1.174e-11             0                    
  0.25                  -6e-14                2.8e-13               1.166e-11             -4e-14               
  0.2                   -6e-14                0                     1.164e-11             -4e-14               
  0.15                  -2e-14                6e-14                 1.16e-11              4e-14                
  0.1                   -8e-14                4e-14                 1.162e-11             -4e-14               
  0.05                  6e-14                 2e-14                 1.17e-11              -2.2e-13             
  0                     1e-13                 -1e-13                1.142e-11             3.6e-13              
  -0.05                 -1e-13                -2e-13                1.152e-11             1e-13                
  -0.1                  -8e-14                -2.2e-13              1.17e-11              -1.4e-13             
  -0.15                 0                     -2.6e-13              1.142e-11             2.4e-13              
  -0.2                  -1.4e-13              -2.8e-13              1.148e-11             0                    
  -0.25                 -8e-14                -1.8e-13              1.158e-11             4e-14                
  -0.3                  -1e-13                -3.2e-13              1.16e-11              6e-14                
  -0.35                 0                     -3.4e-13              1.16e-11              1e-13                
  -0.4                  -1.8e-13              -2.2e-13              1.152e-11             2e-14                
  -0.45                 -6e-14                -4.4e-13              1.15e-11              1.2e-13              
  -0.5                  -5.4e-13              -3.6e-13              1.15e-11              4.8e-13              
  -0.55                 -1.58e-12             -4.6e-13              1.142e-11             1.7e-12              
  -0.6                  -5.36e-12             -2.6e-13              1.164e-11             5.12e-12             
  -0.65                 -1.752e-11            -4.2e-13              1.134e-11             1.768e-11            
  -0.7                  -5.886e-11            -5.4e-13              1.148e-11             5.892e-11            
  -0.75                 -1.9826e-10           -3.8e-13              1.148e-11             1.98e-10             
  -0.8                  -6.6174e-10           -3.6e-13              1.136e-11             6.6194e-10           
  -0.85                 -2.191e-09            -2.6e-13              1.14e-11              2.1906e-09           
  -0.9                  -6.9262e-09           -5.2e-13              1.136e-11             6.925e-09            
  -0.95                 -2e-08                -3.8e-13              1.142e-11             2.0014e-08           
  -1                    -4.9682e-08           -5.2e-13              1.136e-11             4.97e-08             
  -1.05                 -1.04532e-07          -5.4e-13              1.142e-11             1.0455e-07           
  -1.1                  -1.8734e-07           -3.4e-13              1.138e-11             1.874e-07            
  -1.15                 -2.9532e-07           -4.4e-13              1.144e-11             2.954e-07            
  -1.2                  -4.2082e-07           -5.6e-13              1.144e-11             4.2086e-07           
  -1.25                 -5.5812e-07           -5.2e-13              1.118e-11             5.582e-07            
  -1.3                  -7.0224e-07           -6e-13                1.136e-11             7.0236e-07           
  -1.35                 -8.4936e-07           -5.2e-13              1.134e-11             8.4944e-07           
  -1.4                  -9.988e-07            -6.4e-13              1.138e-11             9.989e-07            
  -1.45                 -1.14812e-06          -6e-13                1.13e-11              1.14826e-06          
  -1.5                  -1.2968e-06           -6.6e-13              1.14e-11              1.2996e-06           
  -1.55                 -1.445e-06            -6.4e-13              1.138e-11             1.448e-06            
  -1.6                  -1.593e-06            -6.4e-13              1.144e-11             1.596e-06            
  -1.65                 -1.7392e-06           -6.2e-13              1.132e-11             1.742e-06            
  -1.7                  -1.8838e-06           -6.8e-13              1.14e-11              1.8868e-06           
  -1.75                 -2.0272e-06           -6.2e-13              1.144e-11             2.0302e-06           
  -1.8                  -2.1688e-06           -6.4e-13              1.138e-11             2.1718e-06           
  -1.85                 -2.3086e-06           -6.6e-13              1.13e-11              2.3116e-06           
  -1.9                  -2.4466e-06           -7.2e-13              1.134e-11             2.4494e-06           
  -1.95                 -2.5834e-06           -6.4e-13              1.144e-11             2.5862e-06           
  -2                    -2.718e-06            -7.4e-13              1.144e-11             2.7208e-06           
  -2.05                 -2.8508e-06           -7.4e-13              1.146e-11             2.8538e-06           
  -2.1                  -2.9826e-06           -7.6e-13              1.14e-11              2.9854e-06           
  -2.15                 -3.1118e-06           -8.6e-13              1.142e-11             3.1148e-06           
  -2.2                  -3.2396e-06           -7.4e-13              1.142e-11             3.2426e-06           
  -2.25                 -3.3658e-06           -6.4e-13              1.134e-11             3.3686e-06           
  -2.3                  -3.4908e-06           -7e-13                1.132e-11             3.4938e-06           
  -2.35                 -3.6134e-06           -7e-13                1.132e-11             3.6162e-06           
  -2.4                  -3.735e-06            -8.6e-13              1.134e-11             3.7378e-06           
  -2.45                 -3.8542e-06           -8.8e-13              1.136e-11             3.8574e-06           
  -2.5                  -3.9728e-06           -7e-13                1.126e-11             3.9756e-06           
  -2.55                 -4.0888e-06           -8.6e-13              1.134e-11             4.0918e-06           
  -2.6                  -4.204e-06            -8e-13                1.118e-11             4.2068e-06           
  -2.65                 -4.3176e-06           -7.6e-13              1.132e-11             4.3204e-06           
  -2.7                  -4.4292e-06           -8e-13                1.13e-11              4.432e-06            
  -2.75                 -4.5398e-06           -8e-13                1.128e-11             4.5426e-06           
  -2.8                  -4.649e-06            -1.02e-12             1.136e-11             4.6518e-06           
  -2.85                 -4.7562e-06           -7.6e-13              1.138e-11             4.7592e-06           
  -2.9                  -4.8626e-06           -7.2e-13              1.14e-11              4.8652e-06           
  -2.95                 -4.9668e-06           -8.2e-13              1.136e-11             4.9696e-06           
  -3                    -5.0702e-06           -7.6e-13              1.134e-11             5.0732e-06           
  -3.05                 -5.1722e-06           -8.6e-13              1.134e-11             5.175e-06            
  -3.1                  -5.2726e-06           -8.4e-13              1.138e-11             5.2754e-06           
  -3.15                 -5.372e-06            -8.2e-13              1.134e-11             5.3748e-06           
  -3.2                  -5.4696e-06           -8.4e-13              1.136e-11             5.4724e-06           
  -3.25                 -5.566e-06            -7.8e-13              1.142e-11             5.5686e-06           
  -3.3                  -5.661e-06            -9.6e-13              1.132e-11             5.664e-06            
  -3.35                 -5.7554e-06           -8.2e-13              1.138e-11             5.758e-06            
  -3.4                  -5.8476e-06           -8.4e-13              1.134e-11             5.8504e-06           
  -3.45                 -5.9388e-06           -1e-12                1.13e-11              5.9418e-06           
