! VERSION = 6.00
BEGIN_HEADER
 ICCAP_INPUTS
  vd         V  D GROUND SMU1 0.1 LIN        1    -0         -3.6       37   -0.1      
  vg         V  G GROUND SMU2 0.001 LIN        2    -0.684     -3.6       5    -0.729    
  vb         V  B GROUND SMU4 0.1 CON        -0
  vs         V  S GROUND SMU3 0.1 CON        -0
 ICCAP_OUTPUTS
  id         I  D GROUND SMU1 B
  ig         I  G GROUND SMU2 B
  ib         I  B GROUND SMU4 B
  is         I  S GROUND SMU3 B
 ICCAP_VALUES
  MASTER_SETUP_TYPE "~dc_idvd~"
  LINVT_VALUE "|idvg|100.0n|100.0m|1.000m|5|3.600|"
  LISTVT_VALUE ""
  TYPE "-1"
  TEMP " 125.000 "
  IS_TNOM " 0.00000 "
  MAIN.W "300.0n"
  MAIN.L "10.00u"
  MAIN.AD "102.0f"
  MAIN.AS "102.0f"
  MAIN.PD "1.280u"
  MAIN.PS "1.280u"
  MAIN.NF "1.000"
  MAIN.M "1"
  MAIN.NRD "0.000"
  MAIN.NRS "0.000"
  MAIN.LDRIFT1 "1E-06"
  MAIN.LDRIFT2 "1E-06"
  MAIN.SA "0.000"
  MAIN.SB "0.000"
  MAIN.SD "0.000"
  MAIN.SCA "0.000"
  MAIN.SCB "0.000"
  MAIN.SCC "0.000"
  MAIN.SC "0.000"
  MODULE "S555"
  PIN_D "14"
  PIN_G "7"
  PIN_S "8"
  PIN_B "13"
  PIN_E ""
  PIN_6 ""
  XY_ID ""
  FUNC "Narrow"
  STI "SA ref"
  WPE "WPE ref"
  COMMENT ""
  DIS_MEAS ""
  TypeTCI "10"
END_HEADER

BEGIN_DB
 ICCAP_VAR vg         -0.684         
 ICCAP_VAR vb         -0             
 ICCAP_VAR vs         -0             

 #vd                    id                    ig                    ib                    is                   
  -0                    3.7e-12               -1.4e-13              -7.68e-11             -4.04e-12            
  -0.1                  -8.0842e-09           8e-14                 -7.042e-11            8.0866e-09           
  -0.2                  -9.5842e-09           1.6e-13               -6.612e-11            9.58e-09             
  -0.3                  -9.708e-09            1.4e-13               -6.352e-11            9.705e-09            
  -0.4                  -9.716e-09            -2e-14                -6.004e-11            9.7164e-09           
  -0.5                  -9.7204e-09           3.2e-13               -5.744e-11            9.715e-09            
  -0.6                  -9.721e-09            1.8e-13               -5.514e-11            9.7186e-09           
  -0.7                  -9.722e-09            1.8e-13               -5.322e-11            9.719e-09            
  -0.8                  -9.7274e-09           1.4e-13               -5.104e-11            9.723e-09            
  -0.9                  -9.7264e-09           2.2e-13               -4.866e-11            9.7224e-09           
  -1                    -9.7266e-09           3e-13                 -4.704e-11            9.7238e-09           
  -1.1                  -9.7264e-09           1.4e-13               -4.534e-11            9.7256e-09           
  -1.2                  -9.7264e-09           2.2e-13               -4.408e-11            9.7226e-09           
  -1.3                  -9.7264e-09           -2e-14                -4.248e-11            9.7246e-09           
  -1.4                  -9.73e-09             2e-13                 -4.144e-11            9.727e-09            
  -1.5                  -9.7314e-09           6e-14                 -3.998e-11            9.7238e-09           
  -1.6                  -9.7316e-09           1.4e-13               -3.848e-11            9.731e-09            
  -1.7                  -9.733e-09            0                     -3.748e-11            9.7294e-09           
  -1.8                  -9.7362e-09           6e-14                 -3.648e-11            9.7326e-09           
  -1.9                  -9.7404e-09           2.4e-13               -3.542e-11            9.736e-09            
  -2                    -9.7372e-09           0                     -3.48e-11             9.7342e-09           
  -2.1                  -9.741e-09            6e-14                 -3.33e-11             9.7368e-09           
  -2.2                  -9.739e-09            1.8e-13               -3.278e-11            9.735e-09            
  -2.3                  -9.7406e-09           1.2e-13               -3.136e-11            9.7358e-09           
  -2.4                  -9.7416e-09           1.8e-13               -3.082e-11            9.7362e-09           
  -2.5                  -9.7422e-09           4e-14                 -2.972e-11            9.737e-09            
  -2.6                  -9.7448e-09           4e-14                 -2.854e-11            9.736e-09            
  -2.7                  -9.744e-09            -2e-14                -2.772e-11            9.738e-09            
  -2.8                  -9.7484e-09           1.8e-13               -2.64e-11             9.7394e-09           
  -2.9                  -9.746e-09            8e-14                 -2.444e-11            9.7444e-09           
  -3                    -9.754e-09            0                     -2.248e-11            9.7418e-09           
  -3.1                  -9.7556e-09           -8e-14                -2e-11                9.7462e-09           
  -3.2                  -9.759e-09            2e-13                 -1.572e-11            9.7468e-09           
  -3.3                  -9.7634e-09           2e-14                 -1.132e-11            9.7426e-09           
  -3.4                  -9.7704e-09           6e-14                 -4.82e-12             9.7456e-09           
  -3.5                  -9.7768e-09           -6e-14                3.58e-12              9.7462e-09           
  -3.6                  -9.7904e-09           1.4e-13               1.534e-11             9.7496e-09           
END_DB

BEGIN_DB
 ICCAP_VAR vg         -1.413         
 ICCAP_VAR vb         -0             
 ICCAP_VAR vs         -0             

 #vd                    id                    ig                    ib                    is                   
  -0                    2.544e-11             -7e-13                -2.162e-11            -2.356e-11           
  -0.1                  -7.714e-08            -5e-13                -2.14e-11             7.7168e-08           
  -0.2                  -1.387e-07            -4.6e-13              -2.008e-11            1.3876e-07           
  -0.3                  -1.8512e-07           -3.6e-13              -1.712e-11            1.852e-07            
  -0.4                  -2.1708e-07           -4e-13                -1.684e-11            2.1714e-07           
  -0.5                  -2.3598e-07           -5.6e-13              -1.654e-11            2.3606e-07           
  -0.6                  -2.4432e-07           -3.6e-13              -1.576e-11            2.4436e-07           
  -0.7                  -2.4648e-07           -3.4e-13              -1.576e-11            2.4656e-07           
  -0.8                  -2.4688e-07           -2.8e-13              -1.54e-11             2.4694e-07           
  -0.9                  -2.47e-07             -6e-14                -1.51e-11             2.4704e-07           
  -1                    -2.4706e-07           -2e-13                -1.486e-11            2.4712e-07           
  -1.1                  -2.4714e-07           -2.8e-13              -1.468e-11            2.472e-07            
  -1.2                  -2.4712e-07           -1.8e-13              -1.404e-11            2.4722e-07           
  -1.3                  -2.4722e-07           -4.4e-13              -1.446e-11            2.4724e-07           
  -1.4                  -2.4722e-07           -3.8e-13              -1.372e-11            2.4732e-07           
  -1.5                  -2.473e-07            -1.6e-13              -1.372e-11            2.474e-07            
  -1.6                  -2.473e-07            -1.6e-13              -1.378e-11            2.4742e-07           
  -1.7                  -2.4736e-07           -3e-13                -1.334e-11            2.474e-07            
  -1.8                  -2.4738e-07           -8e-14                -1.336e-11            2.4748e-07           
  -1.9                  -2.4742e-07           -3.4e-13              -1.312e-11            2.4752e-07           
  -2                    -2.4748e-07           -2.6e-13              -1.296e-11            2.4756e-07           
  -2.1                  -2.475e-07            -2.8e-13              -1.268e-11            2.4758e-07           
  -2.2                  -2.4754e-07           -1.4e-13              -1.212e-11            2.4764e-07           
  -2.3                  -2.4752e-07           0                     -1.218e-11            2.4762e-07           
  -2.4                  -2.476e-07            0                     -1.22e-11             2.4766e-07           
  -2.5                  -2.4762e-07           -2.2e-13              -1.186e-11            2.477e-07            
  -2.6                  -2.4762e-07           -2.2e-13              -1.094e-11            2.477e-07            
  -2.7                  -2.4768e-07           -2.2e-13              -1.066e-11            2.4772e-07           
  -2.8                  -2.4768e-07           -3.2e-13              -9.06e-12             2.4776e-07           
  -2.9                  -2.4772e-07           -1.8e-13              -7.14e-12             2.478e-07            
  -3                    -2.4774e-07           -2.4e-13              -4.1e-12              2.4782e-07           
  -3.1                  -2.4776e-07           -2e-13                1.36e-12              2.4784e-07           
  -3.2                  -2.478e-07            -2.6e-13              9.26e-12              2.4784e-07           
  -3.3                  -2.4782e-07           -2.2e-13              2.214e-11             2.4792e-07           
  -3.4                  -2.479e-07            -2.6e-13              4.144e-11             2.4792e-07           
  -3.5                  -2.4796e-07           -1.2e-13              7.044e-11             2.4796e-07           
  -3.6                  -2.4806e-07           -2e-13                1.1254e-10            2.4796e-07           
END_DB

BEGIN_DB
 ICCAP_VAR vg         -2.142         
 ICCAP_VAR vb         -0             
 ICCAP_VAR vs         -0             

 #vd                    id                    ig                    ib                    is                   
  -0                    4.582e-11             -9.4e-13              -1.226e-11            -4.458e-11           
  -0.1                  -1.423e-07            -5.8e-13              -1.296e-11            1.4236e-07           
  -0.2                  -2.7028e-07           -5e-13                -9.42e-12             2.7036e-07           
  -0.3                  -3.838e-07            -5.4e-13              -8.76e-12             3.8386e-07           
  -0.4                  -4.8286e-07           -6.8e-13              -8.54e-12             4.8298e-07           
  -0.5                  -5.6824e-07           -4.2e-13              -8.54e-12             5.6838e-07           
  -0.6                  -6.399e-07            -5.8e-13              -8.8e-12              6.3994e-07           
  -0.7                  -6.9794e-07           -5.6e-13              -8.28e-12             6.9804e-07           
  -0.8                  -7.4294e-07           -5e-13                -8.22e-12             7.431e-07            
  -0.9                  -7.756e-07            -5.8e-13              -7.98e-12             7.7568e-07           
  -1                    -7.9642e-07           -3.6e-13              -8.16e-12             7.967e-07            
  -1.1                  -8.0768e-07           -3e-13                -7.92e-12             8.079e-07            
  -1.2                  -8.1198e-07           -4e-13                -7.74e-12             8.121e-07            
  -1.3                  -8.1334e-07           -3.8e-13              -7.36e-12             8.1342e-07           
  -1.4                  -8.139e-07            -3.6e-13              -7.6e-12              8.14e-07             
  -1.5                  -8.141e-07            -4e-13                -7.44e-12             8.1432e-07           
  -1.6                  -8.1434e-07           -5.4e-13              -7.26e-12             8.1444e-07           
  -1.7                  -8.1456e-07           -3.2e-13              -7.02e-12             8.1464e-07           
  -1.8                  -8.1468e-07           -2.8e-13              -6.94e-12             8.1484e-07           
  -1.9                  -8.1488e-07           -3e-13                -6.96e-12             8.1508e-07           
  -2                    -8.1504e-07           -2e-13                -6.44e-12             8.152e-07            
  -2.1                  -8.1516e-07           -3.8e-13              -7.04e-12             8.153e-07            
  -2.2                  -8.153e-07            -3e-13                -6.94e-12             8.1544e-07           
  -2.3                  -8.1536e-07           -4.6e-13              -6.78e-12             8.155e-07            
  -2.4                  -8.155e-07            -3.8e-13              -7.02e-12             8.1566e-07           
  -2.5                  -8.1564e-07           -4.2e-13              -6.42e-12             8.1568e-07           
  -2.6                  -8.1576e-07           -4.2e-13              -6.56e-12             8.1574e-07           
  -2.7                  -8.1578e-07           -3.8e-13              -6.5e-12              8.1594e-07           
  -2.8                  -8.1588e-07           -4.4e-13              -6.06e-12             8.16e-07             
  -2.9                  -8.159e-07            -4e-13                -6.22e-12             8.1592e-07           
  -3                    -8.1594e-07           -4e-13                -5.84e-12             8.1612e-07           
  -3.1                  -8.16e-07             -2.6e-13              -4.98e-12             8.1606e-07           
  -3.2                  -8.1608e-07           -3.2e-13              -3.8e-12              8.1614e-07           
  -3.3                  -8.1622e-07           -3.8e-13              -1.36e-12             8.1624e-07           
  -3.4                  -8.1626e-07           -2.2e-13              1.94e-12              8.164e-07            
  -3.5                  -8.1642e-07           -2e-13                8.1e-12               8.165e-07            
  -3.6                  -8.1644e-07           -3.2e-13              1.872e-11             8.1652e-07           
END_DB

BEGIN_DB
 ICCAP_VAR vg         -2.871         
 ICCAP_VAR vb         -0             
 ICCAP_VAR vs         -0             

 #vd                    id                    ig                    ib                    is                   
  -0                    5.488e-11             -9.4e-13              -8.18e-12             -5.29e-11            
  -0.1                  -1.9758e-07           -7.6e-13              -9.58e-12             1.9762e-07           
  -0.2                  -3.8226e-07           -7e-13                -5.62e-12             3.8242e-07           
  -0.3                  -5.5382e-07           -6.8e-13              -4.54e-12             5.5396e-07           
  -0.4                  -7.1192e-07           -6.4e-13              -4.6e-12              7.1202e-07           
  -0.5                  -8.5742e-07           -5.8e-13              -4.82e-12             8.576e-07            
  -0.6                  -9.9036e-07           -6.2e-13              -4.18e-12             9.9052e-07           
  -0.7                  -1.11012e-06          -6e-13                -4.48e-12             1.11036e-06          
  -0.8                  -1.2164e-06           -4.8e-13              -7.64e-12             1.2198e-06           
  -0.9                  -1.3116e-06           -4.4e-13              -4.22e-12             1.3146e-06           
  -1                    -1.3942e-06           -4.2e-13              -4.08e-12             1.3972e-06           
  -1.1                  -1.4648e-06           -5.4e-13              -4.38e-12             1.4676e-06           
  -1.2                  -1.5232e-06           -1.8e-13              -3.36e-12             1.5264e-06           
  -1.3                  -1.5702e-06           -4.8e-13              -3.64e-12             1.573e-06            
  -1.4                  -1.6056e-06           -6.6e-13              -4.2e-12              1.6086e-06           
  -1.5                  -1.6306e-06           -4e-13                -3.52e-12             1.6336e-06           
  -1.6                  -1.6462e-06           -3.6e-13              -3.92e-12             1.6492e-06           
  -1.7                  -1.654e-06            -4e-13                -4.42e-12             1.657e-06            
  -1.8                  -1.6574e-06           -3e-13                -3.54e-12             1.6602e-06           
  -1.9                  -1.6586e-06           -3.8e-13              -3.66e-12             1.6618e-06           
  -2                    -1.6594e-06           -5.4e-13              -4.02e-12             1.6626e-06           
  -2.1                  -1.6602e-06           -4.4e-13              -3.5e-12              1.6632e-06           
  -2.2                  -1.6606e-06           -4.2e-13              -3.7e-12              1.6638e-06           
  -2.3                  -1.661e-06            -4.8e-13              -3.76e-12             1.664e-06            
  -2.4                  -1.6612e-06           -4.8e-13              -3.6e-12              1.6642e-06           
  -2.5                  -1.6614e-06           -4.2e-13              -3.58e-12             1.6642e-06           
  -2.6                  -1.6618e-06           -4.8e-13              -3.26e-12             1.6648e-06           
  -2.7                  -1.662e-06            -3.2e-13              -3.26e-12             1.665e-06            
  -2.8                  -1.6622e-06           -3e-13                -3.48e-12             1.6652e-06           
  -2.9                  -1.6626e-06           -6.2e-13              -3.44e-12             1.6654e-06           
  -3                    -1.6626e-06           -6.2e-13              -3.36e-12             1.6656e-06           
  -3.1                  -1.6628e-06           -3e-13                -3.46e-12             1.6656e-06           
  -3.2                  -1.6628e-06           -5.4e-13              -3.04e-12             1.666e-06            
  -3.3                  -1.6632e-06           -3.8e-13              -3.24e-12             1.6662e-06           
  -3.4                  -1.6634e-06           -3.4e-13              -3.14e-12             1.6662e-06           
  -3.5                  -1.6636e-06           -3.6e-13              -2.42e-12             1.6664e-06           
  -3.6                  -1.6638e-06           -5.2e-13              -1.96e-12             1.6668e-06           
END_DB

BEGIN_DB
 ICCAP_VAR vg         -3.6           
 ICCAP_VAR vb         -0             
 ICCAP_VAR vs         -0             

 #vd                    id                    ig                    ib                    is                   
  -0                    7.494e-11             -8.6e-13              -6.24e-12             -7.608e-11           
  -0.1                  -2.4424e-07           -9.4e-13              -6.56e-12             2.4434e-07           
  -0.2                  -4.7688e-07           -6.6e-13              -2.54e-12             4.7696e-07           
  -0.3                  -6.975e-07            -9.2e-13              -2.56e-12             6.9762e-07           
  -0.4                  -9.0592e-07           -9.4e-13              -2.54e-12             9.0608e-07           
  -0.5                  -1.10306e-06          -6.6e-13              -2.72e-12             1.1032e-06           
  -0.6                  -1.2874e-06           -8.8e-13              -5.52e-12             1.2904e-06           
  -0.7                  -1.461e-06            -6.8e-13              -2.48e-12             1.4642e-06           
  -0.8                  -1.6238e-06           -6.8e-13              -2.5e-12              1.6268e-06           
