! VERSION = 6.00
BEGIN_HEADER
 ICCAP_INPUTS
  vd         V  D GROUND SMU1 0.1 LIN        1    -0         -3.6       37   -0.1      
  vg         V  G GROUND SMU2 0.001 LIST       2 3 -1.51 -1.71 -1.91
  vb         V  B GROUND SMU4 0.1 CON        3.6
  vs         V  S GROUND SMU3 0.1 CON        -0
 ICCAP_OUTPUTS
  id         I  D GROUND SMU1 B
  ig         I  G GROUND SMU2 B
  ib         I  B GROUND SMU4 B
  is         I  S GROUND SMU3 B
 ICCAP_VALUES
  MASTER_SETUP_TYPE "~dc_idvd~"
  LINVT_VALUE ""
  LISTVT_VALUE "|idvg|100.0n|-200.0m|1.000m|3|200.0m|200.0m|"
  TYPE "-1"
  TEMP " 125.000 "
  IS_TNOM " 0.00000 "
  MAIN.W "600.0n"
  MAIN.L "500.0n"
  MAIN.AD "204.0f"
  MAIN.AS "204.0f"
  MAIN.PD "1.880u"
  MAIN.PS "1.880u"
  MAIN.NF "1.000"
  MAIN.M "1"
  MAIN.NRD "0.000"
  MAIN.NRS "0.000"
  MAIN.LDRIFT1 "1E-06"
  MAIN.LDRIFT2 "1E-06"
  MAIN.SA "0.000"
  MAIN.SB "0.000"
  MAIN.SD "0.000"
  MAIN.SCA "0.000"
  MAIN.SCB "0.000"
  MAIN.SCC "0.000"
  MAIN.SC "0.000"
  MODULE "S564"
  PIN_D "16"
  PIN_G "5"
  PIN_S "6"
  PIN_B "15"
  PIN_E ""
  PIN_6 ""
  XY_ID ""
  FUNC "LW Scale"
  STI "SA ref"
  WPE "WPE ref"
  COMMENT ""
  DIS_MEAS ""
  TypeTCI "10"
END_HEADER

BEGIN_DB
 ICCAP_VAR vg         -1.51          
 ICCAP_VAR vb         3.6            
 ICCAP_VAR vs         -0             

 #vd                    id                    ig                    ib                    is                   
  -0                    -5.8e-12              -4.28e-12             3.2676e-09            -7.58e-12            
  -0.1                  -1.7298e-09           -3.96e-12             3.1982e-09            1.718e-09            
  -0.2                  -1.8944e-09           -3.86e-12             3.1576e-09            1.883e-09            
  -0.3                  -1.9534e-09           -3.96e-12             3.115e-09             1.9422e-09           
  -0.4                  -2.0012e-09           -3.74e-12             3.0698e-09            1.9884e-09           
  -0.5                  -2.0434e-09           -3.7e-12              3.0216e-09            2.031e-09            
  -0.6                  -2.084e-09            -3.58e-12             2.9698e-09            2.0718e-09           
  -0.7                  -2.1198e-09           -3.64e-12             2.9116e-09            2.1072e-09           
  -0.8                  -2.1552e-09           -3.44e-12             2.7662e-09            2.1424e-09           
  -0.9                  -2.1886e-09           -2.22e-12             7.966e-10             2.1806e-09           
  -1                    -2.2176e-09           -2.8e-13              1.0382e-10            2.2144e-09           
  -1.1                  -2.2494e-09           -1.6e-13              8.506e-11             2.2478e-09           
  -1.2                  -2.2804e-09           -1.4e-13              7.41e-11              2.2788e-09           
  -1.3                  -2.3128e-09           -2.2e-13              6.622e-11             2.3108e-09           
  -1.4                  -2.3436e-09           4e-14                 6.006e-11             2.3414e-09           
  -1.5                  -2.375e-09            -6e-14                5.524e-11             2.3716e-09           
  -1.6                  -2.404e-09            0                     5.142e-11             2.402e-09            
  -1.7                  -2.435e-09            -1e-13                4.82e-11              2.434e-09            
  -1.8                  -2.4646e-09           -6e-14                4.514e-11             2.4606e-09           
  -1.9                  -2.496e-09            0                     4.3e-11               2.4934e-09           
  -2                    -2.5254e-09           -2e-13                4.08e-11              2.5226e-09           
  -2.1                  -2.555e-09            8e-14                 3.85e-11              2.5512e-09           
  -2.2                  -2.5836e-09           -1.2e-13              3.708e-11             2.5814e-09           
  -2.3                  -2.6142e-09           -2e-14                3.558e-11             2.6106e-09           
  -2.4                  -2.6448e-09           -2e-14                3.396e-11             2.6414e-09           
  -2.5                  -2.6762e-09           -1.8e-13              3.276e-11             2.6712e-09           
  -2.6                  -2.705e-09            -4e-14                3.208e-11             2.6982e-09           
  -2.7                  -2.7304e-09           -1e-13                3.124e-11             2.7254e-09           
  -2.8                  -2.7602e-09           0                     3.016e-11             2.756e-09            
  -2.9                  -2.7938e-09           -4e-14                2.99e-11              2.792e-09            
  -3                    -2.826e-09            -1e-13                2.936e-11             2.8194e-09           
  -3.1                  -2.8566e-09           -6e-14                2.93e-11              2.8552e-09           
  -3.2                  -2.8914e-09           4e-14                 2.938e-11             2.885e-09            
  -3.3                  -2.9216e-09           -8e-14                2.974e-11             2.9144e-09           
  -3.4                  -2.9542e-09           2e-14                 3.086e-11             2.9446e-09           
  -3.5                  -2.9876e-09           -6e-14                3.256e-11             2.977e-09            
  -3.6                  -3.0252e-09           -6e-14                3.548e-11             3.0094e-09           
END_DB

BEGIN_DB
 ICCAP_VAR vg         -1.71          
 ICCAP_VAR vb         3.6            
 ICCAP_VAR vs         -0             

 #vd                    id                    ig                    ib                    is                   
  -0                    7.068e-11             -3.6e-13              1.78e-11              -6.384e-11           
  -0.1                  -8.781e-08            -3e-13                1.704e-11             8.792e-08            
  -0.2                  -1.02282e-07          -1.2e-13              2.132e-11             1.02298e-07          
  -0.3                  -1.065e-07            -1.8e-13              1.938e-11             1.06618e-07          
  -0.4                  -1.0932e-07           -2.6e-13              2.078e-11             1.09388e-07          
  -0.5                  -1.1162e-07           -1.8e-13              2.072e-11             1.11628e-07          
  -0.6                  -1.1352e-07           -2.4e-13              2.02e-11              1.13544e-07          
  -0.7                  -1.1544e-07           -3.2e-13              1.62e-11              1.155e-07            
  -0.8                  -1.1712e-07           -2e-13                1.976e-11             1.1716e-07           
  -0.9                  -1.1872e-07           -2e-13                1.984e-11             1.1884e-07           
  -1                    -1.2028e-07           -2.8e-13              1.996e-11             1.2036e-07           
  -1.1                  -1.2176e-07           -2.6e-13              2.002e-11             1.2182e-07           
  -1.2                  -1.232e-07            -2.8e-13              1.972e-11             1.2324e-07           
  -1.3                  -1.2462e-07           -2.6e-13              1.95e-11              1.2462e-07           
  -1.4                  -1.2592e-07           -1.8e-13              1.952e-11             1.2606e-07           
  -1.5                  -1.2734e-07           -2.8e-13              1.966e-11             1.2732e-07           
  -1.6                  -1.2866e-07           -2e-13                1.946e-11             1.2868e-07           
  -1.7                  -1.298e-07            -2.2e-13              1.928e-11             1.3002e-07           
  -1.8                  -1.3124e-07           -2e-13                1.924e-11             1.3128e-07           
  -1.9                  -1.325e-07            -1.8e-13              1.932e-11             1.3258e-07           
  -2                    -1.3376e-07           -1.8e-13              1.96e-11              1.3384e-07           
  -2.1                  -1.3496e-07           -2e-13                1.958e-11             1.3504e-07           
  -2.2                  -1.3618e-07           -1.4e-13              1.942e-11             1.3632e-07           
  -2.3                  -1.3754e-07           -4e-14                1.952e-11             1.3754e-07           
  -2.4                  -1.3872e-07           -1.4e-13              1.98e-11              1.3884e-07           
  -2.5                  -1.3998e-07           -6e-14                2.034e-11             1.4006e-07           
  -2.6                  -1.4128e-07           -4e-14                2.16e-11              1.4124e-07           
  -2.7                  -1.4244e-07           -1e-13                2.294e-11             1.4246e-07           
  -2.8                  -1.4364e-07           -8e-14                2.574e-11             1.4378e-07           
  -2.9                  -1.4488e-07           -1e-13                3.132e-11             1.4494e-07           
  -3                    -1.461e-07            -1.6e-13              3.9e-11               1.4622e-07           
  -3.1                  -1.4742e-07           -2.2e-13              5.118e-11             1.4742e-07           
  -3.2                  -1.4864e-07           -1e-13                7.042e-11             1.4866e-07           
  -3.3                  -1.4988e-07           -1.8e-13              9.988e-11             1.4994e-07           
  -3.4                  -1.5118e-07           -4e-14                1.4424e-10            1.5112e-07           
  -3.5                  -1.525e-07            -8e-14                2.0888e-10            1.524e-07            
  -3.6                  -1.5384e-07           -1.8e-13              3.0388e-10            1.536e-07            
END_DB

BEGIN_DB
 ICCAP_VAR vg         -1.91          
 ICCAP_VAR vb         3.6            
 ICCAP_VAR vs         -0             

 #vd                    id                    ig                    ib                    is                   
  -0                    2.6394e-10            -3.4e-13              1.22e-11              -2.603e-10           
  -0.1                  -6.0604e-07           -3.2e-13              1.158e-11             6.0634e-07           
  -0.2                  -8.7436e-07           -4.2e-13              1.596e-11             8.739e-07            
  -0.3                  -9.711e-07            -5e-13                1.59e-11              9.7708e-07           
  -0.4                  -1.01728e-06          -3.8e-13              1.652e-11             1.01812e-06          
  -0.5                  -1.04118e-06          -3.2e-13              1.61e-11              1.0414e-06           
  -0.6                  -1.05932e-06          -3.8e-13              1.608e-11             1.0595e-06           
  -0.7                  -1.07398e-06          -3e-13                1.638e-11             1.07388e-06          
  -0.8                  -1.08728e-06          -2e-13                1.634e-11             1.0873e-06           
  -0.9                  -1.09828e-06          -3.6e-13              1.588e-11             1.09822e-06          
  -1                    -1.10926e-06          -2.8e-13              1.636e-11             1.10926e-06          
  -1.1                  -1.11934e-06          -3.4e-13              1.64e-11              1.11972e-06          
  -1.2                  -1.12942e-06          -2.8e-13              1.626e-11             1.12888e-06          
  -1.3                  -1.1368e-06           -2e-13                1.29e-11              1.13774e-06          
  -1.4                  -1.1452e-06           -1.8e-13              1.624e-11             1.14666e-06          
  -1.5                  -1.1538e-06           -2.8e-13              1.154e-11             1.1574e-06           
  -1.6                  -1.1626e-06           -3.4e-13              1.568e-11             1.1658e-06           
  -1.7                  -1.1706e-06           -2.4e-13              1.638e-11             1.173e-06            
  -1.8                  -1.178e-06            -2.4e-13              1.612e-11             1.1812e-06           
  -1.9                  -1.187e-06            -2.6e-13              1.64e-11              1.1896e-06           
  -2                    -1.1946e-06           -2.2e-13              1.666e-11             1.1978e-06           
  -2.1                  -1.2024e-06           -1.6e-13              1.62e-11              1.2052e-06           
  -2.2                  -1.2098e-06           -2.6e-13              1.702e-11             1.2126e-06           
  -2.3                  -1.2172e-06           -2.6e-13              1.728e-11             1.2198e-06           
  -2.4                  -1.2244e-06           -2.4e-13              1.838e-11             1.2276e-06           
  -2.5                  -1.2318e-06           -2.6e-13              2.022e-11             1.2348e-06           
  -2.6                  -1.2384e-06           -1.4e-13              2.368e-11             1.2418e-06           
  -2.7                  -1.2454e-06           -2.6e-13              3.03e-11              1.2482e-06           
  -2.8                  -1.2532e-06           -3.2e-13              4.152e-11             1.2564e-06           
  -2.9                  -1.2606e-06           -2.4e-13              6.046e-11             1.2628e-06           
  -3                    -1.2674e-06           -2e-13                9.138e-11             1.2706e-06           
  -3.1                  -1.2748e-06           -1.6e-13              1.4182e-10            1.2776e-06           
  -3.2                  -1.2816e-06           -1.6e-13              2.217e-10             1.2838e-06           
  -3.3                  -1.2884e-06           -2.4e-13              3.4696e-10            1.2914e-06           
  -3.4                  -1.295e-06            -1.8e-13              5.3832e-10            1.2984e-06           
  -3.5                  -1.3026e-06           -3e-13                8.2862e-10            1.3054e-06           
  -3.6                  -1.31e-06             -1.8e-13              1.259e-09             1.3114e-06           
END_DB

