! VERSION = 6.00
BEGIN_HEADER
 ICCAP_INPUTS
  vd         V  D GROUND SMU1 0.1 LIN        1    -0         -3.6       37   -0.1      
  vg         V  G GROUND SMU2 0.001 LIN        2    -1.628     -3.6       5    -0.493    
  vb         V  B GROUND SMU4 0.1 CON        3.6
  vs         V  S GROUND SMU3 0.1 CON        -0
 ICCAP_OUTPUTS
  id         I  D GROUND SMU1 B
  ig         I  G GROUND SMU2 B
  ib         I  B GROUND SMU4 B
  is         I  S GROUND SMU3 B
 ICCAP_VALUES
  MASTER_SETUP_TYPE "~dc_idvd~"
  LINVT_VALUE "|idvg|100.0n|100.0m|1.000m|5|3.600|"
  LISTVT_VALUE ""
  TYPE "-1"
  TEMP " 27.0000 "
  IS_TNOM " 1.00000 "
  MAIN.W "10.00u"
  MAIN.L "330.0n"
  MAIN.AD "3.400p"
  MAIN.AS "3.400p"
  MAIN.PD "20.68u"
  MAIN.PS "20.68u"
  MAIN.NF "1.000"
  MAIN.M "1"
  MAIN.NRD "0.000"
  MAIN.NRS "0.000"
  MAIN.LDRIFT1 "1E-06"
  MAIN.LDRIFT2 "1E-06"
  MAIN.SA "0.000"
  MAIN.SB "0.000"
  MAIN.SD "0.000"
  MAIN.SCA "0.000"
  MAIN.SCB "0.000"
  MAIN.SCC "0.000"
  MAIN.SC "0.000"
  MODULE "S561"
  PIN_D "18"
  PIN_G "3"
  PIN_S "4"
  PIN_B "17"
  PIN_E ""
  PIN_6 ""
  XY_ID ""
  FUNC "Additional"
  STI "SA ref"
  WPE "WPE ref"
  COMMENT ""
  DIS_MEAS ""
  TypeTCI "10"
END_HEADER

BEGIN_DB
 ICCAP_VAR vg         -1.628         
 ICCAP_VAR vb         3.6            
 ICCAP_VAR vs         -0             

 #vd                    id                    ig                    ib                    is                   
  -0                    1.9324e-09            -5.4e-13              1.64e-12              -2.632e-09           
  -0.1                  -4.5766e-06           -2.8e-13              1.56e-12              4.579e-06            
  -0.2                  -6.1184e-06           -1.8e-13              1.42e-12              6.112e-06            
  -0.3                  -7.114e-06            -2e-13                1.54e-12              7.114e-06            
  -0.4                  -7.9576e-06           -2.8e-13              1.44e-12              7.9614e-06           
  -0.5                  -8.7302e-06           -2.8e-13              1.28e-12              8.7286e-06           
  -0.6                  -9.4572e-06           -2.2e-13              1.3e-12               9.4624e-06           
  -0.7                  -1.01588e-05          -1.6e-13              1.22e-12              1.01628e-05          
  -0.8                  -1.0838e-05           -1.4e-13              1.26e-12              1.0851e-05           
  -0.9                  -1.1518e-05           -2e-13                1.04e-12              1.1538e-05           
  -1                    -1.2186e-05           -1e-13                9.6e-13               1.2206e-05           
  -1.1                  -1.285e-05            -6e-14                9.8e-13               1.285e-05            
  -1.2                  -1.3486e-05           -8e-14                9.6e-13               1.3512e-05           
  -1.3                  -1.4154e-05           -1.4e-13              9.8e-13               1.4166e-05           
  -1.4                  -1.4806e-05           -1.2e-13              9.8e-13               1.4828e-05           
  -1.5                  -1.5466e-05           -1.4e-13              9e-13                 1.5486e-05           
  -1.6                  -1.6132e-05           -4e-14                9e-13                 1.6154e-05           
  -1.7                  -1.6796e-05           -4e-14                1.12e-12              1.681e-05            
  -1.8                  -1.747e-05            -6e-14                1.44e-12              1.7488e-05           
  -1.9                  -1.8152e-05           -8e-14                2.52e-12              1.8172e-05           
  -2                    -1.8842e-05           -1.4e-13              5.32e-12              1.8856e-05           
  -2.1                  -1.9538e-05           8e-14                 1.184e-11             1.956e-05            
  -2.2                  -2.0246e-05           -1e-13                2.666e-11             2.0268e-05           
  -2.3                  -2.097e-05            -6e-14                5.82e-11              2.0986e-05           
  -2.4                  -2.1706e-05           0                     1.2182e-10            2.1722e-05           
  -2.5                  -2.2448e-05           -4e-14                2.4578e-10            2.2474e-05           
  -2.6                  -2.3206e-05           -2e-14                4.8014e-10            2.3226e-05           
  -2.7                  -2.3978e-05           -1e-13                9.0772e-10            2.4e-05              
  -2.8                  -2.4754e-05           0                     1.6664e-09            2.4764e-05           
  -2.9                  -2.5544e-05           1e-13                 2.9828e-09            2.5568e-05           
  -3                    -2.635e-05            -1e-13                5.2192e-09            2.6414e-05           
  -3.1                  -2.722e-05            -1e-13                8.9054e-09            2.724e-05            
  -3.2                  -2.807e-05            2e-14                 1.489e-08             2.809e-05            
  -3.3                  -2.8926e-05           -1e-13                2.4454e-08            2.8936e-05           
  -3.4                  -2.981e-05            -4e-14                3.933e-08             2.9792e-05           
  -3.5                  -3.068e-05            0                     6.2112e-08            3.064e-05            
  -3.6                  -3.1604e-05           2e-14                 9.6528e-08            3.1532e-05           
END_DB

BEGIN_DB
 ICCAP_VAR vg         -2.121         
 ICCAP_VAR vb         3.6            
 ICCAP_VAR vs         -0             

 #vd                    id                    ig                    ib                    is                   
  -0                    3.5682e-08            -3.2e-13              4e-13                 -3.334e-08           
  -0.1                  -6.1858e-05           -2e-13                5e-13                 6.1888e-05           
  -0.2                  -0.000110842          -2.2e-13              2.8e-13               0.00011087           
  -0.3                  -0.00014718           -1.4e-13              3.6e-13               0.00014754           
  -0.4                  -0.00017298           -1e-13                4.2e-13               0.00017336           
  -0.5                  -0.00019108           -1e-13                6e-13                 0.00019142           
  -0.6                  -0.00020394           -3e-13                3.4e-13               0.0002043            
  -0.7                  -0.00021362           -1.4e-13              3.8e-13               0.000214             
  -0.8                  -0.0002214            0                     5e-13                 0.00022176           
  -0.9                  -0.000228             -6e-14                4.6e-13               0.00022832           
  -1                    -0.0002338            -1.4e-13              4.4e-13               0.00023416           
  -1.1                  -0.00023908           -8e-14                5.2e-13               0.00023944           
  -1.2                  -0.00024402           -1.2e-13              5.6e-13               0.00024438           
  -1.3                  -0.00024864           -1.2e-13              4e-13                 0.00024896           
  -1.4                  -0.00025304           -8e-14                3.8e-13               0.0002534            
  -1.5                  -0.0002572            -1.6e-13              3.8e-13               0.00025764           
  -1.6                  -0.00026128           -4e-14                3.8e-13               0.00026162           
  -1.7                  -0.00026524           -1.4e-13              5.6e-13               0.00026556           
  -1.8                  -0.000269             2e-14                 6.6e-13               0.00026936           
  -1.9                  -0.0002726            -6e-14                1.24e-12              0.000273             
  -2                    -0.00027622           -8e-14                3.04e-12              0.00027652           
  -2.1                  -0.00027972           6e-14                 8.18e-12              0.00028006           
  -2.2                  -0.0002832            6e-14                 2.16e-11              0.00028356           
  -2.3                  -0.00028666           -1e-13                5.394e-11             0.00028708           
  -2.4                  -0.00029014           0                     1.2714e-10            0.0002905            
  -2.5                  -0.00029358           8e-14                 2.8606e-10            0.00029392           
  -2.6                  -0.0002969            4e-14                 6.1382e-10            0.00029738           
  -2.7                  -0.00030036           -4e-14                1.2664e-09            0.0003008            
  -2.8                  -0.00030384           -1e-13                2.513e-09             0.00030424           
  -2.9                  -0.00030722           -6e-14                4.8206e-09            0.00030754           
  -3                    -0.00031056           -4e-14                8.9794e-09            0.0003109            
  -3.1                  -0.00031386           -2e-14                1.626e-08             0.00031402           
  -3.2                  -0.00031714           -2e-14                2.8758e-08            0.0003176            
  -3.3                  -0.0003206            2e-14                 4.9722e-08            0.00032098           
  -3.4                  -0.00032394           -6e-14                8.3924e-08            0.00032408           
  -3.5                  -0.00032698           -6e-14                1.3914e-07            0.00032686           
  -3.6                  -0.00033008           -6e-14                2.2586e-07            0.00033018           
END_DB

BEGIN_DB
 ICCAP_VAR vg         -2.614         
 ICCAP_VAR vb         3.6            
 ICCAP_VAR vs         -0             

 #vd                    id                    ig                    ib                    is                   
  -0                    5.9258e-08            -3e-13                2e-13                 -5.096e-08           
  -0.1                  -0.00010844           -8e-14                2.6e-13               0.00010882           
  -0.2                  -0.00020686           -1e-13                2e-13                 0.00020724           
  -0.3                  -0.00029426           -3e-13                3e-13                 0.00029462           
  -0.4                  -0.00037012           -1.6e-13              3.4e-13               0.00037042           
  -0.5                  -0.0004347            -2e-13                2.4e-13               0.00043508           
  -0.6                  -0.00048852           -2.6e-13              2.2e-13               0.00048898           
  -0.7                  -0.0005323            -1.8e-13              2.4e-13               0.0005327            
  -0.8                  -0.00056746           -1.2e-13              3.2e-13               0.00056782           
  -0.9                  -0.00059534           -2e-13                2.4e-13               0.00059578           
  -1                    -0.00061772           -1.8e-13              2.2e-13               0.00061786           
  -1.1                  -0.00063566           -1.6e-13              3.4e-13               0.00063612           
  -1.2                  -0.0006509            -8e-14                2.4e-13               0.0006512            
  -1.3                  -0.0006638            -6e-14                2.4e-13               0.00066412           
  -1.4                  -0.00067518           0                     4.4e-13               0.00067562           
  -1.5                  -0.00068538           -6e-14                3e-13                 0.00068572           
  -1.6                  -0.00069482           0                     8e-14                 0.00069508           
  -1.7                  -0.00070338           -2e-14                3.2e-13               0.00070376           
  -1.8                  -0.00071156           -2e-14                3.8e-13               0.0007119            
  -1.9                  -0.0007193            -2e-14                4e-13                 0.00071964           
  -2                    -0.0007267            -1.6e-13              6.6e-13               0.00072706           
  -2.1                  -0.00073372           -2e-14                1.62e-12              0.00073406           
  -2.2                  -0.00074058           -8e-14                4.28e-12              0.00074084           
  -2.3                  -0.00074692           -8e-14                1.18e-11              0.0007474            
  -2.4                  -0.0007534            0                     3.116e-11             0.00075376           
  -2.5                  -0.00075954           6e-14                 7.79e-11              0.00075988           
  -2.6                  -0.00076566           -1.2e-13              1.8332e-10            0.0007661            
  -2.7                  -0.00077154           -8e-14                4.1158e-10            0.00077186           
  -2.8                  -0.00077736           4e-14                 8.821e-10             0.0007777            
  -2.9                  -0.00078298           -1e-13                1.816e-09             0.00078326           
  -3                    -0.0007886            2e-14                 3.609e-09             0.00078888           
  -3.1                  -0.00079414           -1e-13                6.9548e-09            0.0007945            
  -3.2                  -0.00079948           0                     1.3022e-08            0.00079978           
  -3.3                  -0.00080518           1.4e-13               2.3778e-08            0.00080548           
  -3.4                  -0.00081068           0                     4.2396e-08            0.00081078           
  -3.5                  -0.00081582           0                     7.3836e-08            0.00081566           
  -3.6                  -0.00082034           -1e-13                1.264e-07             0.00081976           
END_DB

BEGIN_DB
 ICCAP_VAR vg         -3.107         
 ICCAP_VAR vb         3.6            
 ICCAP_VAR vs         -0             

 #vd                    id                    ig                    ib                    is                   
  -0                    7.547e-08             -3.2e-13              1.8e-13               -6.2786e-08          
  -0.1                  -0.00014438           -2.6e-13              2.6e-13               0.00014478           
  -0.2                  -0.00028062           -2.6e-13              1.6e-13               0.000281             
  -0.3                  -0.00040742           -2.8e-13              1.2e-13               0.00040776           
  -0.4                  -0.00052394           -1.8e-13              3.6e-13               0.00052434           
  -0.5                  -0.00063032           -1.8e-13              2e-13                 0.00063074           
  -0.6                  -0.00072614           -1.4e-13              2.8e-13               0.00072648           
  -0.7                  -0.00081124           -6e-14                2.4e-13               0.00081164           
  -0.8                  -0.00088616           -1.2e-13              2.2e-13               0.00088646           
  -0.9                  -0.00095108           -1.8e-13              1.4e-13               0.00095136           
  -1                    -0.00100664           -2e-13                2.4e-13               0.0010072            
  -1.1                  -0.00105428           -4e-14                3e-13                 0.00105442           
  -1.2                  -0.00109424           -1.2e-13              1.8e-13               0.00109456           
  -1.3                  -0.00112816           -1e-13                3.2e-13               0.00112838           
  -1.4                  -0.001156             -8e-14                2.2e-13               0.0011576            
  -1.5                  -0.0011802            -1.4e-13              2.6e-13               0.001182             
  -1.6                  -0.0012012            0                     2e-13                 0.001203             
  -1.7                  -0.0012194            -8e-14                2e-13                 0.0012214            
  -1.8                  -0.001236             0                     3e-13                 0.0012382            
  -1.9                  -0.001251             6e-14                 3.6e-13               0.0012532            
  -2                    -0.0012646            -1.2e-13              2e-13                 0.0012664            
  -2.1                  -0.0012768            -1.2e-13              3e-13                 0.001279             
  -2.2                  -0.0012888            6e-14                 7.8e-13               0.0012908            
  -2.3                  -0.0012998            -2e-14                2.2e-12               0.0013016            
  -2.4                  -0.0013102            -8e-14                5.82e-12              0.0013122            
  -2.5                  -0.00132              -6e-14                1.58e-11              0.0013222            
  -2.6                  -0.0013294            0                     4.086e-11             0.0013314            
  -2.7                  -0.0013382            -6e-14                1.0024e-10            0.0013406            
  -2.8                  -0.0013474            -8e-14                2.341e-10             0.0013492            
  -2.9                  -0.0013558            -6e-14                5.1816e-10            0.0013574            
  -3                    -0.0013638            -1.2e-13              1.10088e-09           0.0013656            
  -3.1                  -0.0013718            0                     2.2348e-09            0.0013736            
  -3.2                  -0.0013794            -1e-13                4.3938e-09            0.0013814            
  -3.3                  -0.001387             8e-14                 8.3864e-09            0.0013888            
  -3.4                  -0.0013946            2e-14                 1.5594e-08            0.0013966            
  -3.5                  -0.001402             -1e-13                2.8338e-08            0.0014038            
  -3.6                  -0.001409             -8e-14                5.043e-08             0.0014108            
END_DB

BEGIN_DB
 ICCAP_VAR vg         -3.6           
 ICCAP_VAR vb         3.6            
 ICCAP_VAR vs         -0             

 #vd                    id                    ig                    ib                    is                   
  -0                    8.938e-08             -3.2e-13              2.2e-13               -7.124e-08           
  -0.1                  -0.00017354           -3.2e-13              1e-13                 0.00017388           
  -0.2                  -0.00034012           -1.8e-13              2.6e-13               0.00034052           
  -0.3                  -0.00049856           -3.2e-13              1.2e-13               0.00049894           
  -0.4                  -0.00064774           -1.8e-13              8e-14                 0.00064814           
  -0.5                  -0.00078802           -2.4e-13              1.8e-13               0.00078848           
  -0.6                  -0.00091872           -1.2e-13              2.8e-13               0.00091898           
  -0.7                  -0.0010389            -1.4e-13              2.2e-13               0.00103928           
  -0.8                  -0.00114946           -2.4e-13              1.4e-13               0.00114976           
