! VERSION = 6.00
BEGIN_HEADER
 ICCAP_INPUTS
  vd         V  D GROUND SMU1 0.1 LIN        1    -0         -3.6       37   -0.1      
  vg         V  G GROUND SMU2 0.001 LIN        2    -1.884     -3.6       5    -0.429    
  vb         V  B GROUND SMU4 0.1 CON        3.6
  vs         V  S GROUND SMU3 0.1 CON        -0
 ICCAP_OUTPUTS
  id         I  D GROUND SMU1 B
  ig         I  G GROUND SMU2 B
  ib         I  B GROUND SMU4 B
  is         I  S GROUND SMU3 B
 ICCAP_VALUES
  MASTER_SETUP_TYPE "~dc_idvd~"
  LINVT_VALUE "|idvg|100.0n|100.0m|1.000m|5|3.600|"
  LISTVT_VALUE ""
  TYPE "-1"
  TEMP " 27.0000 "
  IS_TNOM " 1.00000 "
  MAIN.W "300.0n"
  MAIN.L "500.0n"
  MAIN.AD "102.0f"
  MAIN.AS "102.0f"
  MAIN.PD "1.280u"
  MAIN.PS "1.280u"
  MAIN.NF "1.000"
  MAIN.M "1"
  MAIN.NRD "0.000"
  MAIN.NRS "0.000"
  MAIN.LDRIFT1 "1E-06"
  MAIN.LDRIFT2 "1E-06"
  MAIN.SA "0.000"
  MAIN.SB "0.000"
  MAIN.SD "0.000"
  MAIN.SCA "0.000"
  MAIN.SCB "0.000"
  MAIN.SCC "0.000"
  MAIN.SC "0.000"
  MODULE "S565"
  PIN_D "14"
  PIN_G "7"
  PIN_S "8"
  PIN_B "13"
  PIN_E ""
  PIN_6 ""
  XY_ID ""
  FUNC "LW Scale"
  STI "SA ref"
  WPE "WPE ref"
  COMMENT ""
  DIS_MEAS ""
  TypeTCI "10"
END_HEADER

BEGIN_DB
 ICCAP_VAR vg         -1.884         
 ICCAP_VAR vb         3.6            
 ICCAP_VAR vs         -0             

 #vd                    id                    ig                    ib                    is                   
  -0                    1.259e-10             -7e-13                1.04e-12              -1.6478e-10          
  -0.1                  -1.8772e-07           -4.8e-13              8.6e-13               1.8826e-07           
  -0.2                  -2.353e-07            -4.8e-13              8.2e-13               2.3556e-07           
  -0.3                  -2.4912e-07           -5.6e-13              7.4e-13               2.4952e-07           
  -0.4                  -2.5636e-07           -3.2e-13              8.4e-13               2.567e-07            
  -0.5                  -2.6214e-07           -2.4e-13              7e-13                 2.6234e-07           
  -0.6                  -2.6716e-07           -2e-13                5.4e-13               2.6732e-07           
  -0.7                  -2.7148e-07           -3.8e-13              5.4e-13               2.7154e-07           
  -0.8                  -2.75e-07             -4e-13                5.4e-13               2.7536e-07           
  -0.9                  -2.7888e-07           -2.2e-13              4.2e-13               2.7926e-07           
  -1                    -2.829e-07            -8e-14                4.2e-13               2.8288e-07           
  -1.1                  -2.8602e-07           -3e-13                4e-13                 2.8654e-07           
  -1.2                  -2.8892e-07           -5.8e-13              4e-13                 2.8952e-07           
  -1.3                  -2.919e-07            -3.4e-13              4.6e-13               2.923e-07            
  -1.4                  -2.953e-07            -2.6e-13              3.2e-13               2.9576e-07           
  -1.5                  -2.9826e-07           -4e-14                2.6e-13               2.9864e-07           
  -1.6                  -3.014e-07            2e-14                 3.6e-13               3.0134e-07           
  -1.7                  -3.041e-07            -2.8e-13              2.4e-13               3.0468e-07           
  -1.8                  -3.0688e-07           -1.4e-13              3.2e-13               3.071e-07            
  -1.9                  -3.1022e-07           -1e-13                1.8e-13               3.1012e-07           
  -2                    -3.1218e-07           -3e-13                2.4e-13               3.13e-07             
  -2.1                  -3.1518e-07           -4e-13                3.4e-13               3.1572e-07           
  -2.2                  -3.181e-07            -8e-14                3.6e-13               3.1786e-07           
  -2.3                  -3.2062e-07           -1.2e-13              4.2e-13               3.2088e-07           
  -2.4                  -3.2364e-07           1e-13                 6.4e-13               3.2388e-07           
  -2.5                  -3.2634e-07           -2.8e-13              1.16e-12              3.2626e-07           
  -2.6                  -3.2898e-07           -3.4e-13              2.44e-12              3.2898e-07           
  -2.7                  -3.3106e-07           -2.4e-13              4.52e-12              3.315e-07            
  -2.8                  -3.3436e-07           -8e-14                8.18e-12              3.3444e-07           
  -2.9                  -3.3654e-07           -6e-14                1.496e-11             3.3666e-07           
  -3                    -3.3926e-07           4e-14                 2.658e-11             3.391e-07            
  -3.1                  -3.4144e-07           6e-14                 4.596e-11             3.4202e-07           
  -3.2                  -3.4454e-07           4e-14                 7.782e-11             3.4472e-07           
  -3.3                  -3.4734e-07           8e-14                 1.2938e-10            3.473e-07            
  -3.4                  -3.498e-07            0                     2.1092e-10            3.4978e-07           
  -3.5                  -3.5202e-07           -1.2e-13              3.3706e-10            3.5282e-07           
  -3.6                  -3.5498e-07           -8e-14                5.2974e-10            3.5484e-07           
END_DB

BEGIN_DB
 ICCAP_VAR vg         -2.313         
 ICCAP_VAR vb         3.6            
 ICCAP_VAR vs         -0             

 #vd                    id                    ig                    ib                    is                   
  -0                    7.0874e-10            -2.2e-13              2.2e-13               -7.1116e-10          
  -0.1                  -1.2104e-06           -2.6e-13              2.8e-13               1.2138e-06           
  -0.2                  -2.1374e-06           -2.4e-13              2.4e-13               2.1414e-06           
  -0.3                  -2.7922e-06           -1.6e-13              1.8e-13               2.7962e-06           
  -0.4                  -3.213e-06            -8e-14                8e-14                 3.215e-06            
  -0.5                  -3.4586e-06           -4e-14                -2e-14                3.4614e-06           
  -0.6                  -3.601e-06            -3.2e-13              1e-13                 3.6038e-06           
  -0.7                  -3.6848e-06           -4.2e-13              1e-13                 3.6882e-06           
  -0.8                  -3.7442e-06           2e-14                 6e-14                 3.7478e-06           
  -0.9                  -3.7944e-06           -1.6e-13              -6e-14                3.793e-06            
  -1                    -3.8292e-06           -4e-13                0                     3.8346e-06           
  -1.1                  -3.863e-06            -1.4e-13              -2e-14                3.8656e-06           
  -1.2                  -3.8954e-06           6e-14                 6e-14                 3.899e-06            
  -1.3                  -3.9214e-06           -3.2e-13              -4e-14                3.928e-06            
  -1.4                  -3.949e-06            -3e-13                4e-14                 3.956e-06            
  -1.5                  -3.9748e-06           -2e-14                -6e-14                3.9774e-06           
  -1.6                  -3.9988e-06           0                     -1.6e-13              4.0014e-06           
  -1.7                  -4.0196e-06           -1.8e-13              -6e-14                4.0244e-06           
  -1.8                  -4.042e-06            0                     6e-14                 4.0476e-06           
  -1.9                  -4.0638e-06           -1.2e-13              0                     4.0678e-06           
  -2                    -4.0842e-06           -2.8e-13              -8e-14                4.0906e-06           
  -2.1                  -4.1034e-06           0                     4e-14                 4.1082e-06           
  -2.2                  -4.1254e-06           -2.4e-13              0                     4.1286e-06           
  -2.3                  -4.1444e-06           -1.6e-13              1.2e-13               4.1502e-06           
  -2.4                  -4.1646e-06           1.4e-13               3.6e-13               4.1692e-06           
  -2.5                  -4.1838e-06           0                     9.8e-13               4.1856e-06           
  -2.6                  -4.2004e-06           -2.6e-13              2.36e-12              4.2062e-06           
  -2.7                  -4.2206e-06           3e-13                 5.34e-12              4.2214e-06           
  -2.8                  -4.2364e-06           1.8e-13               1.134e-11             4.2394e-06           
  -2.9                  -4.2558e-06           -4.4e-13              2.308e-11             4.2582e-06           
  -3                    -4.2742e-06           -3.4e-13              4.484e-11             4.2756e-06           
  -3.1                  -4.2928e-06           -1e-13                8.498e-11             4.2944e-06           
  -3.2                  -4.3098e-06           6e-14                 1.5572e-10            4.3284e-06           
  -3.3                  -4.351e-06            -1.4e-13              2.7774e-10            4.3566e-06           
  -3.4                  -4.3674e-06           -1e-13                4.8488e-10            4.3684e-06           
  -3.5                  -4.3874e-06           -1.6e-13              8.216e-10             4.3706e-06           
  -3.6                  -4.3734e-06           -4e-14                1.3644e-09            4.3776e-06           
END_DB

BEGIN_DB
 ICCAP_VAR vg         -2.742         
 ICCAP_VAR vb         3.6            
 ICCAP_VAR vs         -0             

 #vd                    id                    ig                    ib                    is                   
  -0                    1.2252e-09            -3.6e-13              1.6e-13               -1.0974e-09          
  -0.1                  -2.161e-06            -6e-14                8e-14                 2.1648e-06           
  -0.2                  -4.0642e-06           -4.4e-13              1.4e-13               4.068e-06            
  -0.3                  -5.6978e-06           -2.4e-13              6e-14                 5.7018e-06           
  -0.4                  -7.0602e-06           -1.8e-13              0                     7.0638e-06           
  -0.5                  -8.1646e-06           -1.6e-13              -1e-13                8.1684e-06           
  -0.6                  -9.025e-06            -1.4e-13              -4e-14                9.0292e-06           
  -0.7                  -9.6684e-06           -3.4e-13              2e-14                 9.6726e-06           
  -0.8                  -1.0133e-05           -3e-13                6e-14                 1.01372e-05          
  -0.9                  -1.04588e-05          -2.2e-13              -2e-14                1.04626e-05          
  -1                    -1.068e-05            -1.4e-13              -2e-14                1.06792e-05          
  -1.1                  -1.0834e-05           -1e-13                2e-14                 1.08454e-05          
  -1.2                  -1.096e-05            1.8e-13               -4e-14                1.09726e-05          
  -1.3                  -1.1062e-05           -2e-14                0                     1.10756e-05          
  -1.4                  -1.115e-05            -1.6e-13              -1.6e-13              1.1163e-05           
  -1.5                  -1.1228e-05           -8e-14                2e-14                 1.12416e-05          
  -1.6                  -1.1298e-05           4e-14                 0                     1.13114e-05          
  -1.7                  -1.1362e-05           1e-13                 -1.2e-13              1.13754e-05          
  -1.8                  -1.1422e-05           8e-14                 -6e-14                1.14328e-05          
  -1.9                  -1.1476e-05           4e-14                 0                     1.14882e-05          
  -2                    -1.152e-05            -2e-14                -1.4e-13              1.1538e-05           
  -2.1                  -1.1572e-05           -1.4e-13              -4e-14                1.1598e-05           
  -2.2                  -1.1626e-05           6e-14                 -1.6e-13              1.1646e-05           
  -2.3                  -1.1676e-05           -2.4e-13              -8e-14                1.1694e-05           
  -2.4                  -1.1722e-05           -3e-13                -6e-14                1.1742e-05           
  -2.5                  -1.1768e-05           -1.2e-13              1.2e-13               1.1782e-05           
  -2.6                  -1.1808e-05           8e-14                 3.8e-13               1.1826e-05           
  -2.7                  -1.185e-05            -1.4e-13              1.04e-12              1.187e-05            
  -2.8                  -1.189e-05            2e-14                 3.04e-12              1.191e-05            
  -2.9                  -1.1932e-05           -1.4e-13              7.14e-12              1.195e-05            
  -3                    -1.1972e-05           -6e-14                1.58e-11              1.1992e-05           
  -3.1                  -1.2012e-05           -1.6e-13              3.312e-11             1.203e-05            
  -3.2                  -1.2052e-05           -1.2e-13              6.618e-11             1.207e-05            
  -3.3                  -1.209e-05            -1e-13                1.2758e-10            1.2108e-05           
  -3.4                  -1.212e-05            -1.2e-13              2.3816e-10            1.2144e-05           
  -3.5                  -1.216e-05            -1.4e-13              4.3358e-10            1.218e-05            
  -3.6                  -1.22e-05             -2e-13                7.649e-10             1.218e-05            
END_DB

BEGIN_DB
 ICCAP_VAR vg         -3.171         
 ICCAP_VAR vb         3.6            
 ICCAP_VAR vs         -0             

 #vd                    id                    ig                    ib                    is                   
  -0                    1.5398e-09            -4.4e-13              1.4e-13               -1.3272e-09          
  -0.1                  -2.9784e-06           -3.8e-13              1e-13                 2.983e-06            
  -0.2                  -5.73e-06             -2.2e-13              0                     5.7332e-06           
  -0.3                  -8.2292e-06           -6e-14                1.2e-13               8.2322e-06           
  -0.4                  -1.04702e-05          -1.6e-13              4e-14                 1.04688e-05          
  -0.5                  -1.2446e-05           -3e-13                6e-14                 1.2462e-05           
  -0.6                  -1.4164e-05           -1.6e-13              2e-14                 1.419e-05            
  -0.7                  -1.5636e-05           -1e-13                -1e-13                1.566e-05            
  -0.8                  -1.687e-05            -2.4e-13              -8e-14                1.6898e-05           
  -0.9                  -1.7886e-05           -2.8e-13              0                     1.791e-05            
  -1                    -1.8692e-05           -3e-13                -2e-14                1.8712e-05           
  -1.1                  -1.9332e-05           -1e-13                -8e-14                1.935e-05            
  -1.2                  -1.9822e-05           -1.4e-13              -1.6e-13              1.9856e-05           
  -1.3                  -2.0238e-05           -2e-13                -4e-14                2.026e-05            
  -1.4                  -2.0536e-05           -1.4e-13              -4e-14                2.0554e-05           
  -1.5                  -2.077e-05            -1.6e-13              -1e-13                2.0788e-05           
  -1.6                  -2.0962e-05           -6e-14                -1.2e-13              2.0982e-05           
  -1.7                  -2.1118e-05           -4.2e-13              -1.6e-13              2.114e-05            
  -1.8                  -2.1254e-05           -2.4e-13              -8e-14                2.1272e-05           
  -1.9                  -2.1384e-05           -8e-14                -2e-13                2.1402e-05           
  -2                    -2.1496e-05           -2.6e-13              -2.8e-13              2.153e-05            
  -2.1                  -2.1606e-05           -2.8e-13              -1.6e-13              2.1632e-05           
  -2.2                  -2.1702e-05           -8e-14                -4e-14                2.1714e-05           
  -2.3                  -2.178e-05            -1e-13                -2.4e-13              2.1806e-05           
  -2.4                  -2.1868e-05           -1.8e-13              -1.6e-13              2.1884e-05           
  -2.5                  -2.1952e-05           -1.2e-13              -1.2e-13              2.1968e-05           
  -2.6                  -2.2024e-05           -1.6e-13              -8e-14                2.2042e-05           
  -2.7                  -2.2102e-05           -6e-14                8e-14                 2.2122e-05           
  -2.8                  -2.217e-05            -1.4e-13              4e-13                 2.2188e-05           
  -2.9                  -2.2242e-05           4e-14                 1.22e-12              2.2264e-05           
  -3                    -2.2306e-05           1.6e-13               3.12e-12              2.2332e-05           
  -3.1                  -2.2384e-05           1.8e-13               7.6e-12               2.24e-05             
  -3.2                  -2.2454e-05           1e-13                 1.714e-11             2.2472e-05           
  -3.3                  -2.2512e-05           -1.4e-13              3.684e-11             2.2528e-05           
  -3.4                  -2.2576e-05           -1.4e-13              7.454e-11             2.2596e-05           
  -3.5                  -2.2634e-05           0                     1.4562e-10            2.266e-05            
  -3.6                  -2.2698e-05           -8e-14                2.7594e-10            2.2704e-05           
END_DB

BEGIN_DB
 ICCAP_VAR vg         -3.6           
 ICCAP_VAR vb         3.6            
 ICCAP_VAR vs         -0             

 #vd                    id                    ig                    ib                    is                   
  -0                    1.761e-09             -3.4e-13              1.4e-13               -1.497e-09           
  -0.1                  -3.705e-06            -6e-14                -4e-14                3.707e-06            
  -0.2                  -7.2024e-06           -2.8e-13              4e-14                 7.2042e-06           
  -0.3                  -1.04498e-05          -1.8e-13              -4e-14                1.04616e-05          
  -0.4                  -1.3466e-05           -6e-14                6e-14                 1.3486e-05           
  -0.5                  -1.6242e-05           -3.2e-13              2e-14                 1.626e-05            
  -0.6                  -1.8764e-05           -2.2e-13              -6e-14                1.8784e-05           
  -0.7                  -2.1032e-05           8e-14                 -1e-13                2.105e-05            
  -0.8                  -2.3052e-05           -2.2e-13              -4e-14                2.3072e-05           
