! VERSION = 6.00
BEGIN_HEADER
 ICCAP_INPUTS
  vg         V  G GROUND SMU2 0.001 LIN        1    0.5        -3.6       83   -0.05     
  vb         V  B GROUND SMU4 0.1 LIN        2    0          3.6        5    0.9       
  vd         V  D GROUND SMU1 0.1 LIN        3    -0.1       -3.3       3    -1.6      
  vs         V  S GROUND SMU3 0.1 CON        -0
 ICCAP_OUTPUTS
  id         I  D GROUND SMU1 B
  ig         I  G GROUND SMU2 B
  ib         I  B GROUND SMU4 B
  is         I  S GROUND SMU3 B
 ICCAP_VALUES
  MASTER_SETUP_TYPE "~dc_idvg~"
  LINVT_VALUE ""
  LISTVT_VALUE ""
  TYPE "-1"
  TEMP " 70.0000 "
  IS_TNOM " 0.00000 "
  MAIN.W "300.0n"
  MAIN.L "350.0n"
  MAIN.AD "102.0f"
  MAIN.AS "102.0f"
  MAIN.PD "1.280u"
  MAIN.PS "1.280u"
  MAIN.NF "1.000"
  MAIN.M "1"
  MAIN.NRD "0.000"
  MAIN.NRS "0.000"
  MAIN.LDRIFT1 "1E-06"
  MAIN.LDRIFT2 "1E-06"
  MAIN.SA "0.000"
  MAIN.SB "0.000"
  MAIN.SD "0.000"
  MAIN.SCA "0.000"
  MAIN.SCB "0.000"
  MAIN.SCC "0.000"
  MAIN.SC "0.000"
  MODULE "S565"
  PIN_D "16"
  PIN_G "5"
  PIN_S "6"
  PIN_B "15"
  PIN_E ""
  PIN_6 ""
  XY_ID ""
  FUNC "Small"
  STI "SA ref"
  WPE "WPE ref"
  COMMENT ""
  DIS_MEAS ""
  TypeTCI "10"
END_HEADER

BEGIN_DB
 ICCAP_VAR vb         0              
 ICCAP_VAR vd         -0.1           
 ICCAP_VAR vs         -0             

 #vg                    id                    ig                    ib                    is                   
  0.5                   -4e-13                6.3782e-10            -5.367e-10            -6e-14               
  0.45                  -2e-14                1.1906e-10            -2.4662e-10           2e-13                
  0.4                   4e-14                 2.246e-11             -1.4194e-10           3.2e-13              
  0.35                  1e-13                 4.42e-12              -9.852e-11            2.2e-13              
  0.3                   6e-14                 9e-13                 -7.618e-11            3.4e-13              
  0.25                  1.4e-13               2e-13                 -6.256e-11            2.6e-13              
  0.2                   6e-14                 -4e-14                -5.328e-11            1.4e-13              
  0.15                  1.6e-13               -2e-14                -4.672e-11            3.6e-13              
  0.1                   4e-14                 -1.2e-13              -4.15e-11             1.2e-13              
  0.05                  0                     -2e-14                -3.746e-11            3.4e-13              
  0                     -1.6e-13              -4e-14                -3.422e-11            7.6e-13              
  -0.05                 -9.8e-13              -1.8e-13              -3.13e-11             1.2e-12              
  -0.1                  -2.88e-12             -1.8e-13              -2.888e-11            3.3e-12              
  -0.15                 -8.48e-12             -3e-13                -2.684e-11            8.76e-12             
  -0.2                  -2.452e-11            -2.6e-13              -2.484e-11            2.46e-11             
  -0.25                 -7.036e-11            -3e-13                -2.336e-11            7.092e-11            
  -0.3                  -2.0274e-10           -4.2e-13              -2.17e-11             2.0304e-10           
  -0.35                 -5.8606e-10           -3e-13                -2.046e-11            5.8578e-10           
  -0.4                  -1.6798e-09           -2.2e-13              -1.818e-11            1.6792e-09           
  -0.45                 -4.7556e-09           -2.4e-13              -1.706e-11            4.7418e-09           
  -0.5                  -1.314e-08            -3.6e-13              -1.594e-11            1.3154e-08           
  -0.55                 -3.4358e-08           -3.6e-13              -1.514e-11            3.4378e-08           
  -0.6                  -8.0946e-08           -3.4e-13              -1.426e-11            8.0776e-08           
  -0.65                 -1.662e-07            -3.8e-13              -1.35e-11             1.6604e-07           
  -0.7                  -2.9522e-07           -5.2e-13              -1.27e-11             2.953e-07            
  -0.75                 -4.6336e-07           -5.2e-13              -1.206e-11            4.632e-07            
  -0.8                  -6.5562e-07           -5.6e-13              -1.14e-11             6.5662e-07           
  -0.85                 -8.6396e-07           -3.8e-13              -1.072e-11            8.6458e-07           
  -0.9                  -1.07696e-06          -5.4e-13              -1.012e-11            1.07668e-06          
  -0.95                 -1.29e-06             -3.8e-13              -9.32e-12             1.2936e-06           
  -1                    -1.5018e-06           -4.2e-13              -8.88e-12             1.5044e-06           
  -1.05                 -1.7106e-06           -5.6e-13              -8.3e-12              1.7134e-06           
  -1.1                  -1.914e-06            -6e-13                -7.94e-12             1.9172e-06           
  -1.15                 -2.1136e-06           -4.6e-13              -7.6e-12              2.1168e-06           
  -1.2                  -2.3042e-06           -6e-13                -7.22e-12             2.3072e-06           
  -1.25                 -2.4932e-06           -6e-13                -6.76e-12             2.4962e-06           
  -1.3                  -2.6784e-06           -6.8e-13              -6.36e-12             2.6816e-06           
  -1.35                 -2.8588e-06           -6.2e-13              -6.04e-12             2.8612e-06           
  -1.4                  -3.0352e-06           -7e-13                -5.62e-12             3.0388e-06           
  -1.45                 -3.207e-06            -6.6e-13              -5.42e-12             3.2104e-06           
  -1.5                  -3.376e-06            -6.2e-13              -5.02e-12             3.379e-06            
  -1.55                 -3.5402e-06           -7e-13                -4.72e-12             3.5432e-06           
  -1.6                  -3.7018e-06           -6.4e-13              -4.5e-12              3.7048e-06           
  -1.65                 -3.8594e-06           -7.4e-13              -4.22e-12             3.8622e-06           
  -1.7                  -4.0134e-06           -6.4e-13              -3.9e-12              4.0168e-06           
  -1.75                 -4.1648e-06           -6.8e-13              -3.66e-12             4.1682e-06           
  -1.8                  -4.3132e-06           -8e-13                -3.54e-12             4.3162e-06           
  -1.85                 -4.4584e-06           -6e-13                -3.26e-12             4.4612e-06           
  -1.9                  -4.6006e-06           -7e-13                -3e-12                4.6034e-06           
  -1.95                 -4.7406e-06           -7.4e-13              -2.84e-12             4.7434e-06           
  -2                    -4.8774e-06           -7.2e-13              -2.74e-12             4.8806e-06           
  -2.05                 -5.0122e-06           -5.8e-13              -2.56e-12             5.0154e-06           
  -2.1                  -5.1444e-06           -6.6e-13              -2.3e-12              5.1478e-06           
  -2.15                 -5.2738e-06           -8.2e-13              -2.12e-12             5.2776e-06           
  -2.2                  -5.4024e-06           -8.2e-13              -1.92e-12             5.4044e-06           
  -2.25                 -5.527e-06            -7.8e-13              -1.74e-12             5.529e-06            
  -2.3                  -5.6504e-06           -6.8e-13              -1.64e-12             5.6532e-06           
  -2.35                 -5.7702e-06           -7e-13                -1.42e-12             5.7724e-06           
  -2.4                  -5.8894e-06           -8.6e-13              -1.42e-12             5.8898e-06           
  -2.45                 -6.0044e-06           -6.8e-13              -1.06e-12             6.0082e-06           
  -2.5                  -6.1192e-06           -8e-13                -1.12e-12             6.1232e-06           
  -2.55                 -6.2332e-06           -7.4e-13              -8e-13                6.2344e-06           
  -2.6                  -6.3422e-06           -7.8e-13              -6.4e-13              6.3452e-06           
  -2.65                 -6.4514e-06           -7.6e-13              -5.8e-13              6.4534e-06           
  -2.7                  -6.5536e-06           -7.8e-13              -4.4e-13              6.5576e-06           
  -2.75                 -6.6606e-06           -7.6e-13              -3.6e-13              6.6582e-06           
  -2.8                  -6.7562e-06           -9e-13                -3.4e-13              6.7606e-06           
  -2.85                 -6.8576e-06           -8e-13                0                     6.8608e-06           
  -2.9                  -6.9594e-06           -8.6e-13              4e-14                 6.958e-06            
  -2.95                 -7.0538e-06           -8.4e-13              4e-14                 7.0586e-06           
  -3                    -7.1506e-06           -8.2e-13              2.2e-13               7.1538e-06           
  -3.05                 -7.249e-06            -8.8e-13              1.6e-13               7.2508e-06           
  -3.1                  -7.3426e-06           -7.4e-13              4.6e-13               7.3426e-06           
  -3.15                 -7.4352e-06           -8.6e-13              4.6e-13               7.4338e-06           
  -3.2                  -7.5244e-06           -8.6e-13              5.2e-13               7.5326e-06           
  -3.25                 -7.6204e-06           -6.8e-13              6.2e-13               7.618e-06            
  -3.3                  -7.7028e-06           -8e-13                7e-13                 7.7086e-06           
  -3.35                 -7.7942e-06           -8.6e-13              9e-13                 7.7936e-06           
  -3.4                  -7.8778e-06           -8.6e-13              9e-13                 7.8844e-06           
  -3.45                 -7.9656e-06           -7.8e-13              1.06e-12              7.9672e-06           
  -3.5                  -8.0498e-06           -8.4e-13              1.12e-12              8.0514e-06           
  -3.55                 -8.1332e-06           -9.2e-13              1.2e-12               8.138e-06            
  -3.6                  -8.2174e-06           -8.6e-13              1.38e-12              8.2188e-06           
END_DB

BEGIN_DB
 ICCAP_VAR vb         0.9            
 ICCAP_VAR vd         -0.1           
 ICCAP_VAR vs         -0             

 #vg                    id                    ig                    ib                    is                   
  0.5                   -1e-13                8e-13                 9.1e-12               0                    
  0.45                  -4e-14                4.2e-13               8.96e-12              2.2e-13              
  0.4                   -4e-14                2.8e-13               8.98e-12              -2e-14               
  0.35                  4e-14                 2.4e-13               8.96e-12              2e-13                
  0.3                   -4e-14                2.4e-13               8.98e-12              4e-14                
  0.25                  6e-14                 1.2e-13               8.96e-12              4e-14                
  0.2                   2e-14                 0                     8.88e-12              6e-14                
  0.15                  -4e-14                2e-14                 8.88e-12              1.4e-13              
  0.1                   4e-14                 2e-14                 8.8e-12               2e-13                
  0.05                  -6e-14                0                     8.86e-12              1.2e-13              
  0                     6e-14                 -6e-14                8.7e-12               2e-13                
  -0.05                 2e-14                 -2.4e-13              8.8e-12               4e-14                
  -0.1                  4e-14                 -1.8e-13              8.7e-12               3.6e-13              
  -0.15                 0                     -1.6e-13              8.8e-12               2e-14                
  -0.2                  -2e-14                -2.4e-13              8.9e-12               0                    
  -0.25                 2e-14                 -2.4e-13              8.7e-12               2.8e-13              
  -0.3                  -1e-13                -1.8e-13              8.78e-12              6e-14                
  -0.35                 0                     -3.2e-13              8.7e-12               1.4e-13              
  -0.4                  -3.2e-13              -4e-13                8.9e-12               1.6e-13              
  -0.45                 -7.2e-13              -3.4e-13              8.84e-12              9e-13                
  -0.5                  -2.54e-12             -2e-13                8.8e-12               2.58e-12             
  -0.55                 -8.6e-12              -2.8e-13              8.84e-12              8.64e-12             
  -0.6                  -2.866e-11            -3.6e-13              8.8e-12               2.872e-11            
  -0.65                 -9.39e-11             -3.4e-13              8.78e-12              9.404e-11            
  -0.7                  -3.05e-10             -3.6e-13              8.76e-12              3.0524e-10           
  -0.75                 -9.7982e-10           -4.2e-13              8.66e-12              9.804e-10            
  -0.8                  -3.0972e-09           -2.6e-13              8.72e-12              3.0972e-09           
  -0.85                 -9.5036e-09           -3.2e-13              8.86e-12              9.5072e-09           
  -0.9                  -2.6856e-08           -4.4e-13              8.62e-12              2.6912e-08           
  -0.95                 -6.7586e-08           -4.4e-13              8.72e-12              6.7456e-08           
  -1                    -1.4424e-07           -4.8e-13              8.66e-12              1.4438e-07           
  -1.05                 -2.6332e-07           -5.2e-13              8.68e-12              2.637e-07            
  -1.1                  -4.1866e-07           -5.2e-13              8.68e-12              4.1936e-07           
  -1.15                 -6.0058e-07           -4.4e-13              8.62e-12              6.0054e-07           
  -1.2                  -7.9516e-07           -6.2e-13              8.76e-12              7.9554e-07           
  -1.25                 -9.961e-07            -4e-13                8.68e-12              9.9622e-07           
  -1.3                  -1.1968e-06           -4.4e-13              8.62e-12              1.2e-06              
  -1.35                 -1.3964e-06           -5.8e-13              8.54e-12              1.399e-06            
  -1.4                  -1.5926e-06           -5.2e-13              8.68e-12              1.5956e-06           
  -1.45                 -1.7836e-06           -5.8e-13              8.68e-12              1.787e-06            
  -1.5                  -1.9718e-06           -5.6e-13              8.72e-12              1.9748e-06           
  -1.55                 -2.1544e-06           -4.8e-13              8.6e-12               2.1574e-06           
  -1.6                  -2.3332e-06           -5e-13                8.62e-12              2.3364e-06           
  -1.65                 -2.5076e-06           -6e-13                8.74e-12              2.5108e-06           
  -1.7                  -2.6776e-06           -6e-13                8.64e-12              2.6808e-06           
  -1.75                 -2.844e-06            -5.2e-13              8.66e-12              2.8472e-06           
  -1.8                  -3.006e-06            -7e-13                8.66e-12              3.009e-06            
  -1.85                 -3.1644e-06           -5.6e-13              8.78e-12              3.1676e-06           
  -1.9                  -3.319e-06            -6e-13                8.58e-12              3.3222e-06           
  -1.95                 -3.471e-06            -5.6e-13              8.7e-12               3.474e-06            
  -2                    -3.6166e-06           -6.6e-13              8.72e-12              3.6196e-06           
  -2.05                 -3.7618e-06           -8e-13                8.7e-12               3.765e-06            
  -2.1                  -3.9046e-06           -5e-13                8.8e-12               3.908e-06            
  -2.15                 -4.0446e-06           -7.6e-13              8.64e-12              4.0476e-06           
  -2.2                  -4.1816e-06           -6.6e-13              8.8e-12               4.1846e-06           
  -2.25                 -4.316e-06            -7.4e-13              8.62e-12              4.3192e-06           
  -2.3                  -4.4488e-06           -7e-13                8.64e-12              4.4516e-06           
  -2.35                 -4.578e-06            -7.8e-13              8.72e-12              4.5808e-06           
  -2.4                  -4.705e-06            -7.6e-13              8.62e-12              4.7084e-06           
  -2.45                 -4.8302e-06           -7.8e-13              8.66e-12              4.8322e-06           
  -2.5                  -4.9532e-06           -7.8e-13              8.64e-12              4.956e-06            
  -2.55                 -5.0726e-06           -7.2e-13              8.64e-12              5.0764e-06           
  -2.6                  -5.1884e-06           -6.8e-13              8.62e-12              5.1946e-06           
  -2.65                 -5.3074e-06           -7.8e-13              8.72e-12              5.3112e-06           
  -2.7                  -5.4212e-06           -7.2e-13              8.66e-12              5.4234e-06           
  -2.75                 -5.5328e-06           -6.4e-13              8.76e-12              5.5378e-06           
  -2.8                  -5.6446e-06           -8.2e-13              8.58e-12              5.644e-06            
  -2.85                 -5.7524e-06           -6e-13                8.82e-12              5.756e-06            
  -2.9                  -5.8598e-06           -8.6e-13              8.64e-12              5.8612e-06           
  -2.95                 -5.9618e-06           -7.6e-13              8.64e-12              5.9618e-06           
  -3                    -6.065e-06            -6.6e-13              8.74e-12              6.0672e-06           
  -3.05                 -6.1688e-06           -8.4e-13              8.6e-12               6.1736e-06           
  -3.1                  -6.265e-06            -7.4e-13              8.68e-12              6.268e-06            
  -3.15                 -6.3624e-06           -9e-13                8.72e-12              6.3632e-06           
  -3.2                  -6.4564e-06           -8.4e-13              8.68e-12              6.4572e-06           
  -3.25                 -6.5524e-06           -8e-13                8.62e-12              6.5542e-06           
  -3.3                  -6.6452e-06           -9e-13                8.68e-12              6.6486e-06           
  -3.35                 -6.735e-06            -7.8e-13              8.68e-12              6.7392e-06           
  -3.4                  -6.8286e-06           -9e-13                8.56e-12              6.8358e-06           
  -3.45                 -6.9182e-06           -8.2e-13              8.68e-12              6.9214e-06           
