! VERSION = 6.00
BEGIN_HEADER
 ICCAP_INPUTS
  vd         V  D GROUND SMU1 0.1 LIN        1    -0         -3.6       37   -0.1      
  vg         V  G GROUND SMU2 0.001 LIST       2 3 -1.714 -1.914 -2.114
  vb         V  B GROUND SMU4 0.1 CON        3.6
  vs         V  S GROUND SMU3 0.1 CON        -0
 ICCAP_OUTPUTS
  id         I  D GROUND SMU1 B
  ig         I  G GROUND SMU2 B
  ib         I  B GROUND SMU4 B
  is         I  S GROUND SMU3 B
 ICCAP_VALUES
  MASTER_SETUP_TYPE "~dc_idvd~"
  LINVT_VALUE ""
  LISTVT_VALUE "|idvg|100.0n|-200.0m|1.000m|3|200.0m|200.0m|"
  TYPE "-1"
  TEMP "-40.0000 "
  IS_TNOM " 0.00000 "
  MAIN.W "300.0n"
  MAIN.L "10.00u"
  MAIN.AD "102.0f"
  MAIN.AS "102.0f"
  MAIN.PD "1.280u"
  MAIN.PS "1.280u"
  MAIN.NF "1.000"
  MAIN.M "1"
  MAIN.NRD "0.000"
  MAIN.NRS "0.000"
  MAIN.LDRIFT1 "1E-06"
  MAIN.LDRIFT2 "1E-06"
  MAIN.SA "0.000"
  MAIN.SB "0.000"
  MAIN.SD "0.000"
  MAIN.SCA "0.000"
  MAIN.SCB "0.000"
  MAIN.SCC "0.000"
  MAIN.SC "0.000"
  MODULE "S555"
  PIN_D "14"
  PIN_G "7"
  PIN_S "8"
  PIN_B "13"
  PIN_E ""
  PIN_6 ""
  XY_ID ""
  FUNC "Narrow"
  STI "SA ref"
  WPE "WPE ref"
  COMMENT ""
  DIS_MEAS ""
  TypeTCI "10"
END_HEADER

BEGIN_DB
 ICCAP_VAR vg         -1.714         
 ICCAP_VAR vb         3.6            
 ICCAP_VAR vs         -0             

 #vd                    id                    ig                    ib                    is                   
  -0                    5e-13                 -1.6e-13              5e-13                 1.8e-13              
  -0.1                  -8.4e-12              -4e-14                4.2e-13               8.38e-12             
  -0.2                  -8.42e-12             0                     3.8e-13               8.36e-12             
  -0.3                  -8.46e-12             1.6e-13               2.4e-13               8.42e-12             
  -0.4                  -8.66e-12             1.2e-13               2.8e-13               8.46e-12             
  -0.5                  -8.66e-12             4e-14                 6e-14                 8.48e-12             
  -0.6                  -8.68e-12             1.6e-13               1.8e-13               8.24e-12             
  -0.7                  -8.74e-12             1.2e-13               1e-13                 8.54e-12             
  -0.8                  -8.82e-12             1.8e-13               1.4e-13               8.52e-12             
  -0.9                  -8.82e-12             2e-13                 0                     8.24e-12             
  -1                    -8.86e-12             1.4e-13               0                     8.54e-12             
  -1.1                  -8.9e-12              1.4e-13               4e-14                 8.54e-12             
  -1.2                  -8.98e-12             2e-14                 2e-14                 8.68e-12             
  -1.3                  -8.9e-12              1.6e-13               8e-14                 8.34e-12             
  -1.4                  -8.98e-12             2.4e-13               8e-14                 8.36e-12             
  -1.5                  -9.06e-12             1e-13                 4e-14                 8.4e-12              
  -1.6                  -8.96e-12             1e-13                 6e-14                 8.52e-12             
  -1.7                  -9.02e-12             6e-14                 -4e-14                8.56e-12             
  -1.8                  -9.08e-12             2.8e-13               4e-14                 8.28e-12             
  -1.9                  -9.1e-12              0                     -8e-14                8.58e-12             
  -2                    -9.16e-12             6e-14                 -1.2e-13              8.6e-12              
  -2.1                  -9.18e-12             1.8e-13               6e-14                 8.4e-12              
  -2.2                  -9.02e-12             0                     -8e-14                8.5e-12              
  -2.3                  -9.2e-12              1e-13                 0                     8.54e-12             
  -2.4                  -9.08e-12             -2e-14                -4e-14                8.6e-12              
  -2.5                  -9.24e-12             0                     -1e-13                8.5e-12              
  -2.6                  -9.22e-12             6e-14                 -8e-14                8.44e-12             
  -2.7                  -9.12e-12             -1e-13                -8e-14                8.38e-12             
  -2.8                  -9.22e-12             0                     0                     8.5e-12              
  -2.9                  -9.32e-12             8e-14                 0                     8.46e-12             
  -3                    -9.16e-12             1e-13                 -4e-14                8.32e-12             
  -3.1                  -9.3e-12              1.6e-13               -1.6e-13              8.46e-12             
  -3.2                  -9.3e-12              8e-14                 -8e-14                8.44e-12             
  -3.3                  -9.34e-12             2e-14                 -4e-14                8.28e-12             
  -3.4                  -9.3e-12              1e-13                 0                     8.34e-12             
  -3.5                  -9.3e-12              6e-14                 -1.4e-13              8.46e-12             
  -3.6                  -9.38e-12             1.4e-13               -8e-14                8.38e-12             
END_DB

BEGIN_DB
 ICCAP_VAR vg         -1.914         
 ICCAP_VAR vb         3.6            
 ICCAP_VAR vs         -0             

 #vd                    id                    ig                    ib                    is                   
  -0                    4.26e-12              1e-13                 8e-14                 -3.36e-12            
  -0.1                  -2.958e-09            -1.2e-13              8e-14                 2.959e-09            
  -0.2                  -3.12e-09             8e-14                 -2e-14                3.121e-09            
  -0.3                  -3.1232e-09           1.2e-13               -4e-14                3.1236e-09           
  -0.4                  -3.1234e-09           -1.6e-13              4e-14                 3.1246e-09           
  -0.5                  -3.1248e-09           -2e-14                -1.2e-13              3.1232e-09           
  -0.6                  -3.124e-09            8e-14                 2e-14                 3.125e-09            
  -0.7                  -3.1254e-09           4e-14                 -1e-13                3.1252e-09           
  -0.8                  -3.1254e-09           8e-14                 -6e-14                3.1254e-09           
  -0.9                  -3.1252e-09           1.6e-13               0                     3.1256e-09           
  -1                    -3.1258e-09           1e-13                 -4e-14                3.1262e-09           
  -1.1                  -3.1266e-09           -6e-14                -8e-14                3.1258e-09           
  -1.2                  -3.1272e-09           4e-14                 0                     3.1244e-09           
  -1.3                  -3.1266e-09           6e-14                 -6e-14                3.1264e-09           
  -1.4                  -3.1266e-09           -8e-14                -6e-14                3.1274e-09           
  -1.5                  -3.1276e-09           -6e-14                -1.2e-13              3.1274e-09           
  -1.6                  -3.128e-09            0                     -8e-14                3.1272e-09           
  -1.7                  -3.1286e-09           -4e-14                -6e-14                3.128e-09            
  -1.8                  -3.1286e-09           0                     -1.4e-13              3.128e-09            
  -1.9                  -3.1294e-09           -6e-14                -8e-14                3.1286e-09           
  -2                    -3.1286e-09           2e-13                 -1.4e-13              3.1282e-09           
  -2.1                  -3.1288e-09           -1e-13                -1.2e-13              3.1288e-09           
  -2.2                  -3.1292e-09           4e-14                 -1e-13                3.1282e-09           
  -2.3                  -3.1294e-09           -4e-14                -1e-13                3.1292e-09           
  -2.4                  -3.1298e-09           -4e-14                -4e-14                3.129e-09            
  -2.5                  -3.1298e-09           0                     -1.8e-13              3.1284e-09           
  -2.6                  -3.1302e-09           4e-14                 -4e-14                3.1294e-09           
  -2.7                  -3.1298e-09           0                     0                     3.1288e-09           
  -2.8                  -3.131e-09            0                     -1e-13                3.13e-09             
  -2.9                  -3.1314e-09           1.2e-13               -4e-14                3.1294e-09           
  -3                    -3.1312e-09           -2e-14                0                     3.1306e-09           
  -3.1                  -3.132e-09            0                     1.4e-13               3.1306e-09           
  -3.2                  -3.132e-09            -2e-14                4.2e-13               3.1314e-09           
  -3.3                  -3.1324e-09           1.6e-13               8.4e-13               3.1304e-09           
  -3.4                  -3.1332e-09           -2e-13                1.48e-12              3.131e-09            
  -3.5                  -3.1344e-09           6e-14                 2.5e-12               3.1316e-09           
  -3.6                  -3.1364e-09           1e-13                 4.06e-12              3.1314e-09           
END_DB

BEGIN_DB
 ICCAP_VAR vg         -2.114         
 ICCAP_VAR vb         3.6            
 ICCAP_VAR vs         -0             

 #vd                    id                    ig                    ib                    is                   
  -0                    1.478e-11             4e-14                 6e-14                 -1.422e-11           
  -0.1                  -2.0164e-08           0                     8e-14                 2.0188e-08           
  -0.2                  -2.8326e-08           -1.4e-13              4e-14                 2.8352e-08           
  -0.3                  -2.983e-08            0                     6e-14                 2.986e-08            
  -0.4                  -2.9936e-08           1.2e-13               -8e-14                2.996e-08            
  -0.5                  -2.9968e-08           0                     -8e-14                2.999e-08            
  -0.6                  -2.9968e-08           1.6e-13               0                     2.9998e-08           
  -0.7                  -2.9966e-08           4e-14                 -4e-14                2.999e-08            
  -0.8                  -2.9978e-08           0                     -1.2e-13              3.0012e-08           
  -0.9                  -2.999e-08            4e-14                 0                     3.0018e-08           
  -1                    -2.9996e-08           2e-14                 -6e-14                3.0016e-08           
  -1.1                  -2.9994e-08           4e-14                 6e-14                 3.002e-08            
  -1.2                  -2.9996e-08           1.6e-13               -4e-14                3.0022e-08           
  -1.3                  -2.9994e-08           8e-14                 -1.2e-13              3.0012e-08           
  -1.4                  -2.999e-08            0                     -1.4e-13              3.001e-08            
  -1.5                  -2.9992e-08           8e-14                 -1.6e-13              3.0018e-08           
  -1.6                  -2.999e-08            2e-14                 -1.8e-13              3.0024e-08           
  -1.7                  -3e-08                0                     -6e-14                3.0024e-08           
  -1.8                  -3.0004e-08           -4e-14                -1.2e-13              3.0038e-08           
  -1.9                  -3.002e-08            -6e-14                -4e-14                3.0042e-08           
  -2                    -3.0022e-08           6e-14                 -2e-14                3.0044e-08           
  -2.1                  -3.0026e-08           -8e-14                -1.2e-13              3.0048e-08           
  -2.2                  -3.0028e-08           0                     -2.2e-13              3.0052e-08           
  -2.3                  -3.0028e-08           4e-14                 -2.4e-13              3.0052e-08           
  -2.4                  -3.0018e-08           -2e-14                -3e-13                3.0028e-08           
  -2.5                  -3e-08                -2e-14                -2.2e-13              3.0026e-08           
  -2.6                  -3.0004e-08           -4e-14                -1.6e-13              3.002e-08            
  -2.7                  -2.9996e-08           -2e-14                -2e-14                3.0032e-08           
  -2.8                  -3.0014e-08           1.2e-13               -8e-14                3.0034e-08           
  -2.9                  -3.0002e-08           -1.2e-13              8e-14                 3.0024e-08           
  -3                    -3.0006e-08           -6e-14                4e-13                 3.0032e-08           
  -3.1                  -3.001e-08            4e-14                 9.2e-13               3.003e-08            
  -3.2                  -3.0012e-08           1.2e-13               1.7e-12               3.004e-08            
  -3.3                  -3.0024e-08           1.8e-13               3.32e-12              3.0044e-08           
  -3.4                  -3.0028e-08           3e-13                 5.92e-12              3.0042e-08           
  -3.5                  -3.0032e-08           0                     1.032e-11             3.0044e-08           
  -3.6                  -3.0038e-08           4e-14                 1.75e-11              3.0042e-08           
END_DB

