! VERSION = 6.00
BEGIN_HEADER
 ICCAP_INPUTS
  vg         V  G GROUND SMU2 0.001 LIN        1    0.5        -3.6       83   -0.05     
  vb         V  B GROUND SMU4 0.1 LIN        2    0          3.6        5    0.9       
  vd         V  D GROUND SMU1 0.1 LIN        3    -0.1       -3.3       3    -1.6      
  vs         V  S GROUND SMU3 0.1 CON        -0
 ICCAP_OUTPUTS
  id         I  D GROUND SMU1 B
  ig         I  G GROUND SMU2 B
  ib         I  B GROUND SMU4 B
  is         I  S GROUND SMU3 B
 ICCAP_VALUES
  MASTER_SETUP_TYPE "~dc_idvg~"
  LINVT_VALUE ""
  LISTVT_VALUE ""
  TYPE "-1"
  TEMP " 27.0000 "
  IS_TNOM " 1.00000 "
  MAIN.W "10.00u"
  MAIN.L "350.0n"
  MAIN.AD "3.400p"
  MAIN.AS "3.400p"
  MAIN.PD "20.68u"
  MAIN.PS "20.68u"
  MAIN.NF "1.000"
  MAIN.M "1"
  MAIN.NRD "0.000"
  MAIN.NRS "0.000"
  MAIN.LDRIFT1 "1E-06"
  MAIN.LDRIFT2 "1E-06"
  MAIN.SA "0.000"
  MAIN.SB "0.000"
  MAIN.SD "0.000"
  MAIN.SCA "0.000"
  MAIN.SCB "0.000"
  MAIN.SCC "0.000"
  MAIN.SC "0.000"
  MODULE "S561"
  PIN_D "16"
  PIN_G "5"
  PIN_S "6"
  PIN_B "15"
  PIN_E ""
  PIN_6 ""
  XY_ID ""
  FUNC "Short"
  STI "SA ref"
  WPE "WPE ref"
  COMMENT ""
  DIS_MEAS ""
  TypeTCI "10"
END_HEADER

BEGIN_DB
 ICCAP_VAR vb         0              
 ICCAP_VAR vd         -0.1           
 ICCAP_VAR vs         -0             

 #vg                    id                    ig                    ib                    is                   
  0.5                   0                     1.838e-11             -4.46e-12             1.6e-13              
  0.45                  1.4e-13               2.72e-12              -6.2e-13              2.8e-13              
  0.4                   4e-14                 6e-13                 -1.2e-13              0                    
  0.35                  2e-13                 -1.2e-13              6e-14                 2.2e-13              
  0.3                   0                     8e-14                 6e-14                 6e-14                
  0.25                  8e-14                 -1e-13                4e-14                 1.4e-13              
  0.2                   6e-14                 -8e-14                8e-14                 1.2e-13              
  0.15                  6e-14                 -2.4e-13              2e-14                 1.6e-13              
  0.1                   8e-14                 -2e-13                1.6e-13               2.6e-13              
  0.05                  -6e-14                -2.2e-13              -8e-14                3.8e-13              
  0                     -4e-13                -3.4e-13              0                     5.6e-13              
  -0.05                 -1.54e-12             -2.4e-13              -6e-14                2.02e-12             
  -0.1                  -5.44e-12             -1.8e-13              2e-14                 5.7e-12              
  -0.15                 -1.846e-11            -4e-13                6e-14                 1.886e-11            
  -0.2                  -6.292e-11            -2e-13                -6e-14                6.326e-11            
  -0.25                 -2.1446e-10           -4.6e-13              -6e-14                2.1494e-10           
  -0.3                  -7.3848e-10           -2.4e-13              2e-14                 7.386e-10            
  -0.35                 -2.567e-09            -2.4e-13              -8e-14                2.5682e-09           
  -0.4                  -8.8826e-09           -4.2e-13              1.2e-13               8.88e-09             
  -0.45                 -3.0656e-08           -3.8e-13              0                     3.0674e-08           
  -0.5                  -1.03798e-07          -3.6e-13              -6e-14                1.03752e-07          
  -0.55                 -3.3692e-07           -3.4e-13              6e-14                 3.368e-07            
  -0.6                  -9.9094e-07           -4.6e-13              -4e-14                9.9164e-07           
  -0.65                 -2.5326e-06           -3.2e-13              -8e-14                2.5318e-06           
  -0.7                  -5.4488e-06           -3e-13                8e-14                 5.4518e-06           
  -0.75                 -9.9554e-06           -4.4e-13              -6e-14                9.9614e-06           
  -0.8                  -1.5756e-05           -3.4e-13              4e-14                 1.5762e-05           
  -0.85                 -2.2408e-05           -4.8e-13              -4e-14                2.2424e-05           
  -0.9                  -2.9462e-05           -4.2e-13              1.2e-13               2.9482e-05           
  -0.95                 -3.6636e-05           -5e-13                0                     3.6652e-05           
  -1                    -4.3724e-05           -4.4e-13              4e-14                 4.3752e-05           
  -1.05                 -5.0708e-05           -4.8e-13              -1.2e-13              5.0722e-05           
  -1.1                  -5.7454e-05           -5.6e-13              2e-14                 5.7478e-05           
  -1.15                 -6.404e-05            -5e-13                -2e-14                6.4048e-05           
  -1.2                  -7.0372e-05           -5.4e-13              -1e-13                7.0388e-05           
  -1.25                 -7.6542e-05           -5.8e-13              2e-14                 7.6548e-05           
  -1.3                  -8.2516e-05           -3.8e-13              -2e-14                8.253e-05            
  -1.35                 -8.83e-05             -5.4e-13              -2e-14                8.8298e-05           
  -1.4                  -9.3914e-05           -6e-13                2e-14                 9.3934e-05           
  -1.45                 -9.9358e-05           -5.2e-13              2e-14                 9.9372e-05           
  -1.5                  -0.000104674          -5e-13                2e-14                 0.000104696          
  -1.55                 -0.000109822          -6.2e-13              -2e-14                0.000109826          
  -1.6                  -0.000114856          -5.2e-13              1e-13                 0.000114862          
  -1.65                 -0.00011954           -5.4e-13              -8e-14                0.0001199            
  -1.7                  -0.0001243            -5e-13                1e-13                 0.00012466           
  -1.75                 -0.00012898           -5.2e-13              -8e-14                0.00012934           
  -1.8                  -0.0001335            -6e-13                6e-14                 0.00013386           
  -1.85                 -0.00013794           -5.2e-13              0                     0.0001383            
  -1.9                  -0.00014224           -5.6e-13              2e-14                 0.00014258           
  -1.95                 -0.00014646           -7e-13                -4e-14                0.00014682           
  -2                    -0.00015058           -5.4e-13              8e-14                 0.00015094           
  -2.05                 -0.0001546            -7e-13                -1.6e-13              0.00015496           
  -2.1                  -0.00015856           -6.8e-13              6e-14                 0.0001589            
  -2.15                 -0.00016238           -6.6e-13              0                     0.00016274           
  -2.2                  -0.00016614           -7.4e-13              -8e-14                0.0001665            
  -2.25                 -0.00016982           -6.6e-13              4e-14                 0.00017018           
  -2.3                  -0.00017342           -8e-13                -6e-14                0.00017378           
  -2.35                 -0.00017696           -7e-13                1e-13                 0.0001773            
  -2.4                  -0.00018042           -7.2e-13              -1.6e-13              0.00018076           
  -2.45                 -0.00018378           -8.4e-13              0                     0.00018414           
  -2.5                  -0.0001871            -6.8e-13              -1e-13                0.00018746           
  -2.55                 -0.00019032           -6.6e-13              -1.4e-13              0.0001907            
  -2.6                  -0.00019352           -5.8e-13              2e-14                 0.00019388           
  -2.65                 -0.00019662           -7.4e-13              2e-14                 0.00019698           
  -2.7                  -0.00019966           -5.4e-13              0                     0.0002               
  -2.75                 -0.00020262           -8e-13                6e-14                 0.00020298           
  -2.8                  -0.00020558           -5.8e-13              2e-14                 0.00020592           
  -2.85                 -0.00020842           -7.4e-13              -2e-14                0.00020876           
  -2.9                  -0.00021124           -6.4e-13              4e-14                 0.00021158           
  -2.95                 -0.000214             -8.6e-13              -1e-13                0.00021436           
  -3                    -0.00021672           -6.2e-13              1.4e-13               0.00021706           
  -3.05                 -0.00021936           -6.6e-13              -4e-14                0.00021972           
  -3.1                  -0.00022198           -6.8e-13              1.4e-13               0.00022234           
  -3.15                 -0.00022454           -6e-13                0                     0.0002249            
  -3.2                  -0.00022706           -7.2e-13              -4e-14                0.0002274            
  -3.25                 -0.00022952           -8.2e-13              -2e-14                0.00022988           
  -3.3                  -0.00023194           -6.6e-13              -1.2e-13              0.0002323            
  -3.35                 -0.0002343            -8e-13                -2e-14                0.00023466           
  -3.4                  -0.00023664           -8.8e-13              -2e-14                0.00023698           
  -3.45                 -0.00023892           -7.2e-13              0                     0.00023926           
  -3.5                  -0.00024112           -8.2e-13              -4e-14                0.00024148           
  -3.55                 -0.00024334           -7.2e-13              8e-14                 0.0002437            
  -3.6                  -0.00024546           -7.4e-13              -1e-13                0.00024582           
END_DB

BEGIN_DB
 ICCAP_VAR vb         0.9            
 ICCAP_VAR vd         -0.1           
 ICCAP_VAR vs         -0             

 #vg                    id                    ig                    ib                    is                   
  0.5                   -2e-14                6e-13                 3.6e-13               1e-13                
  0.45                  4e-14                 4.2e-13               2.8e-13               3e-13                
  0.4                   -8e-14                3e-13                 2.2e-13               6e-14                
  0.35                  4e-14                 8e-14                 3.8e-13               3e-13                
  0.3                   4e-14                 2.6e-13               2.6e-13               1.2e-13              
  0.25                  6e-14                 1.4e-13               3e-13                 1.8e-13              
  0.2                   -2e-14                6e-14                 3.6e-13               -4e-14               
  0.15                  1e-13                 8e-14                 2.2e-13               1e-13                
  0.1                   4e-14                 -4e-14                3.2e-13               4e-14                
  0.05                  -6e-14                -8e-14                1.8e-13               1e-13                
  0                     1e-13                 0                     2.4e-13               2e-14                
  -0.05                 1.8e-13               -4e-14                2.4e-13               2e-13                
  -0.1                  1e-13                 -1e-13                2.8e-13               8e-14                
  -0.15                 -2e-14                -1e-13                1.4e-13               1.4e-13              
  -0.2                  1.6e-13               -2.4e-13              1.2e-13               2e-13                
  -0.25                 -2e-14                -3.2e-13              1.8e-13               0                    
  -0.3                  0                     -1.4e-13              1.4e-13               2.2e-13              
  -0.35                 0                     -3.8e-13              2e-14                 4.8e-13              
  -0.4                  -2.4e-13              -2.6e-13              1.6e-13               5e-13                
  -0.45                 -1.42e-12             -2.6e-13              6e-14                 1.76e-12             
  -0.5                  -6.26e-12             -2.2e-13              1.6e-13               6.36e-12             
  -0.55                 -2.48e-11             -3.2e-13              2e-14                 2.496e-11            
  -0.6                  -9.828e-11            -2.4e-13              1.2e-13               9.826e-11            
  -0.65                 -3.8856e-10           -2.8e-13              8e-14                 3.8838e-10           
  -0.7                  -1.5308e-09           -2.8e-13              1e-13                 1.5324e-09           
  -0.75                 -6.0246e-09           -3.8e-13              4e-14                 6.025e-09            
  -0.8                  -2.3214e-08           -3.6e-13              6e-14                 2.3224e-08           
  -0.85                 -8.7048e-08           -3.2e-13              1.4e-13               8.703e-08            
  -0.9                  -3.037e-07            -4.6e-13              1.4e-13               3.0398e-07           
  -0.95                 -9.449e-07            -3.2e-13              2e-14                 9.4526e-07           
  -1                    -2.473e-06            -3.4e-13              1.2e-13               2.4772e-06           
  -1.05                 -5.3704e-06           -3e-13                1e-13                 5.3696e-06           
  -1.1                  -9.748e-06            -4.2e-13              6e-14                 9.7376e-06           
  -1.15                 -1.5318e-05           -3.6e-13              1.6e-13               1.5334e-05           
  -1.2                  -2.1632e-05           -3.4e-13              -1e-13                2.1642e-05           
  -1.25                 -2.8268e-05           -4.4e-13              1.4e-13               2.8278e-05           
  -1.3                  -3.4956e-05           -4e-13                1e-13                 3.4972e-05           
  -1.35                 -4.152e-05            -6.2e-13              6e-14                 4.152e-05            
  -1.4                  -4.7924e-05           -4.6e-13              1.2e-13               4.7942e-05           
  -1.45                 -5.4122e-05           -5.8e-13              -4e-14                5.4132e-05           
  -1.5                  -6.0158e-05           -4.8e-13              6e-14                 6.0178e-05           
  -1.55                 -6.6002e-05           -4.6e-13              8e-14                 6.601e-05            
  -1.6                  -7.1672e-05           -4.2e-13              0                     7.1694e-05           
  -1.65                 -7.7148e-05           -5e-13                -2e-14                7.7166e-05           
  -1.7                  -8.246e-05            -5.2e-13              6e-14                 8.2466e-05           
  -1.75                 -8.7602e-05           -4.8e-13              1e-13                 8.7634e-05           
  -1.8                  -9.2612e-05           -5.6e-13              6e-14                 9.2646e-05           
  -1.85                 -9.7492e-05           -4.4e-13              0                     9.75e-05             
  -1.9                  -0.000102236          -4.2e-13              1.8e-13               0.000102252          
  -1.95                 -0.000106864          -6.8e-13              2e-14                 0.00010688           
  -2                    -0.000111354          -5.4e-13              4e-14                 0.000111382          
  -2.05                 -0.00011556           -5.8e-13              6e-14                 0.00011592           
  -2.1                  -0.00011986           -4.2e-13              0                     0.00012022           
  -2.15                 -0.00012404           -6e-13                1.8e-13               0.00012438           
  -2.2                  -0.00012812           -5.8e-13              8e-14                 0.0001285            
  -2.25                 -0.00013212           -5.4e-13              2.2e-13               0.00013248           
  -2.3                  -0.00013602           -6e-13                6e-14                 0.00013638           
  -2.35                 -0.00013984           -7e-13                8e-14                 0.0001402            
  -2.4                  -0.00014358           -5.6e-13              8e-14                 0.00014394           
  -2.45                 -0.00014722           -5.2e-13              -8e-14                0.00014756           
  -2.5                  -0.00015076           -7e-13                0                     0.00015112           
  -2.55                 -0.00015424           -5.8e-13              2e-14                 0.0001546            
  -2.6                  -0.00015768           -7e-13                -6e-14                0.00015802           
  -2.65                 -0.00016102           -5.6e-13              6e-14                 0.00016138           
  -2.7                  -0.0001643            -7e-13                -6e-14                0.00016468           
  -2.75                 -0.0001675            -6.8e-13              4e-14                 0.00016786           
  -2.8                  -0.00017064           -6.6e-13              1.2e-13               0.000171             
  -2.85                 -0.00017372           -6.2e-13              0                     0.00017406           
  -2.9                  -0.00017674           -7.4e-13              1.2e-13               0.0001771            
  -2.95                 -0.00017968           -6.4e-13              -6e-14                0.00018006           
  -3                    -0.00018258           -5.8e-13              0                     0.00018294           
  -3.05                 -0.00018544           -6.8e-13              6e-14                 0.0001858            
  -3.1                  -0.0001882            -6.4e-13              -6e-14                0.00018856           
  -3.15                 -0.00019094           -6.4e-13              1.8e-13               0.00019132           
  -3.2                  -0.00019362           -6.2e-13              8e-14                 0.00019398           
  -3.25                 -0.00019624           -7.4e-13              4e-14                 0.0001966            
  -3.3                  -0.00019882           -6.2e-13              8e-14                 0.00019918           
  -3.35                 -0.00020136           -6.4e-13              0                     0.0002017            
  -3.4                  -0.00020384           -6.6e-13              1e-13                 0.0002042            
  -3.45                 -0.00020628           -7.4e-13              1.2e-13               0.00020664           
