! VERSION = 6.00
BEGIN_HEADER
 ICCAP_INPUTS
  vd         V  D GROUND SMU1 0.1 LIN        1    -0         -3.6       37   -0.1      
  vg         V  G GROUND SMU2 0.001 LIST       2 3 -0.484 -0.684 -0.884
  vb         V  B GROUND SMU4 0.1 CON        -0
  vs         V  S GROUND SMU3 0.1 CON        -0
 ICCAP_OUTPUTS
  id         I  D GROUND SMU1 B
  ig         I  G GROUND SMU2 B
  ib         I  B GROUND SMU4 B
  is         I  S GROUND SMU3 B
 ICCAP_VALUES
  MASTER_SETUP_TYPE "~dc_idvd~"
  LINVT_VALUE ""
  LISTVT_VALUE "|idvg|100.0n|-200.0m|1.000m|3|200.0m|200.0m|"
  TYPE "-1"
  TEMP " 27.0000 "
  IS_TNOM " 1.00000 "
  MAIN.W "300.0n"
  MAIN.L "10.00u"
  MAIN.AD "102.0f"
  MAIN.AS "102.0f"
  MAIN.PD "1.280u"
  MAIN.PS "1.280u"
  MAIN.NF "1.000"
  MAIN.M "1"
  MAIN.NRD "0.000"
  MAIN.NRS "0.000"
  MAIN.LDRIFT1 "1E-06"
  MAIN.LDRIFT2 "1E-06"
  MAIN.SA "0.000"
  MAIN.SB "0.000"
  MAIN.SD "0.000"
  MAIN.SCA "0.000"
  MAIN.SCB "0.000"
  MAIN.SCC "0.000"
  MAIN.SC "0.000"
  MODULE "S555"
  PIN_D "14"
  PIN_G "7"
  PIN_S "8"
  PIN_B "13"
  PIN_E ""
  PIN_6 ""
  XY_ID ""
  FUNC "Narrow"
  STI "SA ref"
  WPE "WPE ref"
  COMMENT ""
  DIS_MEAS ""
  TypeTCI "10"
END_HEADER

BEGIN_DB
 ICCAP_VAR vg         -0.484         
 ICCAP_VAR vb         -0             
 ICCAP_VAR vs         -0             

 #vd                    id                    ig                    ib                    is                   
  -0                    4.6e-13               5.8e-13               8e-14                 -4e-14               
  -0.1                  -3.654e-11            4.8e-13               -1e-13                3.648e-11            
  -0.2                  -3.72e-11             5.8e-13               -2e-14                3.714e-11            
  -0.3                  -3.73e-11             5.4e-13               -1.8e-13              3.732e-11            
  -0.4                  -3.756e-11            3.8e-13               -1.4e-13              3.714e-11            
  -0.5                  -3.746e-11            7.4e-13               -8e-14                3.716e-11            
  -0.6                  -3.764e-11            2.8e-13               -1.2e-13              3.718e-11            
  -0.7                  -3.76e-11             4.2e-13               -1.4e-13              3.728e-11            
  -0.8                  -3.766e-11            1.4e-13               -1.6e-13              3.72e-11             
  -0.9                  -3.768e-11            3e-13                 -1.4e-13              3.734e-11            
  -1                    -3.776e-11            2e-13                 -4e-14                3.73e-11             
  -1.1                  -3.774e-11            4e-13                 -1e-13                3.726e-11            
  -1.2                  -3.784e-11            2.2e-13               0                     3.728e-11            
  -1.3                  -3.788e-11            8e-14                 -1.6e-13              3.734e-11            
  -1.4                  -3.79e-11             3.6e-13               -8e-14                3.74e-11             
  -1.5                  -3.802e-11            2e-13                 -1e-13                3.742e-11            
  -1.6                  -3.804e-11            3.8e-13               -1.8e-13              3.724e-11            
  -1.7                  -3.806e-11            2.8e-13               -1e-13                3.722e-11            
  -1.8                  -3.81e-11             3.2e-13               -4e-14                3.72e-11             
  -1.9                  -3.808e-11            3.2e-13               -1.6e-13              3.722e-11            
  -2                    -3.814e-11            4e-14                 -8e-14                3.724e-11            
  -2.1                  -3.802e-11            2.6e-13               -1.4e-13              3.734e-11            
  -2.2                  -3.812e-11            0                     -1.2e-13              3.722e-11            
  -2.3                  -3.812e-11            8e-14                 -1e-13                3.726e-11            
  -2.4                  -3.812e-11            6e-14                 -2.2e-13              3.742e-11            
  -2.5                  -3.814e-11            1e-13                 -1.6e-13              3.742e-11            
  -2.6                  -3.812e-11            2e-13                 -8e-14                3.73e-11             
  -2.7                  -3.828e-11            1.4e-13               -2e-13                3.738e-11            
  -2.8                  -3.824e-11            4.6e-13               -6e-14                3.73e-11             
  -2.9                  -3.83e-11             3.6e-13               -8e-14                3.732e-11            
  -3                    -3.822e-11            3.4e-13               -2.2e-13              3.736e-11            
  -3.1                  -3.832e-11            1.8e-13               -8e-14                3.732e-11            
  -3.2                  -3.84e-11             6e-14                 -4e-14                3.734e-11            
  -3.3                  -3.85e-11             2e-13                 -4e-14                3.736e-11            
  -3.4                  -3.85e-11             1.4e-13               0                     3.73e-11             
  -3.5                  -3.854e-11            2.6e-13               1.2e-13               3.726e-11            
  -3.6                  -3.876e-11            1.8e-13               1.6e-13               3.724e-11            
END_DB

BEGIN_DB
 ICCAP_VAR vg         -0.684         
 ICCAP_VAR vb         -0             
 ICCAP_VAR vs         -0             

 #vd                    id                    ig                    ib                    is                   
  -0                    5.1e-12               2.6e-13               1.2e-13               -3.7e-12             
  -0.1                  -2.9094e-09           1.2e-13               -4e-14                2.9102e-09           
  -0.2                  -3.0456e-09           -8e-14                -6e-14                3.0464e-09           
  -0.3                  -3.05e-09             1.6e-13               -4e-14                3.0498e-09           
  -0.4                  -3.0512e-09           2.6e-13               2e-14                 3.0512e-09           
  -0.5                  -3.0516e-09           6e-14                 -1e-13                3.052e-09            
  -0.6                  -3.0524e-09           3e-13                 -6e-14                3.0522e-09           
  -0.7                  -3.0524e-09           2.2e-13               -8e-14                3.053e-09            
  -0.8                  -3.0528e-09           -1.4e-13              -2e-14                3.0534e-09           
  -0.9                  -3.0538e-09           2e-14                 -1.4e-13              3.054e-09            
  -1                    -3.0532e-09           6e-14                 -8e-14                3.0532e-09           
  -1.1                  -3.0532e-09           1e-13                 -1.8e-13              3.0536e-09           
  -1.2                  -3.054e-09            -2e-14                -1.6e-13              3.0532e-09           
  -1.3                  -3.0536e-09           6e-14                 -6e-14                3.054e-09            
  -1.4                  -3.0544e-09           1e-13                 -1.6e-13              3.0542e-09           
  -1.5                  -3.0544e-09           6e-14                 -1.6e-13              3.0542e-09           
  -1.6                  -3.054e-09            4e-14                 -1.4e-13              3.0552e-09           
  -1.7                  -3.0554e-09           0                     -1.8e-13              3.0552e-09           
  -1.8                  -3.0556e-09           4e-14                 -1.4e-13              3.055e-09            
  -1.9                  -3.0558e-09           1.8e-13               -1.4e-13              3.056e-09            
  -2                    -3.0562e-09           8e-14                 -2.2e-13              3.0564e-09           
  -2.1                  -3.0566e-09           1.6e-13               -1.8e-13              3.056e-09            
  -2.2                  -3.0574e-09           1.2e-13               -1e-13                3.057e-09            
  -2.3                  -3.0574e-09           1.6e-13               -4e-14                3.058e-09            
  -2.4                  -3.0574e-09           1.8e-13               -1.6e-13              3.0594e-09           
  -2.5                  -3.0598e-09           2e-14                 8e-14                 3.0594e-09           
  -2.6                  -3.06e-09             8e-14                 1e-13                 3.0594e-09           
  -2.7                  -3.061e-09            2.2e-13               2.4e-13               3.0602e-09           
  -2.8                  -3.0608e-09           8e-14                 5.2e-13               3.0602e-09           
  -2.9                  -3.0616e-09           -1.4e-13              9.2e-13               3.0604e-09           
  -3                    -3.0632e-09           1.6e-13               1.52e-12              3.0598e-09           
  -3.1                  -3.0634e-09           -2e-14                2.44e-12              3.06e-09             
  -3.2                  -3.0646e-09           8e-14                 3.6e-12               3.0604e-09           
  -3.3                  -3.0668e-09           6e-14                 5.48e-12              3.0604e-09           
  -3.4                  -3.0702e-09           2e-14                 8.04e-12              3.0612e-09           
  -3.5                  -3.074e-09            1.4e-13               1.15e-11              3.0612e-09           
  -3.6                  -3.0792e-09           -2e-14                1.624e-11             3.062e-09            
END_DB

BEGIN_DB
 ICCAP_VAR vg         -0.884         
 ICCAP_VAR vb         -0             
 ICCAP_VAR vs         -0             

 #vd                    id                    ig                    ib                    is                   
  -0                    1.79e-11              0                     -2e-14                -1.8e-11             
  -0.1                  -2.2058e-08           0                     2e-14                 2.2088e-08           
  -0.2                  -2.8354e-08           1.8e-13               -6e-14                2.838e-08            
  -0.3                  -2.8926e-08           -6e-14                -2e-13                2.8958e-08           
  -0.4                  -2.8958e-08           -8e-14                -6e-14                2.8988e-08           
  -0.5                  -2.8972e-08           4e-14                 -8e-14                2.9e-08              
  -0.6                  -2.8978e-08           1.4e-13               -1.2e-13              2.9004e-08           
  -0.7                  -2.8988e-08           2e-14                 -1e-13                2.9016e-08           
  -0.8                  -2.8996e-08           -2.2e-13              -1.4e-13              2.9022e-08           
  -0.9                  -2.8994e-08           -6e-14                -8e-14                2.9016e-08           
  -1                    -2.9004e-08           1.6e-13               -1e-13                2.903e-08            
  -1.1                  -2.901e-08            2.6e-13               -2e-13                2.9034e-08           
  -1.2                  -2.901e-08            1.6e-13               -1.6e-13              2.904e-08            
  -1.3                  -2.9014e-08           0                     -1e-13                2.904e-08            
  -1.4                  -2.9012e-08           8e-14                 -1e-13                2.9044e-08           
  -1.5                  -2.9022e-08           8e-14                 -1.6e-13              2.9046e-08           
  -1.6                  -2.9026e-08           0                     -2.2e-13              2.9052e-08           
  -1.7                  -2.9028e-08           -1.8e-13              -1.4e-13              2.9054e-08           
  -1.8                  -2.9032e-08           -2e-13                -1.2e-13              2.9036e-08           
  -1.9                  -2.9014e-08           -2.2e-13              -1.6e-13              2.9044e-08           
  -2                    -2.9038e-08           -2e-14                -3e-13                2.9064e-08           
  -2.1                  -2.9042e-08           4e-14                 -1.6e-13              2.9068e-08           
  -2.2                  -2.9044e-08           -4e-14                -1e-13                2.907e-08            
  -2.3                  -2.905e-08            -8e-14                2e-14                 2.9066e-08           
  -2.4                  -2.9048e-08           -4e-14                1.8e-13               2.9072e-08           
  -2.5                  -2.9052e-08           -4e-14                3.2e-13               2.908e-08            
  -2.6                  -2.9054e-08           -4e-14                8.6e-13               2.9076e-08           
  -2.7                  -2.9058e-08           -2e-14                1.68e-12              2.908e-08            
  -2.8                  -2.9062e-08           -4e-14                2.84e-12              2.9078e-08           
  -2.9                  -2.9064e-08           8e-14                 4.68e-12              2.9084e-08           
  -3                    -2.9068e-08           1.8e-13               7.7e-12               2.9088e-08           
  -3.1                  -2.9076e-08           0                     1.234e-11             2.9088e-08           
  -3.2                  -2.9088e-08           2e-14                 1.916e-11             2.9088e-08           
  -3.3                  -2.9098e-08           -8e-14                2.914e-11             2.9096e-08           
  -3.4                  -2.9118e-08           4e-14                 4.352e-11             2.9098e-08           
  -3.5                  -2.914e-08            1.6e-13               6.376e-11             2.91e-08             
  -3.6                  -2.9168e-08           -8e-14                9.164e-11             2.9102e-08           
END_DB

