! VERSION = 6.00
BEGIN_HEADER
 ICCAP_INPUTS
  vg         V  G GROUND SMU2 0.001 LIN        1    0.5        -3.6       83   -0.05     
  vb         V  B GROUND SMU4 0.1 LIN        2    0          3.6        5    0.9       
  vd         V  D GROUND SMU1 0.1 LIN        3    -0.1       -3.3       3    -1.6      
  vs         V  S GROUND SMU3 0.1 CON        -0
 ICCAP_OUTPUTS
  id         I  D GROUND SMU1 B
  ig         I  G GROUND SMU2 B
  ib         I  B GROUND SMU4 B
  is         I  S GROUND SMU3 B
 ICCAP_VALUES
  MASTER_SETUP_TYPE "~dc_idvg~"
  LINVT_VALUE ""
  LISTVT_VALUE ""
  TYPE "-1"
  TEMP " 125.000 "
  IS_TNOM " 0.00000 "
  MAIN.W "300.0n"
  MAIN.L "10.00u"
  MAIN.AD "102.0f"
  MAIN.AS "102.0f"
  MAIN.PD "1.280u"
  MAIN.PS "1.280u"
  MAIN.NF "1.000"
  MAIN.M "1"
  MAIN.NRD "0.000"
  MAIN.NRS "0.000"
  MAIN.LDRIFT1 "1E-06"
  MAIN.LDRIFT2 "1E-06"
  MAIN.SA "0.000"
  MAIN.SB "0.000"
  MAIN.SD "0.000"
  MAIN.SCA "0.000"
  MAIN.SCB "0.000"
  MAIN.SCC "0.000"
  MAIN.SC "0.000"
  MODULE "S555"
  PIN_D "14"
  PIN_G "7"
  PIN_S "8"
  PIN_B "13"
  PIN_E ""
  PIN_6 ""
  XY_ID ""
  FUNC "Narrow"
  STI "SA ref"
  WPE "WPE ref"
  COMMENT ""
  DIS_MEAS ""
  TypeTCI "10"
END_HEADER

BEGIN_DB
 ICCAP_VAR vb         0              
 ICCAP_VAR vd         -0.1           
 ICCAP_VAR vs         -0             

 #vg                    id                    ig                    ib                    is                   
  0.5                   -8e-14                2.044e-08             -2.0396e-08           0                    
  0.45                  7e-12                 4.7978e-09            -4.7982e-09           1.8e-13              
  0.4                   6.2e-13               1.1236e-09            -1.1318e-09           1.6e-13              
  0.35                  1.8e-13               2.6524e-10            -2.6682e-10           1e-13                
  0.3                   8e-14                 6.248e-11             -6.506e-11            2.2e-13              
  0.25                  -2e-14                1.492e-11             -1.546e-11            8e-14                
  0.2                   2e-14                 3.34e-12              -3.38e-12             1.8e-13              
  0.15                  -2e-14                7e-13                 -1.8e-13              4e-14                
  0.1                   -1.6e-13              -2.4e-13              7.6e-13               2.2e-13              
  0.05                  -4e-14                -3.6e-13              1.22e-12              1.8e-13              
  0                     -1.4e-13              -6.4e-13              1.3e-12               1.8e-13              
  -0.05                 -4e-13                -3.4e-13              1.64e-12              4e-13                
  -0.1                  -8e-13                -5.4e-13              1.78e-12              9e-13                
  -0.15                 -1.9e-12              -5.8e-13              1.72e-12              1.92e-12             
  -0.2                  -4.6e-12              -6.2e-13              1.4e-12               4.68e-12             
  -0.25                 -1.116e-11            -7.6e-13              1.74e-12              1.128e-11            
  -0.3                  -2.744e-11            -5.6e-13              1.92e-12              2.744e-11            
  -0.35                 -6.798e-11            -9.4e-13              1.8e-12               6.816e-11            
  -0.4                  -1.668e-10            -8e-13                1.82e-12              1.6686e-10           
  -0.45                 -3.9984e-10           -9.2e-13              1.74e-12              3.998e-10            
  -0.5                  -9.0828e-10           -9.4e-13              1.5e-12               9.0796e-10           
  -0.55                 -1.8998e-09           -7e-13                1.58e-12              1.8996e-09           
  -0.6                  -3.57e-09             -8.6e-13              2.06e-12              3.569e-09            
  -0.65                 -6.0248e-09           -9.8e-13              1.96e-12              6.024e-09            
  -0.7                  -9.228e-09            -7.8e-13              1.88e-12              9.2236e-09           
  -0.75                 -1.3042e-08           -7.6e-13              1.66e-12              1.3058e-08           
  -0.8                  -1.73e-08             -9e-13                1.98e-12              1.7316e-08           
  -0.85                 -2.1872e-08           -9.2e-13              2.12e-12              2.1898e-08           
  -0.9                  -2.6624e-08           -1.04e-12             1.82e-12              2.664e-08            
  -0.95                 -3.1516e-08           -9.8e-13              2.3e-12               3.1536e-08           
  -1                    -3.6446e-08           -1.08e-12             2.24e-12              3.6472e-08           
  -1.05                 -4.145e-08            -1.12e-12             2.36e-12              4.1474e-08           
  -1.1                  -4.6444e-08           -9.8e-13              2.3e-12               4.6472e-08           
  -1.15                 -5.1456e-08           -9.4e-13              1.66e-12              5.1484e-08           
  -1.2                  -5.6432e-08           -1.14e-12             1.84e-12              5.6444e-08           
  -1.25                 -6.1398e-08           -9.2e-13              1.58e-12              6.1418e-08           
  -1.3                  -6.6334e-08           -1.14e-12             2.08e-12              6.6346e-08           
  -1.35                 -7.1212e-08           -1.14e-12             2.12e-12              7.1234e-08           
  -1.4                  -7.6078e-08           -1.14e-12             1.82e-12              7.6108e-08           
  -1.45                 -8.0886e-08           -1.14e-12             2.1e-12               8.0916e-08           
  -1.5                  -8.5666e-08           -1.34e-12             1.94e-12              8.569e-08            
  -1.55                 -9.0374e-08           -1.34e-12             2.26e-12              9.0398e-08           
  -1.6                  -9.5062e-08           -1.22e-12             2.06e-12              9.509e-08            
  -1.65                 -9.9678e-08           -1.16e-12             2.5e-12               9.9704e-08           
  -1.7                  -1.04244e-07          -1.28e-12             2.14e-12              1.0427e-07           
  -1.75                 -1.0877e-07           -1.1e-12              2.64e-12              1.088e-07            
  -1.8                  -1.13252e-07          -1.22e-12             1.74e-12              1.1328e-07           
  -1.85                 -1.1766e-07           -1.24e-12             2.12e-12              1.177e-07            
  -1.9                  -1.2202e-07           -1.28e-12             2.48e-12              1.2208e-07           
  -1.95                 -1.2638e-07           -1.18e-12             2.26e-12              1.2646e-07           
  -2                    -1.3066e-07           -1.26e-12             2.06e-12              1.3074e-07           
  -2.05                 -1.3492e-07           -1.1e-12              2.24e-12              1.3498e-07           
  -2.1                  -1.3912e-07           -1.2e-12              2.34e-12              1.3918e-07           
  -2.15                 -1.4326e-07           -1.28e-12             1.9e-12               1.4332e-07           
  -2.2                  -1.4736e-07           -1.16e-12             2.42e-12              1.4742e-07           
  -2.25                 -1.514e-07            -1.36e-12             2.34e-12              1.5146e-07           
  -2.3                  -1.5542e-07           -1.22e-12             2.02e-12              1.5548e-07           
  -2.35                 -1.5936e-07           -1.12e-12             1.94e-12              1.5944e-07           
  -2.4                  -1.6328e-07           -1.46e-12             2.04e-12              1.6336e-07           
  -2.45                 -1.6716e-07           -1.28e-12             2.46e-12              1.6722e-07           
  -2.5                  -1.7098e-07           -1.4e-12              2.16e-12              1.7106e-07           
  -2.55                 -1.7478e-07           -1.5e-12              2.04e-12              1.7482e-07           
  -2.6                  -1.7854e-07           -1.34e-12             2.2e-12               1.786e-07            
  -2.65                 -1.8224e-07           -1.58e-12             2.4e-12               1.8226e-07           
  -2.7                  -1.8584e-07           -1.68e-12             1.9e-12               1.8592e-07           
  -2.75                 -1.8948e-07           -1.26e-12             1.88e-12              1.8954e-07           
  -2.8                  -1.9304e-07           -1.54e-12             2.36e-12              1.931e-07            
  -2.85                 -1.9656e-07           -1.32e-12             2.32e-12              1.9662e-07           
  -2.9                  -2.0006e-07           -1.58e-12             2.5e-12               2.0012e-07           
  -2.95                 -2.0348e-07           -1.5e-12              2.5e-12               2.0352e-07           
  -3                    -2.0688e-07           -1.26e-12             2.14e-12              2.0694e-07           
  -3.05                 -2.1026e-07           -1.64e-12             2.62e-12              2.1032e-07           
  -3.1                  -2.1358e-07           -1.3e-12              2.1e-12               2.1364e-07           
  -3.15                 -2.1686e-07           -1.68e-12             2.28e-12              2.1694e-07           
  -3.2                  -2.2012e-07           -1.46e-12             2.22e-12              2.202e-07            
  -3.25                 -2.2332e-07           -1.46e-12             2.28e-12              2.2338e-07           
  -3.3                  -2.2648e-07           -1.44e-12             2.24e-12              2.2654e-07           
  -3.35                 -2.2964e-07           -1.54e-12             2.46e-12              2.297e-07            
  -3.4                  -2.3274e-07           -1.56e-12             2.44e-12              2.328e-07            
  -3.45                 -2.3578e-07           -1.52e-12             2.28e-12              2.3586e-07           
  -3.5                  -2.388e-07            -1.5e-12              2e-12                 2.3888e-07           
  -3.55                 -2.4182e-07           -1.64e-12             2.26e-12              2.4184e-07           
  -3.6                  -2.4472e-07           -1.4e-12              2.74e-12              2.4482e-07           
END_DB

BEGIN_DB
 ICCAP_VAR vb         0.9            
 ICCAP_VAR vd         -0.1           
 ICCAP_VAR vs         -0             

 #vg                    id                    ig                    ib                    is                   
  0.5                   -4.64e-12             1e-12                 5.904e-11             1.4e-13              
  0.45                  -6e-14                6e-13                 4.974e-11             4e-14                
  0.4                   -1.6e-13              8.6e-13               4.412e-11             -1.2e-13             
  0.35                  -4e-14                3.4e-13               3.964e-11             -8e-14               
  0.3                   -8e-14                1.2e-13               3.596e-11             -4e-14               
  0.25                  -1.6e-13              -4e-14                3.326e-11             6e-14                
  0.2                   -2e-13                2e-14                 3.148e-11             -4e-14               
  0.15                  -1.4e-13              -1e-13                2.934e-11             2e-14                
  0.1                   -1.6e-13              -1e-13                2.762e-11             1.4e-13              
  0.05                  -1.2e-13              -1.2e-13              2.628e-11             -2e-14               
  0                     -2e-13                -3.6e-13              2.53e-11              2e-14                
  -0.05                 -2.2e-13              -2.8e-13              2.4e-11               -1e-13               
  -0.1                  -1.8e-13              -3.4e-13              2.298e-11             2e-14                
  -0.15                 -1.6e-13              -3.8e-13              2.252e-11             -4e-14               
  -0.2                  -1.2e-13              -3.6e-13              2.196e-11             -8e-14               
  -0.25                 -2.4e-13              -6.2e-13              2.06e-11              2e-13                
  -0.3                  -1.8e-13              -6.2e-13              2.042e-11             0                    
  -0.35                 -2.2e-13              -5.6e-13              1.93e-11              8e-14                
  -0.4                  -1.4e-13              -7.2e-13              1.876e-11             0                    
  -0.45                 -2.4e-13              -6.6e-13              1.868e-11             1e-13                
  -0.5                  -4.2e-13              -7.2e-13              1.838e-11             2.4e-13              
  -0.55                 -9.2e-13              -6.6e-13              1.762e-11             5.8e-13              
  -0.6                  -2.18e-12             -8e-13                1.702e-11             2.04e-12             
  -0.65                 -5.68e-12             -9.8e-13              1.718e-11             5.66e-12             
  -0.7                  -1.586e-11            -6.4e-13              1.636e-11             1.56e-11             
  -0.75                 -4.434e-11            -9e-13                1.598e-11             4.408e-11            
  -0.8                  -1.2204e-10           -8.8e-13              1.55e-11              1.2186e-10           
  -0.85                 -3.249e-10            -8.2e-13              1.54e-11              3.2468e-10           
  -0.9                  -7.9822e-10           -8.8e-13              1.492e-11             7.978e-10            
  -0.95                 -1.7524e-09           -8e-13                1.414e-11             1.7524e-09           
  -1                    -3.3604e-09           -9.6e-13              1.456e-11             3.3606e-09           
  -1.05                 -5.6948e-09           -1.02e-12             1.424e-11             5.6944e-09           
  -1.1                  -8.6578e-09           -9.4e-13              1.378e-11             8.6552e-09           
  -1.15                 -1.211e-08            -8.8e-13              1.304e-11             1.2126e-08           
  -1.2                  -1.5902e-08           -8.4e-13              1.368e-11             1.5914e-08           
  -1.25                 -1.994e-08            -1.06e-12             1.362e-11             1.9962e-08           
  -1.3                  -2.4128e-08           -8e-13                1.31e-11              2.4148e-08           
  -1.35                 -2.8392e-08           -9.2e-13              1.326e-11             2.8412e-08           
  -1.4                  -3.273e-08            -1.1e-12              1.268e-11             3.2754e-08           
  -1.45                 -3.7086e-08           -1.12e-12             1.252e-11             3.7104e-08           
  -1.5                  -4.1476e-08           -9.6e-13              1.226e-11             4.15e-08             
  -1.55                 -4.5856e-08           -1.06e-12             1.216e-11             4.588e-08            
  -1.6                  -5.025e-08            -1.06e-12             1.22e-11              5.0274e-08           
  -1.65                 -5.4618e-08           -1.18e-12             1.178e-11             5.4642e-08           
  -1.7                  -5.8972e-08           -1.16e-12             1.186e-11             5.899e-08            
  -1.75                 -6.3302e-08           -1.26e-12             1.186e-11             6.3332e-08           
  -1.8                  -6.7608e-08           -1.28e-12             1.156e-11             6.7636e-08           
  -1.85                 -7.1888e-08           -1.28e-12             1.176e-11             7.1908e-08           
  -1.9                  -7.613e-08            -1.24e-12             1.144e-11             7.6158e-08           
  -1.95                 -8.0364e-08           -1.22e-12             1.12e-11              8.0384e-08           
  -2                    -8.455e-08            -1.16e-12             1.138e-11             8.4574e-08           
  -2.05                 -8.87e-08             -1.14e-12             1.068e-11             8.8732e-08           
  -2.1                  -9.2842e-08           -1.2e-12              1.072e-11             9.2854e-08           
  -2.15                 -9.6894e-08           -1.18e-12             1.082e-11             9.693e-08            
  -2.2                  -1.00952e-07          -1.4e-12              1.104e-11             1.00974e-07          
  -2.25                 -1.04966e-07          -1.24e-12             1.032e-11             1.04982e-07          
  -2.3                  -1.08938e-07          -1.38e-12             1.054e-11             1.08964e-07          
  -2.35                 -1.12862e-07          -1.3e-12              1.056e-11             1.12894e-07          
  -2.4                  -1.1674e-07           -1.18e-12             1.03e-11              1.1682e-07           
  -2.45                 -1.206e-07            -1.28e-12             1.048e-11             1.2064e-07           
  -2.5                  -1.2444e-07           -1.28e-12             1.024e-11             1.2448e-07           
  -2.55                 -1.2822e-07           -1.56e-12             1.02e-11              1.2826e-07           
  -2.6                  -1.3196e-07           -1.3e-12              9.78e-12              1.3202e-07           
  -2.65                 -1.3568e-07           -1.46e-12             1.032e-11             1.3574e-07           
  -2.7                  -1.3934e-07           -1.42e-12             9.98e-12              1.394e-07            
  -2.75                 -1.4296e-07           -1.46e-12             9.54e-12              1.4302e-07           
  -2.8                  -1.4656e-07           -1.6e-12              9.62e-12              1.4664e-07           
  -2.85                 -1.501e-07            -1.28e-12             9.62e-12              1.5018e-07           
  -2.9                  -1.5364e-07           -1.5e-12              9.3e-12               1.5372e-07           
  -2.95                 -1.5712e-07           -1.48e-12             9.74e-12              1.572e-07            
  -3                    -1.6058e-07           -1.52e-12             9.46e-12              1.6064e-07           
  -3.05                 -1.6398e-07           -1.54e-12             9.4e-12               1.6404e-07           
  -3.1                  -1.6734e-07           -1.46e-12             9.48e-12              1.6738e-07           
  -3.15                 -1.7066e-07           -1.5e-12              9.16e-12              1.7074e-07           
  -3.2                  -1.74e-07             -1.44e-12             9.32e-12              1.7406e-07           
  -3.25                 -1.7724e-07           -1.34e-12             9.24e-12              1.773e-07            
  -3.3                  -1.8048e-07           -1.58e-12             9.18e-12              1.8052e-07           
  -3.35                 -1.8366e-07           -1.38e-12             9.02e-12              1.8372e-07           
  -3.4                  -1.868e-07            -1.42e-12             9.4e-12               1.869e-07            
  -3.45                 -1.8994e-07           -1.58e-12             9e-12                 1.9e-07              
