! VERSION = 6.00
BEGIN_HEADER
 ICCAP_INPUTS
  vd         V  D GROUND SMU1 0.1 LIN        1    -0         -3.6       37   -0.1      
  vg         V  G GROUND SMU2 0.001 LIN        2    -0.748     -3.6       5    -0.713    
  vb         V  B GROUND SMU4 0.1 CON        -0
  vs         V  S GROUND SMU3 0.1 CON        -0
 ICCAP_OUTPUTS
  id         I  D GROUND SMU1 B
  ig         I  G GROUND SMU2 B
  ib         I  B GROUND SMU4 B
  is         I  S GROUND SMU3 B
 ICCAP_VALUES
  MASTER_SETUP_TYPE "~dc_idvd~"
  LINVT_VALUE "|idvg|100.0n|100.0m|1.000m|5|3.600|"
  LISTVT_VALUE ""
  TYPE "-1"
  TEMP " 70.0000 "
  IS_TNOM " 0.00000 "
  MAIN.W "2.000u"
  MAIN.L "1.200u"
  MAIN.AD "680.0f"
  MAIN.AS "680.0f"
  MAIN.PD "4.680u"
  MAIN.PS "4.680u"
  MAIN.NF "1.000"
  MAIN.M "1"
  MAIN.NRD "0.000"
  MAIN.NRS "0.000"
  MAIN.LDRIFT1 "1E-06"
  MAIN.LDRIFT2 "1E-06"
  MAIN.SA "0.000"
  MAIN.SB "0.000"
  MAIN.SD "0.000"
  MAIN.SCA "0.000"
  MAIN.SCB "0.000"
  MAIN.SCC "0.000"
  MAIN.SC "0.000"
  MODULE "S563"
  PIN_D "16"
  PIN_G "5"
  PIN_S "6"
  PIN_B "15"
  PIN_E ""
  PIN_6 ""
  XY_ID ""
  FUNC "LW Scale"
  STI "SA ref"
  WPE "WPE ref"
  COMMENT ""
  DIS_MEAS ""
  TypeTCI "10"
END_HEADER

BEGIN_DB
 ICCAP_VAR vg         -0.748         
 ICCAP_VAR vb         -0             
 ICCAP_VAR vs         -0             

 #vd                    id                    ig                    ib                    is                   
  -0                    2.5346e-10            -8e-14                -4.856e-11            -3.099e-10           
  -0.1                  -5.0434e-07           -2e-14                -4.712e-11            5.0446e-07           
  -0.2                  -5.8972e-07           8e-14                 -4.608e-11            5.8982e-07           
  -0.3                  -5.9784e-07           1.2e-13               -4.518e-11            5.9804e-07           
  -0.4                  -5.9996e-07           1e-13                 -4.446e-11            6e-07                
  -0.5                  -6.0132e-07           1.2e-13               -4.378e-11            6.017e-07            
  -0.6                  -6.0238e-07           4e-14                 -4.298e-11            6.024e-07            
  -0.7                  -6.0324e-07           1.8e-13               -4.222e-11            6.0348e-07           
  -0.8                  -6.0414e-07           1.6e-13               -4.164e-11            6.0428e-07           
  -0.9                  -6.0488e-07           8e-14                 -4.094e-11            6.0506e-07           
  -1                    -6.0556e-07           1.4e-13               -4.018e-11            6.0568e-07           
  -1.1                  -6.0624e-07           1.6e-13               -3.946e-11            6.063e-07            
  -1.2                  -6.0674e-07           2.2e-13               -3.89e-11             6.0682e-07           
  -1.3                  -6.0734e-07           2.8e-13               -3.804e-11            6.0728e-07           
  -1.4                  -6.0778e-07           2e-13                 -3.712e-11            6.0796e-07           
  -1.5                  -6.0828e-07           1.8e-13               -3.626e-11            6.0842e-07           
  -1.6                  -6.0874e-07           3e-13                 -3.518e-11            6.087e-07            
  -1.7                  -6.093e-07            1e-13                 -3.408e-11            6.094e-07            
  -1.8                  -6.098e-07            1.2e-13               -3.272e-11            6.0968e-07           
  -1.9                  -6.0998e-07           1.2e-13               -3.116e-11            6.101e-07            
  -2                    -6.1042e-07           1e-13                 -2.934e-11            6.105e-07            
  -2.1                  -6.1088e-07           2.4e-13               -2.678e-11            6.1088e-07           
  -2.2                  -6.1134e-07           1.6e-13               -2.354e-11            6.113e-07            
  -2.3                  -6.117e-07            1.8e-13               -1.892e-11            6.1172e-07           
  -2.4                  -6.1206e-07           2.4e-13               -1.184e-11            6.1222e-07           
  -2.5                  -6.1254e-07           1.8e-13               -1.14e-12             6.126e-07            
  -2.6                  -6.1288e-07           1.4e-13               1.548e-11             6.1302e-07           
  -2.7                  -6.1342e-07           2.2e-13               4.086e-11             6.1328e-07           
  -2.8                  -6.137e-07            8e-14                 7.936e-11             6.1378e-07           
  -2.9                  -6.1424e-07           1e-13                 1.3776e-10            6.1414e-07           
  -3                    -6.147e-07            6e-14                 2.2482e-10            6.1462e-07           
  -3.1                  -6.1518e-07           1.2e-13               3.5172e-10            6.1486e-07           
  -3.2                  -6.1602e-07           2e-14                 5.3566e-10            6.1562e-07           
  -3.3                  -6.1656e-07           1.4e-13               7.968e-10             6.1604e-07           
  -3.4                  -6.1732e-07           8e-14                 1.1694e-09            6.16e-07             
  -3.5                  -6.18e-07             2.6e-13               1.6692e-09            6.1654e-07           
  -3.6                  -6.1916e-07           1e-13                 2.3482e-09            6.17e-07             
END_DB

BEGIN_DB
 ICCAP_VAR vg         -1.461         
 ICCAP_VAR vb         -0             
 ICCAP_VAR vs         -0             

 #vd                    id                    ig                    ib                    is                   
  -0                    1.2846e-09            -4.4e-13              -1.444e-11            -1.1994e-09          
  -0.1                  -4.6742e-06           -3e-13                -1.408e-11            4.6782e-06           
  -0.2                  -8.4716e-06           -1.4e-13              -1.358e-11            8.474e-06            
  -0.3                  -1.13948e-05          -1.4e-13              -1.31e-11             1.14e-05             
  -0.4                  -1.3474e-05           -2.8e-13              -1.206e-11            1.348e-05            
  -0.5                  -1.479e-05            -2.4e-13              -1.132e-11            1.4798e-05           
  -0.6                  -1.5478e-05           -1e-13                -1.086e-11            1.5482e-05           
  -0.7                  -1.5762e-05           -2.6e-13              -1.024e-11            1.5772e-05           
  -0.8                  -1.5886e-05           -2.6e-13              -9.52e-12             1.5892e-05           
  -0.9                  -1.5948e-05           -2e-13                -8.8e-12              1.5954e-05           
  -1                    -1.5994e-05           -2.6e-13              -7.9e-12              1.6e-05              
  -1.1                  -1.6026e-05           -8e-14                -7.34e-12             1.6034e-05           
  -1.2                  -1.6054e-05           -4e-14                -6.68e-12             1.6062e-05           
  -1.3                  -1.608e-05            -2e-13                -6.04e-12             1.6084e-05           
  -1.4                  -1.61e-05             -2.4e-13              -5.4e-12              1.6108e-05           
  -1.5                  -1.6124e-05           -1e-13                -4.84e-12             1.6128e-05           
  -1.6                  -1.614e-05            -1.6e-13              -4.28e-12             1.6146e-05           
  -1.7                  -1.6156e-05           -4e-14                -3.78e-12             1.6164e-05           
  -1.8                  -1.6174e-05           -6e-14                -3.32e-12             1.618e-05            
  -1.9                  -1.6192e-05           -1.2e-13              -3e-12                1.6198e-05           
  -2                    -1.6206e-05           -1.2e-13              -2.42e-12             1.6208e-05           
  -2.1                  -1.6216e-05           -1.8e-13              -1.66e-12             1.6224e-05           
  -2.2                  -1.623e-05            0                     -7.2e-13              1.6236e-05           
  -2.3                  -1.6242e-05           -2e-14                1.4e-12               1.625e-05            
  -2.4                  -1.6258e-05           -2e-14                5.62e-12              1.6264e-05           
  -2.5                  -1.6272e-05           -2e-14                1.452e-11             1.6276e-05           
  -2.6                  -1.628e-05            -1e-13                3.204e-11             1.6286e-05           
  -2.7                  -1.6292e-05           -1e-13                6.548e-11             1.63e-05             
  -2.8                  -1.6308e-05           2e-14                 1.2626e-10            1.6316e-05           
  -2.9                  -1.632e-05            -6e-14                2.3352e-10            1.6324e-05           
  -3                    -1.6332e-05           -2e-14                4.1702e-10            1.6338e-05           
  -3.1                  -1.6344e-05           -8e-14                7.2068e-10            1.635e-05            
  -3.2                  -1.6356e-05           2e-14                 1.2158e-09            1.6364e-05           
  -3.3                  -1.637e-05            4e-14                 1.9996e-09            1.6376e-05           
  -3.4                  -1.6384e-05           -4e-14                3.2156e-09            1.6386e-05           
  -3.5                  -1.6394e-05           -4e-14                5.0718e-09            1.6394e-05           
  -3.6                  -1.6408e-05           4e-14                 7.8498e-09            1.6408e-05           
END_DB

BEGIN_DB
 ICCAP_VAR vg         -2.174         
 ICCAP_VAR vb         -0             
 ICCAP_VAR vs         -0             

 #vd                    id                    ig                    ib                    is                   
  -0                    1.8072e-09            -4.2e-13              -5.94e-12             -1.8912e-09          
  -0.1                  -8.1878e-06           -3.8e-13              -5.94e-12             8.192e-06            
  -0.2                  -1.5616e-05           -3.2e-13              -5.64e-12             1.5622e-05           
  -0.3                  -2.227e-05            -2e-13                -5.32e-12             2.2274e-05           
  -0.4                  -2.8142e-05           -2.6e-13              -5.08e-12             2.8148e-05           
  -0.5                  -3.3272e-05           -2.4e-13              -4.76e-12             3.3276e-05           
  -0.6                  -3.7642e-05           -2e-13                -4.28e-12             3.7648e-05           
  -0.7                  -4.1266e-05           -3.2e-13              -3.94e-12             4.1276e-05           
  -0.8                  -4.418e-05            -2.8e-13              -3.5e-12              4.4184e-05           
  -0.9                  -4.6394e-05           -1.6e-13              -2.92e-12             4.6404e-05           
  -1                    -4.7972e-05           -1.6e-13              -2.76e-12             4.7972e-05           
  -1.1                  -4.9002e-05           -4e-14                -2.26e-12             4.9008e-05           
  -1.2                  -4.9626e-05           -2e-13                -1.84e-12             4.9634e-05           
  -1.3                  -4.9994e-05           -3e-13                -1.5e-12              5.0004e-05           
  -1.4                  -5.0226e-05           -8e-14                -1.2e-12              5.0236e-05           
  -1.5                  -5.0386e-05           -1.6e-13              -6.8e-13              5.0392e-05           
  -1.6                  -5.0508e-05           -2e-13                -4.6e-13              5.051e-05            
  -1.7                  -5.0608e-05           -8e-14                -1.6e-13              5.0614e-05           
  -1.8                  -5.0698e-05           -2.2e-13              1.8e-13               5.0706e-05           
  -1.9                  -5.0776e-05           -2.2e-13              3.4e-13               5.0776e-05           
  -2                    -5.0838e-05           -3e-13                6.4e-13               5.0848e-05           
  -2.1                  -5.0904e-05           -2.2e-13              9.4e-13               5.0908e-05           
  -2.2                  -5.0956e-05           -1.6e-13              1.32e-12              5.097e-05            
  -2.3                  -5.1012e-05           -1.2e-13              1.42e-12              5.102e-05            
  -2.4                  -5.1056e-05           -1.6e-13              1.76e-12              5.1068e-05           
  -2.5                  -5.1108e-05           -2e-13                2.22e-12              5.1112e-05           
  -2.6                  -5.1156e-05           -1e-13                2.9e-12               5.1156e-05           
  -2.7                  -5.119e-05            -6e-14                4.72e-12              5.1206e-05           
  -2.8                  -5.124e-05            -1e-13                8.68e-12              5.1246e-05           
  -2.9                  -5.1278e-05           -8e-14                1.768e-11             5.1286e-05           
  -3                    -5.1314e-05           -1.6e-13              3.718e-11             5.132e-05            
  -3.1                  -5.1352e-05           -1.2e-13              7.668e-11             5.136e-05            
  -3.2                  -5.1388e-05           -8e-14                1.5386e-10            5.1396e-05           
  -3.3                  -5.1426e-05           -2.2e-13              2.9796e-10            5.1432e-05           
  -3.4                  -5.1462e-05           0                     5.5564e-10            5.1464e-05           
  -3.5                  -5.1502e-05           -1e-13                1.00292e-09           5.1506e-05           
  -3.6                  -5.1536e-05           -2.4e-13              1.7596e-09            5.1538e-05           
END_DB

BEGIN_DB
 ICCAP_VAR vg         -2.887         
 ICCAP_VAR vb         -0             
 ICCAP_VAR vs         -0             

 #vd                    id                    ig                    ib                    is                   
  -0                    1.9876e-09            -7e-13                -2.3e-12              -2.3832e-09          
  -0.1                  -1.0996e-05           -3.8e-13              -2.46e-12             1.1002e-05           
  -0.2                  -2.1332e-05           -3.6e-13              -2.42e-12             2.134e-05            
  -0.3                  -3.0988e-05           -3.8e-13              -2.12e-12             3.0994e-05           
  -0.4                  -3.9948e-05           -4e-13                -2.04e-12             3.9956e-05           
  -0.5                  -4.8244e-05           -3e-13                -1.68e-12             4.8254e-05           
  -0.6                  -5.5876e-05           -3.2e-13              -1.34e-12             5.5888e-05           
  -0.7                  -6.282e-05            -2.6e-13              -1.18e-12             6.2836e-05           
  -0.8                  -6.9112e-05           -2.6e-13              -9.4e-13              6.912e-05            
  -0.9                  -7.472e-05            -3.2e-13              -4.6e-13              7.4732e-05           
  -1                    -7.9666e-05           -2.4e-13              -2e-13                7.9672e-05           
  -1.1                  -8.397e-05            -2.8e-13              -2e-14                8.3982e-05           
  -1.2                  -8.7648e-05           -2.2e-13              4.4e-13               8.7638e-05           
  -1.3                  -9.066e-05            -1e-13                6.4e-13               9.0666e-05           
  -1.4                  -9.3078e-05           -2.6e-13              8.4e-13               9.3072e-05           
  -1.5                  -9.4956e-05           -1.2e-13              1.16e-12              9.498e-05            
  -1.6                  -9.6362e-05           -2.2e-13              1.4e-12               9.6352e-05           
  -1.7                  -9.7332e-05           -2.2e-13              1.54e-12              9.7342e-05           
  -1.8                  -9.8008e-05           -2e-13                1.74e-12              9.802e-05            
  -1.9                  -9.849e-05            -2.4e-13              2.02e-12              9.8492e-05           
  -2                    -9.882e-05            -1.8e-13              2.14e-12              9.8834e-05           
  -2.1                  -9.9088e-05           -3.4e-13              2.48e-12              9.9102e-05           
  -2.2                  -9.9328e-05           -2.2e-13              2.56e-12              9.934e-05            
  -2.3                  -9.951e-05            -1e-13                2.74e-12              9.95e-05             
  -2.4                  -9.9658e-05           -1.8e-13              2.94e-12              9.9656e-05           
  -2.5                  -9.978e-05            -1.6e-13              3.16e-12              9.9798e-05           
  -2.6                  -9.9914e-05           -1e-13                3.22e-12              9.9918e-05           
  -2.7                  -0.000100028          -2.6e-13              3.34e-12              0.000100022          
  -2.8                  -0.000100114          -1.4e-13              3.6e-12               0.000100116          
  -2.9                  -0.0001002            -8e-14                3.94e-12              0.000100214          
  -3                    -0.000100306          -8e-14                4.36e-12              0.000100288          
  -3.1                  -0.000100368          -1e-13                5.56e-12              0.000100368          
  -3.2                  -0.00010045           -1.2e-13              8.22e-12              0.000100464          
  -3.3                  -0.00010053           -1.8e-13              1.436e-11             0.000100546          
  -3.4                  -0.000100606          -1.2e-13              2.868e-11             0.000100616          
  -3.5                  -0.000100692          -1.6e-13              5.89e-11              0.000100694          
  -3.6                  -0.000100768          -8e-14                1.2042e-10            0.000100758          
END_DB

BEGIN_DB
 ICCAP_VAR vg         -3.6           
 ICCAP_VAR vb         -0             
 ICCAP_VAR vs         -0             

 #vd                    id                    ig                    ib                    is                   
  -0                    2.0786e-09            -5.2e-13              -1.66e-12             -2.7088e-09          
  -0.1                  -1.3258e-05           -4.6e-13              -1.86e-12             1.3264e-05           
  -0.2                  -2.5942e-05           -3.8e-13              -1.7e-12              2.5946e-05           
  -0.3                  -3.8014e-05           -2.8e-13              -1.5e-12              3.802e-05            
  -0.4                  -4.946e-05            -2.8e-13              -1.2e-12              4.947e-05            
  -0.5                  -6.0344e-05           -2e-13                -1e-12                6.035e-05            
  -0.6                  -7.062e-05            -4e-13                -8.4e-13              7.0624e-05           
  -0.7                  -8.0274e-05           -4e-13                -5e-13                8.0288e-05           
  -0.8                  -8.9352e-05           -2e-13                -2.4e-13              8.937e-05            
