! VERSION = 6.00
BEGIN_HEADER
 ICCAP_INPUTS
  vg         V  G GROUND SMU2 0.001 LIN        1    0.5        -3.6       83   -0.05     
  vb         V  B GROUND SMU4 0.1 LIN        2    0          3.6        5    0.9       
  vd         V  D GROUND SMU1 0.1 LIN        3    -0.1       -3.3       3    -1.6      
  vs         V  S GROUND SMU3 0.1 CON        -0
 ICCAP_OUTPUTS
  id         I  D GROUND SMU1 B
  ig         I  G GROUND SMU2 B
  ib         I  B GROUND SMU4 B
  is         I  S GROUND SMU3 B
 ICCAP_VALUES
  MASTER_SETUP_TYPE "~dc_idvg~"
  LINVT_VALUE ""
  LISTVT_VALUE ""
  TYPE "-1"
  TEMP " 27.0000 "
  IS_TNOM " 1.00000 "
  MAIN.W "2.000u"
  MAIN.L "1.200u"
  MAIN.AD "680.0f"
  MAIN.AS "680.0f"
  MAIN.PD "4.680u"
  MAIN.PS "4.680u"
  MAIN.NF "1.000"
  MAIN.M "1"
  MAIN.NRD "0.000"
  MAIN.NRS "0.000"
  MAIN.LDRIFT1 "1E-06"
  MAIN.LDRIFT2 "1E-06"
  MAIN.SA "0.000"
  MAIN.SB "0.000"
  MAIN.SD "0.000"
  MAIN.SCA "0.000"
  MAIN.SCB "0.000"
  MAIN.SCC "0.000"
  MAIN.SC "0.000"
  MODULE "S563"
  PIN_D "16"
  PIN_G "5"
  PIN_S "6"
  PIN_B "15"
  PIN_E ""
  PIN_6 ""
  XY_ID ""
  FUNC "LW Scale"
  STI "SA ref"
  WPE "WPE ref"
  COMMENT ""
  DIS_MEAS ""
  TypeTCI "10"
END_HEADER

BEGIN_DB
 ICCAP_VAR vb         0              
 ICCAP_VAR vd         -0.1           
 ICCAP_VAR vs         -0             

 #vg                    id                    ig                    ib                    is                   
  0.5                   -4e-14                1.876e-11             -5.02e-12             1.6e-13              
  0.45                  6e-14                 2.84e-12              -9e-13                1.2e-13              
  0.4                   -8e-14                5.2e-13               -3.2e-13              2.2e-13              
  0.35                  6e-14                 -4e-14                -6e-14                1e-13                
  0.3                   6e-14                 -4e-14                -1e-13                1.8e-13              
  0.25                  8e-14                 -6e-14                0                     -2e-14               
  0.2                   8e-14                 -2.2e-13              -1.6e-13              1.8e-13              
  0.15                  4e-14                 -1.8e-13              -2e-14                0                    
  0.1                   6e-14                 -2.2e-13              2e-14                 4e-14                
  0.05                  -2e-14                -1.8e-13              -1.2e-13              2.2e-13              
  0                     1.4e-13               -3.8e-13              -6e-14                -4e-14               
  -0.05                 1e-13                 -2.8e-13              -4e-14                1.4e-13              
  -0.1                  -1.4e-13              -3.6e-13              -8e-14                2e-13                
  -0.15                 -3.6e-13              -3.4e-13              -1.6e-13              8e-13                
  -0.2                  -1.32e-12             -3.8e-13              -1.2e-13              1.38e-12             
  -0.25                 -4.4e-12              -3.2e-13              -1.4e-13              4.78e-12             
  -0.3                  -1.548e-11            -3.6e-13              -1.8e-13              1.562e-11            
  -0.35                 -5.396e-11            -4.6e-13              -1.4e-13              5.41e-11             
  -0.4                  -1.8798e-10           -5.4e-13              -1.6e-13              1.8828e-10           
  -0.45                 -6.6076e-10           -3.6e-13              -2e-14                6.6072e-10           
  -0.5                  -2.3164e-09           -3e-13                -1e-13                2.3192e-09           
  -0.55                 -8.013e-09            -4.8e-13              -4e-14                8.0124e-09           
  -0.6                  -2.5962e-08           -3.8e-13              -4e-14                2.5994e-08           
  -0.65                 -7.4052e-08           -4.4e-13              -1.8e-13              7.4076e-08           
  -0.7                  -1.7714e-07           -4.2e-13              0                     1.7736e-07           
  -0.75                 -3.5404e-07           -4.6e-13              -3.2e-13              3.5428e-07           
  -0.8                  -6.0248e-07           -4.2e-13              0                     6.0294e-07           
  -0.85                 -9.0702e-07           -4e-13                -1.4e-13              9.076e-07            
  -0.9                  -1.2436e-06           -4.4e-13              -1e-13                1.2466e-06           
  -0.95                 -1.6004e-06           -4.2e-13              -1.6e-13              1.6044e-06           
  -1                    -1.965e-06            -3.8e-13              -8e-14                1.9688e-06           
  -1.05                 -2.3324e-06           -5.6e-13              -2e-14                2.3368e-06           
  -1.1                  -2.698e-06            -4.8e-13              -1.4e-13              2.7014e-06           
  -1.15                 -3.0604e-06           -4.6e-13              8e-14                 3.0646e-06           
  -1.2                  -3.417e-06            -5e-13                -4e-14                3.4206e-06           
  -1.25                 -3.7698e-06           -5e-13                0                     3.7736e-06           
  -1.3                  -4.117e-06            -4.8e-13              -1e-13                4.121e-06            
  -1.35                 -4.4566e-06           -6e-13                -1e-13                4.4604e-06           
  -1.4                  -4.7918e-06           -6.4e-13              -6e-14                4.7958e-06           
  -1.45                 -5.1202e-06           -5.4e-13              -1.4e-13              5.1238e-06           
  -1.5                  -5.4434e-06           -6.8e-13              -1.8e-13              5.4472e-06           
  -1.55                 -5.759e-06            -5.8e-13              6e-14                 5.7628e-06           
  -1.6                  -6.071e-06            -6e-13                -1.6e-13              6.0744e-06           
  -1.65                 -6.3756e-06           -5e-13                -6e-14                6.3796e-06           
  -1.7                  -6.6754e-06           -6.8e-13              -8e-14                6.6788e-06           
  -1.75                 -6.9692e-06           -6e-13                -1.4e-13              6.9736e-06           
  -1.8                  -7.2582e-06           -6.2e-13              -4e-14                7.2622e-06           
  -1.85                 -7.5422e-06           -6.8e-13              -1.6e-13              7.5458e-06           
  -1.9                  -7.821e-06            -6.2e-13              0                     7.8244e-06           
  -1.95                 -8.0954e-06           -6.2e-13              -6e-14                8.0996e-06           
  -2                    -8.3648e-06           -6.8e-13              -1.6e-13              8.368e-06            
  -2.05                 -8.6292e-06           -6e-13                -1e-13                8.6316e-06           
  -2.1                  -8.8876e-06           -6.6e-13              -1e-13                8.8916e-06           
  -2.15                 -9.1418e-06           -7e-13                -4e-14                9.1442e-06           
  -2.2                  -9.3906e-06           -7.6e-13              -1.6e-13              9.395e-06            
  -2.25                 -9.637e-06            -6.6e-13              -8e-14                9.6412e-06           
  -2.3                  -9.8796e-06           -6.8e-13              0                     9.8834e-06           
  -2.35                 -1.0117e-05           -7.2e-13              -6e-14                1.01202e-05          
  -2.4                  -1.03514e-05          -6.4e-13              0                     1.0354e-05           
  -2.45                 -1.05796e-05          -6.6e-13              -8e-14                1.05836e-05          
  -2.5                  -1.08036e-05          -6.8e-13              -1.2e-13              1.0808e-05           
  -2.55                 -1.10264e-05          -6.6e-13              -4e-14                1.10294e-05          
  -2.6                  -1.1243e-05           -8.6e-13              -6e-14                1.12466e-05          
  -2.65                 -1.14566e-05          -7.2e-13              -1.4e-13              1.14616e-05          
  -2.7                  -1.1658e-05           -7.8e-13              -4e-14                1.1678e-05           
  -2.75                 -1.1864e-05           -7e-13                -1e-13                1.1884e-05           
  -2.8                  -1.2068e-05           -6.8e-13              0                     1.2088e-05           
  -2.85                 -1.2268e-05           -7e-13                -1e-13                1.2288e-05           
  -2.9                  -1.2468e-05           -6.6e-13              -1.2e-13              1.2488e-05           
  -2.95                 -1.266e-05            -8.2e-13              -2e-14                1.268e-05            
  -3                    -1.2852e-05           -7.2e-13              -8e-14                1.2872e-05           
  -3.05                 -1.3038e-05           -7e-13                -2e-14                1.306e-05            
  -3.1                  -1.3224e-05           -7e-13                -2e-14                1.3244e-05           
  -3.15                 -1.3404e-05           -8e-13                -1e-13                1.3426e-05           
  -3.2                  -1.3584e-05           -7.6e-13              -6e-14                1.3604e-05           
  -3.25                 -1.3758e-05           -7.8e-13              -1.2e-13              1.3776e-05           
  -3.3                  -1.3928e-05           -7.4e-13              0                     1.3946e-05           
  -3.35                 -1.4096e-05           -7.8e-13              -8e-14                1.4116e-05           
  -3.4                  -1.4262e-05           -7.8e-13              -6e-14                1.4282e-05           
  -3.45                 -1.4424e-05           -8.2e-13              -4e-14                1.4444e-05           
  -3.5                  -1.4584e-05           -7.6e-13              -4e-14                1.4602e-05           
  -3.55                 -1.4742e-05           -8e-13                -1.2e-13              1.4762e-05           
  -3.6                  -1.49e-05             -7.8e-13              0                     1.4918e-05           
END_DB

BEGIN_DB
 ICCAP_VAR vb         0.9            
 ICCAP_VAR vd         -0.1           
 ICCAP_VAR vs         -0             

 #vg                    id                    ig                    ib                    is                   
  0.5                   -8e-14                6.4e-13               4.6e-13               1.6e-13              
  0.45                  -2e-14                4e-13                 3.8e-13               1e-13                
  0.4                   2e-14                 2.2e-13               3.2e-13               3.2e-13              
  0.35                  -6e-14                1.6e-13               3.6e-13               1.6e-13              
  0.3                   -6e-14                1.8e-13               3.8e-13               1.6e-13              
  0.25                  -2e-14                1.8e-13               2.4e-13               1.4e-13              
  0.2                   8e-14                 0                     2.2e-13               4e-14                
  0.15                  4e-14                 0                     2.6e-13               2.2e-13              
  0.1                   -6e-14                2e-14                 2.8e-13               -4e-14               
  0.05                  0                     -6e-14                2.2e-13               -2e-14               
  0                     -2e-14                -2e-14                2.2e-13               1.8e-13              
  -0.05                 0                     -6e-14                2.8e-13               -1e-13               
  -0.1                  4e-14                 -2.4e-13              0                     3.6e-13              
  -0.15                 1.2e-13               -2e-13                1.2e-13               -2e-14               
  -0.2                  6e-14                 -2.2e-13              1.4e-13               2.8e-13              
  -0.25                 6e-14                 -1.6e-13              2e-13                 0                    
  -0.3                  2e-14                 -2.6e-13              1e-13                 2.4e-13              
  -0.35                 1.4e-13               -2.6e-13              1.2e-13               1.2e-13              
  -0.4                  0                     -2e-13                6e-14                 2e-13                
  -0.45                 6e-14                 -3.4e-13              4e-14                 2.4e-13              
  -0.5                  -2e-14                -2.8e-13              4e-14                 2e-13                
  -0.55                 -1e-13                -2.6e-13              8e-14                 2.2e-13              
  -0.6                  -7.8e-13              -3.4e-13              1.8e-13               9.6e-13              
  -0.65                 -3.02e-12             -2.4e-13              1.4e-13               3.06e-12             
  -0.7                  -1.234e-11            -3e-13                6e-14                 1.242e-11            
  -0.75                 -5e-11                -2e-13                2.8e-13               5e-11                
  -0.8                  -2.0118e-10           -4.2e-13              6e-14                 2.0134e-10           
  -0.85                 -8.1112e-10           -3.8e-13              1.8e-13               8.1044e-10           
  -0.9                  -3.2034e-09           -2.2e-13              1.8e-13               3.2044e-09           
  -0.95                 -1.2074e-08           -4e-13                6e-14                 1.21e-08             
  -1                    -4.004e-08            -3.4e-13              6e-14                 4.0062e-08           
  -1.05                 -1.09576e-07          -4.6e-13              1.8e-13               1.09612e-07          
  -1.1                  -2.4078e-07           -5e-13                6e-14                 2.4098e-07           
  -1.15                 -4.3894e-07           -3.6e-13              2.2e-13               4.3896e-07           
  -1.2                  -6.9044e-07           -4.6e-13              4e-14                 6.906e-07            
  -1.25                 -9.7838e-07           -3.6e-13              1.6e-13               9.7864e-07           
  -1.3                  -1.2848e-06           -3.6e-13              1.4e-13               1.2886e-06           
  -1.35                 -1.601e-06            -3.4e-13              1.4e-13               1.6048e-06           
  -1.4                  -1.9228e-06           -5.2e-13              6e-14                 1.9264e-06           
  -1.45                 -2.243e-06            -4.8e-13              1e-13                 2.247e-06            
  -1.5                  -2.5626e-06           -4.2e-13              1.4e-13               2.5662e-06           
  -1.55                 -2.8776e-06           -6.6e-13              0                     2.8812e-06           
  -1.6                  -3.1906e-06           -5.2e-13              1.8e-13               3.1946e-06           
  -1.65                 -3.498e-06            -6.2e-13              -2e-14                3.5014e-06           
  -1.7                  -3.8006e-06           -5e-13                1e-13                 3.8042e-06           
  -1.75                 -4.0994e-06           -5.6e-13              -6e-14                4.1028e-06           
  -1.8                  -4.3922e-06           -6e-13                6e-14                 4.3962e-06           
  -1.85                 -4.6814e-06           -5e-13                1.4e-13               4.685e-06            
  -1.9                  -4.9646e-06           -6.2e-13              0                     4.9682e-06           
  -1.95                 -5.2446e-06           -6e-13                1e-13                 5.248e-06            
  -2                    -5.5196e-06           -4.6e-13              1.4e-13               5.523e-06            
  -2.05                 -5.789e-06            -6.8e-13              0                     5.7924e-06           
  -2.1                  -6.0554e-06           -5.4e-13              1.4e-13               6.0596e-06           
  -2.15                 -6.3164e-06           -5.8e-13              2e-14                 6.3204e-06           
  -2.2                  -6.5734e-06           -6.4e-13              1.2e-13               6.5766e-06           
  -2.25                 -6.825e-06            -6e-13                1.2e-13               6.8286e-06           
  -2.3                  -7.0746e-06           -5.6e-13              -2e-14                7.078e-06            
  -2.35                 -7.318e-06            -4.8e-13              1e-13                 7.321e-06            
  -2.4                  -7.5598e-06           -6.2e-13              0                     7.5628e-06           
  -2.45                 -7.794e-06            -6.4e-13              1.4e-13               7.7984e-06           
  -2.5                  -8.0278e-06           -6.8e-13              1e-13                 8.0312e-06           
  -2.55                 -8.2564e-06           -5.8e-13              0                     8.2596e-06           
  -2.6                  -8.4818e-06           -6.8e-13              1.4e-13               8.4858e-06           
  -2.65                 -8.7038e-06           -7e-13                0                     8.7074e-06           
  -2.7                  -8.9216e-06           -7.6e-13              2e-14                 8.9252e-06           
  -2.75                 -9.135e-06            -6.6e-13              2e-14                 9.14e-06             
  -2.8                  -9.3482e-06           -7.2e-13              -8e-14                9.3526e-06           
  -2.85                 -9.5546e-06           -7e-13                1.8e-13               9.5582e-06           
  -2.9                  -9.7578e-06           -6e-13                -4e-14                9.7616e-06           
  -2.95                 -9.9582e-06           -6.4e-13              2e-14                 9.9614e-06           
  -3                    -1.01558e-05          -6.8e-13              4e-14                 1.01594e-05          
  -3.05                 -1.03506e-05          -5.2e-13              6e-14                 1.03544e-05          
  -3.1                  -1.05428e-05          -7.4e-13              8e-14                 1.0546e-05           
  -3.15                 -1.07304e-05          -7.2e-13              0                     1.0733e-05           
  -3.2                  -1.0914e-05           -6.8e-13              2e-14                 1.09188e-05          
  -3.25                 -1.10978e-05          -7.4e-13              0                     1.11002e-05          
  -3.3                  -1.12756e-05          -7.4e-13              1e-13                 1.1279e-05           
  -3.35                 -1.14538e-05          -7.6e-13              2e-14                 1.14564e-05          
  -3.4                  -1.1618e-05           -6.4e-13              0                     1.1636e-05           
  -3.45                 -1.1788e-05           -6.8e-13              6e-14                 1.1806e-05           
