! VERSION = 6.00
BEGIN_HEADER
 ICCAP_INPUTS
  vd         V  D GROUND SMU1 0.1 LIN        1    -0         -3.6       37   -0.1      
  vg         V  G GROUND SMU2 0.001 LIST       2 3 -0.496 -0.696 -0.896
  vb         V  B GROUND SMU4 0.1 CON        -0
  vs         V  S GROUND SMU3 0.1 CON        -0
 ICCAP_OUTPUTS
  id         I  D GROUND SMU1 B
  ig         I  G GROUND SMU2 B
  ib         I  B GROUND SMU4 B
  is         I  S GROUND SMU3 B
 ICCAP_VALUES
  MASTER_SETUP_TYPE "~dc_idvd~"
  LINVT_VALUE ""
  LISTVT_VALUE "|idvg|100.0n|-200.0m|1.000m|3|200.0m|200.0m|"
  TYPE "-1"
  TEMP " 27.0000 "
  IS_TNOM " 1.00000 "
  MAIN.W "5.000u"
  MAIN.L "5.000u"
  MAIN.AD "1.700p"
  MAIN.AS "1.700p"
  MAIN.PD "10.68u"
  MAIN.PS "10.68u"
  MAIN.NF "1.000"
  MAIN.M "1"
  MAIN.NRD "0.000"
  MAIN.NRS "0.000"
  MAIN.LDRIFT1 "1E-06"
  MAIN.LDRIFT2 "1E-06"
  MAIN.SA "0.000"
  MAIN.SB "0.000"
  MAIN.SD "0.000"
  MAIN.SCA "0.000"
  MAIN.SCB "0.000"
  MAIN.SCC "0.000"
  MAIN.SC "0.000"
  MODULE "S562"
  PIN_D "12"
  PIN_G "9"
  PIN_S "10"
  PIN_B "11"
  PIN_E ""
  PIN_6 ""
  XY_ID ""
  FUNC "LW Scale"
  STI "SA ref"
  WPE "WPE ref"
  COMMENT ""
  DIS_MEAS ""
  TypeTCI "10"
END_HEADER

BEGIN_DB
 ICCAP_VAR vg         -0.496         
 ICCAP_VAR vb         -0             
 ICCAP_VAR vs         -0             

 #vd                    id                    ig                    ib                    is                   
  -0                    2.16e-12              3.8e-13               -1.8e-13              -3.16e-12            
  -0.1                  -1.274e-09            4.2e-13               -1e-13                1.2752e-09           
  -0.2                  -1.3022e-09           4.6e-13               -1e-13                1.3034e-09           
  -0.3                  -1.304e-09            3.4e-13               -8e-14                1.305e-09            
  -0.4                  -1.3044e-09           3.2e-13               4e-14                 1.3054e-09           
  -0.5                  -1.3052e-09           3.6e-13               -1.6e-13              1.3062e-09           
  -0.6                  -1.3058e-09           4.2e-13               -4e-14                1.3068e-09           
  -0.7                  -1.3064e-09           3.2e-13               -2e-14                1.3076e-09           
  -0.8                  -1.3066e-09           3.6e-13               -8e-14                1.3076e-09           
  -0.9                  -1.3074e-09           3.6e-13               -6e-14                1.3078e-09           
  -1                    -1.3076e-09           2.8e-13               -6e-14                1.3082e-09           
  -1.1                  -1.3082e-09           4.2e-13               2e-14                 1.3084e-09           
  -1.2                  -1.308e-09            2.6e-13               2e-14                 1.3088e-09           
  -1.3                  -1.3084e-09           4e-13                 4e-14                 1.3092e-09           
  -1.4                  -1.3086e-09           1.8e-13               -1.2e-13              1.3092e-09           
  -1.5                  -1.3094e-09           2.8e-13               -2e-14                1.3098e-09           
  -1.6                  -1.3096e-09           2.2e-13               -2e-14                1.31e-09             
  -1.7                  -1.3098e-09           2.2e-13               -2e-14                1.31e-09             
  -1.8                  -1.31e-09             1.8e-13               4e-14                 1.3108e-09           
  -1.9                  -1.3106e-09           2e-13                 -2e-14                1.3106e-09           
  -2                    -1.3106e-09           2.2e-13               -6e-14                1.311e-09            
  -2.1                  -1.311e-09            2e-13                 0                     1.3112e-09           
  -2.2                  -1.3114e-09           1e-13                 0                     1.3118e-09           
  -2.3                  -1.3118e-09           2e-13                 1.2e-13               1.3116e-09           
  -2.4                  -1.312e-09            2.4e-13               0                     1.312e-09            
  -2.5                  -1.3122e-09           1.8e-13               1.6e-13               1.3122e-09           
  -2.6                  -1.312e-09            2e-13                 1.6e-13               1.3124e-09           
  -2.7                  -1.3128e-09           2.2e-13               3e-13                 1.3122e-09           
  -2.8                  -1.3128e-09           2.6e-13               6.4e-13               1.3124e-09           
  -2.9                  -1.3134e-09           8e-14                 8.6e-13               1.3128e-09           
  -3                    -1.3144e-09           2.6e-13               1.28e-12              1.3128e-09           
  -3.1                  -1.3152e-09           2.4e-13               2.04e-12              1.3132e-09           
  -3.2                  -1.3164e-09           1.8e-13               2.92e-12              1.3134e-09           
  -3.3                  -1.3178e-09           1.2e-13               4.32e-12              1.3136e-09           
  -3.4                  -1.3196e-09           2.2e-13               5.96e-12              1.3138e-09           
  -3.5                  -1.3222e-09           1.4e-13               8.42e-12              1.3138e-09           
  -3.6                  -1.3256e-09           1.6e-13               1.156e-11             1.3142e-09           
END_DB

BEGIN_DB
 ICCAP_VAR vg         -0.696         
 ICCAP_VAR vb         -0             
 ICCAP_VAR vs         -0             

 #vd                    id                    ig                    ib                    is                   
  -0                    1.4686e-10            1e-13                 -6e-14                -1.4818e-10          
  -0.1                  -9.568e-08            1.6e-13               0                     9.57e-08             
  -0.2                  -1.00356e-07          1e-13                 4e-14                 1.00388e-07          
  -0.3                  -1.0046e-07           8e-14                 -1e-13                1.00592e-07          
  -0.4                  -1.0056e-07           6e-14                 -1.4e-13              1.00676e-07          
  -0.5                  -1.006e-07            1.6e-13               -8e-14                1.0071e-07           
  -0.6                  -1.0064e-07           -6e-14                0                     1.00772e-07          
  -0.7                  -1.0068e-07           -6e-14                -1e-13                1.0081e-07           
  -0.8                  -1.007e-07            -8e-14                -4e-14                1.00832e-07          
  -0.9                  -1.0074e-07           -2e-14                -1e-13                1.0087e-07           
  -1                    -1.0076e-07           8e-14                 6e-14                 1.00892e-07          
  -1.1                  -1.0078e-07           1.6e-13               2e-14                 1.00912e-07          
  -1.2                  -1.0082e-07           1.2e-13               -6e-14                1.00926e-07          
  -1.3                  -1.0082e-07           1e-13                 6e-14                 1.00946e-07          
  -1.4                  -1.0084e-07           1.8e-13               0                     1.00958e-07          
  -1.5                  -1.0084e-07           -2e-14                4e-14                 1.00976e-07          
  -1.6                  -1.0086e-07           4e-14                 2e-14                 1.00996e-07          
  -1.7                  -1.0088e-07           1e-13                 8e-14                 1.01022e-07          
  -1.8                  -1.009e-07            6e-14                 4e-14                 1.01018e-07          
  -1.9                  -1.009e-07            1e-13                 8e-14                 1.0104e-07           
  -2                    -1.0094e-07           4e-14                 6e-14                 1.01058e-07          
  -2.1                  -1.0096e-07           8e-14                 3.8e-13               1.01082e-07          
  -2.2                  -1.0098e-07           8e-14                 7.8e-13               1.01118e-07          
  -2.3                  -1.0102e-07           8e-14                 1.68e-12              1.01146e-07          
  -2.4                  -1.0102e-07           4e-14                 2.86e-12              1.01152e-07          
  -2.5                  -1.0104e-07           8e-14                 5.16e-12              1.01176e-07          
  -2.6                  -1.0106e-07           4e-14                 8.34e-12              1.01192e-07          
  -2.7                  -1.011e-07            1.2e-13               1.398e-11             1.01208e-07          
  -2.8                  -1.0112e-07           6e-14                 2.264e-11             1.01228e-07          
  -2.9                  -1.0116e-07           8e-14                 3.584e-11             1.01248e-07          
  -3                    -1.012e-07            4e-14                 5.574e-11             1.01258e-07          
  -3.1                  -1.0122e-07           4e-14                 8.48e-11              1.0126e-07           
  -3.2                  -1.0128e-07           2e-14                 1.268e-10             1.01278e-07          
  -3.3                  -1.0136e-07           -2e-14                1.8648e-10            1.01294e-07          
  -3.4                  -1.0144e-07           6e-14                 2.6968e-10            1.01308e-07          
  -3.5                  -1.0158e-07           -2e-14                3.8376e-10            1.01332e-07          
  -3.6                  -1.0176e-07           2e-14                 5.3754e-10            1.0134e-07           
END_DB

BEGIN_DB
 ICCAP_VAR vg         -0.896         
 ICCAP_VAR vb         -0             
 ICCAP_VAR vs         -0             

 #vd                    id                    ig                    ib                    is                   
  -0                    5.4338e-10            -6e-14                -6e-14                -5.67e-10            
  -0.1                  -6.7538e-07           0                     -8e-14                6.7568e-07           
  -0.2                  -8.7318e-07           -4e-14                -6e-14                8.7356e-07           
  -0.3                  -8.9248e-07           -1.8e-13              8e-14                 8.928e-07            
  -0.4                  -8.9408e-07           6e-14                 -1e-13                8.9438e-07           
  -0.5                  -8.9482e-07           -1e-13                -2e-14                8.9494e-07           
  -0.6                  -8.9514e-07           -4e-14                2e-14                 8.9544e-07           
  -0.7                  -8.9552e-07           -1.2e-13              2e-14                 8.9586e-07           
  -0.8                  -8.959e-07            2e-14                 -1e-13                8.963e-07            
  -0.9                  -8.9634e-07           8e-14                 -1.2e-13              8.966e-07            
  -1                    -8.9662e-07           0                     -8e-14                8.9696e-07           
  -1.1                  -8.9692e-07           -4e-14                0                     8.9724e-07           
  -1.2                  -8.9718e-07           0                     8e-14                 8.975e-07            
  -1.3                  -8.974e-07            -6e-14                6e-14                 8.9762e-07           
  -1.4                  -8.9754e-07           1.8e-13               1e-13                 8.9788e-07           
  -1.5                  -8.9776e-07           2e-14                 6e-14                 8.9804e-07           
  -1.6                  -8.9788e-07           -1.8e-13              0                     8.9816e-07           
  -1.7                  -8.9804e-07           -6e-14                0                     8.984e-07            
  -1.8                  -8.9822e-07           -4e-14                2e-13                 8.9852e-07           
  -1.9                  -8.9842e-07           -4e-14                2e-13                 8.9878e-07           
  -2                    -8.9858e-07           6e-14                 4.4e-13               8.988e-07            
  -2.1                  -8.9868e-07           -8e-14                1.04e-12              8.989e-07            
  -2.2                  -8.9882e-07           0                     2.5e-12               8.9902e-07           
  -2.3                  -8.989e-07            1.2e-13               4.96e-12              8.9922e-07           
  -2.4                  -8.9908e-07           -4e-14                9.5e-12               8.9936e-07           
  -2.5                  -8.9918e-07           -1.8e-13              1.772e-11             8.9954e-07           
  -2.6                  -8.994e-07            8e-14                 3.158e-11             8.9964e-07           
  -2.7                  -8.9948e-07           -2e-14                5.47e-11              8.9976e-07           
  -2.8                  -8.9968e-07           2e-14                 9.22e-11              8.9986e-07           
  -2.9                  -8.9982e-07           0                     1.5176e-10            9.0002e-07           
  -3                    -9.0008e-07           -4e-14                2.4424e-10            9.001e-07            
  -3.1                  -9.0034e-07           8e-14                 3.8486e-10            9.0026e-07           
  -3.2                  -9.0072e-07           4e-14                 5.9442e-10            9.0042e-07           
  -3.3                  -9.0116e-07           -1.4e-13              9.0094e-10            9.0056e-07           
  -3.4                  -9.018e-07            0                     1.341e-09             9.0066e-07           
  -3.5                  -9.024e-07            -4e-14                1.9616e-09            9.0074e-07           
  -3.6                  -9.0344e-07           -1e-13                2.8214e-09            9.0094e-07           
END_DB

