! VERSION = 6.00
BEGIN_HEADER
 ICCAP_INPUTS
  vd         V  D GROUND SMU1 0.1 LIN        1    -0         -3.6       37   -0.1      
  vg         V  G GROUND SMU2 0.001 LIN        2    -0.648     -3.6       5    -0.738    
  vb         V  B GROUND SMU4 0.1 CON        -0
  vs         V  S GROUND SMU3 0.1 CON        -0
 ICCAP_OUTPUTS
  id         I  D GROUND SMU1 B
  ig         I  G GROUND SMU2 B
  ib         I  B GROUND SMU4 B
  is         I  S GROUND SMU3 B
 ICCAP_VALUES
  MASTER_SETUP_TYPE "~dc_idvd~"
  LINVT_VALUE "|idvg|100.0n|100.0m|1.000m|5|3.600|"
  LISTVT_VALUE ""
  TYPE "-1"
  TEMP " 125.000 "
  IS_TNOM " 0.00000 "
  MAIN.W "600.0n"
  MAIN.L "500.0n"
  MAIN.AD "204.0f"
  MAIN.AS "204.0f"
  MAIN.PD "1.880u"
  MAIN.PS "1.880u"
  MAIN.NF "1.000"
  MAIN.M "1"
  MAIN.NRD "0.000"
  MAIN.NRS "0.000"
  MAIN.LDRIFT1 "1E-06"
  MAIN.LDRIFT2 "1E-06"
  MAIN.SA "0.000"
  MAIN.SB "0.000"
  MAIN.SD "0.000"
  MAIN.SCA "0.000"
  MAIN.SCB "0.000"
  MAIN.SCC "0.000"
  MAIN.SC "0.000"
  MODULE "S564"
  PIN_D "16"
  PIN_G "5"
  PIN_S "6"
  PIN_B "15"
  PIN_E ""
  PIN_6 ""
  XY_ID ""
  FUNC "LW Scale"
  STI "SA ref"
  WPE "WPE ref"
  COMMENT ""
  DIS_MEAS ""
  TypeTCI "10"
END_HEADER

BEGIN_DB
 ICCAP_VAR vg         -0.648         
 ICCAP_VAR vb         -0             
 ICCAP_VAR vs         -0             

 #vd                    id                    ig                    ib                    is                   
  -0                    1.1972e-10            1.4e-13               -8.426e-11            -1.8046e-10          
  -0.1                  -3.179e-07            1e-13                 -7.986e-11            3.18e-07             
  -0.2                  -3.7906e-07           1.2e-13               -7.224e-11            3.7912e-07           
  -0.3                  -3.9086e-07           1.4e-13               -6.886e-11            3.9092e-07           
  -0.4                  -3.9614e-07           1e-13                 -6.588e-11            3.9624e-07           
  -0.5                  -4.0024e-07           1.4e-13               -6.33e-11             4.0028e-07           
  -0.6                  -4.033e-07            1.6e-13               -6.024e-11            4.0354e-07           
  -0.7                  -4.0624e-07           2.2e-13               -5.82e-11             4.063e-07            
  -0.8                  -4.0884e-07           3e-13                 -5.562e-11            4.0892e-07           
  -0.9                  -4.1142e-07           1.6e-13               -5.4e-11              4.1146e-07           
  -1                    -4.1356e-07           8e-14                 -5.204e-11            4.1372e-07           
  -1.1                  -4.1576e-07           1.6e-13               -4.994e-11            4.1584e-07           
  -1.2                  -4.1802e-07           1e-13                 -4.846e-11            4.1826e-07           
  -1.3                  -4.2e-07              1.8e-13               -4.68e-11             4.2018e-07           
  -1.4                  -4.2196e-07           2.6e-13               -4.536e-11            4.2216e-07           
  -1.5                  -4.2394e-07           1.8e-13               -4.418e-11            4.2404e-07           
  -1.6                  -4.258e-07            8e-14                 -4.28e-11             4.2592e-07           
  -1.7                  -4.2744e-07           1.2e-13               -4.082e-11            4.2744e-07           
  -1.8                  -4.292e-07            1.6e-13               -3.994e-11            4.2942e-07           
  -1.9                  -4.309e-07            2.6e-13               -3.83e-11             4.3096e-07           
  -2                    -4.3262e-07           1.6e-13               -3.638e-11            4.3282e-07           
  -2.1                  -4.3432e-07           4e-14                 -3.442e-11            4.3444e-07           
  -2.2                  -4.361e-07            2.2e-13               -3.114e-11            4.361e-07            
  -2.3                  -4.3758e-07           2.6e-13               -2.656e-11            4.3768e-07           
  -2.4                  -4.3926e-07           1.4e-13               -1.88e-11             4.3956e-07           
  -2.5                  -4.41e-07             6e-14                 -8.36e-12             4.4104e-07           
  -2.6                  -4.425e-07            1.2e-13               8.8e-12               4.4264e-07           
  -2.7                  -4.4408e-07           1.8e-13               3.392e-11             4.4418e-07           
  -2.8                  -4.4554e-07           1.6e-13               7.118e-11             4.457e-07            
  -2.9                  -4.473e-07            1e-13                 1.2576e-10            4.4634e-07           
  -3                    -4.488e-07            1.6e-13               2.0598e-10            4.487e-07            
  -3.1                  -4.5046e-07           1.6e-13               3.1976e-10            4.5022e-07           
  -3.2                  -4.5202e-07           2.4e-13               4.81e-10              4.5174e-07           
  -3.3                  -4.5372e-07           1.8e-13               7.0522e-10            4.5282e-07           
  -3.4                  -4.5548e-07           6e-14                 1.01122e-09           4.5458e-07           
  -3.5                  -4.5748e-07           4e-14                 1.4168e-09            4.5602e-07           
  -3.6                  -4.5942e-07           2e-13                 1.9678e-09            4.5752e-07           
END_DB

BEGIN_DB
 ICCAP_VAR vg         -1.386         
 ICCAP_VAR vb         -0             
 ICCAP_VAR vs         -0             

 #vd                    id                    ig                    ib                    is                   
  -0                    9.2256e-10            -4.8e-13              -2.904e-11            -9.1328e-10          
  -0.1                  -3.3588e-06           -5e-13                -2.778e-11            3.3624e-06           
  -0.2                  -6.1056e-06           -3.8e-13              -2.27e-11             6.108e-06            
  -0.3                  -8.245e-06            -3.4e-13              -2.212e-11            8.2478e-06           
  -0.4                  -9.8038e-06           -2.2e-13              -2.142e-11            9.807e-06            
  -0.5                  -1.08536e-05          -3e-13                -2.082e-11            1.0857e-05           
  -0.6                  -1.1492e-05           -3e-13                -2.372e-11            1.14972e-05          
  -0.7                  -1.186e-05            -3e-13                -2.276e-11            1.1868e-05           
  -0.8                  -1.2078e-05           -1.8e-13              -1.892e-11            1.2086e-05           
  -0.9                  -1.2222e-05           -1.4e-13              -1.822e-11            1.2228e-05           
  -1                    -1.2324e-05           -3.4e-13              -1.8e-11              1.2334e-05           
  -1.1                  -1.2412e-05           -1e-13                -1.762e-11            1.242e-05            
  -1.2                  -1.2484e-05           -2.4e-13              -1.738e-11            1.249e-05            
  -1.3                  -1.2546e-05           -2e-13                -1.668e-11            1.2556e-05           
  -1.4                  -1.2606e-05           -1.4e-13              -1.728e-11            1.2608e-05           
  -1.5                  -1.2658e-05           -2.4e-13              -1.672e-11            1.2666e-05           
  -1.6                  -1.2708e-05           -2.2e-13              -1.608e-11            1.2714e-05           
  -1.7                  -1.2754e-05           -1.8e-13              -1.564e-11            1.2762e-05           
  -1.8                  -1.2798e-05           -1.2e-13              -1.536e-11            1.2806e-05           
  -1.9                  -1.2836e-05           -6e-14                -1.472e-11            1.2848e-05           
  -2                    -1.288e-05            -1.4e-13              -1.406e-11            1.2888e-05           
  -2.1                  -1.292e-05            -2e-13                -1.312e-11            1.2924e-05           
  -2.2                  -1.2958e-05           -2e-14                -1.042e-11            1.2966e-05           
  -2.3                  -1.2994e-05           -1.2e-13              -5.52e-12             1.3e-05              
  -2.4                  -1.3026e-05           -1.6e-13              3.76e-12              1.3038e-05           
  -2.5                  -1.3066e-05           -1.4e-13              2.194e-11             1.3074e-05           
  -2.6                  -1.3098e-05           -3.2e-13              5.424e-11             1.3108e-05           
  -2.7                  -1.3136e-05           -1.2e-13              1.114e-10             1.3142e-05           
  -2.8                  -1.3168e-05           -1.2e-13              2.0802e-10            1.3176e-05           
  -2.9                  -1.32e-05             -1.6e-13              3.6646e-10            1.3206e-05           
  -3                    -1.3234e-05           -6e-14                6.2298e-10            1.3242e-05           
  -3.1                  -1.3268e-05           -6e-14                1.02544e-09           1.3272e-05           
  -3.2                  -1.33e-05             -2e-13                1.652e-09             1.3306e-05           
  -3.3                  -1.333e-05            -8e-14                2.6e-09               1.3336e-05           
  -3.4                  -1.3366e-05           -6e-14                4.016e-09             1.3368e-05           
  -3.5                  -1.3398e-05           4e-14                 6.0978e-09            1.3398e-05           
  -3.6                  -1.343e-05            -1e-13                9.1064e-09            1.343e-05            
END_DB

BEGIN_DB
 ICCAP_VAR vg         -2.124         
 ICCAP_VAR vb         -0             
 ICCAP_VAR vs         -0             

 #vd                    id                    ig                    ib                    is                   
  -0                    1.4592e-09            -7.2e-13              -1.674e-11            -1.2992e-09          
  -0.1                  -5.8734e-06           -7.4e-13              -1.588e-11            5.877e-06            
  -0.2                  -1.12336e-05          -4.8e-13              -1.182e-11            1.12358e-05          
  -0.3                  -1.6058e-05           -4.4e-13              -1.518e-11            1.6068e-05           
  -0.4                  -2.0344e-05           -5.2e-13              -1.108e-11            2.0352e-05           
  -0.5                  -2.4112e-05           -4.8e-13              -1.064e-11            2.4122e-05           
  -0.6                  -2.737e-05            -4.4e-13              -1.002e-11            2.7376e-05           
  -0.7                  -3.0098e-05           -3.6e-13              -1.018e-11            3.0106e-05           
  -0.8                  -3.2346e-05           -3.4e-13              -1.02e-11             3.2348e-05           
  -0.9                  -3.4132e-05           -4.6e-13              -9.46e-12             3.414e-05            
  -1                    -3.5508e-05           -5.6e-13              -9.5e-12              3.5518e-05           
  -1.1                  -3.6544e-05           -3.6e-13              -9.06e-12             3.6548e-05           
  -1.2                  -3.7298e-05           -2.8e-13              -8.8e-12              3.731e-05            
  -1.3                  -3.7862e-05           -3.6e-13              -9.14e-12             3.787e-05            
  -1.4                  -3.8276e-05           -2.6e-13              -8.88e-12             3.828e-05            
  -1.5                  -3.8612e-05           -3.2e-13              -8.44e-12             3.8616e-05           
  -1.6                  -3.888e-05            -3.6e-13              -8.7e-12              3.8888e-05           
  -1.7                  -3.9104e-05           -4e-13                -8.12e-12             3.9108e-05           
  -1.8                  -3.9296e-05           -2e-13                -7.96e-12             3.9308e-05           
  -1.9                  -3.9468e-05           -2.4e-13              -7.98e-12             3.9474e-05           
  -2                    -3.9626e-05           -2e-13                -7.56e-12             3.9634e-05           
  -2.1                  -3.9774e-05           -3.2e-13              -7.7e-12              3.9778e-05           
  -2.2                  -3.9904e-05           -3e-13                -7.22e-12             3.9908e-05           
  -2.3                  -4.0024e-05           -3.6e-13              -6.88e-12             4.0034e-05           
  -2.4                  -4.014e-05            -2.8e-13              -6.42e-12             4.015e-05            
  -2.5                  -4.026e-05            -2.6e-13              -4.44e-12             4.0268e-05           
  -2.6                  -4.0366e-05           -2.6e-13              -6e-14                4.037e-05            
  -2.7                  -4.0464e-05           -3e-13                7.56e-12              4.0472e-05           
  -2.8                  -4.057e-05            -2.4e-13              2.478e-11             4.0572e-05           
  -2.9                  -4.066e-05            -1.6e-13              5.766e-11             4.0666e-05           
  -3                    -4.0756e-05           -8e-14                1.1726e-10            4.0768e-05           
  -3.1                  -4.0854e-05           -2e-13                2.2442e-10            4.0858e-05           
  -3.2                  -4.0944e-05           -2.2e-13              4.0988e-10            4.0942e-05           
  -3.3                  -4.1022e-05           -2e-13                7.194e-10             4.1026e-05           
  -3.4                  -4.1078e-05           -2e-13                1.2214e-09            4.1094e-05           
  -3.5                  -4.1176e-05           -1.8e-13              2.0352e-09            4.1176e-05           
  -3.6                  -4.1258e-05           -3e-13                3.3068e-09            4.1268e-05           
END_DB

BEGIN_DB
 ICCAP_VAR vg         -2.862         
 ICCAP_VAR vb         -0             
 ICCAP_VAR vs         -0             

 #vd                    id                    ig                    ib                    is                   
  -0                    1.7166e-09            -8.6e-13              -1.156e-11            -1.6012e-09          
  -0.1                  -7.8578e-06           -7.4e-13              -1.082e-11            7.8632e-06           
  -0.2                  -1.5276e-05           -5.6e-13              -1.062e-11            1.5282e-05           
  -0.3                  -2.2234e-05           -6e-13                -6.66e-12             2.2238e-05           
  -0.4                  -2.8706e-05           -5.4e-13              -6.44e-12             2.8706e-05           
  -0.5                  -3.4714e-05           -6.2e-13              -6.1e-12              3.4722e-05           
  -0.6                  -4.025e-05            -4.8e-13              -5.94e-12             4.0254e-05           
  -0.7                  -4.5292e-05           -5.8e-13              -5.68e-12             4.53e-05             
  -0.8                  -4.988e-05            -5e-13                -5.68e-12             4.9894e-05           
  -0.9                  -5.399e-05            -4e-13                -5.7e-12              5.4006e-05           
  -1                    -5.7654e-05           -4.6e-13              -5.56e-12             5.7656e-05           
  -1.1                  -6.0846e-05           -4.8e-13              -5.36e-12             6.0864e-05           
  -1.2                  -6.3628e-05           -4.8e-13              -5.6e-12              6.3628e-05           
  -1.3                  -6.5988e-05           -4.6e-13              -5e-12                6.6006e-05           
  -1.4                  -6.7954e-05           -4e-13                -4.92e-12             6.7986e-05           
  -1.5                  -6.961e-05            -4.2e-13              -4.84e-12             6.9624e-05           
  -1.6                  -7.0966e-05           -3.2e-13              -4.48e-12             7.0964e-05           
  -1.7                  -7.2038e-05           -3.4e-13              -4.46e-12             7.204e-05            
  -1.8                  -7.2928e-05           -3.8e-13              -4.78e-12             7.2938e-05           
  -1.9                  -7.3644e-05           -4.2e-13              -4.38e-12             7.3626e-05           
  -2                    -7.42e-05             -3e-13                -4.3e-12              7.4244e-05           
  -2.1                  -7.473e-05            -4e-13                -4.4e-12              7.4736e-05           
  -2.2                  -7.5138e-05           -3.6e-13              -4.08e-12             7.5154e-05           
  -2.3                  -7.55e-05             -4e-13                -4.3e-12              7.549e-05            
  -2.4                  -7.583e-05            -3.8e-13              -4.24e-12             7.5856e-05           
  -2.5                  -7.6122e-05           -4e-13                -3.78e-12             7.6144e-05           
  -2.6                  -7.6394e-05           -2.6e-13              -3.52e-12             7.6402e-05           
  -2.7                  -7.6648e-05           -3e-13                -3.36e-12             7.666e-05            
  -2.8                  -7.6872e-05           -3.2e-13              -2.06e-12             7.688e-05            
  -2.9                  -7.7084e-05           -5.2e-13              9e-13                 7.7092e-05           
  -3                    -7.7294e-05           -3.6e-13              6.26e-12              7.7304e-05           
  -3.1                  -7.7478e-05           -2.2e-13              1.888e-11             7.7476e-05           
  -3.2                  -7.765e-05            -2.8e-13              4.268e-11             7.7658e-05           
  -3.3                  -7.7818e-05           -2.6e-13              8.874e-11             7.7822e-05           
  -3.4                  -7.7976e-05           -3.2e-13              1.7254e-10            7.795e-05            
  -3.5                  -7.8096e-05           -4.2e-13              3.2234e-10            7.8112e-05           
  -3.6                  -7.8266e-05           -2.8e-13              5.803e-10             7.8246e-05           
END_DB

BEGIN_DB
 ICCAP_VAR vg         -3.6           
 ICCAP_VAR vb         -0             
 ICCAP_VAR vs         -0             

 #vd                    id                    ig                    ib                    is                   
  -0                    1.8584e-09            -8e-13                -8.56e-12             -1.728e-09           
  -0.1                  -9.4692e-06           -8e-13                -8e-12                9.4734e-06           
  -0.2                  -1.8552e-05           -7.4e-13              -7.7e-12              1.856e-05            
  -0.3                  -2.722e-05            -8.2e-13              -4.18e-12             2.7228e-05           
  -0.4                  -3.5444e-05           -6.6e-13              -3.68e-12             3.5456e-05           
  -0.5                  -4.3268e-05           -5.8e-13              -3.46e-12             4.3268e-05           
  -0.6                  -5.0654e-05           -4.8e-13              -3.48e-12             5.066e-05            
  -0.7                  -5.7584e-05           -6.2e-13              -3.06e-12             5.7602e-05           
  -0.8                  -6.4106e-05           -6.4e-13              -3.1e-12              6.412e-05            
