! VERSION = 6.00
BEGIN_HEADER
 ICCAP_INPUTS
  vg         V  G GROUND SMU2 0.001 LIN        1    0.5        -3.6       83   -0.05     
  vb         V  B GROUND SMU4 0.1 LIN        2    0          3.6        5    0.9       
  vd         V  D GROUND SMU1 0.1 LIN        3    -0.1       -3.3       3    -1.6      
  vs         V  S GROUND SMU3 0.1 CON        -0
 ICCAP_OUTPUTS
  id         I  D GROUND SMU1 B
  ig         I  G GROUND SMU2 B
  ib         I  B GROUND SMU4 B
  is         I  S GROUND SMU3 B
 ICCAP_VALUES
  MASTER_SETUP_TYPE "~dc_idvg~"
  LINVT_VALUE ""
  LISTVT_VALUE ""
  TYPE "-1"
  TEMP " 27.0000 "
  IS_TNOM " 1.00000 "
  MAIN.W "10.00u"
  MAIN.L "500.0n"
  MAIN.AD "3.400p"
  MAIN.AS "3.400p"
  MAIN.PD "20.68u"
  MAIN.PS "20.68u"
  MAIN.NF "1.000"
  MAIN.M "1"
  MAIN.NRD "0.000"
  MAIN.NRS "0.000"
  MAIN.LDRIFT1 "1E-06"
  MAIN.LDRIFT2 "1E-06"
  MAIN.SA "0.000"
  MAIN.SB "0.000"
  MAIN.SD "0.000"
  MAIN.SCA "0.000"
  MAIN.SCB "0.000"
  MAIN.SCC "0.000"
  MAIN.SC "0.000"
  MODULE "S561"
  PIN_D "14"
  PIN_G "7"
  PIN_S "8"
  PIN_B "13"
  PIN_E ""
  PIN_6 ""
  XY_ID ""
  FUNC "L Scale"
  STI "SA ref"
  WPE "WPE ref"
  COMMENT ""
  DIS_MEAS ""
  TypeTCI "10"
END_HEADER

BEGIN_DB
 ICCAP_VAR vb         0              
 ICCAP_VAR vd         -0.1           
 ICCAP_VAR vs         -0             

 #vg                    id                    ig                    ib                    is                   
  0.5                   -2e-14                1.86e-11              -4.3e-12              1.6e-13              
  0.45                  8e-14                 2.88e-12              -5.2e-13              6e-14                
  0.4                   8e-14                 4.8e-13               -8e-14                1.8e-13              
  0.35                  4e-14                 -4e-14                1e-13                 1.4e-13              
  0.3                   1.2e-13               -6e-14                0                     1.8e-13              
  0.25                  1.4e-13               -2.8e-13              -4e-14                1.2e-13              
  0.2                   1.2e-13               -2.4e-13              1e-13                 1.6e-13              
  0.15                  4e-14                 -4e-14                -4e-14                6e-14                
  0.1                   1.2e-13               -6e-13                2e-14                 2.8e-13              
  0.05                  -8e-14                -2.2e-13              2e-14                 1.6e-13              
  0                     -1.4e-13              -3.8e-13              0                     5e-13                
  -0.05                 -6.8e-13              -3.4e-13              2e-14                 6.4e-13              
  -0.1                  -2.18e-12             -3.4e-13              4e-14                 2.34e-12             
  -0.15                 -7.48e-12             -4.4e-13              4e-14                 7.56e-12             
  -0.2                  -2.512e-11            -3.4e-13              0                     2.528e-11            
  -0.25                 -8.55e-11             -3.6e-13              -6e-14                8.57e-11             
  -0.3                  -2.937e-10            -5.6e-13              -6e-14                2.9388e-10           
  -0.35                 -1.022e-09            -5.4e-13              0                     1.02194e-09          
  -0.4                  -3.5632e-09           -4e-13                -4e-14                3.5644e-09           
  -0.45                 -1.247e-08            -6e-13                -1.2e-13              1.2492e-08           
  -0.5                  -4.3428e-08           -3.8e-13              2e-14                 4.345e-08            
  -0.55                 -1.4736e-07           -5.8e-13              6e-14                 1.4758e-07           
  -0.6                  -4.624e-07            -6.2e-13              -1.2e-13              4.6234e-07           
  -0.65                 -1.2644e-06           -6.4e-13              2e-14                 1.2674e-06           
  -0.7                  -2.8948e-06           -4.8e-13              1e-13                 2.8974e-06           
  -0.75                 -5.5432e-06           -6.6e-13              -4e-14                5.5476e-06           
  -0.8                  -9.0908e-06           -6e-13                2e-14                 9.0948e-06           
  -0.85                 -1.3256e-05           -6.2e-13              -8e-14                1.3276e-05           
  -0.9                  -1.7748e-05           -6.2e-13              6e-14                 1.777e-05            
  -0.95                 -2.2388e-05           -5.6e-13              -1e-13                2.2406e-05           
  -1                    -2.702e-05            -8.6e-13              0                     2.7042e-05           
  -1.05                 -3.1616e-05           -7.2e-13              -2e-14                3.1638e-05           
  -1.1                  -3.6112e-05           -6e-13                -2e-14                3.6134e-05           
  -1.15                 -4.0528e-05           -8.2e-13              -4e-14                4.0542e-05           
  -1.2                  -4.4802e-05           -7.8e-13              -2e-14                4.482e-05            
  -1.25                 -4.901e-05            -5.8e-13              4e-14                 4.9032e-05           
  -1.3                  -5.3106e-05           -8.2e-13              0                     5.3122e-05           
  -1.35                 -5.7078e-05           -6e-13                0                     5.7094e-05           
  -1.4                  -6.0962e-05           -7.8e-13              4e-14                 6.0982e-05           
  -1.45                 -6.4746e-05           -5.6e-13              -4e-14                6.4766e-05           
  -1.5                  -6.8448e-05           -9.4e-13              -6e-14                6.847e-05            
  -1.55                 -7.2058e-05           -6.8e-13              -2e-14                7.2078e-05           
  -1.6                  -7.5592e-05           -8.2e-13              -2e-14                7.561e-05            
  -1.65                 -7.9034e-05           -7.6e-13              -8e-14                7.9058e-05           
  -1.7                  -8.2402e-05           -9.8e-13              4e-14                 8.2416e-05           
  -1.75                 -8.5682e-05           -6.2e-13              -8e-14                8.5698e-05           
  -1.8                  -8.8904e-05           -1.14e-12             6e-14                 8.8924e-05           
  -1.85                 -9.2046e-05           -6.4e-13              -6e-14                9.206e-05            
  -1.9                  -9.512e-05            -9.8e-13              2e-14                 9.5138e-05           
  -1.95                 -9.8142e-05           -1.04e-12             0                     9.8156e-05           
  -2                    -0.000101088          -9.4e-13              0                     0.000101108          
  -2.05                 -0.000103972          -9.4e-13              -2e-14                0.000103994          
  -2.1                  -0.000106806          -9.6e-13              0                     0.000106824          
  -2.15                 -0.000109576          -7.2e-13              -8e-14                0.00010959           
  -2.2                  -0.000112274          -8e-13                0                     0.000112294          
  -2.25                 -0.000114932          -8.2e-13              -1.2e-13              0.000114952          
  -2.3                  -0.00011736           -7.4e-13              -1e-13                0.00011774           
  -2.35                 -0.00011992           -8.2e-13              -2e-14                0.00012026           
  -2.4                  -0.00012242           -1.14e-12             -6e-14                0.00012278           
  -2.45                 -0.00012486           -8.6e-13              -2e-14                0.00012522           
  -2.5                  -0.00012728           -9.4e-13              0                     0.00012764           
  -2.55                 -0.00012964           -9.8e-13              0                     0.00013              
  -2.6                  -0.00013196           -7.8e-13              -1.2e-13              0.00013232           
  -2.65                 -0.00013424           -8.6e-13              0                     0.0001346            
  -2.7                  -0.00013644           -9.4e-13              -4e-14                0.00013682           
  -2.75                 -0.00013864           -9.6e-13              -8e-14                0.00013902           
  -2.8                  -0.0001408            -9.2e-13              0                     0.00014116           
  -2.85                 -0.0001429            -7.4e-13              -2e-14                0.00014328           
  -2.9                  -0.00014498           -1.1e-12              0                     0.00014534           
  -2.95                 -0.000147             -8.4e-13              -6e-14                0.00014736           
  -3                    -0.00014898           -1.08e-12             -2e-14                0.00014936           
  -3.05                 -0.00015096           -1.1e-12              0                     0.00015132           
  -3.1                  -0.00015288           -6.6e-13              -6e-14                0.00015322           
  -3.15                 -0.00015476           -1.18e-12             -6e-14                0.00015512           
  -3.2                  -0.0001566            -1.04e-12             -1.6e-13              0.00015696           
  -3.25                 -0.00015842           -1.02e-12             -1.2e-13              0.00015878           
  -3.3                  -0.00016022           -1e-12                4e-14                 0.00016056           
  -3.35                 -0.00016198           -8.6e-13              -1.6e-13              0.00016234           
  -3.4                  -0.0001637            -1.22e-12             -6e-14                0.00016404           
  -3.45                 -0.00016538           -9.4e-13              -2e-14                0.00016574           
  -3.5                  -0.00016704           -1.16e-12             -8e-14                0.00016742           
  -3.55                 -0.0001687            -1.06e-12             0                     0.00016906           
  -3.6                  -0.0001703            -1.02e-12             -1e-13                0.00017066           
END_DB

BEGIN_DB
 ICCAP_VAR vb         0.9            
 ICCAP_VAR vd         -0.1           
 ICCAP_VAR vs         -0             

 #vg                    id                    ig                    ib                    is                   
  0.5                   1.6e-13               9.6e-13               4.2e-13               2.6e-13              
  0.45                  1e-13                 3.8e-13               3.8e-13               1.8e-13              
  0.4                   1.2e-13               3.4e-13               3.6e-13               8e-14                
  0.35                  1e-13                 2.4e-13               3.2e-13               1e-13                
  0.3                   1.2e-13               4e-14                 1.8e-13               1.8e-13              
  0.25                  6e-14                 6e-14                 2.8e-13               -2e-14               
  0.2                   8e-14                 1.8e-13               2e-13                 0                    
  0.15                  -2e-14                -2e-13                2.4e-13               1.8e-13              
  0.1                   2e-14                 -6e-14                1.6e-13               1e-13                
  0.05                  0                     -1.8e-13              1.4e-13               1.4e-13              
  0                     6e-14                 -1.2e-13              1.4e-13               1e-13                
  -0.05                 1e-13                 -4.2e-13              1.8e-13               1.8e-13              
  -0.1                  0                     -1.2e-13              1e-13                 2e-13                
  -0.15                 1e-13                 -5e-13                1e-13                 1.2e-13              
  -0.2                  0                     -1.8e-13              0                     8e-14                
  -0.25                 2e-14                 -5.2e-13              1.8e-13               1.4e-13              
  -0.3                  1.2e-13               -2.2e-13              1.4e-13               1.8e-13              
  -0.35                 -2e-14                -3.6e-13              0                     2.2e-13              
  -0.4                  0                     -4.8e-13              1e-13                 1.8e-13              
  -0.45                 -2.8e-13              -3.8e-13              6e-14                 5.2e-13              
  -0.5                  -1.16e-12             -3.4e-13              8e-14                 1.22e-12             
  -0.55                 -4.76e-12             -4.8e-13              1.4e-13               5.04e-12             
  -0.6                  -1.922e-11            -3.6e-13              1.2e-13               1.93e-11             
  -0.65                 -7.654e-11            -4.6e-13              8e-14                 7.674e-11            
  -0.7                  -3.065e-10            -4.6e-13              6e-14                 3.065e-10            
  -0.75                 -1.2328e-09           -3e-13                2e-14                 1.2348e-09           
  -0.8                  -4.9334e-09           -6e-13                1.4e-13               4.9348e-09           
  -0.85                 -1.9638e-08           -3.2e-13              6e-14                 1.9664e-08           
  -0.9                  -7.559e-08            -5.4e-13              2e-14                 7.5584e-08           
  -0.95                 -2.7114e-07           -7.2e-13              1.2e-13               2.713e-07            
  -1                    -8.3762e-07           -3.8e-13              1e-13                 8.3762e-07           
  -1.05                 -2.1212e-06           -3.8e-13              -2e-14                2.1242e-06           
  -1.1                  -4.3456e-06           -4.8e-13              -2e-14                4.3494e-06           
  -1.15                 -7.464e-06            -6e-13                1.6e-13               7.467e-06            
  -1.2                  -1.11872e-05          -4.4e-13              1.2e-13               1.11876e-05          
  -1.25                 -1.5244e-05           -5.6e-13              6e-14                 1.526e-05            
  -1.3                  -1.944e-05            -4.8e-13              4e-14                 1.946e-05            
  -1.35                 -2.364e-05            -6.8e-13              4e-14                 2.3662e-05           
  -1.4                  -2.782e-05            -8.4e-13              4e-14                 2.784e-05            
  -1.45                 -3.1904e-05           -7.4e-13              4e-14                 3.1918e-05           
  -1.5                  -3.5902e-05           -5.4e-13              -8e-14                3.5922e-05           
  -1.55                 -3.98e-05             -8.6e-13              -2e-14                3.9816e-05           
  -1.6                  -4.3612e-05           -4.6e-13              -2e-14                4.3638e-05           
  -1.65                 -4.7324e-05           -7.2e-13              8e-14                 4.735e-05            
  -1.7                  -5.0956e-05           -7e-13                4e-14                 5.0974e-05           
  -1.75                 -5.4512e-05           -6e-13                1e-13                 5.4524e-05           
  -1.8                  -5.7968e-05           -8e-13                0                     5.7986e-05           
  -1.85                 -6.1344e-05           -7.6e-13              1.4e-13               6.136e-05            
  -1.9                  -6.4632e-05           -6.2e-13              0                     6.465e-05            
  -1.95                 -6.7872e-05           -8.8e-13              4e-14                 6.7884e-05           
  -2                    -7.1018e-05           -8.6e-13              -2e-14                7.1032e-05           
  -2.05                 -7.4092e-05           -8.8e-13              8e-14                 7.4118e-05           
  -2.1                  -7.7116e-05           -9.2e-13              4e-14                 7.7134e-05           
  -2.15                 -8.007e-05            -8.2e-13              2e-14                 8.009e-05            
  -2.2                  -8.2956e-05           -7.8e-13              0                     8.297e-05            
  -2.25                 -8.578e-05            -8.6e-13              2e-14                 8.5806e-05           
  -2.3                  -8.8564e-05           -6.8e-13              -1.6e-13              8.8582e-05           
  -2.35                 -9.1286e-05           -1.1e-12              -2e-14                9.1302e-05           
  -2.4                  -9.3954e-05           -7.2e-13              2e-14                 9.397e-05            
  -2.45                 -9.6556e-05           -6.6e-13              4e-14                 9.6564e-05           
  -2.5                  -9.911e-05            -9.4e-13              -2e-14                9.9134e-05           
  -2.55                 -0.000101606          -9e-13                -4e-14                0.000101624          
  -2.6                  -0.00010407           -9.6e-13              4e-14                 0.000104086          
  -2.65                 -0.000106484          -7.4e-13              -6e-14                0.0001065            
  -2.7                  -0.00010885           -9.8e-13              -2e-14                0.000108868          
  -2.75                 -0.00011117           -8.8e-13              4e-14                 0.000111186          
  -2.8                  -0.00011346           -9.4e-13              0                     0.000113474          
  -2.85                 -0.0001155            -6.2e-13              8e-14                 0.00011588           
  -2.9                  -0.0001177            -9.4e-13              2e-14                 0.00011806           
  -2.95                 -0.00011986           -8.2e-13              -1e-13                0.00012022           
  -3                    -0.00012198           -9.2e-13              -4e-14                0.00012234           
  -3.05                 -0.00012406           -1e-12                6e-14                 0.0001244            
  -3.1                  -0.0001261            -6.4e-13              -1e-13                0.00012646           
  -3.15                 -0.0001281            -1.04e-12             1e-13                 0.00012846           
  -3.2                  -0.00013006           -7.8e-13              -4e-14                0.00013042           
  -3.25                 -0.000132             -1e-12                -1.2e-13              0.00013236           
  -3.3                  -0.0001339            -9.6e-13              6e-14                 0.00013426           
  -3.35                 -0.00013578           -1.02e-12             -4e-14                0.00013612           
  -3.4                  -0.00013758           -8.8e-13              -6e-14                0.00013796           
  -3.45                 -0.0001394            -1.1e-12              -4e-14                0.00013976           
