! VERSION = 6.00
BEGIN_HEADER
 ICCAP_INPUTS
  vg         V  G GROUND SMU2 0.001 LIN        1    0.5        -3.6       83   -0.05     
  vb         V  B GROUND SMU4 0.1 LIN        2    0          3.6        5    0.9       
  vd         V  D GROUND SMU1 0.1 LIN        3    -0.1       -3.3       3    -1.6      
  vs         V  S GROUND SMU3 0.1 CON        -0
 ICCAP_OUTPUTS
  id         I  D GROUND SMU1 B
  ig         I  G GROUND SMU2 B
  ib         I  B GROUND SMU4 B
  is         I  S GROUND SMU3 B
 ICCAP_VALUES
  MASTER_SETUP_TYPE "~dc_idvg~"
  LINVT_VALUE ""
  LISTVT_VALUE ""
  TYPE "-1"
  TEMP " 70.0000 "
  IS_TNOM " 0.00000 "
  MAIN.W "10.00u"
  MAIN.L "350.0n"
  MAIN.AD "3.400p"
  MAIN.AS "3.400p"
  MAIN.PD "20.68u"
  MAIN.PS "20.68u"
  MAIN.NF "1.000"
  MAIN.M "1"
  MAIN.NRD "0.000"
  MAIN.NRS "0.000"
  MAIN.LDRIFT1 "1E-06"
  MAIN.LDRIFT2 "1E-06"
  MAIN.SA "0.000"
  MAIN.SB "0.000"
  MAIN.SD "0.000"
  MAIN.SCA "0.000"
  MAIN.SCB "0.000"
  MAIN.SCC "0.000"
  MAIN.SC "0.000"
  MODULE "S561"
  PIN_D "16"
  PIN_G "5"
  PIN_S "6"
  PIN_B "15"
  PIN_E ""
  PIN_6 ""
  XY_ID ""
  FUNC "Short"
  STI "SA ref"
  WPE "WPE ref"
  COMMENT ""
  DIS_MEAS ""
  TypeTCI "10"
END_HEADER

BEGIN_DB
 ICCAP_VAR vb         0              
 ICCAP_VAR vd         -0.1           
 ICCAP_VAR vs         -0             

 #vg                    id                    ig                    ib                    is                   
  0.5                   -5.2e-13              6.3048e-10            -5.3e-10              -6e-14               
  0.45                  -1.4e-13              1.1728e-10            -2.4346e-10           1e-13                
  0.4                   1.2e-13               2.186e-11             -1.4046e-10           1.4e-13              
  0.35                  2e-14                 4.1e-12               -9.794e-11            1.4e-13              
  0.3                   0                     6.4e-13               -7.584e-11            1e-13                
  0.25                  2e-14                 1.8e-13               -6.26e-11             3.2e-13              
  0.2                   -2.2e-13              -2.8e-13              -5.356e-11            4.4e-13              
  0.15                  -5e-13                -2.6e-13              -4.7e-11              8.4e-13              
  0.1                   -1.48e-12             -2.4e-13              -4.198e-11            1.72e-12             
  0.05                  -4.04e-12             -3.4e-13              -3.784e-11            4.38e-12             
  0                     -1.122e-11            -4e-13                -3.456e-11            1.142e-11            
  -0.05                 -3.114e-11            -3.4e-13              -3.178e-11            3.14e-11             
  -0.1                  -8.708e-11            -4.2e-13              -2.904e-11            8.722e-11            
  -0.15                 -2.471e-10            -4.8e-13              -2.718e-11            2.4718e-10           
  -0.2                  -7.0372e-10           -3e-13                -2.516e-11            7.0406e-10           
  -0.25                 -2.0206e-09           -2.8e-13              -2.232e-11            2.0214e-09           
  -0.3                  -5.8328e-09           -3.8e-13              -2.104e-11            5.825e-09            
  -0.35                 -1.6952e-08           -4.2e-13              -1.932e-11            1.6968e-08           
  -0.4                  -4.904e-08            -5.6e-13              -1.826e-11            4.9044e-08           
  -0.45                 -1.3954e-07           -5.6e-13              -1.722e-11            1.396e-07            
  -0.5                  -3.8344e-07           -4.4e-13              -1.618e-11            3.8356e-07           
  -0.55                 -9.8972e-07           -4.6e-13              -1.522e-11            9.896e-07            
  -0.6                  -2.2906e-06           -3.8e-13              -1.392e-11            2.2944e-06           
  -0.65                 -4.6454e-06           -5.4e-13              -1.322e-11            4.6508e-06           
  -0.7                  -8.23e-06             -5e-13                -1.254e-11            8.236e-06            
  -0.75                 -1.2924e-05           -4.2e-13              -1.148e-11            1.2936e-05           
  -0.8                  -1.8372e-05           -5.2e-13              -1.096e-11            1.8378e-05           
  -0.85                 -2.4284e-05           -6e-13                -1.034e-11            2.4284e-05           
  -0.9                  -3.0338e-05           -6.8e-13              -9.88e-12             3.0342e-05           
  -0.95                 -3.6432e-05           -6e-13                -9.22e-12             3.644e-05            
  -1                    -4.2434e-05           -6.4e-13              -8.84e-12             4.2436e-05           
  -1.05                 -4.8318e-05           -6.6e-13              -8.44e-12             4.8312e-05           
  -1.1                  -5.403e-05            -6.2e-13              -7.98e-12             5.403e-05            
  -1.15                 -5.9606e-05           -7.2e-13              -7.56e-12             5.9612e-05           
  -1.2                  -6.5028e-05           -8e-13                -7.16e-12             6.503e-05            
  -1.25                 -7.032e-05            -6.2e-13              -6.72e-12             7.0322e-05           
  -1.3                  -7.5468e-05           -7.4e-13              -6.38e-12             7.547e-05            
  -1.35                 -8.0446e-05           -7.2e-13              -5.98e-12             8.045e-05            
  -1.4                  -8.5324e-05           -7e-13                -5.66e-12             8.5328e-05           
  -1.45                 -9.0056e-05           -6e-13                -5.5e-12              9.0056e-05           
  -1.5                  -9.468e-05            -6e-13                -5.1e-12              9.4682e-05           
  -1.55                 -9.9174e-05           -8.6e-13              -4.74e-12             9.9172e-05           
  -1.6                  -0.000103584          -7e-13                -4.52e-12             0.000103572          
  -1.65                 -0.000107858          -7.6e-13              -4.3e-12              0.000107874          
  -1.7                  -0.000112056          -7.2e-13              -4.02e-12             0.00011206           
  -1.75                 -0.00011604           -6.4e-13              -3.7e-12              0.00011634           
  -1.8                  -0.00012006           -7.2e-13              -3.58e-12             0.00012034           
  -1.85                 -0.00012396           -7.6e-13              -3.26e-12             0.00012424           
  -1.9                  -0.00012778           -6.6e-13              -3.1e-12              0.00012806           
  -1.95                 -0.00013154           -7.4e-13              -2.82e-12             0.00013184           
  -2                    -0.0001352            -8.2e-13              -2.62e-12             0.0001355            
  -2.05                 -0.0001388            -7.6e-13              -2.52e-12             0.00013906           
  -2.1                  -0.00014232           -8.8e-13              -2.28e-12             0.0001426            
  -2.15                 -0.00014576           -9.6e-13              -2.08e-12             0.00014606           
  -2.2                  -0.00014916           -8.2e-13              -1.98e-12             0.00014944           
  -2.25                 -0.00015246           -8e-13                -1.82e-12             0.00015274           
  -2.3                  -0.00015572           -7.4e-13              -1.62e-12             0.00015602           
  -2.35                 -0.00015892           -8e-13                -1.52e-12             0.00015922           
  -2.4                  -0.00016206           -9.6e-13              -1.4e-12              0.00016234           
  -2.45                 -0.0001651            -8.6e-13              -1.22e-12             0.0001654            
  -2.5                  -0.00016814           -8.6e-13              -9.8e-13              0.00016844           
  -2.55                 -0.00017108           -1.04e-12             -9e-13                0.00017138           
  -2.6                  -0.000174             -1.02e-12             -8.4e-13              0.00017428           
  -2.65                 -0.00017682           -8.8e-13              -5.8e-13              0.00017714           
  -2.7                  -0.00017962           -8.6e-13              -5.8e-13              0.00017992           
  -2.75                 -0.00018238           -8e-13                -4.2e-13              0.00018266           
  -2.8                  -0.00018508           -7.8e-13              -2e-13                0.00018536           
  -2.85                 -0.0001877            -8.8e-13              -2.8e-13              0.000188             
  -2.9                  -0.00019032           -1.04e-12             2e-14                 0.0001906            
  -2.95                 -0.00019288           -9.4e-13              4e-14                 0.00019316           
  -3                    -0.00019538           -8.8e-13              1.4e-13               0.00019566           
  -3.05                 -0.00019784           -7e-13                2.2e-13               0.00019816           
  -3.1                  -0.00020028           -8.4e-13              3.8e-13               0.00020058           
  -3.15                 -0.00020266           -9.8e-13              5e-13                 0.00020296           
  -3.2                  -0.000205             -8.6e-13              6.8e-13               0.0002053            
  -3.25                 -0.0002073            -9.4e-13              6.2e-13               0.0002076            
  -3.3                  -0.00020954           -8e-13                7.8e-13               0.00020984           
  -3.35                 -0.00021178           -7.8e-13              8.8e-13               0.00021208           
  -3.4                  -0.00021394           -1.04e-12             8.8e-13               0.00021426           
  -3.45                 -0.00021612           -1e-12                9.6e-13               0.0002164            
  -3.5                  -0.0002182            -9.4e-13              1.04e-12              0.0002185            
  -3.55                 -0.00022028           -1.04e-12             1.18e-12              0.00022058           
  -3.6                  -0.00022236           -8.6e-13              1.16e-12              0.00022264           
END_DB

BEGIN_DB
 ICCAP_VAR vb         0.9            
 ICCAP_VAR vd         -0.1           
 ICCAP_VAR vs         -0             

 #vg                    id                    ig                    ib                    is                   
  0.5                   -2.2e-13              5.8e-13               1.052e-11             1.2e-13              
  0.45                  -2e-13                4.2e-13               1.062e-11             1e-13                
  0.4                   -8e-14                1.8e-13               1.06e-11              8e-14                
  0.35                  -6e-14                2.2e-13               1.052e-11             0                    
  0.3                   -1.6e-13              1.6e-13               1.046e-11             0                    
  0.25                  -8e-14                0                     1.052e-11             1.6e-13              
  0.2                   -8e-14                4e-14                 1.044e-11             -2e-14               
  0.15                  -1e-13                -1.4e-13              1.06e-11              0                    
  0.1                   -4e-14                -1.8e-13              1.042e-11             2.8e-13              
  0.05                  -8e-14                -1e-13                1.044e-11             -4e-14               
  0                     -1.4e-13              -1.2e-13              1.04e-11              0                    
  -0.05                 0                     -1.8e-13              1.04e-11              1.8e-13              
  -0.1                  -6e-14                -2.6e-13              1.052e-11             4e-14                
  -0.15                 -8e-14                -2.8e-13              1.04e-11              2.4e-13              
  -0.2                  -1.6e-13              -3.2e-13              1.03e-11              2e-13                
  -0.25                 -1.8e-13              -2.4e-13              1.042e-11             3e-13                
  -0.3                  -7.4e-13              -2.8e-13              1.022e-11             9.6e-13              
  -0.35                 -2.14e-12             -4.2e-13              1.046e-11             2.06e-12             
  -0.4                  -7.22e-12             -3.6e-13              1.042e-11             7.28e-12             
  -0.45                 -2.356e-11            -4.2e-13              1.03e-11              2.36e-11             
  -0.5                  -7.788e-11            -3.8e-13              1.026e-11             7.786e-11            
  -0.55                 -2.5784e-10           -4.4e-13              1.024e-11             2.5778e-10           
  -0.6                  -8.482e-10            -4.2e-13              1.028e-11             8.4846e-10           
  -0.65                 -2.7876e-09           -3.4e-13              1.026e-11             2.7872e-09           
  -0.7                  -9.1324e-09           -5.4e-13              1.032e-11             9.1326e-09           
  -0.75                 -2.9702e-08           -3.6e-13              1.034e-11             2.9666e-08           
  -0.8                  -9.3818e-08           -4e-13                1.018e-11             9.3772e-08           
  -0.85                 -2.8446e-07           -4.6e-13              1.04e-11              2.8444e-07           
  -0.9                  -7.912e-07            -4.4e-13              1.016e-11             7.917e-07            
  -0.95                 -1.9486e-06           -5.2e-13              1.028e-11             1.9542e-06           
  -1                    -4.1186e-06           -4.4e-13              1.016e-11             4.1134e-06           
  -1.05                 -7.495e-06            -5.2e-13              1.032e-11             7.4934e-06           
  -1.1                  -1.1928e-05           -4e-13                1.028e-11             1.1922e-05           
  -1.15                 -1.711e-05            -6e-13                1.016e-11             1.7114e-05           
  -1.2                  -2.267e-05            -6.6e-13              1.036e-11             2.2678e-05           
  -1.25                 -2.8386e-05           -5.2e-13              1.018e-11             2.8388e-05           
  -1.3                  -3.4078e-05           -7.2e-13              1.01e-11              3.4088e-05           
  -1.35                 -3.9652e-05           -5e-13                1.034e-11             3.9652e-05           
  -1.4                  -4.513e-05            -7e-13                1.014e-11             4.5134e-05           
  -1.45                 -5.0436e-05           -7e-13                1.022e-11             5.0436e-05           
  -1.5                  -5.5606e-05           -4.6e-13              1.028e-11             5.5612e-05           
  -1.55                 -6.062e-05            -7.4e-13              1.018e-11             6.0626e-05           
  -1.6                  -6.5518e-05           -6e-13                1.03e-11              6.5524e-05           
  -1.65                 -7.0246e-05           -6.4e-13              1.024e-11             7.025e-05            
  -1.7                  -7.4882e-05           -6.8e-13              1.018e-11             7.4888e-05           
  -1.75                 -7.94e-05             -5.6e-13              1.03e-11              7.9404e-05           
  -1.8                  -8.3768e-05           -8.2e-13              1.026e-11             8.3774e-05           
  -1.85                 -8.8036e-05           -6.8e-13              1.028e-11             8.8036e-05           
  -1.9                  -9.2188e-05           -7.2e-13              1.028e-11             9.2198e-05           
  -1.95                 -9.6274e-05           -8.6e-13              1.018e-11             9.6272e-05           
  -2                    -0.000100254          -6.4e-13              1.03e-11              0.000100256          
  -2.05                 -0.000104118          -8e-13                1.01e-11              0.000104118          
  -2.1                  -0.000107918          -7.8e-13              1.034e-11             0.000107912          
  -2.15                 -0.000111608          -7.8e-13              1.016e-11             0.000111616          
  -2.2                  -0.00011512           -8.4e-13              1.022e-11             0.0001154            
  -2.25                 -0.00011866           -7.8e-13              1.018e-11             0.00011896           
  -2.3                  -0.00012218           -7.2e-13              1.034e-11             0.00012246           
  -2.35                 -0.00012556           -7.2e-13              1.016e-11             0.00012586           
  -2.4                  -0.00012892           -8.6e-13              1.014e-11             0.0001292            
  -2.45                 -0.00013218           -7.8e-13              1.022e-11             0.00013246           
  -2.5                  -0.0001354            -8.4e-13              1.014e-11             0.00013568           
  -2.55                 -0.00013854           -8.4e-13              1.016e-11             0.00013882           
  -2.6                  -0.00014166           -7.8e-13              1.02e-11              0.00014192           
  -2.65                 -0.00014468           -8e-13                1.016e-11             0.00014496           
  -2.7                  -0.00014764           -8.2e-13              1.022e-11             0.00014792           
  -2.75                 -0.00015056           -9.4e-13              1.012e-11             0.00015084           
  -2.8                  -0.00015342           -8.6e-13              1.026e-11             0.00015372           
  -2.85                 -0.00015622           -8.4e-13              1.03e-11              0.0001565            
  -2.9                  -0.00015898           -1e-12                1.012e-11             0.00015928           
  -2.95                 -0.00016168           -7.2e-13              1.028e-11             0.00016198           
  -3                    -0.00016434           -1e-12                1.016e-11             0.00016464           
  -3.05                 -0.00016696           -8.4e-13              1.022e-11             0.00016726           
  -3.1                  -0.00016952           -8.2e-13              1.024e-11             0.00016982           
  -3.15                 -0.00017204           -8.8e-13              1.026e-11             0.00017234           
  -3.2                  -0.00017454           -9.4e-13              1.024e-11             0.00017478           
  -3.25                 -0.00017694           -9.6e-13              1.026e-11             0.00017722           
  -3.3                  -0.00017934           -8.6e-13              1.026e-11             0.00017962           
  -3.35                 -0.00018168           -8.6e-13              1.02e-11              0.00018198           
  -3.4                  -0.000184             -9e-13                1.024e-11             0.00018428           
  -3.45                 -0.00018626           -8.6e-13              1.026e-11             0.00018656           
