! VERSION = 6.00
BEGIN_HEADER
 ICCAP_INPUTS
  vg         V  G GROUND SMU2 0.001 LIN        1    0.5        -3.6       83   -0.05     
  vb         V  B GROUND SMU4 0.1 LIN        2    0          3.6        5    0.9       
  vd         V  D GROUND SMU1 0.1 LIN        3    -0.1       -3.3       3    -1.6      
  vs         V  S GROUND SMU3 0.1 CON        -0
 ICCAP_OUTPUTS
  id         I  D GROUND SMU1 B
  ig         I  G GROUND SMU2 B
  ib         I  B GROUND SMU4 B
  is         I  S GROUND SMU3 B
 ICCAP_VALUES
  MASTER_SETUP_TYPE "~dc_idvg~"
  LINVT_VALUE ""
  LISTVT_VALUE ""
  TYPE "-1"
  TEMP " 125.000 "
  IS_TNOM " 0.00000 "
  MAIN.W "2.000u"
  MAIN.L "1.200u"
  MAIN.AD "680.0f"
  MAIN.AS "680.0f"
  MAIN.PD "4.680u"
  MAIN.PS "4.680u"
  MAIN.NF "1.000"
  MAIN.M "1"
  MAIN.NRD "0.000"
  MAIN.NRS "0.000"
  MAIN.LDRIFT1 "1E-06"
  MAIN.LDRIFT2 "1E-06"
  MAIN.SA "0.000"
  MAIN.SB "0.000"
  MAIN.SD "0.000"
  MAIN.SCA "0.000"
  MAIN.SCB "0.000"
  MAIN.SCC "0.000"
  MAIN.SC "0.000"
  MODULE "S563"
  PIN_D "16"
  PIN_G "5"
  PIN_S "6"
  PIN_B "15"
  PIN_E ""
  PIN_6 ""
  XY_ID ""
  FUNC "LW Scale"
  STI "SA ref"
  WPE "WPE ref"
  COMMENT ""
  DIS_MEAS ""
  TypeTCI "10"
END_HEADER

BEGIN_DB
 ICCAP_VAR vb         0              
 ICCAP_VAR vd         -0.1           
 ICCAP_VAR vs         -0             

 #vg                    id                    ig                    ib                    is                   
  0.5                   -2.4e-13              2.0252e-08            -2.0238e-08           0                    
  0.45                  6.34e-12              4.7532e-09            -4.7796e-09           0                    
  0.4                   6.6e-13               1.1108e-09            -1.1508e-09           3.4e-13              
  0.35                  5.2e-13               2.611e-10             -2.925e-10            2.6e-13              
  0.3                   -1e-13                6.128e-11             -9.408e-11            8e-14                
  0.25                  6e-14                 1.45e-11              -4.434e-11            3.4e-13              
  0.2                   -3.8e-13              3.44e-12              -3.208e-11            3e-13                
  0.15                  -6.4e-13              6.4e-13               -2.762e-11            7e-13                
  0.1                   -1.22e-12             6e-14                 -2.616e-11            1.42e-12             
  0.05                  -3.1e-12              -6e-14                -2.55e-11             3.14e-12             
  0                     -6.88e-12             -2.6e-13              -2.46e-11             7.14e-12             
  -0.05                 -1.622e-11            -2.8e-13              -2.43e-11             1.668e-11            
  -0.1                  -3.866e-11            -3.2e-13              -2.352e-11            3.9e-11              
  -0.15                 -9.322e-11            -2.8e-13              -2.264e-11            9.314e-11            
  -0.2                  -2.2528e-10           -4e-13                -2.19e-11             2.257e-10            
  -0.25                 -5.5096e-10           -4e-13                -2.136e-11            5.5104e-10           
  -0.3                  -1.3568e-09           -2.4e-13              -2.132e-11            1.3574e-09           
  -0.35                 -3.3622e-09           -5.2e-13              -2.074e-11            3.3628e-09           
  -0.4                  -8.2706e-09           -3.2e-13              -2.016e-11            8.2704e-09           
  -0.45                 -1.992e-08            -4.2e-13              -2.022e-11            1.9938e-08           
  -0.5                  -4.577e-08            -3.8e-13              -1.94e-11             4.58e-08             
  -0.55                 -9.741e-08            -4.2e-13              -1.878e-11            9.7424e-08           
  -0.6                  -1.8636e-07           -5.2e-13              -1.906e-11            1.8638e-07           
  -0.65                 -3.1924e-07           -5.4e-13              -1.838e-11            3.193e-07            
  -0.7                  -4.9392e-07           -6.6e-13              -1.79e-11             4.9404e-07           
  -0.75                 -7.0326e-07           -6.6e-13              -1.758e-11            7.0316e-07           
  -0.8                  -9.3462e-07           -6.4e-13              -1.736e-11            9.3506e-07           
  -0.85                 -1.1804e-06           -4.6e-13              -1.688e-11            1.1836e-06           
  -0.9                  -1.4348e-06           -6e-13                -1.67e-11             1.4378e-06           
  -0.95                 -1.6938e-06           -6.4e-13              -1.602e-11            1.6964e-06           
  -1                    -1.9534e-06           -6e-13                -1.578e-11            1.9564e-06           
  -1.05                 -2.2128e-06           -6.4e-13              -1.566e-11            2.216e-06            
  -1.1                  -2.4702e-06           -7e-13                -1.568e-11            2.4728e-06           
  -1.15                 -2.7256e-06           -7.4e-13              -1.54e-11             2.7286e-06           
  -1.2                  -2.9778e-06           -8.2e-13              -1.488e-11            2.9808e-06           
  -1.25                 -3.228e-06            -7.8e-13              -1.478e-11            3.231e-06            
  -1.3                  -3.4748e-06           -9.4e-13              -1.442e-11            3.4774e-06           
  -1.35                 -3.717e-06            -8.4e-13              -1.41e-11             3.72e-06             
  -1.4                  -3.9568e-06           -8.2e-13              -1.426e-11            3.9598e-06           
  -1.45                 -4.1928e-06           -9.4e-13              -1.396e-11            4.1956e-06           
  -1.5                  -4.426e-06            -8.4e-13              -1.36e-11             4.4288e-06           
  -1.55                 -4.655e-06            -9e-13                -1.338e-11            4.6576e-06           
  -1.6                  -4.8816e-06           -9e-13                -1.354e-11            4.885e-06            
  -1.65                 -5.1048e-06           -8.4e-13              -1.336e-11            5.1076e-06           
  -1.7                  -5.3236e-06           -8.6e-13              -1.232e-11            5.3268e-06           
  -1.75                 -5.5412e-06           -9.2e-13              -1.254e-11            5.544e-06            
  -1.8                  -5.7546e-06           -8.2e-13              -1.24e-11             5.7576e-06           
  -1.85                 -5.9644e-06           -9e-13                -1.25e-11             5.9672e-06           
  -1.9                  -6.1722e-06           -7.8e-13              -1.208e-11            6.1744e-06           
  -1.95                 -6.3774e-06           -1.06e-12             -1.246e-11            6.3806e-06           
  -2                    -6.5788e-06           -9.4e-13              -1.196e-11            6.582e-06            
  -2.05                 -6.7768e-06           -8.4e-13              -1.212e-11            6.7798e-06           
  -2.1                  -6.9738e-06           -1e-12                -1.148e-11            6.976e-06            
  -2.15                 -7.1668e-06           -1.08e-12             -1.158e-11            7.1694e-06           
  -2.2                  -7.3574e-06           -1.06e-12             -1.106e-11            7.3606e-06           
  -2.25                 -7.545e-06            -9.8e-13              -1.116e-11            7.5482e-06           
  -2.3                  -7.7312e-06           -1.1e-12              -1.088e-11            7.7336e-06           
  -2.35                 -7.9134e-06           -1.04e-12             -1.13e-11             7.9168e-06           
  -2.4                  -8.0942e-06           -1.04e-12             -1.06e-11             8.0968e-06           
  -2.45                 -8.272e-06            -1.04e-12             -1.044e-11            8.2748e-06           
  -2.5                  -8.4464e-06           -1.14e-12             -1.006e-11            8.451e-06            
  -2.55                 -8.6204e-06           -1.04e-12             -1.034e-11            8.6226e-06           
  -2.6                  -8.7906e-06           -1.32e-12             -1e-11                8.7944e-06           
  -2.65                 -8.9598e-06           -1.1e-12              -1e-11                8.9638e-06           
  -2.7                  -9.1254e-06           -1.16e-12             -9.7e-12              9.1278e-06           
  -2.75                 -9.2906e-06           -1.12e-12             -1.032e-11            9.2918e-06           
  -2.8                  -9.4516e-06           -1.02e-12             -9.84e-12             9.454e-06            
  -2.85                 -9.6108e-06           -1.2e-12              -9.46e-12             9.6136e-06           
  -2.9                  -9.7678e-06           -1.14e-12             -9.4e-12              9.771e-06            
  -2.95                 -9.9224e-06           -1.14e-12             -9.16e-12             9.9244e-06           
  -3                    -1.00754e-05          -1.26e-12             -8.96e-12             1.0079e-05           
  -3.05                 -1.02286e-05          -1.18e-12             -9.28e-12             1.02312e-05          
  -3.1                  -1.03786e-05          -1.26e-12             -9.38e-12             1.03798e-05          
  -3.15                 -1.05262e-05          -1.26e-12             -8.7e-12              1.05282e-05          
  -3.2                  -1.06714e-05          -1.22e-12             -8.62e-12             1.06734e-05          
  -3.25                 -1.0815e-05           -1.3e-12              -8.76e-12             1.08178e-05          
  -3.3                  -1.09566e-05          -1.16e-12             -8.7e-12              1.09584e-05          
  -3.35                 -1.10964e-05          -1.34e-12             -8.44e-12             1.10988e-05          
  -3.4                  -1.12348e-05          -1.22e-12             -8.4e-12              1.12368e-05          
  -3.45                 -1.13694e-05          -1.26e-12             -8.16e-12             1.1373e-05           
  -3.5                  -1.1502e-05           -1.24e-12             -8.06e-12             1.1508e-05           
  -3.55                 -1.1634e-05           -1.32e-12             -8.02e-12             1.164e-05            
  -3.6                  -1.1764e-05           -1.3e-12              -7.72e-12             1.177e-05            
END_DB

BEGIN_DB
 ICCAP_VAR vb         0.9            
 ICCAP_VAR vd         -0.1           
 ICCAP_VAR vs         -0             

 #vg                    id                    ig                    ib                    is                   
  0.5                   -4.98e-12             6.6e-13               5.01e-11              -1e-13               
  0.45                  -3.2e-13              6.2e-13               4.166e-11             6e-14                
  0.4                   -3.8e-13              5.2e-13               3.58e-11              1.6e-13              
  0.35                  -3e-13                2.6e-13               3.136e-11             2e-14                
  0.3                   -2.4e-13              4e-13                 2.82e-11              6e-14                
  0.25                  -3.6e-13              2.2e-13               2.59e-11              -1.6e-13             
  0.2                   -2e-13                1.4e-13               2.366e-11             -4e-14               
  0.15                  -2.6e-13              1.4e-13               2.168e-11             -2.2e-13             
  0.1                   -8e-14                4e-14                 2.034e-11             -4e-14               
  0.05                  -1.6e-13              0                     1.904e-11             0                    
  0                     -1.4e-13              -4e-14                1.722e-11             -6e-14               
  -0.05                 -1.4e-13              -1.2e-13              1.66e-11              1.4e-13              
  -0.1                  -2e-14                -1.6e-13              1.58e-11              -1.4e-13             
  -0.15                 -8e-14                -3.4e-13              1.476e-11             1.8e-13              
  -0.2                  -3.4e-13              -2e-13                1.42e-11              -1.4e-13             
  -0.25                 -2.6e-13              -3.8e-13              1.34e-11              1.6e-13              
  -0.3                  -3.2e-13              -3e-13                1.274e-11             2.2e-13              
  -0.35                 -5e-13                -2.6e-13              1.25e-11              6.4e-13              
  -0.4                  -1.74e-12             -3.2e-13              1.176e-11             1.64e-12             
  -0.45                 -4.72e-12             -2.8e-13              1.154e-11             4.46e-12             
  -0.5                  -1.29e-11             -3.8e-13              1.05e-11              1.29e-11             
  -0.55                 -3.62e-11             -3e-13                1.032e-11             3.586e-11            
  -0.6                  -1.0122e-10           -5.6e-13              1.042e-11             1.0118e-10           
  -0.65                 -2.8438e-10           -4.4e-13              9.76e-12              2.8416e-10           
  -0.7                  -8e-10                -4.8e-13              9.88e-12              7.9962e-10           
  -0.75                 -2.2554e-09           -3.8e-13              8.78e-12              2.2554e-09           
  -0.8                  -6.243e-09            -3.8e-13              8.78e-12              6.2442e-09           
  -0.85                 -1.675e-08            -4.6e-13              8.08e-12              1.6774e-08           
  -0.9                  -4.1762e-08           -5.4e-13              8e-12                 4.1778e-08           
  -0.95                 -9.3536e-08           -5.8e-13              7.76e-12              9.353e-08            
  -1                    -1.8274e-07           -6e-13                7.4e-12               1.8292e-07           
  -1.05                 -3.1398e-07           -5.2e-13              7.48e-12              3.1394e-07           
  -1.1                  -4.8124e-07           -6.8e-13              7.18e-12              4.812e-07            
  -1.15                 -6.7612e-07           -6.2e-13              7.32e-12              6.7622e-07           
  -1.2                  -8.8816e-07           -7.6e-13              6.92e-12              8.8832e-07           
  -1.25                 -1.11132e-06          -8e-13                6.9e-12               1.11148e-06          
  -1.3                  -1.3392e-06           -6.6e-13              6.4e-12               1.3424e-06           
  -1.35                 -1.5698e-06           -7.8e-13              6.14e-12              1.5724e-06           
  -1.4                  -1.8018e-06           -8e-13                5.76e-12              1.8052e-06           
  -1.45                 -2.0322e-06           -8.6e-13              5.88e-12              2.0352e-06           
  -1.5                  -2.262e-06            -7.2e-13              5.98e-12              2.265e-06            
  -1.55                 -2.489e-06            -8.6e-13              5.76e-12              2.4922e-06           
  -1.6                  -2.715e-06            -9.4e-13              5.86e-12              2.7182e-06           
  -1.65                 -2.9382e-06           -7.8e-13              5.56e-12              2.9408e-06           
  -1.7                  -3.1576e-06           -1.08e-12             5.34e-12              3.161e-06            
  -1.75                 -3.3764e-06           -8e-13                5.3e-12               3.3786e-06           
  -1.8                  -3.591e-06            -8.4e-13              5.5e-12               3.5928e-06           
  -1.85                 -3.8018e-06           -9.8e-13              5.24e-12              3.804e-06            
  -1.9                  -4.0106e-06           -9.2e-13              5.3e-12               4.0134e-06           
  -1.95                 -4.217e-06            -1e-12                5.22e-12              4.22e-06             
  -2                    -4.421e-06            -9.4e-13              5.32e-12              4.4246e-06           
  -2.05                 -4.6216e-06           -1.02e-12             5.28e-12              4.6244e-06           
  -2.1                  -4.8212e-06           -1.12e-12             4.42e-12              4.8242e-06           
  -2.15                 -5.0172e-06           -9.6e-13              4.82e-12              5.0198e-06           
  -2.2                  -5.2096e-06           -1.04e-12             4.9e-12               5.2116e-06           
  -2.25                 -5.399e-06            -1.02e-12             4.82e-12              5.4016e-06           
  -2.3                  -5.5888e-06           -1.1e-12              4.88e-12              5.591e-06            
  -2.35                 -5.7736e-06           -1.18e-12             4.54e-12              5.7762e-06           
  -2.4                  -5.9572e-06           -1.02e-12             4.9e-12               5.9604e-06           
  -2.45                 -6.1386e-06           -1.04e-12             4.26e-12              6.1418e-06           
  -2.5                  -6.3162e-06           -1.1e-12              4.6e-12               6.3196e-06           
  -2.55                 -6.4924e-06           -1.18e-12             4.56e-12              6.496e-06            
  -2.6                  -6.666e-06            -1.1e-12              3.72e-12              6.6682e-06           
  -2.65                 -6.8378e-06           -1.08e-12             4.12e-12              6.8398e-06           
  -2.7                  -7.006e-06            -1.14e-12             4.36e-12              7.0086e-06           
  -2.75                 -7.1728e-06           -1.06e-12             4.12e-12              7.1754e-06           
  -2.8                  -7.3378e-06           -1.18e-12             3.88e-12              7.341e-06            
  -2.85                 -7.5006e-06           -1.2e-12              3.9e-12               7.5038e-06           
  -2.9                  -7.6614e-06           -1e-12                3.74e-12              7.6638e-06           
  -2.95                 -7.8192e-06           -1.2e-12              4.34e-12              7.8226e-06           
  -3                    -7.9756e-06           -1.26e-12             3.94e-12              7.9788e-06           
  -3.05                 -8.1316e-06           -1.22e-12             3.82e-12              8.1346e-06           
  -3.1                  -8.2832e-06           -1.36e-12             4.14e-12              8.287e-06            
  -3.15                 -8.4364e-06           -1.2e-12              4.3e-12               8.439e-06            
  -3.2                  -8.584e-06            -1.28e-12             3.82e-12              8.5866e-06           
  -3.25                 -8.73e-06             -1.26e-12             3.94e-12              8.7328e-06           
  -3.3                  -8.8768e-06           -1.18e-12             3.64e-12              8.879e-06            
  -3.35                 -9.0198e-06           -1.3e-12              4e-12                 9.0212e-06           
  -3.4                  -9.16e-06             -1.3e-12              3.92e-12              9.1634e-06           
  -3.45                 -9.3012e-06           -1.4e-12              4.06e-12              9.3028e-06           
