! VERSION = 6.00
BEGIN_HEADER
 ICCAP_INPUTS
  vd         V  D GROUND SMU1 0.1 LIN        1    -0         -3.6       37   -0.1      
  vg         V  G GROUND SMU2 0.001 LIN        2    -1.988     -3.6       5    -0.403    
  vb         V  B GROUND SMU4 0.1 CON        3.6
  vs         V  S GROUND SMU3 0.1 CON        -0
 ICCAP_OUTPUTS
  id         I  D GROUND SMU1 B
  ig         I  G GROUND SMU2 B
  ib         I  B GROUND SMU4 B
  is         I  S GROUND SMU3 B
 ICCAP_VALUES
  MASTER_SETUP_TYPE "~dc_idvd~"
  LINVT_VALUE "|idvg|100.0n|100.0m|1.000m|5|3.600|"
  LISTVT_VALUE ""
  TYPE "-1"
  TEMP " 27.0000 "
  IS_TNOM " 1.00000 "
  MAIN.W "2.000u"
  MAIN.L "10.00u"
  MAIN.AD "680.0f"
  MAIN.AS "680.0f"
  MAIN.PD "4.680u"
  MAIN.PS "4.680u"
  MAIN.NF "1.000"
  MAIN.M "1"
  MAIN.NRD "0.000"
  MAIN.NRS "0.000"
  MAIN.LDRIFT1 "1E-06"
  MAIN.LDRIFT2 "1E-06"
  MAIN.SA "0.000"
  MAIN.SB "0.000"
  MAIN.SD "0.000"
  MAIN.SCA "0.000"
  MAIN.SCB "0.000"
  MAIN.SCC "0.000"
  MAIN.SC "0.000"
  MODULE "S563"
  PIN_D "12"
  PIN_G "9"
  PIN_S "10"
  PIN_B "11"
  PIN_E ""
  PIN_6 ""
  XY_ID ""
  FUNC "W Scale"
  STI "SA ref"
  WPE "WPE ref"
  COMMENT ""
  DIS_MEAS ""
  TypeTCI "10"
END_HEADER

BEGIN_DB
 ICCAP_VAR vg         -1.988         
 ICCAP_VAR vb         3.6            
 ICCAP_VAR vs         -0             

 #vd                    id                    ig                    ib                    is                   
  -0                    4.618e-11             -9.4e-13              1.18e-12              -5.15e-11            
  -0.1                  -5.6156e-08           -5.2e-13              1.08e-12              5.6186e-08           
  -0.2                  -6.985e-08            -5e-13                1.14e-12              6.9882e-08           
  -0.3                  -7.0898e-08           -4.2e-13              1.14e-12              7.0926e-08           
  -0.4                  -7.0982e-08           -4.2e-13              1.06e-12              7.1006e-08           
  -0.5                  -7.1018e-08           -3.6e-13              9.8e-13               7.104e-08            
  -0.6                  -7.103e-08            -4e-13                9.4e-13               7.106e-08            
  -0.7                  -7.1046e-08           -4.6e-13              9.8e-13               7.1086e-08           
  -0.8                  -7.1062e-08           -4e-13                8.8e-13               7.1094e-08           
  -0.9                  -7.1076e-08           -3.2e-13              8.4e-13               7.1112e-08           
  -1                    -7.109e-08            -3e-13                7.8e-13               7.1122e-08           
  -1.1                  -7.111e-08            -2.2e-13              8.2e-13               7.1136e-08           
  -1.2                  -7.112e-08            -4e-13                8.8e-13               7.1144e-08           
  -1.3                  -7.1132e-08           -3.8e-13              9e-13                 7.1156e-08           
  -1.4                  -7.1138e-08           -1.4e-13              8.2e-13               7.1168e-08           
  -1.5                  -7.1148e-08           -2e-13                7.8e-13               7.1176e-08           
  -1.6                  -7.1152e-08           -3.2e-13              7e-13                 7.1188e-08           
  -1.7                  -7.117e-08            -3.2e-13              7.2e-13               7.1198e-08           
  -1.8                  -7.117e-08            -3.6e-13              6.2e-13               7.1194e-08           
  -1.9                  -7.1178e-08           -2.8e-13              6.4e-13               7.12e-08             
  -2                    -7.1186e-08           -2.6e-13              6.6e-13               7.1208e-08           
  -2.1                  -7.118e-08            -4e-13                6.8e-13               7.1226e-08           
  -2.2                  -7.12e-08             -2.8e-13              6.6e-13               7.1234e-08           
  -2.3                  -7.121e-08            -2e-13                6.8e-13               7.1248e-08           
  -2.4                  -7.1234e-08           -2.6e-13              6.6e-13               7.1262e-08           
  -2.5                  -7.1236e-08           -2.6e-13              7e-13                 7.1266e-08           
  -2.6                  -7.124e-08            -2.8e-13              7e-13                 7.1276e-08           
  -2.7                  -7.1236e-08           -2.4e-13              1.04e-12              7.127e-08            
  -2.8                  -7.1262e-08           -1.2e-13              1.44e-12              7.129e-08            
  -2.9                  -7.1272e-08           -1.8e-13              2.18e-12              7.129e-08            
  -3                    -7.1268e-08           -2.6e-13              3.44e-12              7.1286e-08           
  -3.1                  -7.1274e-08           -4e-14                5.62e-12              7.1294e-08           
  -3.2                  -7.1288e-08           -8e-14                9.32e-12              7.1318e-08           
  -3.3                  -7.13e-08             -1e-13                1.568e-11             7.1318e-08           
  -3.4                  -7.1318e-08           -1e-13                2.576e-11             7.1328e-08           
  -3.5                  -7.1352e-08           -2.6e-13              4.166e-11             7.1334e-08           
  -3.6                  -7.138e-08            -1.8e-13              6.67e-11              7.1332e-08           
END_DB

BEGIN_DB
 ICCAP_VAR vg         -2.391         
 ICCAP_VAR vb         3.6            
 ICCAP_VAR vs         -0             

 #vd                    id                    ig                    ib                    is                   
  -0                    1.7632e-10            -4.4e-13              2.4e-13               -1.887e-10           
  -0.1                  -2.7404e-07           -3.8e-13              4e-13                 2.7426e-07           
  -0.2                  -4.7682e-07           -2.4e-13              4.8e-13               4.7712e-07           
  -0.3                  -6.0982e-07           -2.2e-13              4.6e-13               6.1018e-07           
  -0.4                  -6.7934e-07           -2.4e-13              2.8e-13               6.797e-07            
  -0.5                  -7.0236e-07           -1.4e-13              3.2e-13               7.0266e-07           
  -0.6                  -7.0614e-07           -1e-13                3.4e-13               7.0638e-07           
  -0.7                  -7.0686e-07           -1.6e-13              3.6e-13               7.0708e-07           
  -0.8                  -7.072e-07            -6e-14                3.6e-13               7.0742e-07           
  -0.9                  -7.0736e-07           -2e-14                4.4e-13               7.0768e-07           
  -1                    -7.0752e-07           -2.4e-13              3.6e-13               7.0784e-07           
  -1.1                  -7.077e-07            -1e-13                5.6e-13               7.0804e-07           
  -1.2                  -7.0782e-07           -1e-13                4.8e-13               7.0814e-07           
  -1.3                  -7.0794e-07           -1e-13                3.2e-13               7.0822e-07           
  -1.4                  -7.0808e-07           -8e-14                2.8e-13               7.0834e-07           
  -1.5                  -7.0812e-07           -1.6e-13              4e-13                 7.085e-07            
  -1.6                  -7.0832e-07           -2.6e-13              4e-13                 7.0856e-07           
  -1.7                  -7.083e-07            -2.2e-13              3.4e-13               7.0864e-07           
  -1.8                  -7.0846e-07           -3e-13                4e-13                 7.087e-07            
  -1.9                  -7.0856e-07           -2.2e-13              2.8e-13               7.0882e-07           
  -2                    -7.0866e-07           -1.6e-13              3.8e-13               7.089e-07            
  -2.1                  -7.0874e-07           -2.8e-13              3.4e-13               7.0902e-07           
  -2.2                  -7.088e-07            -6e-14                2.8e-13               7.0902e-07           
  -2.3                  -7.0892e-07           -1e-13                3.8e-13               7.0918e-07           
  -2.4                  -7.0894e-07           -2e-13                3e-13                 7.0924e-07           
  -2.5                  -7.0902e-07           -1.8e-13              3.8e-13               7.0932e-07           
  -2.6                  -7.0908e-07           0                     4.6e-13               7.0938e-07           
  -2.7                  -7.0918e-07           0                     6e-13                 7.0936e-07           
  -2.8                  -7.092e-07            4e-14                 9.4e-13               7.0954e-07           
  -2.9                  -7.0934e-07           -8e-14                1.7e-12               7.0962e-07           
  -3                    -7.0938e-07           -6e-14                3.1e-12               7.0962e-07           
  -3.1                  -7.0948e-07           -4e-14                6.06e-12              7.097e-07            
  -3.2                  -7.0956e-07           2e-14                 1.148e-11             7.098e-07            
  -3.3                  -7.096e-07            -1.2e-13              2.128e-11             7.0986e-07           
  -3.4                  -7.0964e-07           -1.6e-13              3.846e-11             7.0984e-07           
  -3.5                  -7.0972e-07           -2e-13                6.822e-11             7.0996e-07           
  -3.6                  -7.099e-07            -1.2e-13              1.1832e-10            7.1002e-07           
END_DB

BEGIN_DB
 ICCAP_VAR vg         -2.794         
 ICCAP_VAR vb         3.6            
 ICCAP_VAR vs         -0             

 #vd                    id                    ig                    ib                    is                   
  -0                    3.0106e-10            -1.8e-13              1.6e-13               -3.0702e-10          
  -0.1                  -4.9268e-07           -2.8e-13              1e-13                 4.9296e-07           
  -0.2                  -9.1754e-07           -2.4e-13              2e-13                 9.1788e-07           
  -0.3                  -1.2712e-06           -2.6e-13              2.8e-13               1.275e-06            
  -0.4                  -1.5556e-06           -2e-14                2.6e-13               1.5596e-06           
  -0.5                  -1.7714e-06           -1.2e-13              2.2e-13               1.7752e-06           
  -0.6                  -1.9196e-06           -2.2e-13              3.2e-13               1.9234e-06           
  -0.7                  -2.0052e-06           -1e-13                2.8e-13               2.009e-06            
  -0.8                  -2.0414e-06           -1.4e-13              3.8e-13               2.045e-06            
  -0.9                  -2.051e-06            -1.6e-13              4.2e-13               2.0546e-06           
  -1                    -2.0534e-06           -1.4e-13              2.8e-13               2.0572e-06           
  -1.1                  -2.0546e-06           -8e-14                2.2e-13               2.0582e-06           
  -1.2                  -2.0552e-06           -8e-14                3.4e-13               2.059e-06            
  -1.3                  -2.0558e-06           -1.4e-13              3.8e-13               2.0598e-06           
  -1.4                  -2.0564e-06           -2.4e-13              2.4e-13               2.06e-06             
  -1.5                  -2.0568e-06           -2e-13                2.6e-13               2.0602e-06           
  -1.6                  -2.057e-06            -1.4e-13              2.8e-13               2.0608e-06           
  -1.7                  -2.0574e-06           -2.6e-13              3.8e-13               2.0612e-06           
  -1.8                  -2.0578e-06           -1e-13                2.8e-13               2.0614e-06           
  -1.9                  -2.058e-06            -4e-14                2.2e-13               2.0618e-06           
  -2                    -2.0582e-06           -4e-14                3.6e-13               2.062e-06            
  -2.1                  -2.0586e-06           -3.2e-13              3.6e-13               2.0622e-06           
  -2.2                  -2.0588e-06           -1.8e-13              2.6e-13               2.0624e-06           
  -2.3                  -2.059e-06            -1e-13                2.6e-13               2.0628e-06           
  -2.4                  -2.0592e-06           -2.6e-13              2.6e-13               2.063e-06            
  -2.5                  -2.0594e-06           -2e-13                2.8e-13               2.0634e-06           
  -2.6                  -2.0596e-06           -1.2e-13              2.4e-13               2.0634e-06           
  -2.7                  -2.0598e-06           -2.8e-13              3.4e-13               2.0634e-06           
  -2.8                  -2.06e-06             -4e-14                3e-13                 2.0638e-06           
  -2.9                  -2.0604e-06           -2e-14                4.4e-13               2.0642e-06           
  -3                    -2.0606e-06           -4e-14                8e-13                 2.0642e-06           
  -3.1                  -2.0606e-06           -8e-14                1.58e-12              2.0642e-06           
  -3.2                  -2.0608e-06           -2e-14                3.18e-12              2.0646e-06           
  -3.3                  -2.061e-06            4e-14                 5.88e-12              2.0646e-06           
  -3.4                  -2.0612e-06           -8e-14                1.202e-11             2.065e-06            
  -3.5                  -2.0614e-06           2e-14                 2.362e-11             2.065e-06            
  -3.6                  -2.0616e-06           -2e-14                4.512e-11             2.0652e-06           
END_DB

BEGIN_DB
 ICCAP_VAR vg         -3.197         
 ICCAP_VAR vb         3.6            
 ICCAP_VAR vs         -0             

 #vd                    id                    ig                    ib                    is                   
  -0                    4.3312e-10            -2.8e-13              2e-13                 -4.3606e-10          
  -0.1                  -6.9168e-07           -2.2e-13              1.4e-13               6.9196e-07           
  -0.2                  -1.3194e-06           -3.6e-13              1.4e-13               1.3232e-06           
  -0.3                  -1.8834e-06           -1.8e-13              2.2e-13               1.887e-06            
  -0.4                  -2.3804e-06           -1.6e-13              2.2e-13               2.384e-06            
  -0.5                  -2.8118e-06           -4e-14                3.6e-13               2.8158e-06           
  -0.6                  -3.176e-06            -1.2e-13              3.4e-13               3.1802e-06           
  -0.7                  -3.4726e-06           -1.8e-13              4.6e-13               3.4764e-06           
  -0.8                  -3.7024e-06           -1.6e-13              2.8e-13               3.7064e-06           
  -0.9                  -3.8666e-06           -1.4e-13              3e-13                 3.8706e-06           
  -1                    -3.97e-06             -2e-13                3.6e-13               3.9736e-06           
  -1.1                  -4.0216e-06           -1.8e-13              3.6e-13               4.0256e-06           
  -1.2                  -4.041e-06            -1.6e-13              2.6e-13               4.0444e-06           
  -1.3                  -4.0472e-06           -6e-14                3.2e-13               4.0512e-06           
  -1.4                  -4.05e-06             -8e-14                3.6e-13               4.0536e-06           
  -1.5                  -4.0512e-06           -2.6e-13              3e-13                 4.055e-06            
  -1.6                  -4.0524e-06           -1.2e-13              2.8e-13               4.0564e-06           
  -1.7                  -4.0538e-06           0                     2.6e-13               4.0574e-06           
  -1.8                  -4.0544e-06           -1.4e-13              2.8e-13               4.0582e-06           
  -1.9                  -4.0552e-06           -2.6e-13              4e-13                 4.0586e-06           
  -2                    -4.056e-06            -6e-14                2.8e-13               4.0598e-06           
  -2.1                  -4.0566e-06           -1.4e-13              2.8e-13               4.0606e-06           
  -2.2                  -4.0576e-06           -1.8e-13              3.2e-13               4.061e-06            
  -2.3                  -4.0576e-06           -1.6e-13              4e-13                 4.0618e-06           
  -2.4                  -4.0588e-06           -1e-13                3e-13                 4.0622e-06           
  -2.5                  -4.0586e-06           -2.4e-13              2.6e-13               4.0628e-06           
  -2.6                  -4.0592e-06           -1.8e-13              2.6e-13               4.0632e-06           
  -2.7                  -4.0602e-06           -4e-14                2.6e-13               4.064e-06            
  -2.8                  -4.0604e-06           -8e-14                4.6e-13               4.064e-06            
  -2.9                  -4.0608e-06           -4e-14                3.8e-13               4.0648e-06           
  -3                    -4.0618e-06           -1.6e-13              3e-13                 4.0652e-06           
  -3.1                  -4.0618e-06           -1.6e-13              3.2e-13               4.066e-06            
  -3.2                  -4.0622e-06           -1e-13                4.8e-13               4.0658e-06           
  -3.3                  -4.0624e-06           -1.4e-13              1.06e-12              4.066e-06            
  -3.4                  -4.063e-06            -2.4e-13              2.04e-12              4.0668e-06           
  -3.5                  -4.0634e-06           -1.2e-13              3.88e-12              4.067e-06            
  -3.6                  -4.0638e-06           -8e-14                8.12e-12              4.0678e-06           
END_DB

BEGIN_DB
 ICCAP_VAR vg         -3.6           
 ICCAP_VAR vb         3.6            
 ICCAP_VAR vs         -0             

 #vd                    id                    ig                    ib                    is                   
  -0                    5.6848e-10            -2.2e-13              1.4e-13               -5.574e-10           
  -0.1                  -8.7086e-07           -1.6e-13              1.2e-13               8.712e-07            
  -0.2                  -1.683e-06            -4.2e-13              2.2e-13               1.6868e-06           
  -0.3                  -2.436e-06            -4.4e-13              2e-13                 2.4398e-06           
  -0.4                  -3.1264e-06           -2e-13                2e-13                 3.1302e-06           
  -0.5                  -3.7564e-06           -3.2e-13              4e-14                 3.7606e-06           
  -0.6                  -4.3238e-06           -4.4e-13              2.8e-13               4.3278e-06           
  -0.7                  -4.8264e-06           -3.4e-13              4.2e-13               4.8304e-06           
  -0.8                  -5.266e-06            -1e-13                4e-13                 5.27e-06             
