! VERSION = 6.00
BEGIN_HEADER
 ICCAP_INPUTS
  vd         V  D GROUND SMU1 0.1 LIN        1    -0         -3.6       37   -0.1      
  vg         V  G GROUND SMU2 0.001 LIST       2 3 -0.566 -0.766 -0.966
  vb         V  B GROUND SMU4 0.1 CON        -0
  vs         V  S GROUND SMU3 0.1 CON        -0
 ICCAP_OUTPUTS
  id         I  D GROUND SMU1 B
  ig         I  G GROUND SMU2 B
  ib         I  B GROUND SMU4 B
  is         I  S GROUND SMU3 B
 ICCAP_VALUES
  MASTER_SETUP_TYPE "~dc_idvd~"
  LINVT_VALUE ""
  LISTVT_VALUE "|idvg|100.0n|-200.0m|1.000m|3|200.0m|200.0m|"
  TYPE "-1"
  TEMP "-40.0000 "
  IS_TNOM " 0.00000 "
  MAIN.W "10.00u"
  MAIN.L "10.00u"
  MAIN.AD "3.400p"
  MAIN.AS "3.400p"
  MAIN.PD "20.68u"
  MAIN.PS "20.68u"
  MAIN.NF "1.000"
  MAIN.M "1"
  MAIN.NRD "0.000"
  MAIN.NRS "0.000"
  MAIN.LDRIFT1 "1E-06"
  MAIN.LDRIFT2 "1E-06"
  MAIN.SA "0.000"
  MAIN.SB "0.000"
  MAIN.SD "0.000"
  MAIN.SCA "0.000"
  MAIN.SCB "0.000"
  MAIN.SCC "0.000"
  MAIN.SC "0.000"
  MODULE "S562"
  PIN_D "16"
  PIN_G "5"
  PIN_S "6"
  PIN_B "15"
  PIN_E ""
  PIN_6 ""
  XY_ID ""
  FUNC "Large"
  STI "SA ref"
  WPE "WPE ref"
  COMMENT ""
  DIS_MEAS ""
  TypeTCI "10"
END_HEADER

BEGIN_DB
 ICCAP_VAR vg         -0.566         
 ICCAP_VAR vb         -0             
 ICCAP_VAR vs         -0             

 #vd                    id                    ig                    ib                    is                   
  -0                    4.6e-13               3.2e-13               -1.8e-13              -8.6e-13             
  -0.1                  -3.9176e-10           2.8e-13               -6e-14                3.9158e-10           
  -0.2                  -3.9474e-10           2.2e-13               -8e-14                3.9456e-10           
  -0.3                  -3.951e-10            1.6e-13               -1.8e-13              3.9476e-10           
  -0.4                  -3.9512e-10           5.4e-13               -1.4e-13              3.9524e-10           
  -0.5                  -3.953e-10            8e-14                 -4e-14                3.9524e-10           
  -0.6                  -3.9548e-10           5e-13                 -4e-14                3.9518e-10           
  -0.7                  -3.9546e-10           2.2e-13               -6e-14                3.9546e-10           
  -0.8                  -3.957e-10            2.6e-13               -1e-13                3.9554e-10           
  -0.9                  -3.9562e-10           0                     0                     3.954e-10            
  -1                    -3.9566e-10           3.6e-13               -6e-14                3.9542e-10           
  -1.1                  -3.958e-10            2.4e-13               -6e-14                3.9536e-10           
  -1.2                  -3.9598e-10           5.2e-13               -8e-14                3.9546e-10           
  -1.3                  -3.9594e-10           -4e-14                -1.4e-13              3.9568e-10           
  -1.4                  -3.9596e-10           4e-14                 -6e-14                3.9568e-10           
  -1.5                  -3.9618e-10           3.2e-13               -8e-14                3.9558e-10           
  -1.6                  -3.9614e-10           1.2e-13               -8e-14                3.9568e-10           
  -1.7                  -3.9622e-10           -4e-14                -1e-13                3.9574e-10           
  -1.8                  -3.9624e-10           3.2e-13               -1e-13                3.956e-10            
  -1.9                  -3.9638e-10           2.8e-13               -1e-13                3.9566e-10           
  -2                    -3.9636e-10           2.4e-13               0                     3.957e-10            
  -2.1                  -3.9646e-10           -8e-14                -4e-14                3.9568e-10           
  -2.2                  -3.9654e-10           2.8e-13               -8e-14                3.9594e-10           
  -2.3                  -3.9652e-10           1e-13                 -2e-13                3.959e-10            
  -2.4                  -3.9654e-10           5.6e-13               0                     3.9608e-10           
  -2.5                  -3.9672e-10           4e-14                 -8e-14                3.9598e-10           
  -2.6                  -3.9678e-10           4.6e-13               2e-14                 3.9592e-10           
  -2.7                  -3.968e-10            1.4e-13               1e-13                 3.96e-10             
  -2.8                  -3.9696e-10           3.4e-13               0                     3.9614e-10           
  -2.9                  -3.9702e-10           6e-14                 1.4e-13               3.961e-10            
  -3                    -3.9732e-10           3.4e-13               3.8e-13               3.9582e-10           
  -3.1                  -3.9754e-10           0                     5.2e-13               3.9616e-10           
  -3.2                  -3.9774e-10           1e-13                 9.4e-13               3.9612e-10           
  -3.3                  -3.9824e-10           -6e-14                1.2e-12               3.9624e-10           
  -3.4                  -3.9896e-10           4.6e-13               1.82e-12              3.9622e-10           
  -3.5                  -3.9958e-10           1.6e-13               2.48e-12              3.9642e-10           
  -3.6                  -4.0084e-10           7.6e-13               3.56e-12              3.9628e-10           
END_DB

BEGIN_DB
 ICCAP_VAR vg         -0.766         
 ICCAP_VAR vb         -0             
 ICCAP_VAR vs         -0             

 #vd                    id                    ig                    ib                    is                   
  -0                    1.112e-10             1.8e-13               -2.2e-13              -1.1542e-10          
  -0.1                  -9.9686e-08           8e-14                 -2e-13                9.9712e-08           
  -0.2                  -1.0194e-07           -4e-14                -6e-14                1.02054e-07          
  -0.3                  -1.02e-07             -2.4e-13              2e-14                 1.02118e-07          
  -0.4                  -1.0204e-07           1.2e-13               -1e-13                1.02158e-07          
  -0.5                  -1.0206e-07           2.2e-13               -4e-14                1.02178e-07          
  -0.6                  -1.021e-07            1e-13                 8e-14                 1.022e-07            
  -0.7                  -1.0212e-07           -1e-13                -1.2e-13              1.02222e-07          
  -0.8                  -1.0212e-07           -1.8e-13              -6e-14                1.02238e-07          
  -0.9                  -1.0214e-07           -1e-13                -6e-14                1.02248e-07          
  -1                    -1.0216e-07           1.6e-13               -8e-14                1.0227e-07           
  -1.1                  -1.0218e-07           1.8e-13               0                     1.02286e-07          
  -1.2                  -1.0218e-07           -6e-14                2e-14                 1.023e-07            
  -1.3                  -1.022e-07            2.2e-13               0                     1.02308e-07          
  -1.4                  -1.0222e-07           2e-13                 2e-14                 1.0231e-07           
  -1.5                  -1.0222e-07           -1e-13                2e-14                 1.0233e-07           
  -1.6                  -1.0222e-07           3.4e-13               0                     1.02342e-07          
  -1.7                  -1.0224e-07           -1.8e-13              0                     1.02358e-07          
  -1.8                  -1.0226e-07           2.4e-13               -1.4e-13              1.02362e-07          
  -1.9                  -1.0226e-07           1.8e-13               8e-14                 1.0238e-07           
  -2                    -1.0228e-07           4e-13                 1.4e-13               1.02384e-07          
  -2.1                  -1.0228e-07           1.8e-13               3.2e-13               1.02394e-07          
  -2.2                  -1.0228e-07           1.2e-13               6.2e-13               1.024e-07            
  -2.3                  -1.023e-07            1.4e-13               1.02e-12              1.02416e-07          
  -2.4                  -1.0232e-07           -2e-14                2.14e-12              1.0242e-07           
  -2.5                  -1.0232e-07           1.4e-13               3.92e-12              1.0243e-07           
  -2.6                  -1.0234e-07           -1.6e-13              6.92e-12              1.02438e-07          
  -2.7                  -1.0234e-07           1.2e-13               1.206e-11             1.02442e-07          
  -2.8                  -1.0236e-07           -2e-14                2.006e-11             1.0245e-07           
  -2.9                  -1.0238e-07           1e-13                 3.286e-11             1.02458e-07          
  -3                    -1.0242e-07           4e-14                 5.25e-11              1.0247e-07           
  -3.1                  -1.0246e-07           3e-13                 8.198e-11             1.02478e-07          
  -3.2                  -1.025e-07            8e-14                 1.2514e-10            1.02488e-07          
  -3.3                  -1.0258e-07           -8e-14                1.8794e-10            1.02502e-07          
  -3.4                  -1.0268e-07           2.4e-13               2.7612e-10            1.02502e-07          
  -3.5                  -1.028e-07            4e-14                 3.9904e-10            1.0251e-07           
  -3.6                  -1.0298e-07           8e-14                 5.6624e-10            1.02516e-07          
END_DB

BEGIN_DB
 ICCAP_VAR vg         -0.966         
 ICCAP_VAR vb         -0             
 ICCAP_VAR vs         -0             

 #vd                    id                    ig                    ib                    is                   
  -0                    5.1676e-10            -1.4e-13              -1e-13                -4.948e-10           
  -0.1                  -8.7452e-07           -2.8e-13              -1e-13                8.748e-07            
  -0.2                  -1.10848e-06          -4e-13                -1e-13                1.1088e-06           
  -0.3                  -1.12288e-06          0                     6e-14                 1.12318e-06          
  -0.4                  -1.12378e-06          3.2e-13               -6e-14                1.12408e-06          
  -0.5                  -1.12424e-06          -4e-14                2e-14                 1.12458e-06          
  -0.6                  -1.12456e-06          -6e-14                4e-14                 1.12488e-06          
  -0.7                  -1.12484e-06          2e-13                 -4e-14                1.12514e-06          
  -0.8                  -1.12508e-06          -3.2e-13              6e-14                 1.12538e-06          
  -0.9                  -1.12526e-06          2.2e-13               -1e-13                1.12554e-06          
  -1                    -1.12544e-06          -6e-14                -1e-13                1.12576e-06          
  -1.1                  -1.1256e-06           -2.6e-13              4e-14                 1.12586e-06          
  -1.2                  -1.12576e-06          -2.6e-13              -6e-14                1.12604e-06          
  -1.3                  -1.1259e-06           -2e-14                -4e-14                1.12622e-06          
  -1.4                  -1.12606e-06          1.2e-13               1e-13                 1.12634e-06          
  -1.5                  -1.12616e-06          1e-13                 0                     1.12644e-06          
  -1.6                  -1.12626e-06          2e-13                 0                     1.12658e-06          
  -1.7                  -1.12638e-06          8e-14                 4e-14                 1.12668e-06          
  -1.8                  -1.12654e-06          -2e-14                -2e-14                1.12684e-06          
  -1.9                  -1.12664e-06          -1e-13                2e-13                 1.1269e-06           
  -2                    -1.12674e-06          6e-14                 3.4e-13               1.12704e-06          
  -2.1                  -1.12684e-06          1.4e-13               8e-13                 1.12714e-06          
  -2.2                  -1.12694e-06          3e-13                 1.94e-12              1.12722e-06          
  -2.3                  -1.12702e-06          1.2e-13               4.2e-12               1.12736e-06          
  -2.4                  -1.12716e-06          -8e-14                8.36e-12              1.12746e-06          
  -2.5                  -1.12724e-06          3.2e-13               1.614e-11             1.1275e-06           
  -2.6                  -1.12736e-06          -2.2e-13              3.042e-11             1.12762e-06          
  -2.7                  -1.12748e-06          2.8e-13               5.504e-11             1.12768e-06          
  -2.8                  -1.12756e-06          2.8e-13               9.64e-11              1.12778e-06          
  -2.9                  -1.12774e-06          -2.4e-13              1.6422e-10            1.12788e-06          
  -3                    -1.12796e-06          4e-14                 2.7258e-10            1.12798e-06          
  -3.1                  -1.1282e-06           2.6e-13               4.4168e-10            1.12804e-06          
  -3.2                  -1.12854e-06          -2.2e-13              7.0008e-10            1.12818e-06          
  -3.3                  -1.1274e-06           1.2e-13               1.08556e-09           1.12822e-06          
  -3.4                  -1.1282e-06           1.2e-13               1.6488e-09            1.1298e-06           
  -3.5                  -1.129e-06            6e-14                 2.4558e-09            1.13e-06             
  -3.6                  -1.1302e-06           1.8e-13               3.5914e-09            1.13e-06             
END_DB

