! VERSION = 6.00
BEGIN_HEADER
 ICCAP_INPUTS
  vd         V  D GROUND SMU1 0.1 LIN        1    -0         -3.6       37   -0.1      
  vg         V  G GROUND SMU2 0.001 LIN        2    -1.908     -3.6       5    -0.423    
  vb         V  B GROUND SMU4 0.1 CON        3.6
  vs         V  S GROUND SMU3 0.1 CON        -0
 ICCAP_OUTPUTS
  id         I  D GROUND SMU1 B
  ig         I  G GROUND SMU2 B
  ib         I  B GROUND SMU4 B
  is         I  S GROUND SMU3 B
 ICCAP_VALUES
  MASTER_SETUP_TYPE "~dc_idvd~"
  LINVT_VALUE "|idvg|100.0n|100.0m|1.000m|5|3.600|"
  LISTVT_VALUE ""
  TYPE "-1"
  TEMP " 125.000 "
  IS_TNOM " 0.00000 "
  MAIN.W "2.000u"
  MAIN.L "1.200u"
  MAIN.AD "680.0f"
  MAIN.AS "680.0f"
  MAIN.PD "4.680u"
  MAIN.PS "4.680u"
  MAIN.NF "1.000"
  MAIN.M "1"
  MAIN.NRD "0.000"
  MAIN.NRS "0.000"
  MAIN.LDRIFT1 "1E-06"
  MAIN.LDRIFT2 "1E-06"
  MAIN.SA "0.000"
  MAIN.SB "0.000"
  MAIN.SD "0.000"
  MAIN.SCA "0.000"
  MAIN.SCB "0.000"
  MAIN.SCC "0.000"
  MAIN.SC "0.000"
  MODULE "S563"
  PIN_D "16"
  PIN_G "5"
  PIN_S "6"
  PIN_B "15"
  PIN_E ""
  PIN_6 ""
  XY_ID ""
  FUNC "LW Scale"
  STI "SA ref"
  WPE "WPE ref"
  COMMENT ""
  DIS_MEAS ""
  TypeTCI "10"
END_HEADER

BEGIN_DB
 ICCAP_VAR vg         -1.908         
 ICCAP_VAR vb         3.6            
 ICCAP_VAR vs         -0             

 #vd                    id                    ig                    ib                    is                   
  -0                    1.258e-10             -5.6e-12              3.3562e-09            -1.8512e-10          
  -0.1                  -4.1064e-07           -5.2e-12              3.3134e-09            4.1056e-07           
  -0.2                  -5.3564e-07           -5e-12                3.2834e-09            5.3592e-07           
  -0.3                  -5.5774e-07           -4.86e-12             3.252e-09             5.581e-07            
  -0.4                  -5.6196e-07           -4.82e-12             3.2196e-09            5.6214e-07           
  -0.5                  -5.6364e-07           -4.8e-12              3.1858e-09            5.6378e-07           
  -0.6                  -5.6468e-07           -4.72e-12             3.15e-09              5.6474e-07           
  -0.7                  -5.6562e-07           -4.54e-12             3.1128e-09            5.6576e-07           
  -0.8                  -5.6654e-07           -4.46e-12             3.0728e-09            5.6662e-07           
  -0.9                  -5.6734e-07           -4.4e-12              3.0306e-09            5.6748e-07           
  -1                    -5.6792e-07           -4.44e-12             2.9846e-09            5.6836e-07           
  -1.1                  -5.6894e-07           -4.3e-12              2.9182e-09            5.6884e-07           
  -1.2                  -5.694e-07            -4.12e-12             2.325e-09             5.6956e-07           
  -1.3                  -5.699e-07            -2.08e-12             2.486e-10             5.702e-07            
  -1.4                  -5.7026e-07           -7.4e-13              1.5192e-10            5.7038e-07           
  -1.5                  -5.7102e-07           -7.6e-13              1.3534e-10            5.7102e-07           
  -1.6                  -5.7142e-07           -7e-13                1.2472e-10            5.7154e-07           
  -1.7                  -5.7186e-07           -8e-13                1.166e-10             5.7142e-07           
  -1.8                  -5.7164e-07           -6.8e-13              1.0968e-10            5.7164e-07           
  -1.9                  -5.7202e-07           -6.2e-13              1.0416e-10            5.7198e-07           
  -2                    -5.7264e-07           -5.6e-13              9.998e-11             5.7264e-07           
  -2.1                  -5.7278e-07           -5.4e-13              9.518e-11             5.7254e-07           
  -2.2                  -5.7284e-07           -6e-13                9.166e-11             5.73e-07             
  -2.3                  -5.7344e-07           -5.8e-13              8.824e-11             5.7338e-07           
  -2.4                  -5.7374e-07           -5.6e-13              8.566e-11             5.7394e-07           
  -2.5                  -5.7436e-07           -5.4e-13              8.398e-11             5.7474e-07           
  -2.6                  -5.7492e-07           -5.6e-13              8.262e-11             5.749e-07            
  -2.7                  -5.752e-07            -4.4e-13              8.304e-11             5.7552e-07           
  -2.8                  -5.7602e-07           -4.6e-13              8.522e-11             5.7608e-07           
  -2.9                  -5.764e-07            -5e-13                9.08e-11              5.7616e-07           
  -3                    -5.764e-07            -4.2e-13              1.01e-10              5.7652e-07           
  -3.1                  -5.7666e-07           -5.6e-13              1.1936e-10            5.7658e-07           
  -3.2                  -5.7702e-07           -4.8e-13              1.5002e-10            5.7708e-07           
  -3.3                  -5.774e-07            -5.6e-13              1.9842e-10            5.7734e-07           
  -3.4                  -5.7792e-07           -4e-13                2.7448e-10            5.7808e-07           
  -3.5                  -5.7868e-07           -3e-13                3.9082e-10            5.7856e-07           
  -3.6                  -5.7888e-07           -3e-13                5.656e-10             5.785e-07            
END_DB

BEGIN_DB
 ICCAP_VAR vg         -2.331         
 ICCAP_VAR vb         3.6            
 ICCAP_VAR vs         -0             

 #vd                    id                    ig                    ib                    is                   
  -0                    5.5512e-10            -8.2e-13              4.412e-11             -5.7662e-10          
  -0.1                  -1.9744e-06           -7.6e-13              4.262e-11             1.9772e-06           
  -0.2                  -3.4826e-06           -7e-13                4.574e-11             3.486e-06            
  -0.3                  -4.5382e-06           -6.2e-13              4.57e-11              4.5408e-06           
  -0.4                  -5.1864e-06           -6e-13                4.534e-11             5.1882e-06           
  -0.5                  -5.5204e-06           -6.8e-13              4.492e-11             5.525e-06            
  -0.6                  -5.662e-06            -5.8e-13              4.426e-11             5.6656e-06           
  -0.7                  -5.718e-06            -6.2e-13              4.382e-11             5.7214e-06           
  -0.8                  -5.7428e-06           -7.2e-13              4.366e-11             5.7466e-06           
  -0.9                  -5.7624e-06           -6.6e-13              4.294e-11             5.7652e-06           
  -1                    -5.7786e-06           -5.6e-13              4.31e-11              5.7788e-06           
  -1.1                  -5.7878e-06           -5.4e-13              4.282e-11             5.7898e-06           
  -1.2                  -5.7952e-06           -5.4e-13              4.17e-11              5.7984e-06           
  -1.3                  -5.8044e-06           -5.4e-13              4.152e-11             5.8066e-06           
  -1.4                  -5.8122e-06           -5.6e-13              4.134e-11             5.8166e-06           
  -1.5                  -5.8204e-06           -5.8e-13              4.094e-11             5.824e-06            
  -1.6                  -5.827e-06            -6e-13                4.082e-11             5.831e-06            
  -1.7                  -5.833e-06            -5.8e-13              4.022e-11             5.8366e-06           
  -1.8                  -5.8386e-06           -5e-13                3.968e-11             5.8424e-06           
  -1.9                  -5.8454e-06           -4.4e-13              3.992e-11             5.8454e-06           
  -2                    -5.8496e-06           -5.4e-13              3.93e-11              5.8512e-06           
  -2.1                  -5.8538e-06           -6.4e-13              3.934e-11             5.8592e-06           
  -2.2                  -5.8584e-06           -4.6e-13              3.882e-11             5.862e-06            
  -2.3                  -5.865e-06            -4.2e-13              3.946e-11             5.868e-06            
  -2.4                  -5.8694e-06           -5e-13                3.892e-11             5.872e-06            
  -2.5                  -5.8748e-06           -4.8e-13              3.92e-11              5.878e-06            
  -2.6                  -5.8778e-06           -4.4e-13              3.998e-11             5.8828e-06           
  -2.7                  -5.8812e-06           -3.2e-13              4.306e-11             5.8852e-06           
  -2.8                  -5.8874e-06           -4.6e-13              4.746e-11             5.891e-06            
  -2.9                  -5.8942e-06           -4.4e-13              5.654e-11             5.8968e-06           
  -3                    -5.8986e-06           -3.2e-13              7.388e-11             5.9018e-06           
  -3.1                  -5.903e-06            -4.2e-13              1.0498e-10            5.9056e-06           
  -3.2                  -5.905e-06            -5.2e-13              1.5988e-10            5.909e-06            
  -3.3                  -5.9102e-06           -4e-13                2.5348e-10            5.9124e-06           
  -3.4                  -5.9134e-06           -4.6e-13              4.0764e-10            5.9178e-06           
  -3.5                  -5.9202e-06           -3.4e-13              6.594e-10             5.924e-06            
  -3.6                  -5.9258e-06           -3.2e-13              1.061e-09             5.9264e-06           
END_DB

BEGIN_DB
 ICCAP_VAR vg         -2.754         
 ICCAP_VAR vb         3.6            
 ICCAP_VAR vs         -0             

 #vd                    id                    ig                    ib                    is                   
  -0                    1.0052e-09            -7.4e-13              2.714e-11             -9.0178e-10          
  -0.1                  -3.4998e-06           -6.6e-13              2.66e-11              3.5028e-06           
  -0.2                  -6.5642e-06           -8e-13                3.122e-11             6.5686e-06           
  -0.3                  -9.1838e-06           -7.2e-13              3.074e-11             9.1868e-06           
  -0.4                  -1.13526e-05          -7.6e-13              3.098e-11             1.13556e-05          
  -0.5                  -1.3092e-05           -6e-13                2.672e-11             1.31e-05             
  -0.6                  -1.4414e-05           -7.4e-13              3.014e-11             1.4418e-05           
  -0.7                  -1.5348e-05           -7.2e-13              3.02e-11              1.5354e-05           
  -0.8                  -1.5956e-05           -5.6e-13              3.032e-11             1.5964e-05           
  -0.9                  -1.6306e-05           -6.8e-13              3.032e-11             1.631e-05            
  -1                    -1.6502e-05           -6.8e-13              2.992e-11             1.6504e-05           
  -1.1                  -1.661e-05            -7e-13                2.996e-11             1.662e-05            
  -1.2                  -1.6684e-05           -6.2e-13              3.01e-11              1.6686e-05           
  -1.3                  -1.6732e-05           -6e-13                2.97e-11              1.6738e-05           
  -1.4                  -1.6764e-05           -6.4e-13              2.964e-11             1.677e-05            
  -1.5                  -1.6794e-05           -5.8e-13              2.968e-11             1.6802e-05           
  -1.6                  -1.6822e-05           -6.2e-13              2.918e-11             1.6828e-05           
  -1.7                  -1.685e-05            -5.8e-13              2.99e-11              1.6858e-05           
  -1.8                  -1.6874e-05           -4.8e-13              2.956e-11             1.688e-05            
  -1.9                  -1.6898e-05           -4.2e-13              2.874e-11             1.6902e-05           
  -2                    -1.6916e-05           -5.8e-13              2.904e-11             1.6922e-05           
  -2.1                  -1.6934e-05           -4.6e-13              2.898e-11             1.6936e-05           
  -2.2                  -1.6952e-05           -5.6e-13              2.864e-11             1.6952e-05           
  -2.3                  -1.6964e-05           -6.4e-13              2.922e-11             1.6972e-05           
  -2.4                  -1.6982e-05           -4e-13                2.884e-11             1.6988e-05           
  -2.5                  -1.6996e-05           -4.8e-13              2.87e-11              1.7004e-05           
  -2.6                  -1.7016e-05           -4.4e-13              2.89e-11              1.7024e-05           
  -2.7                  -1.703e-05            -3.8e-13              2.964e-11             1.7034e-05           
  -2.8                  -1.7044e-05           -5e-13                3.048e-11             1.7054e-05           
  -2.9                  -1.706e-05            -4.2e-13              3.336e-11             1.7066e-05           
  -3                    -1.7072e-05           -3.8e-13              3.872e-11             1.708e-05            
  -3.1                  -1.709e-05            -4e-13                4.88e-11              1.7094e-05           
  -3.2                  -1.71e-05             -5e-13                6.904e-11             1.7104e-05           
  -3.3                  -1.7114e-05           -4.6e-13              1.062e-10             1.7122e-05           
  -3.4                  -1.7126e-05           -3.6e-13              1.7448e-10            1.7136e-05           
  -3.5                  -1.7138e-05           -2.6e-13              2.9476e-10            1.7144e-05           
  -3.6                  -1.7148e-05           -3.8e-13              5.0108e-10            1.7154e-05           
END_DB

BEGIN_DB
 ICCAP_VAR vg         -3.177         
 ICCAP_VAR vb         3.6            
 ICCAP_VAR vs         -0             

 #vd                    id                    ig                    ib                    is                   
  -0                    1.3218e-09            -9e-13                2.102e-11             -1.1162e-09          
  -0.1                  -4.8756e-06           -7.4e-13              2.122e-11             4.8774e-06           
  -0.2                  -9.351e-06            -8.4e-13              2.5e-11               9.3534e-06           
  -0.3                  -1.341e-05            -8.2e-13              2.128e-11             1.3414e-05           
  -0.4                  -1.7044e-05           -7.6e-13              2.478e-11             1.7048e-05           
  -0.5                  -2.0264e-05           -7.6e-13              2.5e-11               2.027e-05            
  -0.6                  -2.3068e-05           -7.4e-13              2.534e-11             2.3078e-05           
  -0.7                  -2.5448e-05           -6.4e-13              2.474e-11             2.5458e-05           
  -0.8                  -2.7436e-05           -6.8e-13              2.476e-11             2.7448e-05           
  -0.9                  -2.9026e-05           -6.4e-13              2.526e-11             2.9042e-05           
  -1                    -3.026e-05            -7.2e-13              2.482e-11             3.027e-05            
  -1.1                  -3.1162e-05           -6.8e-13              2.506e-11             3.1172e-05           
  -1.2                  -3.1774e-05           -7e-13                2.524e-11             3.1778e-05           
  -1.3                  -3.217e-05            -6e-13                2.452e-11             3.2176e-05           
  -1.4                  -3.2432e-05           -6.6e-13              2.514e-11             3.2442e-05           
  -1.5                  -3.26e-05             -5.4e-13              2.466e-11             3.2612e-05           
  -1.6                  -3.2718e-05           -5.6e-13              2.446e-11             3.2734e-05           
  -1.7                  -3.2808e-05           -6.6e-13              2.478e-11             3.2822e-05           
  -1.8                  -3.288e-05            -7.4e-13              2.488e-11             3.289e-05            
  -1.9                  -3.2942e-05           -6.8e-13              2.422e-11             3.2948e-05           
  -2                    -3.2996e-05           -6.6e-13              2.47e-11              3.3002e-05           
  -2.1                  -3.3042e-05           -5.8e-13              2.458e-11             3.3054e-05           
  -2.2                  -3.309e-05            -6.4e-13              2.442e-11             3.3092e-05           
  -2.3                  -3.3122e-05           -6.8e-13              2.414e-11             3.3126e-05           
  -2.4                  -3.3168e-05           -6.2e-13              2.446e-11             3.3174e-05           
  -2.5                  -3.3206e-05           -6.6e-13              2.444e-11             3.3208e-05           
  -2.6                  -3.323e-05            -6e-13                2.47e-11              3.324e-05            
  -2.7                  -3.3262e-05           -4.4e-13              2.462e-11             3.3278e-05           
  -2.8                  -3.3298e-05           -5.8e-13              2.468e-11             3.3314e-05           
  -2.9                  -3.3332e-05           -7e-13                2.476e-11             3.3344e-05           
  -3                    -3.3368e-05           -6.2e-13              2.576e-11             3.337e-05            
  -3.1                  -3.3402e-05           -6e-13                2.766e-11             3.3398e-05           
  -3.2                  -3.3424e-05           -5.6e-13              3.154e-11             3.3434e-05           
  -3.3                  -3.345e-05            -5.2e-13              3.938e-11             3.346e-05            
  -3.4                  -3.3482e-05           -6.2e-13              5.572e-11             3.3486e-05           
  -3.5                  -3.3498e-05           -4.8e-13              8.66e-11              3.3508e-05           
  -3.6                  -3.3528e-05           -6.2e-13              1.4212e-10            3.354e-05            
END_DB

BEGIN_DB
 ICCAP_VAR vg         -3.6           
 ICCAP_VAR vb         3.6            
 ICCAP_VAR vs         -0             

 #vd                    id                    ig                    ib                    is                   
  -0                    1.2928e-09            -9e-13                1.828e-11             -1.1044e-09          
  -0.1                  -6.109e-06            -1e-12                1.896e-11             6.1118e-06           
  -0.2                  -1.1852e-05           -9.8e-13              1.834e-11             1.1858e-05           
  -0.3                  -1.7212e-05           -9e-13                2.204e-11             1.7218e-05           
  -0.4                  -2.2168e-05           -9.6e-13              2.192e-11             2.2176e-05           
  -0.5                  -2.6758e-05           -8.8e-13              2.194e-11             2.6762e-05           
  -0.6                  -3.094e-05            -8.2e-13              2.222e-11             3.0946e-05           
  -0.7                  -3.4722e-05           -8.6e-13              2.244e-11             3.4734e-05           
  -0.8                  -3.8116e-05           -9e-13                2.21e-11              3.8126e-05           
