! VERSION = 6.00
BEGIN_HEADER
 ICCAP_INPUTS
  vd         V  D GROUND SMU1 0.1 LIN        1    -0         -3.6       37   -0.1      
  vg         V  G GROUND SMU2 0.001 LIST       2 3 -1.399 -1.599 -1.799
  vb         V  B GROUND SMU4 0.1 CON        3.6
  vs         V  S GROUND SMU3 0.1 CON        -0
 ICCAP_OUTPUTS
  id         I  D GROUND SMU1 B
  ig         I  G GROUND SMU2 B
  ib         I  B GROUND SMU4 B
  is         I  S GROUND SMU3 B
 ICCAP_VALUES
  MASTER_SETUP_TYPE "~dc_idvd~"
  LINVT_VALUE ""
  LISTVT_VALUE "|idvg|100.0n|-200.0m|1.000m|3|200.0m|200.0m|"
  TYPE "-1"
  TEMP "-40.0000 "
  IS_TNOM " 0.00000 "
  MAIN.W "300.0n"
  MAIN.L "350.0n"
  MAIN.AD "102.0f"
  MAIN.AS "102.0f"
  MAIN.PD "1.280u"
  MAIN.PS "1.280u"
  MAIN.NF "1.000"
  MAIN.M "1"
  MAIN.NRD "0.000"
  MAIN.NRS "0.000"
  MAIN.LDRIFT1 "1E-06"
  MAIN.LDRIFT2 "1E-06"
  MAIN.SA "0.000"
  MAIN.SB "0.000"
  MAIN.SD "0.000"
  MAIN.SCA "0.000"
  MAIN.SCB "0.000"
  MAIN.SCC "0.000"
  MAIN.SC "0.000"
  MODULE "S565"
  PIN_D "16"
  PIN_G "5"
  PIN_S "6"
  PIN_B "15"
  PIN_E ""
  PIN_6 ""
  XY_ID ""
  FUNC "Small"
  STI "SA ref"
  WPE "WPE ref"
  COMMENT ""
  DIS_MEAS ""
  TypeTCI "10"
END_HEADER

BEGIN_DB
 ICCAP_VAR vg         -1.399         
 ICCAP_VAR vb         3.6            
 ICCAP_VAR vs         -0             

 #vd                    id                    ig                    ib                    is                   
  -0                    3.2e-13               3.6e-13               4e-13                 -2e-14               
  -0.1                  -1.016e-11            8e-14                 3.4e-13               1.022e-11            
  -0.2                  -1.26e-11             -1.8e-13              3.4e-13               1.288e-11            
  -0.3                  -1.542e-11            1.8e-13               3e-13                 1.486e-11            
  -0.4                  -1.774e-11            1.8e-13               3.4e-13               1.764e-11            
  -0.5                  -2.06e-11             0                     2.6e-13               2.046e-11            
  -0.6                  -2.348e-11            2.4e-13               2e-13                 2.344e-11            
  -0.7                  -2.672e-11            2e-14                 3e-13                 2.634e-11            
  -0.8                  -3.034e-11            1.6e-13               1e-13                 3.014e-11            
  -0.9                  -3.46e-11             -2e-14                1.4e-13               3.452e-11            
  -1                    -3.876e-11            -1.8e-13              2e-13                 3.86e-11             
  -1.1                  -4.362e-11            2e-14                 1.6e-13               4.33e-11             
  -1.2                  -4.91e-11             2.6e-13               2e-13                 4.854e-11            
  -1.3                  -5.496e-11            6e-14                 1.6e-13               5.464e-11            
  -1.4                  -6.138e-11            3.6e-13               4e-14                 6.166e-11            
  -1.5                  -6.824e-11            3.8e-13               6e-14                 6.804e-11            
  -1.6                  -7.674e-11            6e-14                 6e-14                 7.57e-11             
  -1.7                  -8.454e-11            -2e-14                1.2e-13               8.392e-11            
  -1.8                  -9.376e-11            1.2e-13               2e-14                 9.35e-11             
  -1.9                  -1.0404e-10           4.8e-13               -2e-14                1.0354e-10           
  -2                    -1.1532e-10           5e-13                 1.6e-13               1.1464e-10           
  -2.1                  -1.277e-10            1.6e-13               -2e-14                1.274e-10            
  -2.2                  -1.4192e-10           2.8e-13               2e-14                 1.4144e-10           
  -2.3                  -1.5648e-10           1.6e-13               4e-14                 1.5716e-10           
  -2.4                  -1.7304e-10           -1.2e-13              6e-14                 1.7256e-10           
  -2.5                  -1.9074e-10           2.4e-13               4e-14                 1.9104e-10           
  -2.6                  -2.1324e-10           -2.4e-13              1e-13                 2.1216e-10           
  -2.7                  -2.354e-10            2.4e-13               4e-14                 2.348e-10            
  -2.8                  -2.6082e-10           2.2e-13               1e-13                 2.5846e-10           
  -2.9                  -2.8728e-10           2.4e-13               1.8e-13               2.8676e-10           
  -3                    -3.1842e-10           1.8e-13               2.2e-13               3.1576e-10           
  -3.1                  -3.4848e-10           1.2e-13               4.4e-13               3.4938e-10           
  -3.2                  -3.855e-10            6e-14                 7e-13                 3.8422e-10           
  -3.3                  -4.2846e-10           -8e-14                9.6e-13               4.2518e-10           
  -3.4                  -4.7378e-10           1.8e-13               1.8e-12               4.6998e-10           
  -3.5                  -5.2274e-10           2.4e-13               2.88e-12              5.2326e-10           
  -3.6                  -5.7762e-10           8e-14                 4.56e-12              5.7246e-10           
END_DB

BEGIN_DB
 ICCAP_VAR vg         -1.599         
 ICCAP_VAR vb         3.6            
 ICCAP_VAR vs         -0             

 #vd                    id                    ig                    ib                    is                   
  -0                    1.836e-11             -1.2e-13              -1.6e-13              -1.83e-11            
  -0.1                  -1.3282e-08           -3e-13                -4e-14                1.3348e-08           
  -0.2                  -1.6826e-08           6e-14                 8e-14                 1.6842e-08           
  -0.3                  -2.0102e-08           0                     4e-14                 2.0122e-08           
  -0.4                  -2.3326e-08           1.8e-13               8e-14                 2.3352e-08           
  -0.5                  -2.6512e-08           4e-14                 4e-14                 2.6552e-08           
  -0.6                  -2.9744e-08           1.6e-13               1e-13                 2.9782e-08           
  -0.7                  -3.3046e-08           1.2e-13               8e-14                 3.3096e-08           
  -0.8                  -3.6734e-08           4e-14                 1.6e-13               3.6772e-08           
  -0.9                  -4.0384e-08           0                     1.2e-13               4.038e-08            
  -1                    -4.411e-08            8e-14                 1.2e-13               4.4176e-08           
  -1.1                  -4.7848e-08           1.4e-13               2e-14                 4.7862e-08           
  -1.2                  -5.2012e-08           6e-14                 4e-14                 5.2086e-08           
  -1.3                  -5.6764e-08           2e-14                 1.2e-13               5.6774e-08           
  -1.4                  -6.102e-08            6e-14                 1.2e-13               6.0996e-08           
  -1.5                  -6.577e-08            2e-14                 6e-14                 6.5834e-08           
  -1.6                  -7.076e-08            2e-13                 6e-14                 7.0738e-08           
  -1.7                  -7.5962e-08           1e-13                 2e-14                 7.5908e-08           
  -1.8                  -8.127e-08            -2.8e-13              1e-13                 8.1322e-08           
  -1.9                  -8.7162e-08           5.8e-13               1.2e-13               8.7376e-08           
  -2                    -9.2756e-08           1.2e-13               6e-14                 9.3118e-08           
  -2.1                  -9.9252e-08           -8e-14                1.6e-13               9.9258e-08           
  -2.2                  -1.052e-07            -2.4e-13              1.8e-13               1.05218e-07          
  -2.3                  -1.1224e-07           1.2e-13               5e-13                 1.12198e-07          
  -2.4                  -1.1948e-07           2.6e-13               8.2e-13               1.1936e-07           
  -2.5                  -1.2666e-07           4.4e-13               1.7e-12               1.2672e-07           
  -2.6                  -1.3448e-07           2e-13                 3.38e-12              1.346e-07            
  -2.7                  -1.4256e-07           -2.4e-13              6.62e-12              1.426e-07            
  -2.8                  -1.5098e-07           1.4e-13               1.248e-11             1.5038e-07           
  -2.9                  -1.5952e-07           -2e-13                2.322e-11             1.597e-07            
  -3                    -1.689e-07            3.2e-13               4.214e-11             1.6862e-07           
  -3.1                  -1.7796e-07           3e-13                 7.51e-11              1.7908e-07           
  -3.2                  -1.8948e-07           -1e-13                1.3022e-10            1.8952e-07           
  -3.3                  -1.9936e-07           2e-14                 2.2098e-10            2.0038e-07           
  -3.4                  -2.1134e-07           6e-14                 3.6622e-10            2.1012e-07           
  -3.5                  -2.224e-07            1.4e-13               5.9692e-10            2.2212e-07           
  -3.6                  -2.3524e-07           4e-14                 9.5084e-10            2.3488e-07           
END_DB

BEGIN_DB
 ICCAP_VAR vg         -1.799         
 ICCAP_VAR vb         3.6            
 ICCAP_VAR vs         -0             

 #vd                    id                    ig                    ib                    is                   
  -0                    2.4226e-10            6e-14                 -8e-14                -2.5046e-10          
  -0.1                  -4.706e-07            -1.2e-13              1.2e-13               4.7068e-07           
  -0.2                  -6.6314e-07           1.4e-13               0                     6.637e-07            
  -0.3                  -7.663e-07            1.6e-13               1.4e-13               7.6662e-07           
  -0.4                  -8.378e-07            2.2e-13               8e-14                 8.3692e-07           
  -0.5                  -9.0022e-07           1.6e-13               0                     9.0022e-07           
  -0.6                  -9.5394e-07           1e-13                 4e-14                 9.5432e-07           
  -0.7                  -1.00356e-06          -1.2e-13              2e-14                 1.00378e-06          
  -0.8                  -1.05132e-06          -2e-14                2e-14                 1.0511e-06           
  -0.9                  -1.09692e-06          3.4e-13               1e-13                 1.09696e-06          
  -1                    -1.13222e-06          -4e-14                0                     1.14046e-06          
  -1.1                  -1.1846e-06           -1.6e-13              -2e-14                1.1878e-06           
  -1.2                  -1.2292e-06           1.8e-13               2e-14                 1.233e-06            
  -1.3                  -1.2738e-06           -1e-13                0                     1.2772e-06           
  -1.4                  -1.318e-06            1.6e-13               4e-14                 1.3222e-06           
  -1.5                  -1.3632e-06           -1.2e-13              2e-14                 1.3674e-06           
  -1.6                  -1.4066e-06           1e-13                 1e-13                 1.4098e-06           
  -1.7                  -1.4532e-06           3e-13                 4e-14                 1.4564e-06           
  -1.8                  -1.4958e-06           -1e-13                1.2e-13               1.4982e-06           
  -1.9                  -1.5388e-06           -8e-14                2e-14                 1.5428e-06           
  -2                    -1.584e-06            1.2e-13               1.8e-13               1.5876e-06           
  -2.1                  -1.6296e-06           2.6e-13               4.2e-13               1.6324e-06           
  -2.2                  -1.6738e-06           -4e-14                7.2e-13               1.6782e-06           
  -2.3                  -1.7214e-06           4e-14                 1.52e-12              1.7244e-06           
  -2.4                  -1.7674e-06           2e-14                 3.56e-12              1.771e-06            
  -2.5                  -1.8144e-06           -6e-14                7.84e-12              1.8174e-06           
  -2.6                  -1.862e-06            2e-13                 1.644e-11             1.8652e-06           
  -2.7                  -1.9116e-06           8e-14                 3.314e-11             1.9164e-06           
  -2.8                  -1.9638e-06           -1.6e-13              6.44e-11              1.9662e-06           
  -2.9                  -2.0146e-06           8e-14                 1.2164e-10            2.0162e-06           
  -3                    -2.0628e-06           2.6e-13               2.2318e-10            2.0652e-06           
  -3.1                  -2.1142e-06           2e-13                 3.9878e-10            2.12e-06             
  -3.2                  -2.1684e-06           1.8e-13               6.9636e-10            2.1686e-06           
  -3.3                  -2.221e-06            2e-13                 1.187e-09             2.2202e-06           
  -3.4                  -2.2756e-06           -1.2e-13              1.9832e-09            2.2812e-06           
  -3.5                  -2.3368e-06           1.2e-13               3.225e-09             2.288e-06            
  -3.6                  -2.39e-06             1.6e-13               5.162e-09             2.3922e-06           
END_DB

