! VERSION = 6.00
BEGIN_HEADER
 ICCAP_INPUTS
  vd         V  D GROUND SMU1 0.1 LIN        1    -0         -3.6       37   -0.1      
  vg         V  G GROUND SMU2 0.001 LIN        2    -0.828     -3.6       5    -0.693    
  vb         V  B GROUND SMU4 0.1 CON        -0
  vs         V  S GROUND SMU3 0.1 CON        -0
 ICCAP_OUTPUTS
  id         I  D GROUND SMU1 B
  ig         I  G GROUND SMU2 B
  ib         I  B GROUND SMU4 B
  is         I  S GROUND SMU3 B
 ICCAP_VALUES
  MASTER_SETUP_TYPE "~dc_idvd~"
  LINVT_VALUE "|idvg|100.0n|100.0m|1.000m|5|3.600|"
  LISTVT_VALUE ""
  TYPE "-1"
  TEMP "-40.0000 "
  IS_TNOM " 0.00000 "
  MAIN.W "600.0n"
  MAIN.L "500.0n"
  MAIN.AD "204.0f"
  MAIN.AS "204.0f"
  MAIN.PD "1.880u"
  MAIN.PS "1.880u"
  MAIN.NF "1.000"
  MAIN.M "1"
  MAIN.NRD "0.000"
  MAIN.NRS "0.000"
  MAIN.LDRIFT1 "1E-06"
  MAIN.LDRIFT2 "1E-06"
  MAIN.SA "0.000"
  MAIN.SB "0.000"
  MAIN.SD "0.000"
  MAIN.SCA "0.000"
  MAIN.SCB "0.000"
  MAIN.SCC "0.000"
  MAIN.SC "0.000"
  MODULE "S564"
  PIN_D "16"
  PIN_G "5"
  PIN_S "6"
  PIN_B "15"
  PIN_E ""
  PIN_6 ""
  XY_ID ""
  FUNC "LW Scale"
  STI "SA ref"
  WPE "WPE ref"
  COMMENT ""
  DIS_MEAS ""
  TypeTCI "10"
END_HEADER

BEGIN_DB
 ICCAP_VAR vg         -0.828         
 ICCAP_VAR vb         -0             
 ICCAP_VAR vs         -0             

 #vd                    id                    ig                    ib                    is                   
  -0                    2.914e-10             2e-14                 -7.4e-13              -3.9786e-10          
  -0.1                  -5.2942e-07           -1e-13                -7.4e-13              5.2958e-07           
  -0.2                  -6.0086e-07           3.2e-13               -6.6e-13              6.0092e-07           
  -0.3                  -6.1784e-07           -6e-14                -6.4e-13              6.181e-07            
  -0.4                  -6.2792e-07           1.2e-13               -6.4e-13              6.2804e-07           
  -0.5                  -6.352e-07            -2e-14                -6.2e-13              6.356e-07            
  -0.6                  -6.415e-07            0                     -5.8e-13              6.4184e-07           
  -0.7                  -6.4708e-07           1.6e-13               -4.2e-13              6.4712e-07           
  -0.8                  -6.5192e-07           4.6e-13               -5e-13                6.5226e-07           
  -0.9                  -6.567e-07            2e-14                 -5.6e-13              6.5664e-07           
  -1                    -6.6108e-07           1.4e-13               -3.8e-13              6.61e-07             
  -1.1                  -6.6502e-07           2.2e-13               -4.4e-13              6.6526e-07           
  -1.2                  -6.6884e-07           6e-14                 -3.8e-13              6.6882e-07           
  -1.3                  -6.7242e-07           -6e-14                -4e-13                6.725e-07            
  -1.4                  -6.758e-07            -1e-13                -3.8e-13              6.7598e-07           
  -1.5                  -6.7908e-07           8e-14                 -3.6e-13              6.7952e-07           
  -1.6                  -6.8238e-07           1.4e-13               -4.6e-13              6.8288e-07           
  -1.7                  -6.8544e-07           2.6e-13               -4e-13                6.8552e-07           
  -1.8                  -6.8878e-07           1e-13                 -3.2e-13              6.89e-07             
  -1.9                  -6.9172e-07           2e-14                 -6e-14                6.92e-07             
  -2                    -6.952e-07            1.6e-13               2.4e-13               6.9532e-07           
  -2.1                  -6.986e-07            -6e-14                1.14e-12              6.987e-07            
  -2.2                  -7.011e-07            3.4e-13               2.82e-12              7.0154e-07           
  -2.3                  -7.042e-07            -4e-14                6.04e-12              7.0458e-07           
  -2.4                  -7.0708e-07           4.8e-13               1.192e-11             7.0736e-07           
  -2.5                  -7.0996e-07           1e-13                 2.222e-11             7.1022e-07           
  -2.6                  -7.1276e-07           3.2e-13               3.988e-11             7.1292e-07           
  -2.7                  -7.1534e-07           0                     6.958e-11             7.1544e-07           
  -2.8                  -7.1824e-07           1.6e-13               1.176e-10             7.1946e-07           
  -2.9                  -7.2188e-07           3.2e-13               1.9454e-10            7.218e-07            
  -3                    -7.2482e-07           -1e-13                3.1394e-10            7.246e-07            
  -3.1                  -7.27e-07             2.6e-13               4.9438e-10            7.271e-07            
  -3.2                  -7.304e-07            2.4e-13               7.6362e-10            7.2992e-07           
  -3.3                  -7.3372e-07           2e-14                 1.155e-09             7.326e-07            
  -3.4                  -7.3658e-07           -1.6e-13              1.7138e-09            7.3512e-07           
  -3.5                  -7.4012e-07           8e-14                 2.5004e-09            7.3764e-07           
  -3.6                  -7.4368e-07           -2.4e-13              3.577e-09             7.4044e-07           
END_DB

BEGIN_DB
 ICCAP_VAR vg         -1.521         
 ICCAP_VAR vb         -0             
 ICCAP_VAR vs         -0             

 #vd                    id                    ig                    ib                    is                   
  -0                    1.6482e-09            -6e-14                -3.2e-13              -1.5938e-09          
  -0.1                  -6.0208e-06           1.2e-13               -1.6e-13              6.0242e-06           
  -0.2                  -1.09112e-05          -3.6e-13              -2.4e-13              1.09148e-05          
  -0.3                  -1.4622e-05           8e-14                 -2.8e-13              1.4638e-05           
  -0.4                  -1.7212e-05           2.2e-13               -2.2e-13              1.723e-05            
  -0.5                  -1.8846e-05           0                     -2.2e-13              1.8864e-05           
  -0.6                  -1.978e-05            -2.2e-13              -2.2e-13              1.9796e-05           
  -0.7                  -2.0298e-05           -5.2e-13              -1.6e-13              2.0316e-05           
  -0.8                  -2.061e-05            -1e-13                -1.8e-13              2.0628e-05           
  -0.9                  -2.0824e-05           1.6e-13               -1e-13                2.0842e-05           
  -1                    -2.099e-05            2e-13                 -4e-14                2.1006e-05           
  -1.1                  -2.1126e-05           -1e-13                -1.2e-13              2.1142e-05           
  -1.2                  -2.124e-05            -1.4e-13              -2.2e-13              2.1258e-05           
  -1.3                  -2.1344e-05           6e-14                 -1.8e-13              2.1362e-05           
  -1.4                  -2.1436e-05           2.8e-13               -1.8e-13              2.1452e-05           
  -1.5                  -2.152e-05            1.2e-13               -2.4e-13              2.1538e-05           
  -1.6                  -2.16e-05             -4.4e-13              -2.4e-13              2.1616e-05           
  -1.7                  -2.1672e-05           -1e-13                -3.2e-13              2.169e-05            
  -1.8                  -2.1742e-05           2.4e-13               -3e-13                2.176e-05            
  -1.9                  -2.1808e-05           8e-14                 -1.4e-13              2.1826e-05           
  -2                    -2.1872e-05           1e-13                 6e-14                 2.1888e-05           
  -2.1                  -2.1932e-05           1.6e-13               3.2e-13               2.195e-05            
  -2.2                  -2.1992e-05           -1.6e-13              1.32e-12              2.201e-05            
  -2.3                  -2.205e-05            3e-13                 4.14e-12              2.2066e-05           
  -2.4                  -2.2106e-05           -5.4e-13              1.06e-11              2.2122e-05           
  -2.5                  -2.216e-05            -8e-14                2.514e-11             2.2178e-05           
  -2.6                  -2.2214e-05           2e-14                 5.526e-11             2.2232e-05           
  -2.7                  -2.2268e-05           2.2e-13               1.1388e-10            2.2282e-05           
  -2.8                  -2.2318e-05           4e-14                 2.2422e-10            2.2348e-05           
  -2.9                  -2.2384e-05           2e-14                 4.2334e-10            2.24e-05             
  -3                    -2.2434e-05           -8e-14                7.725e-10             2.245e-05            
  -3.1                  -2.2484e-05           1.4e-13               1.3638e-09            2.25e-05             
  -3.2                  -2.2534e-05           1.4e-13               2.353e-09             2.2548e-05           
  -3.3                  -2.2582e-05           1.4e-13               3.955e-09             2.2596e-05           
  -3.4                  -2.2634e-05           -2e-13                6.487e-09             2.2644e-05           
  -3.5                  -2.2686e-05           -8e-14                1.03966e-08           2.2692e-05           
  -3.6                  -2.2738e-05           4e-14                 1.6286e-08            2.274e-05            
END_DB

BEGIN_DB
 ICCAP_VAR vg         -2.214         
 ICCAP_VAR vb         -0             
 ICCAP_VAR vs         -0             

 #vd                    id                    ig                    ib                    is                   
  -0                    1.9894e-09            -5e-13                -2.4e-13              -2.2978e-09          
  -0.1                  -1.0008e-05           -1.2e-13              -1.4e-13              1.0028e-05           
  -0.2                  -1.9114e-05           1.2e-13               -3.4e-13              1.913e-05            
  -0.3                  -2.7196e-05           -6e-14                -1e-13                2.7212e-05           
  -0.4                  -3.4202e-05           -3.2e-13              -2.4e-13              3.4216e-05           
  -0.5                  -4.0144e-05           -2.2e-13              -2.2e-13              4.0164e-05           
  -0.6                  -4.504e-05            -1e-13                -1.6e-13              4.5058e-05           
  -0.7                  -4.8954e-05           1e-13                 -1.4e-13              4.8978e-05           
  -0.8                  -5.1984e-05           -3.8e-13              -1.6e-13              5.1998e-05           
  -0.9                  -5.4258e-05           -3.6e-13              -1.6e-13              5.4266e-05           
  -1                    -5.5896e-05           1.4e-13               -1e-13                5.5912e-05           
  -1.1                  -5.706e-05            1.2e-13               -1.4e-13              5.7084e-05           
  -1.2                  -5.7908e-05           -5e-13                -1.4e-13              5.792e-05            
  -1.3                  -5.8524e-05           -1e-13                -4e-14                5.854e-05            
  -1.4                  -5.9012e-05           -1.2e-13              -1e-13                5.9024e-05           
  -1.5                  -5.94e-05             2e-13                 -1.8e-13              5.9416e-05           
  -1.6                  -5.9722e-05           -2e-13                -8e-14                5.9746e-05           
  -1.7                  -6.0002e-05           -2e-13                -4e-14                6.002e-05            
  -1.8                  -6.0252e-05           1.4e-13               -6e-14                6.0268e-05           
  -1.9                  -6.0462e-05           -8e-14                2e-14                 6.0488e-05           
  -2                    -6.0672e-05           4e-14                 -4e-14                6.0682e-05           
  -2.1                  -6.0848e-05           -3.6e-13              -2e-14                6.0874e-05           
  -2.2                  -6.103e-05            -4e-14                4e-14                 6.1044e-05           
  -2.3                  -6.119e-05            1.8e-13               4e-14                 6.1212e-05           
  -2.4                  -6.1344e-05           1.4e-13               3.4e-13               6.135e-05            
  -2.5                  -6.1488e-05           -3e-13                1.22e-12              6.1498e-05           
  -2.6                  -6.1616e-05           -3.4e-13              3.92e-12              6.1624e-05           
  -2.7                  -6.1742e-05           4e-14                 1.06e-11              6.1768e-05           
  -2.8                  -6.1882e-05           2e-14                 2.622e-11             6.1894e-05           
  -2.9                  -6.1998e-05           -8e-14                5.99e-11              6.2016e-05           
  -3                    -6.2118e-05           -2e-13                1.2868e-10            6.2138e-05           
  -3.1                  -6.2234e-05           -1.6e-13              2.6232e-10            6.2254e-05           
  -3.2                  -6.235e-05            -6e-14                5.1322e-10            6.2378e-05           
  -3.3                  -6.249e-05            -8e-14                9.6522e-10            6.25e-05             
  -3.4                  -6.259e-05            4e-14                 1.7584e-09            6.2604e-05           
  -3.5                  -6.2702e-05           4.6e-13               3.1118e-09            6.2708e-05           
  -3.6                  -6.2806e-05           8e-14                 5.3654e-09            6.2822e-05           
END_DB

BEGIN_DB
 ICCAP_VAR vg         -2.907         
 ICCAP_VAR vb         -0             
 ICCAP_VAR vs         -0             

 #vd                    id                    ig                    ib                    is                   
  -0                    2.3304e-09            -5.2e-13              -2e-13                -2.6402e-09          
  -0.1                  -1.2876e-05           -1.4e-13              -1.2e-13              1.2892e-05           
  -0.2                  -2.5006e-05           -4.2e-13              -1.2e-13              2.5024e-05           
  -0.3                  -3.626e-05            -4.4e-13              -1.6e-13              3.6276e-05           
  -0.4                  -4.6546e-05           -8.2e-13              -1.2e-13              4.6558e-05           
  -0.5                  -5.5868e-05           1.8e-13               0                     5.5888e-05           
  -0.6                  -6.4202e-05           -2.4e-13              2e-14                 6.4222e-05           
  -0.7                  -7.1546e-05           -1e-13                -8e-14                7.1562e-05           
  -0.8                  -7.7954e-05           -2.2e-13              -8e-14                7.797e-05            
  -0.9                  -8.3466e-05           -3.8e-13              -6e-14                8.348e-05            
  -1                    -8.813e-05            -1.4e-13              -1.2e-13              8.815e-05            
  -1.1                  -9.2032e-05           6e-14                 6e-14                 9.2048e-05           
  -1.2                  -9.5234e-05           -1.8e-13              4e-14                 9.5252e-05           
  -1.3                  -9.783e-05            -2.8e-13              0                     9.7846e-05           
  -1.4                  -9.9902e-05           -2e-14                2e-14                 9.9922e-05           
  -1.5                  -0.00010156           -4e-14                0                     0.000101572          
  -1.6                  -0.000102872          -2.2e-13              -4e-14                0.000102892          
  -1.7                  -0.000103928          -1e-13                -1.2e-13              0.00010394           
  -1.8                  -0.00010478           -8e-14                4e-14                 0.000104794          
  -1.9                  -0.000105494          4e-14                 -4e-14                0.000105544          
  -2                    -0.000106118          1.6e-13               -4e-14                0.000106136          
  -2.1                  -0.000106632          -2.4e-13              -4e-14                0.00010665           
  -2.2                  -0.000107076          1.4e-13               -2e-14                0.000107084          
  -2.3                  -0.000107462          -1.6e-13              -2e-14                0.00010747           
  -2.4                  -0.00010782           -2.4e-13              -6e-14                0.000107838          
  -2.5                  -0.00010813           -1e-13                -1e-13                0.0001081            
  -2.6                  -0.00010838           -2e-13                2e-14                 0.000108392          
  -2.7                  -0.00010865           0                     2.8e-13               0.000108676          
  -2.8                  -0.000108912          -3e-13                1.14e-12              0.000108926          
  -2.9                  -0.000109136          2e-14                 3.46e-12              0.000109148          
  -3                    -0.000109354          -2e-13                9.32e-12              0.000109388          
  -3.1                  -0.000109566          -2e-14                2.292e-11             0.00010959           
  -3.2                  -0.000109768          1.8e-13               5.264e-11             0.000109792          
  -3.3                  -0.000109964          -8e-14                1.138e-10             0.000109986          
  -3.4                  -0.00011016           -8e-14                2.376e-10             0.00011017           
  -3.5                  -0.000110334          -3.2e-13              4.6788e-10            0.000110358          
  -3.6                  -0.000110526          -2.6e-13              8.9518e-10            0.00011053           
END_DB

BEGIN_DB
 ICCAP_VAR vg         -3.6           
 ICCAP_VAR vb         -0             
 ICCAP_VAR vs         -0             

 #vd                    id                    ig                    ib                    is                   
  -0                    1.9236e-09            -4.4e-13              -1.2e-13              -3.0658e-09          
  -0.1                  -1.4982e-05           -3.8e-13              -1.8e-13              1.5e-05              
  -0.2                  -2.934e-05            -1.2e-13              -1e-13                2.9364e-05           
  -0.3                  -4.2954e-05           -1.6e-13              -6e-14                4.2976e-05           
  -0.4                  -5.5712e-05           -1.6e-13              -2e-14                5.573e-05            
  -0.5                  -6.761e-05            -2.8e-13              0                     6.7628e-05           
  -0.6                  -7.86e-05             -3e-13                -6e-14                7.8618e-05           
  -0.7                  -8.8654e-05           -4e-14                0                     8.8678e-05           
  -0.8                  -9.7824e-05           1.4e-13               -1.4e-13              9.7846e-05           
