! VERSION = 6.00
BEGIN_HEADER
 ICCAP_INPUTS
  vg         V  G GROUND SMU2 0.001 LIN        1    0.5        -3.6       83   -0.05     
  vb         V  B GROUND SMU4 0.1 LIN        2    0          3.6        5    0.9       
  vd         V  D GROUND SMU1 0.1 LIN        3    -0.1       -3.3       3    -1.6      
  vs         V  S GROUND SMU3 0.1 CON        -0
 ICCAP_OUTPUTS
  id         I  D GROUND SMU1 B
  ig         I  G GROUND SMU2 B
  ib         I  B GROUND SMU4 B
  is         I  S GROUND SMU3 B
 ICCAP_VALUES
  MASTER_SETUP_TYPE "~dc_idvg~"
  LINVT_VALUE ""
  LISTVT_VALUE ""
  TYPE "-1"
  TEMP " 125.000 "
  IS_TNOM " 0.00000 "
  MAIN.W "600.0n"
  MAIN.L "500.0n"
  MAIN.AD "204.0f"
  MAIN.AS "204.0f"
  MAIN.PD "1.880u"
  MAIN.PS "1.880u"
  MAIN.NF "1.000"
  MAIN.M "1"
  MAIN.NRD "0.000"
  MAIN.NRS "0.000"
  MAIN.LDRIFT1 "1E-06"
  MAIN.LDRIFT2 "1E-06"
  MAIN.SA "0.000"
  MAIN.SB "0.000"
  MAIN.SD "0.000"
  MAIN.SCA "0.000"
  MAIN.SCB "0.000"
  MAIN.SCC "0.000"
  MAIN.SC "0.000"
  MODULE "S564"
  PIN_D "16"
  PIN_G "5"
  PIN_S "6"
  PIN_B "15"
  PIN_E ""
  PIN_6 ""
  XY_ID ""
  FUNC "LW Scale"
  STI "SA ref"
  WPE "WPE ref"
  COMMENT ""
  DIS_MEAS ""
  TypeTCI "10"
END_HEADER

BEGIN_DB
 ICCAP_VAR vb         0              
 ICCAP_VAR vd         -0.1           
 ICCAP_VAR vs         -0             

 #vg                    id                    ig                    ib                    is                   
  0.5                   -8e-14                2.0456e-08            -2.0438e-08           2e-14                
  0.45                  6.52e-12              4.7946e-09            -4.8204e-09           1.4e-13              
  0.4                   8.2e-13               1.119e-09             -1.1562e-09           2.4e-13              
  0.35                  4e-13                 2.6244e-10            -2.9094e-10           1.8e-13              
  0.3                   2.2e-13               6.154e-11             -9.084e-11            4.2e-13              
  0.25                  -2e-14                1.454e-11             -4.162e-11            2.2e-13              
  0.2                   -3e-13                3.4e-12               -2.828e-11            4.4e-13              
  0.15                  -5.4e-13              7.4e-13               -2.504e-11            9.4e-13              
  0.1                   -1.54e-12             6e-14                 -2.354e-11            1.78e-12             
  0.05                  -3.82e-12             0                     -2.296e-11            3.62e-12             
  0                     -8.36e-12             -3e-13                -2.238e-11            8.9e-12              
  -0.05                 -2e-11                -1.4e-13              -2.168e-11            2.018e-11            
  -0.1                  -4.762e-11            -3.2e-13              -2.156e-11            4.762e-11            
  -0.15                 -1.1428e-10           -4e-13                -2.106e-11            1.1466e-10           
  -0.2                  -2.766e-10            -3.6e-13              -2.032e-11            2.7668e-10           
  -0.25                 -6.738e-10            -4.8e-13              -1.996e-11            6.7454e-10           
  -0.3                  -1.6498e-09           -2.8e-13              -2e-11                1.6494e-09           
  -0.35                 -4.0526e-09           -4.4e-13              -1.916e-11            4.0536e-09           
  -0.4                  -9.8268e-09           -3.2e-13              -1.868e-11            9.8276e-09           
  -0.45                 -2.3196e-08           -3.6e-13              -1.94e-11             2.3216e-08           
  -0.5                  -5.1864e-08           -4.6e-13              -1.814e-11            5.1882e-08           
  -0.55                 -1.06862e-07          -4.6e-13              -1.794e-11            1.06938e-07          
  -0.6                  -1.9772e-07           -5.8e-13              -1.834e-11            1.9778e-07           
  -0.65                 -3.2812e-07           -5.6e-13              -1.706e-11            3.2824e-07           
  -0.7                  -4.937e-07            -5.8e-13              -1.71e-11             4.9374e-07           
  -0.75                 -6.8562e-07           -5.4e-13              -1.694e-11            6.858e-07            
  -0.8                  -8.9266e-07           -6.2e-13              -1.684e-11            8.9266e-07           
  -0.85                 -1.1096e-06           -7.2e-13              -1.66e-11             1.10984e-06          
  -0.9                  -1.3288e-06           -5.8e-13              -1.62e-11             1.332e-06            
  -0.95                 -1.551e-06            -7e-13                -1.586e-11            1.554e-06            
  -1                    -1.771e-06            -6.6e-13              -1.562e-11            1.7742e-06           
  -1.05                 -1.9898e-06           -7.2e-13              -1.52e-11             1.9928e-06           
  -1.1                  -2.205e-06            -6.8e-13              -1.546e-11            2.208e-06            
  -1.15                 -2.4174e-06           -6.4e-13              -1.484e-11            2.4204e-06           
  -1.2                  -2.6256e-06           -8e-13                -1.486e-11            2.6286e-06           
  -1.25                 -2.8306e-06           -6.8e-13              -1.446e-11            2.834e-06            
  -1.3                  -3.032e-06            -6.8e-13              -1.448e-11            3.0358e-06           
  -1.35                 -3.2294e-06           -7.4e-13              -1.416e-11            3.233e-06            
  -1.4                  -3.4246e-06           -7.4e-13              -1.414e-11            3.4276e-06           
  -1.45                 -3.6148e-06           -7.6e-13              -1.424e-11            3.618e-06            
  -1.5                  -3.8026e-06           -9.2e-13              -1.384e-11            3.8058e-06           
  -1.55                 -3.9862e-06           -9.6e-13              -1.388e-11            3.9886e-06           
  -1.6                  -4.1676e-06           -8.8e-13              -1.336e-11            4.17e-06             
  -1.65                 -4.345e-06            -9.2e-13              -1.34e-11             4.348e-06            
  -1.7                  -4.5194e-06           -1.1e-12              -1.296e-11            4.5228e-06           
  -1.75                 -4.6912e-06           -9.2e-13              -1.298e-11            4.6948e-06           
  -1.8                  -4.8604e-06           -9.4e-13              -1.288e-11            4.8634e-06           
  -1.85                 -5.0262e-06           -9.2e-13              -1.272e-11            5.0292e-06           
  -1.9                  -5.189e-06            -8.4e-13              -1.288e-11            5.1922e-06           
  -1.95                 -5.3502e-06           -1.04e-12             -1.292e-11            5.353e-06            
  -2                    -5.5084e-06           -9.8e-13              -1.228e-11            5.5112e-06           
  -2.05                 -5.6628e-06           -9.8e-13              -1.188e-11            5.6662e-06           
  -2.1                  -5.8168e-06           -1.08e-12             -1.2e-11              5.8204e-06           
  -2.15                 -5.9674e-06           -9.2e-13              -1.21e-11             5.9704e-06           
  -2.2                  -6.1152e-06           -1.14e-12             -1.22e-11             6.116e-06            
  -2.25                 -6.2604e-06           -1.02e-12             -1.126e-11            6.2628e-06           
  -2.3                  -6.4042e-06           -9.8e-13              -1.174e-11            6.4054e-06           
  -2.35                 -6.5462e-06           -1.04e-12             -1.17e-11             6.5476e-06           
  -2.4                  -6.6858e-06           -1e-12                -1.15e-11             6.6884e-06           
  -2.45                 -6.822e-06            -1.06e-12             -1.102e-11            6.8254e-06           
  -2.5                  -6.9584e-06           -1.1e-12              -1.142e-11            6.9588e-06           
  -2.55                 -7.0896e-06           -1.06e-12             -1.142e-11            7.0926e-06           
  -2.6                  -7.221e-06            -1.22e-12             -1.06e-11             7.2242e-06           
  -2.65                 -7.3524e-06           -1.2e-12              -1.114e-11            7.3546e-06           
  -2.7                  -7.4768e-06           -1.22e-12             -1.122e-11            7.479e-06            
  -2.75                 -7.6028e-06           -1.26e-12             -1.06e-11             7.6066e-06           
  -2.8                  -7.7282e-06           -1.14e-12             -1.072e-11            7.7314e-06           
  -2.85                 -7.8528e-06           -1.1e-12              -1.082e-11            7.853e-06            
  -2.9                  -7.9708e-06           -1.12e-12             -1.048e-11            7.973e-06            
  -2.95                 -8.0888e-06           -1.18e-12             -1.016e-11            8.0928e-06           
  -3                    -8.2072e-06           -1.14e-12             -1.008e-11            8.2124e-06           
  -3.05                 -8.324e-06            -1.3e-12              -1.044e-11            8.3272e-06           
  -3.1                  -8.4366e-06           -1.2e-12              -1.034e-11            8.438e-06            
  -3.15                 -8.5484e-06           -1.14e-12             -1.004e-11            8.548e-06            
  -3.2                  -8.6564e-06           -1.32e-12             -9.6e-12              8.66e-06             
  -3.25                 -8.7662e-06           -1.2e-12              -1.004e-11            8.7686e-06           
  -3.3                  -8.8702e-06           -1.2e-12              -1.01e-11             8.8752e-06           
  -3.35                 -8.9768e-06           -1.3e-12              -9.72e-12             8.9802e-06           
  -3.4                  -9.082e-06            -1.2e-12              -9.72e-12             9.0862e-06           
  -3.45                 -9.1876e-06           -1.26e-12             -9.6e-12              9.19e-06             
  -3.5                  -9.2882e-06           -1.36e-12             -1.004e-11            9.2906e-06           
  -3.55                 -9.3874e-06           -1.4e-12              -8.72e-12             9.3908e-06           
  -3.6                  -9.4876e-06           -1.34e-12             -9.56e-12             9.4908e-06           
END_DB

BEGIN_DB
 ICCAP_VAR vb         0.9            
 ICCAP_VAR vd         -0.1           
 ICCAP_VAR vs         -0             

 #vg                    id                    ig                    ib                    is                   
  0.5                   -5.64e-12             5.6e-13               4.974e-11             0                    
  0.45                  -1e-13                6.8e-13               4.004e-11             6e-14                
  0.4                   -1.2e-13              5e-13                 3.376e-11             1e-13                
  0.35                  -3.8e-13              4.6e-13               2.952e-11             1.4e-13              
  0.3                   -1.8e-13              3.4e-13               2.584e-11             1.2e-13              
  0.25                  -4e-14                1.6e-13               2.354e-11             8e-14                
  0.2                   -2.8e-13              1.8e-13               2.106e-11             -1.8e-13             
  0.15                  -3.2e-13              2e-14                 1.886e-11             2e-14                
  0.1                   1.2e-13               1.6e-13               1.79e-11              0                    
  0.05                  4e-14                 -4e-14                1.596e-11             1.4e-13              
  0                     -1.4e-13              4e-14                 1.502e-11             4e-14                
  -0.05                 8e-14                 -1e-13                1.43e-11              1e-13                
  -0.1                  -1.8e-13              -8e-14                1.288e-11             8e-14                
  -0.15                 -1.8e-13              -1.8e-13              1.212e-11             -4e-14               
  -0.2                  -4.8e-13              -3.2e-13              1.144e-11             -4.4e-13             
  -0.25                 -4.2e-13              -2.6e-13              1.094e-11             0                    
  -0.3                  -1.4e-13              -2.4e-13              1.008e-11             3e-13                
  -0.35                 -7e-13                -4e-13                9.86e-12              9.4e-13              
  -0.4                  -2.3e-12              -3.6e-13              8.96e-12              2.54e-12             
  -0.45                 -6.76e-12             -4.4e-13              8.22e-12              7.16e-12             
  -0.5                  -1.924e-11            -4e-13                8.1e-12               1.906e-11            
  -0.55                 -5.364e-11            -3.6e-13              7.9e-12               5.32e-11             
  -0.6                  -1.4944e-10           -5.4e-13              7.68e-12              1.4956e-10           
  -0.65                 -4.1732e-10           -6.2e-13              6.94e-12              4.1744e-10           
  -0.7                  -1.1618e-09           -4e-13                6.04e-12              1.1616e-09           
  -0.75                 -3.2206e-09           -5.2e-13              6.42e-12              3.219e-09            
  -0.8                  -8.7054e-09           -5.4e-13              6.1e-12               8.7054e-09           
  -0.85                 -2.2602e-08           -4.4e-13              5.34e-12              2.2606e-08           
  -0.9                  -5.3932e-08           -6.6e-13              4.78e-12              5.3934e-08           
  -0.95                 -1.14898e-07          -5e-13                5.12e-12              1.14938e-07          
  -1                    -2.1374e-07           -6e-13                4.68e-12              2.1378e-07           
  -1.05                 -3.5098e-07           -8e-13                4.72e-12              3.5102e-07           
  -1.1                  -5.175e-07            -7.2e-13              4.14e-12              5.1764e-07           
  -1.15                 -7.0406e-07           -6.8e-13              4.48e-12              7.0432e-07           
  -1.2                  -9.0088e-07           -8.2e-13              4.3e-12               9.0152e-07           
  -1.25                 -1.10418e-06          -8e-13                4.2e-12               1.10396e-06          
  -1.3                  -1.3076e-06           -5e-13                3.48e-12              1.3108e-06           
  -1.35                 -1.5108e-06           -8.2e-13              3.24e-12              1.5138e-06           
  -1.4                  -1.7122e-06           -7.6e-13              3.6e-12               1.716e-06            
  -1.45                 -1.912e-06            -7.4e-13              3.76e-12              1.9142e-06           
  -1.5                  -2.1084e-06           -7.4e-13              3.3e-12               2.1108e-06           
  -1.55                 -2.301e-06            -9.4e-13              3.38e-12              2.3044e-06           
  -1.6                  -2.4922e-06           -8.4e-13              3.36e-12              2.4952e-06           
  -1.65                 -2.6788e-06           -7.2e-13              3.3e-12               2.6818e-06           
  -1.7                  -2.862e-06            -9e-13                2.7e-12               2.8652e-06           
  -1.75                 -3.0428e-06           -7.4e-13              2.5e-12               3.0464e-06           
  -1.8                  -3.2202e-06           -9.4e-13              2.52e-12              3.2232e-06           
  -1.85                 -3.3938e-06           -9.4e-13              2.68e-12              3.3978e-06           
  -1.9                  -3.566e-06            -9.6e-13              2.64e-12              3.569e-06            
  -1.95                 -3.7352e-06           -9.8e-13              2.62e-12              3.7386e-06           
  -2                    -3.9014e-06           -9.8e-13              2.64e-12              3.9042e-06           
  -2.05                 -4.0642e-06           -1.02e-12             2.26e-12              4.067e-06            
  -2.1                  -4.225e-06            -9.8e-13              1.94e-12              4.2274e-06           
  -2.15                 -4.3824e-06           -1e-12                2.44e-12              4.3846e-06           
  -2.2                  -4.537e-06            -1.1e-12              1.94e-12              4.5398e-06           
  -2.25                 -4.6898e-06           -9.6e-13              2.08e-12              4.6912e-06           
  -2.3                  -4.8398e-06           -1.14e-12             1.98e-12              4.8424e-06           
  -2.35                 -4.9886e-06           -9.8e-13              2.06e-12              4.992e-06            
  -2.4                  -5.1336e-06           -1.06e-12             1.8e-12               5.1374e-06           
  -2.45                 -5.2784e-06           -1.12e-12             1.8e-12               5.281e-06            
  -2.5                  -5.42e-06             -1.08e-12             1.64e-12              5.4196e-06           
  -2.55                 -5.5582e-06           -1.3e-12              1.74e-12              5.5612e-06           
  -2.6                  -5.696e-06            -1.04e-12             1.7e-12               5.699e-06            
  -2.65                 -5.832e-06            -1.16e-12             2.14e-12              5.8336e-06           
  -2.7                  -5.964e-06            -1.16e-12             1.72e-12              5.9646e-06           
  -2.75                 -6.095e-06            -1.14e-12             2e-12                 6.0946e-06           
  -2.8                  -6.2224e-06           -1.2e-12              1.62e-12              6.2242e-06           
  -2.85                 -6.3494e-06           -1.06e-12             1.62e-12              6.3548e-06           
  -2.9                  -6.4802e-06           -1.12e-12             1.44e-12              6.4822e-06           
  -2.95                 -6.6042e-06           -1.38e-12             1.34e-12              6.6054e-06           
  -3                    -6.7254e-06           -1.14e-12             1.2e-12               6.7284e-06           
  -3.05                 -6.8458e-06           -1.32e-12             1.64e-12              6.8494e-06           
  -3.1                  -6.9638e-06           -1.16e-12             1.54e-12              6.9674e-06           
  -3.15                 -7.0816e-06           -1.26e-12             1.28e-12              7.086e-06            
  -3.2                  -7.194e-06            -1.28e-12             1.04e-12              7.1984e-06           
  -3.25                 -7.3082e-06           -1.26e-12             1.42e-12              7.3124e-06           
  -3.3                  -7.4222e-06           -1.24e-12             1.24e-12              7.4246e-06           
  -3.35                 -7.5346e-06           -1.26e-12             1.34e-12              7.5352e-06           
  -3.4                  -7.6388e-06           -1.1e-12              1.04e-12              7.6412e-06           
  -3.45                 -7.7428e-06           -1.38e-12             9e-13                 7.7454e-06           
