! VERSION = 6.00
BEGIN_HEADER
 ICCAP_INPUTS
  vg         V  G GROUND SMU2 0.001 LIN        1    0.5        -3.6       83   -0.05     
  vb         V  B GROUND SMU4 0.1 LIN        2    0          3.6        5    0.9       
  vd         V  D GROUND SMU1 0.1 LIN        3    -0.1       -3.3       3    -1.6      
  vs         V  S GROUND SMU3 0.1 CON        -0
 ICCAP_OUTPUTS
  id         I  D GROUND SMU1 B
  ig         I  G GROUND SMU2 B
  ib         I  B GROUND SMU4 B
  is         I  S GROUND SMU3 B
 ICCAP_VALUES
  MASTER_SETUP_TYPE "~dc_idvg~"
  LINVT_VALUE ""
  LISTVT_VALUE ""
  TYPE "-1"
  TEMP "-40.0000 "
  IS_TNOM " 0.00000 "
  MAIN.W "2.000u"
  MAIN.L "1.200u"
  MAIN.AD "680.0f"
  MAIN.AS "680.0f"
  MAIN.PD "4.680u"
  MAIN.PS "4.680u"
  MAIN.NF "1.000"
  MAIN.M "1"
  MAIN.NRD "0.000"
  MAIN.NRS "0.000"
  MAIN.LDRIFT1 "1E-06"
  MAIN.LDRIFT2 "1E-06"
  MAIN.SA "0.000"
  MAIN.SB "0.000"
  MAIN.SD "0.000"
  MAIN.SCA "0.000"
  MAIN.SCB "0.000"
  MAIN.SCC "0.000"
  MAIN.SC "0.000"
  MODULE "S563"
  PIN_D "16"
  PIN_G "5"
  PIN_S "6"
  PIN_B "15"
  PIN_E ""
  PIN_6 ""
  XY_ID ""
  FUNC "LW Scale"
  STI "SA ref"
  WPE "WPE ref"
  COMMENT ""
  DIS_MEAS ""
  TypeTCI "10"
END_HEADER

BEGIN_DB
 ICCAP_VAR vb         0              
 ICCAP_VAR vd         -0.1           
 ICCAP_VAR vs         -0             

 #vg                    id                    ig                    ib                    is                   
  0.5                   4e-14                 4.8e-13               -2.4e-13              2.8e-13              
  0.45                  1.4e-13               -1.2e-13              -1.6e-13              8e-14                
  0.4                   8e-14                 -1.2e-13              -2.2e-13              1.4e-13              
  0.35                  6e-14                 2.8e-13               -1.8e-13              1.4e-13              
  0.3                   1.6e-13               3.6e-13               -1.2e-13              1e-13                
  0.25                  1.6e-13               1e-13                 -2.6e-13              2.6e-13              
  0.2                   6e-14                 -3.2e-13              -2.4e-13              4e-14                
  0.15                  1e-13                 0                     -2.4e-13              2.8e-13              
  0.1                   1.6e-13               0                     -1.6e-13              2e-13                
  0.05                  8e-14                 -2e-13                -2e-13                1e-13                
  0                     2e-13                 -3e-13                -1.6e-13              1.2e-13              
  -0.05                 -4e-14                -1.4e-13              -3e-13                2.4e-13              
  -0.1                  8e-14                 -1.2e-13              -1.6e-13              8e-14                
  -0.15                 1.8e-13               -1.4e-13              -1.8e-13              4e-14                
  -0.2                  8e-14                 -2.4e-13              -2e-13                1.8e-13              
  -0.25                 0                     -2.6e-13              -6e-14                4e-14                
  -0.3                  2e-14                 -6.8e-13              -1.8e-13              1.8e-13              
  -0.35                 -4e-13                -3.2e-13              -1.6e-13              6.2e-13              
  -0.4                  -2.46e-12             -2.2e-13              -1e-13                2.64e-12             
  -0.45                 -1.304e-11            -2.4e-13              -1.8e-13              1.332e-11            
  -0.5                  -6.846e-11            -1.8e-13              -2e-13                6.86e-11             
  -0.55                 -3.5958e-10           -4e-14                -1.2e-13              3.5962e-10           
  -0.6                  -1.8612e-09           2e-14                 -1.6e-13              1.8628e-09           
  -0.65                 -9.1608e-09           -4e-13                -2.2e-13              9.1584e-09           
  -0.7                  -3.8644e-08           -2.6e-13              -2.6e-13              3.8678e-08           
  -0.75                 -1.2656e-07           -3.2e-13              -1.2e-13              1.2666e-07           
  -0.8                  -3.125e-07            -4e-14                -2.4e-13              3.1262e-07           
  -0.85                 -6.129e-07            -4.8e-13              -1.2e-13              6.132e-07            
  -0.9                  -1.00596e-06          -1.6e-13              -6e-14                1.00618e-06          
  -0.95                 -1.4576e-06           -3.2e-13              -1.4e-13              1.4612e-06           
  -1                    -1.938e-06            -3.2e-13              -1.8e-13              1.9422e-06           
  -1.05                 -2.4332e-06           -1.8e-13              -8e-14                2.4368e-06           
  -1.1                  -2.9268e-06           -5.2e-13              -2.2e-13              2.9304e-06           
  -1.15                 -3.4194e-06           -3.4e-13              -2.4e-13              3.4224e-06           
  -1.2                  -3.9018e-06           -1e-13                -2e-13                3.9052e-06           
  -1.25                 -4.3774e-06           -4.8e-13              -2.6e-13              4.3812e-06           
  -1.3                  -4.8446e-06           -8e-13                -2.6e-13              4.8482e-06           
  -1.35                 -5.3006e-06           -2.4e-13              -1e-13                5.3042e-06           
  -1.4                  -5.7482e-06           -4.6e-13              -1.4e-13              5.7518e-06           
  -1.45                 -6.183e-06            -5.6e-13              -2.2e-13              6.1866e-06           
  -1.5                  -6.609e-06            -5.6e-13              -8e-14                6.6128e-06           
  -1.55                 -7.0274e-06           -4e-13                -2e-13                7.0294e-06           
  -1.6                  -7.4368e-06           -3.6e-13              -6e-14                7.4404e-06           
  -1.65                 -7.8358e-06           -1e-13                -1.4e-13              7.84e-06             
  -1.7                  -8.2248e-06           -6.2e-13              -8e-14                8.2292e-06           
  -1.75                 -8.6072e-06           -8.2e-13              -1.2e-13              8.61e-06             
  -1.8                  -8.9788e-06           -4.6e-13              -1.6e-13              8.9804e-06           
  -1.85                 -9.3414e-06           1.4e-13               -1.6e-13              9.3448e-06           
  -1.9                  -9.6962e-06           -4.8e-13              -1.4e-13              9.7006e-06           
  -1.95                 -1.00474e-05          -9.8e-13              -1.8e-13              1.00516e-05          
  -2                    -1.0389e-05           -2e-13                -1.2e-13              1.03908e-05          
  -2.05                 -1.0721e-05           -2e-13                -2e-13                1.07238e-05          
  -2.1                  -1.10478e-05          -6.2e-13              -1.8e-13              1.10514e-05          
  -2.15                 -1.13676e-05          -6.8e-13              2e-14                 1.137e-05            
  -2.2                  -1.1672e-05           -1e-13                -1e-13                1.1686e-05           
  -2.25                 -1.1976e-05           -2.8e-13              -2e-13                1.1992e-05           
  -2.3                  -1.2274e-05           -4.2e-13              -1.2e-13              1.2292e-05           
  -2.35                 -1.2568e-05           -6.2e-13              -1.4e-13              1.2584e-05           
  -2.4                  -1.2854e-05           -6.2e-13              -2e-13                1.2872e-05           
  -2.45                 -1.3134e-05           -3e-13                -1.8e-13              1.315e-05            
  -2.5                  -1.341e-05            -2.6e-13              -2e-14                1.3426e-05           
  -2.55                 -1.3678e-05           -7.8e-13              -1.2e-13              1.3694e-05           
  -2.6                  -1.394e-05            -5.8e-13              -2.2e-13              1.3958e-05           
  -2.65                 -1.4198e-05           -4.2e-13              -1.4e-13              1.4214e-05           
  -2.7                  -1.4448e-05           -3.8e-13              -1.2e-13              1.4464e-05           
  -2.75                 -1.4694e-05           -5.6e-13              -1e-13                1.471e-05            
  -2.8                  -1.4934e-05           -7.8e-13              -4e-14                1.4952e-05           
  -2.85                 -1.517e-05            -4.6e-13              -1.2e-13              1.5186e-05           
  -2.9                  -1.54e-05             -3.8e-13              -4e-14                1.5416e-05           
  -2.95                 -1.5626e-05           -3e-13                -1.6e-13              1.5644e-05           
  -3                    -1.585e-05            -5.2e-13              -1.2e-13              1.5864e-05           
  -3.05                 -1.6066e-05           -8.6e-13              -8e-14                1.6084e-05           
  -3.1                  -1.6278e-05           -3.8e-13              -1e-13                1.6296e-05           
  -3.15                 -1.6486e-05           -6.4e-13              -1.4e-13              1.6504e-05           
  -3.2                  -1.669e-05            -1.08e-12             -8e-14                1.6706e-05           
  -3.25                 -1.689e-05            -8e-13                -1.8e-13              1.6906e-05           
  -3.3                  -1.7084e-05           -2.4e-13              -1.2e-13              1.71e-05             
  -3.35                 -1.7278e-05           -3.4e-13              -1e-13                1.7292e-05           
  -3.4                  -1.7462e-05           -8.2e-13              -2.2e-13              1.748e-05            
  -3.45                 -1.7646e-05           -5e-13                -2.4e-13              1.7664e-05           
  -3.5                  -1.7824e-05           -5.4e-13              -1.2e-13              1.7842e-05           
  -3.55                 -1.8e-05              -6.2e-13              -1.8e-13              1.8016e-05           
  -3.6                  -1.8172e-05           -6.8e-13              -8e-14                1.819e-05            
END_DB

BEGIN_DB
 ICCAP_VAR vb         0.9            
 ICCAP_VAR vd         -0.1           
 ICCAP_VAR vs         -0             

 #vg                    id                    ig                    ib                    is                   
  0.5                   -2e-14                5.4e-13               1.2e-13               8e-14                
  0.45                  2e-14                 5.8e-13               3e-13                 -2e-14               
  0.4                   8e-14                 1e-13                 0                     3e-13                
  0.35                  -2e-14                0                     1.2e-13               1.4e-13              
  0.3                   1e-13                 1.4e-13               2e-14                 3.8e-13              
  0.25                  -4e-14                1.4e-13               0                     0                    
  0.2                   6e-14                 1.2e-13               2e-14                 1.8e-13              
  0.15                  6e-14                 1.8e-13               8e-14                 -4e-14               
  0.1                   2e-14                 -2.6e-13              6e-14                 0                    
  0.05                  8e-14                 -5.2e-13              6e-14                 6e-14                
  0                     1.2e-13               0                     0                     2e-14                
  -0.05                 8e-14                 4e-13                 8e-14                 4e-14                
  -0.1                  4e-14                 1.6e-13               8e-14                 1.6e-13              
  -0.15                 8e-14                 -3e-13                4e-14                 4e-14                
  -0.2                  1e-13                 -6e-14                4e-14                 4e-14                
  -0.25                 1.4e-13               -2e-14                6e-14                 -1e-13               
  -0.3                  2e-14                 -2.2e-13              -2e-14                1.6e-13              
  -0.35                 1.2e-13               0                     2e-14                 6e-14                
  -0.4                  0                     -4.2e-13              1.2e-13               2e-14                
  -0.45                 2e-13                 -2.8e-13              -1.4e-13              3.2e-13              
  -0.5                  6e-14                 -2.2e-13              0                     6e-14                
  -0.55                 1.2e-13               -1.2e-13              -8e-14                3e-13                
  -0.6                  2e-13                 -4e-14                -8e-14                1e-13                
  -0.65                 1e-13                 2e-14                 -8e-14                3.2e-13              
  -0.7                  -6e-14                2.2e-13               0                     2e-13                
  -0.75                 -6.2e-13              -5.6e-13              -1e-13                8.2e-13              
  -0.8                  -3.7e-12              -5.8e-13              2e-14                 3.92e-12             
  -0.85                 -2.324e-11            -4.6e-13              -2e-14                2.346e-11            
  -0.9                  -1.4146e-10           2e-14                 -4e-14                1.4194e-10           
  -0.95                 -8.5668e-10           2.8e-13               6e-14                 8.5664e-10           
  -1                    -4.891e-09            2e-13                 -8e-14                4.8932e-09           
  -1.05                 -2.3874e-08           0                     0                     2.3888e-08           
  -1.1                  -8.6788e-08           -1.2e-13              0                     8.6822e-08           
  -1.15                 -2.3102e-07           -2e-14                2e-14                 2.312e-07            
  -1.2                  -4.7206e-07           -5.2e-13              -6e-14                4.723e-07            
  -1.25                 -7.9644e-07           -2.6e-13              0                     7.9668e-07           
  -1.3                  -1.1722e-06           -3.2e-13              0                     1.1752e-06           
  -1.35                 -1.5754e-06           -2.8e-13              -2e-14                1.579e-06            
  -1.4                  -1.9936e-06           -3.8e-13              -8e-14                1.997e-06            
  -1.45                 -2.4138e-06           -6.2e-13              2e-14                 2.417e-06            
  -1.5                  -2.8328e-06           -4.6e-13              -4e-14                2.8368e-06           
  -1.55                 -3.2474e-06           -2.4e-13              0                     3.2512e-06           
  -1.6                  -3.6592e-06           -5e-13                6e-14                 3.6626e-06           
  -1.65                 -4.061e-06            -5.2e-13              -6e-14                4.0648e-06           
  -1.7                  -4.4568e-06           -6.6e-13              -8e-14                4.4598e-06           
  -1.75                 -4.847e-06            -3.2e-13              -2e-14                4.8504e-06           
  -1.8                  -5.2274e-06           -3.2e-13              -6e-14                5.2302e-06           
  -1.85                 -5.601e-06            -4.2e-13              -4e-14                5.6044e-06           
  -1.9                  -5.9676e-06           -6.2e-13              -6e-14                5.9712e-06           
  -1.95                 -6.3266e-06           -5.6e-13              -8e-14                6.3302e-06           
  -2                    -6.6788e-06           -3.8e-13              -6e-14                6.6826e-06           
  -2.05                 -7.0234e-06           -7e-13                -1e-13                7.028e-06            
  -2.1                  -7.3626e-06           -4.4e-13              -8e-14                7.3662e-06           
  -2.15                 -7.694e-06            -7.6e-13              -1e-13                7.6964e-06           
  -2.2                  -8.018e-06            -3e-13                -2e-14                8.0214e-06           
  -2.25                 -8.3366e-06           -3e-13                -2e-14                8.341e-06            
  -2.3                  -8.6494e-06           -1e-12                -4e-14                8.6534e-06           
  -2.35                 -8.955e-06            -7.4e-13              -4e-14                8.9588e-06           
  -2.4                  -9.2552e-06           -4.8e-13              -2e-14                9.2586e-06           
  -2.45                 -9.5482e-06           -3.6e-13              4e-14                 9.5516e-06           
  -2.5                  -9.8374e-06           -3.6e-13              -8e-14                9.8412e-06           
  -2.55                 -1.01188e-05          -6.6e-13              -2e-14                1.01218e-05          
  -2.6                  -1.03952e-05          -6.6e-13              -4e-14                1.03984e-05          
  -2.65                 -1.06678e-05          -5.2e-13              8e-14                 1.06714e-05          
  -2.7                  -1.09334e-05          -4e-13                -4e-14                1.09368e-05          
  -2.75                 -1.11944e-05          -9.4e-13              -1.2e-13              1.11966e-05          
  -2.8                  -1.14498e-05          -4.6e-13              0                     1.14524e-05          
  -2.85                 -1.1692e-05           -7.2e-13              -1e-13                1.1708e-05           
  -2.9                  -1.1936e-05           -6.4e-13              -2e-14                1.1954e-05           
  -2.95                 -1.2174e-05           -8.8e-13              -6e-14                1.2192e-05           
  -3                    -1.2412e-05           -6.8e-13              -6e-14                1.2428e-05           
  -3.05                 -1.2642e-05           6e-14                 -1e-13                1.266e-05            
  -3.1                  -1.2868e-05           -6e-13                6e-14                 1.2886e-05           
  -3.15                 -1.3092e-05           -6.2e-13              2e-14                 1.311e-05            
  -3.2                  -1.3308e-05           -4.4e-13              -4e-14                1.3326e-05           
  -3.25                 -1.3526e-05           -6e-13                0                     1.354e-05            
  -3.3                  -1.3734e-05           -5e-13                -1.8e-13              1.375e-05            
  -3.35                 -1.3942e-05           -1.8e-13              0                     1.3958e-05           
  -3.4                  -1.4142e-05           -7.6e-13              -6e-14                1.4158e-05           
  -3.45                 -1.434e-05            -8e-13                2e-14                 1.4356e-05           
