! VERSION = 6.00
BEGIN_HEADER
 ICCAP_INPUTS
  vd         V  D GROUND SMU1 0.1 LIN        1    -0         -3.6       37   -0.1      
  vg         V  G GROUND SMU2 0.001 LIST       2 3 -0.328 -0.528 -0.728
  vb         V  B GROUND SMU4 0.1 CON        -0
  vs         V  S GROUND SMU3 0.1 CON        -0
 ICCAP_OUTPUTS
  id         I  D GROUND SMU1 B
  ig         I  G GROUND SMU2 B
  ib         I  B GROUND SMU4 B
  is         I  S GROUND SMU3 B
 ICCAP_VALUES
  MASTER_SETUP_TYPE "~dc_idvd~"
  LINVT_VALUE ""
  LISTVT_VALUE "|idvg|100.0n|-200.0m|1.000m|3|200.0m|200.0m|"
  TYPE "-1"
  TEMP " 125.000 "
  IS_TNOM " 0.00000 "
  MAIN.W "10.00u"
  MAIN.L "350.0n"
  MAIN.AD "3.400p"
  MAIN.AS "3.400p"
  MAIN.PD "20.68u"
  MAIN.PS "20.68u"
  MAIN.NF "1.000"
  MAIN.M "1"
  MAIN.NRD "0.000"
  MAIN.NRS "0.000"
  MAIN.LDRIFT1 "1E-06"
  MAIN.LDRIFT2 "1E-06"
  MAIN.SA "0.000"
  MAIN.SB "0.000"
  MAIN.SD "0.000"
  MAIN.SCA "0.000"
  MAIN.SCB "0.000"
  MAIN.SCC "0.000"
  MAIN.SC "0.000"
  MODULE "S561"
  PIN_D "16"
  PIN_G "5"
  PIN_S "6"
  PIN_B "15"
  PIN_E ""
  PIN_6 ""
  XY_ID ""
  FUNC "Short"
  STI "SA ref"
  WPE "WPE ref"
  COMMENT ""
  DIS_MEAS ""
  TypeTCI "10"
END_HEADER

BEGIN_DB
 ICCAP_VAR vg         -0.328         
 ICCAP_VAR vb         -0             
 ICCAP_VAR vs         -0             

 #vd                    id                    ig                    ib                    is                   
  -0                    4.138e-11             8e-13                 -6.74e-12             -1.0196e-10          
  -0.1                  -7.5938e-08           7.8e-13               -7e-12                7.592e-08            
  -0.2                  -8.3108e-08           7.8e-13               -4.22e-12             8.307e-08            
  -0.3                  -8.564e-08            6.6e-13               -3.7e-12              8.5672e-08           
  -0.4                  -8.7666e-08           4.8e-13               -3.32e-12             8.7646e-08           
  -0.5                  -8.9544e-08           5.6e-13               -2.84e-12             8.9588e-08           
  -0.6                  -9.1226e-08           6.6e-13               -2.9e-12              9.1254e-08           
  -0.7                  -9.2874e-08           6.4e-13               -2.48e-12             9.2876e-08           
  -0.8                  -9.4396e-08           5.4e-13               -1.8e-12              9.4422e-08           
  -0.9                  -9.5822e-08           6.4e-13               -1.76e-12             9.5892e-08           
  -1                    -9.7308e-08           6.2e-13               -1.9e-12              9.733e-08            
  -1.1                  -9.8756e-08           6e-13                 -1.5e-12              9.8788e-08           
  -1.2                  -1.0014e-07           6.2e-13               -2.34e-12             1.00232e-07          
  -1.3                  -1.0158e-07           5.2e-13               -1.12e-12             1.01574e-07          
  -1.4                  -1.0294e-07           4.6e-13               -5.2e-13              1.02928e-07          
  -1.5                  -1.0432e-07           4.8e-13               -7e-13                1.04348e-07          
  -1.6                  -1.0564e-07           3.8e-13               3.2e-13               1.05714e-07          
  -1.7                  -1.0712e-07           5e-13                 2.6e-13               1.07164e-07          
  -1.8                  -1.0848e-07           5e-13                 9.8e-13               1.0849e-07           
  -1.9                  -1.0974e-07           4.8e-13               2.08e-12              1.09884e-07          
  -2                    -1.1116e-07           5.6e-13               2.8e-12               1.11326e-07          
  -2.1                  -1.1264e-07           5.2e-13               5.18e-12              1.12678e-07          
  -2.2                  -1.1406e-07           5.4e-13               7.24e-12              1.1408e-07           
  -2.3                  -1.1552e-07           4.4e-13               8.64e-12              1.1556e-07           
  -2.4                  -1.1696e-07           4.4e-13               1.69e-11              1.17e-07             
  -2.5                  -1.1834e-07           4.2e-13               2.502e-11             1.184e-07            
  -2.6                  -1.1976e-07           4.2e-13               3.784e-11             1.1982e-07           
  -2.7                  -1.2118e-07           4e-13                 5.646e-11             1.2122e-07           
  -2.8                  -1.2262e-07           3.8e-13               8.292e-11             1.2266e-07           
  -2.9                  -1.2418e-07           3.6e-13               1.2126e-10            1.2412e-07           
  -3                    -1.2564e-07           2.8e-13               1.7468e-10            1.2556e-07           
  -3.1                  -1.2722e-07           4e-13                 2.4734e-10            1.2704e-07           
  -3.2                  -1.288e-07            3e-13                 3.4898e-10            1.285e-07            
  -3.3                  -1.3046e-07           3.8e-13               4.852e-10             1.3004e-07           
  -3.4                  -1.3216e-07           3.4e-13               6.6678e-10            1.3156e-07           
  -3.5                  -1.3392e-07           3.6e-13               9.071e-10             1.331e-07            
  -3.6                  -1.3588e-07           3.4e-13               1.2136e-09            1.3474e-07           
END_DB

BEGIN_DB
 ICCAP_VAR vg         -0.528         
 ICCAP_VAR vb         -0             
 ICCAP_VAR vs         -0             

 #vd                    id                    ig                    ib                    is                   
  -0                    1.567e-09             1.6e-13               -6.32e-12             -1.4444e-09          
  -0.1                  -2.0256e-06           1e-13                 -5.2e-12              2.0274e-06           
  -0.2                  -2.3054e-06           0                     -2.62e-12             2.309e-06            
  -0.3                  -2.398e-06            6e-14                 -2.16e-12             2.398e-06            
  -0.4                  -2.4612e-06           8e-14                 -1.86e-12             2.4654e-06           
  -0.5                  -2.5168e-06           2e-14                 -2.04e-12             2.5198e-06           
  -0.6                  -2.565e-06            2e-14                 -1.56e-12             2.5672e-06           
  -0.7                  -2.6098e-06           1.2e-13               -1.22e-12             2.6132e-06           
  -0.8                  -2.6522e-06           1.6e-13               -1.04e-12             2.6546e-06           
  -0.9                  -2.6918e-06           8e-14                 -1.22e-12             2.6926e-06           
  -1                    -2.7324e-06           1.4e-13               -9.2e-13              2.735e-06            
  -1.1                  -2.7694e-06           2e-13                 -7.8e-13              2.769e-06            
  -1.2                  -2.8052e-06           1.4e-13               -7.4e-13              2.8078e-06           
  -1.3                  -2.8388e-06           2.2e-13               -3.4e-13              2.8414e-06           
  -1.4                  -2.8734e-06           1.2e-13               -2.2e-13              2.8798e-06           
  -1.5                  -2.91e-06             1.6e-13               1.2e-13               2.9118e-06           
  -1.6                  -2.9402e-06           4e-14                 1.16e-12              2.9486e-06           
  -1.7                  -2.9796e-06           1e-13                 2.36e-12              2.9814e-06           
  -1.8                  -3.0132e-06           1.6e-13               5.74e-12              3.0166e-06           
  -1.9                  -3.0468e-06           3.2e-13               1.026e-11             3.0486e-06           
  -2                    -3.0816e-06           1.4e-13               1.928e-11             3.0834e-06           
  -2.1                  -3.1158e-06           8e-14                 3.552e-11             3.1184e-06           
  -2.2                  -3.1478e-06           1e-13                 6.254e-11             3.1504e-06           
  -2.3                  -3.1834e-06           1.4e-13               1.0796e-10            3.1876e-06           
  -2.4                  -3.2166e-06           1.6e-13               1.7988e-10            3.2208e-06           
  -2.5                  -3.2514e-06           1.6e-13               2.9402e-10            3.253e-06            
  -2.6                  -3.2846e-06           1.8e-13               4.7066e-10            3.2864e-06           
  -2.7                  -3.3174e-06           1.6e-13               7.3954e-10            3.32e-06             
  -2.8                  -3.3518e-06           2e-13                 1.139e-09             3.3582e-06           
  -2.9                  -3.3926e-06           1.4e-13               1.731e-09             3.3904e-06           
  -3                    -3.423e-06            -2e-14                2.5824e-09            3.425e-06            
  -3.1                  -3.4584e-06           1e-13                 3.795e-09             3.4616e-06           
  -3.2                  -3.4988e-06           6e-14                 5.4994e-09            3.4972e-06           
  -3.3                  -3.5412e-06           2.4e-13               7.8558e-09            3.538e-06            
  -3.4                  -3.5814e-06           1e-13                 1.1033e-08            3.5676e-06           
  -3.5                  -3.624e-06            -1.14e-12             1.5358e-08            3.614e-06            
  -3.6                  -3.6652e-06           1.2e-13               2.1042e-08            3.6502e-06           
END_DB

BEGIN_DB
 ICCAP_VAR vg         -0.728         
 ICCAP_VAR vb         -0             
 ICCAP_VAR vs         -0             

 #vd                    id                    ig                    ib                    is                   
  -0                    9.374e-09             -8e-14                -4.88e-12             -2.0246e-09          
  -0.1                  -1.4622e-05           0                     -4.96e-12             1.4626e-05           
  -0.2                  -1.9498e-05           0                     -2.04e-12             1.9526e-05           
  -0.3                  -2.099e-05            0                     -1.38e-12             2.1004e-05           
  -0.4                  -2.1688e-05           -2e-13                -1.3e-12              2.1704e-05           
  -0.5                  -2.2168e-05           -1.8e-13              -8.2e-13              2.217e-05            
  -0.6                  -2.2558e-05           0                     -6.8e-13              2.2572e-05           
  -0.7                  -2.2908e-05           0                     -4.8e-13              2.291e-05            
  -0.8                  -2.3208e-05           0                     -7.8e-13              2.3212e-05           
  -0.9                  -2.3484e-05           -2e-14                0                     2.3496e-05           
  -1                    -2.3762e-05           -8e-14                -3.6e-13              2.377e-05            
  -1.1                  -2.4006e-05           4e-14                 3.4e-13               2.401e-05            
  -1.2                  -2.4246e-05           1.2e-13               4.4e-13               2.4252e-05           
  -1.3                  -2.4478e-05           -1.6e-13              5.4e-13               2.448e-05            
  -1.4                  -2.4688e-05           0                     8.4e-13               2.4704e-05           
  -1.5                  -2.4914e-05           0                     8.2e-13               2.4932e-05           
  -1.6                  -2.5134e-05           0                     2.48e-12              2.5148e-05           
  -1.7                  -2.534e-05            -4e-14                6.3e-12               2.5362e-05           
  -1.8                  -2.557e-05            4e-14                 1.324e-11             2.557e-05            
  -1.9                  -2.5768e-05           8e-14                 2.872e-11             2.5792e-05           
  -2                    -2.597e-05            0                     5.934e-11             2.5992e-05           
  -2.1                  -2.6176e-05           -1e-13                1.156e-10             2.6176e-05           
  -2.2                  -2.6396e-05           -1e-13                2.1716e-10            2.6398e-05           
  -2.3                  -2.6582e-05           0                     3.93e-10              2.6594e-05           
  -2.4                  -2.681e-05            4e-14                 6.8604e-10            2.6804e-05           
  -2.5                  -2.6996e-05           -4e-14                1.1648e-09            2.7016e-05           
  -2.6                  -2.719e-05            -8e-14                1.9334e-09            2.7214e-05           
  -2.7                  -2.7406e-05           -2e-14                3.1316e-09            2.7408e-05           
  -2.8                  -2.7618e-05           1.6e-13               4.9632e-09            2.7608e-05           
  -2.9                  -2.782e-05            6e-14                 7.7172e-09            2.781e-05            
  -3                    -2.8014e-05           -2.6e-13              1.1794e-08            2.8022e-05           
  -3.1                  -2.8222e-05           6e-14                 1.77e-08              2.8222e-05           
  -3.2                  -2.8444e-05           -1e-13                2.6174e-08            2.8428e-05           
  -3.3                  -2.8662e-05           4e-14                 3.8118e-08            2.8636e-05           
  -3.4                  -2.889e-05            2e-14                 5.4648e-08            2.8852e-05           
  -3.5                  -2.9128e-05           8e-14                 7.7308e-08            2.9072e-05           
  -3.6                  -2.9392e-05           1.6e-13               1.07926e-07           2.9306e-05           
END_DB

