! VERSION = 6.00
BEGIN_HEADER
 ICCAP_INPUTS
  vd         V  D GROUND SMU1 0.1 LIN        1    -0         -3.6       37   -0.1      
  vg         V  G GROUND SMU2 0.001 LIST       2 3 -1.305 -1.505 -1.705
  vb         V  B GROUND SMU4 0.1 CON        3.6
  vs         V  S GROUND SMU3 0.1 CON        -0
 ICCAP_OUTPUTS
  id         I  D GROUND SMU1 B
  ig         I  G GROUND SMU2 B
  ib         I  B GROUND SMU4 B
  is         I  S GROUND SMU3 B
 ICCAP_VALUES
  MASTER_SETUP_TYPE "~dc_idvd~"
  LINVT_VALUE ""
  LISTVT_VALUE "|idvg|100.0n|-200.0m|1.000m|3|200.0m|200.0m|"
  TYPE "-1"
  TEMP " 125.000 "
  IS_TNOM " 0.00000 "
  MAIN.W "300.0n"
  MAIN.L "350.0n"
  MAIN.AD "102.0f"
  MAIN.AS "102.0f"
  MAIN.PD "1.280u"
  MAIN.PS "1.280u"
  MAIN.NF "1.000"
  MAIN.M "1"
  MAIN.NRD "0.000"
  MAIN.NRS "0.000"
  MAIN.LDRIFT1 "1E-06"
  MAIN.LDRIFT2 "1E-06"
  MAIN.SA "0.000"
  MAIN.SB "0.000"
  MAIN.SD "0.000"
  MAIN.SCA "0.000"
  MAIN.SCB "0.000"
  MAIN.SCC "0.000"
  MAIN.SC "0.000"
  MODULE "S565"
  PIN_D "16"
  PIN_G "5"
  PIN_S "6"
  PIN_B "15"
  PIN_E ""
  PIN_6 ""
  XY_ID ""
  FUNC "Small"
  STI "SA ref"
  WPE "WPE ref"
  COMMENT ""
  DIS_MEAS ""
  TypeTCI "10"
END_HEADER

BEGIN_DB
 ICCAP_VAR vg         -1.305         
 ICCAP_VAR vb         3.6            
 ICCAP_VAR vs         -0             

 #vd                    id                    ig                    ib                    is                   
  -0                    -6.26e-12             -3.98e-12             3.2376e-09            -6.08e-12            
  -0.1                  -5.8784e-10           -3.74e-12             3.203e-09             5.7628e-10           
  -0.2                  -6.972e-10            -3.74e-12             3.1482e-09            6.8526e-10           
  -0.3                  -7.7458e-10           -3.46e-12             3.09e-09              7.6194e-10           
  -0.4                  -8.48e-10             -3.48e-12             3.027e-09             8.3608e-10           
  -0.5                  -9.2376e-10           -3.52e-12             2.958e-09             9.1158e-10           
  -0.6                  -1.001e-09            -3.3e-12              2.889e-09             9.897e-10            
  -0.7                  -1.0818e-09           -3.38e-12             2.8226e-09            1.07012e-09          
  -0.8                  -1.1664e-09           -3.16e-12             1.2594e-09            1.1552e-09           
  -0.9                  -1.2492e-09           -8e-14                1.1128e-10            1.247e-09            
  -1                    -1.3422e-09           0                     8.616e-11             1.3388e-09           
  -1.1                  -1.4372e-09           0                     7.474e-11             1.4368e-09           
  -1.2                  -1.5392e-09           4e-14                 6.652e-11             1.5354e-09           
  -1.3                  -1.6422e-09           2e-13                 6.008e-11             1.6404e-09           
  -1.4                  -1.7528e-09           1e-13                 5.536e-11             1.7508e-09           
  -1.5                  -1.8672e-09           4e-14                 5.08e-11              1.866e-09            
  -1.6                  -1.988e-09            1.4e-13               4.79e-11              1.9876e-09           
  -1.7                  -2.1166e-09           1.6e-13               4.492e-11             2.1146e-09           
  -1.8                  -2.2496e-09           1.2e-13               4.23e-11              2.2478e-09           
  -1.9                  -2.3894e-09           1.8e-13               3.96e-11              2.3884e-09           
  -2                    -2.5396e-09           2e-14                 3.818e-11             2.5392e-09           
  -2.1                  -2.6956e-09           1.6e-13               3.628e-11             2.6944e-09           
  -2.2                  -2.864e-09            8e-14                 3.476e-11             2.8616e-09           
  -2.3                  -3.0354e-09           2e-14                 3.36e-11              3.0352e-09           
  -2.4                  -3.2208e-09           1.6e-13               3.218e-11             3.219e-09            
  -2.5                  -3.4176e-09           1.4e-13               3.164e-11             3.4142e-09           
  -2.6                  -3.6236e-09           6e-14                 3.032e-11             3.6222e-09           
  -2.7                  -3.8444e-09           2e-14                 2.988e-11             3.8374e-09           
  -2.8                  -4.074e-09            8e-14                 2.958e-11             4.0696e-09           
  -2.9                  -4.3198e-09           0                     2.896e-11             4.3154e-09           
  -3                    -4.5804e-09           1.8e-13               2.952e-11             4.574e-09            
  -3.1                  -4.8548e-09           1.6e-13               3.036e-11             4.849e-09            
  -3.2                  -5.1418e-09           4e-14                 3.25e-11              5.134e-09            
  -3.3                  -5.4496e-09           0                     3.526e-11             5.4386e-09           
  -3.4                  -5.7746e-09           1.6e-13               4.078e-11             5.7594e-09           
  -3.5                  -6.1296e-09           0                     4.844e-11             6.0984e-09           
  -3.6                  -6.5042e-09           2.6e-13               6.008e-11             6.462e-09            
END_DB

BEGIN_DB
 ICCAP_VAR vg         -1.505         
 ICCAP_VAR vb         3.6            
 ICCAP_VAR vs         -0             

 #vd                    id                    ig                    ib                    is                   
  -0                    2.964e-11             -1.4e-13              1.634e-11             -2.96e-11            
  -0.1                  -3.358e-08            -1e-13                1.574e-11             3.3604e-08           
  -0.2                  -4.1768e-08           -1.8e-13              2.03e-11              4.1744e-08           
  -0.3                  -4.6738e-08           -1.8e-13              2.028e-11             4.6776e-08           
  -0.4                  -5.1152e-08           -8e-14                1.99e-11              5.1206e-08           
  -0.5                  -5.5328e-08           -6e-14                2.016e-11             5.5354e-08           
  -0.6                  -5.942e-08            -1.2e-13              2.01e-11              5.9392e-08           
  -0.7                  -6.3422e-08           -4e-14                2.004e-11             6.3486e-08           
  -0.8                  -6.7534e-08           -8e-14                1.948e-11             6.7582e-08           
  -0.9                  -7.1668e-08           4e-14                 1.968e-11             7.1662e-08           
  -1                    -7.5862e-08           -6e-14                1.984e-11             7.5916e-08           
  -1.1                  -8.0214e-08           -4e-14                1.96e-11              8.0228e-08           
  -1.2                  -8.469e-08            -1.6e-13              1.924e-11             8.4728e-08           
  -1.3                  -8.9226e-08           -8e-14                1.936e-11             8.927e-08            
  -1.4                  -9.3838e-08           -2e-14                1.934e-11             9.3838e-08           
  -1.5                  -9.8568e-08           -8e-14                1.946e-11             9.8608e-08           
  -1.6                  -1.0334e-07           -4e-14                1.752e-11             1.034e-07            
  -1.7                  -1.0828e-07           -8e-14                1.924e-11             1.08384e-07          
  -1.8                  -1.134e-07            -2e-14                1.894e-11             1.13466e-07          
  -1.9                  -1.1868e-07           -8e-14                1.65e-11              1.1872e-07           
  -2                    -1.241e-07            -4e-14                1.87e-11              1.2402e-07           
  -2.1                  -1.2958e-07           -1e-13                1.858e-11             1.2968e-07           
  -2.2                  -1.3528e-07           2e-14                 1.908e-11             1.3544e-07           
  -2.3                  -1.4132e-07           0                     1.928e-11             1.4142e-07           
  -2.4                  -1.474e-07            0                     1.986e-11             1.4756e-07           
  -2.5                  -1.54e-07             -1.4e-13              2.176e-11             1.5404e-07           
  -2.6                  -1.606e-07            -2e-14                2.428e-11             1.6062e-07           
  -2.7                  -1.6726e-07           -1.4e-13              2.844e-11             1.673e-07            
  -2.8                  -1.7416e-07           -8e-14                3.628e-11             1.743e-07            
  -2.9                  -1.8146e-07           -1.2e-13              4.9e-11               1.8154e-07           
  -3                    -1.8892e-07           -8e-14                6.974e-11             1.8882e-07           
  -3.1                  -1.9642e-07           -4e-14                1.0144e-10            1.9644e-07           
  -3.2                  -2.0448e-07           -1.2e-13              1.5208e-10            2.0438e-07           
  -3.3                  -2.1254e-07           -1.2e-13              2.2888e-10            2.125e-07            
  -3.4                  -2.2102e-07           2e-14                 3.4462e-10            2.2078e-07           
  -3.5                  -2.299e-07            -1.6e-13              5.1806e-10            2.2938e-07           
  -3.6                  -2.3898e-07           -4e-14                7.7126e-10            2.3848e-07           
END_DB

BEGIN_DB
 ICCAP_VAR vg         -1.705         
 ICCAP_VAR vb         3.6            
 ICCAP_VAR vs         -0             

 #vd                    id                    ig                    ib                    is                   
  -0                    1.7194e-10            -2.6e-13              1.138e-11             -1.8298e-10          
  -0.1                  -3.5116e-07           -1.6e-13              1.09e-11              3.5104e-07           
  -0.2                  -5.0708e-07           -2.2e-13              1.544e-11             5.076e-07            
  -0.3                  -5.8266e-07           -1.2e-13              1.56e-11              5.829e-07            
  -0.4                  -6.3108e-07           -1.4e-13              1.564e-11             6.3126e-07           
  -0.5                  -6.6968e-07           -4e-14                1.584e-11             6.6978e-07           
  -0.6                  -7.031e-07            -2.4e-13              1.58e-11              7.032e-07            
  -0.7                  -7.3388e-07           -3.8e-13              1.574e-11             7.339e-07            
  -0.8                  -7.634e-07            -2.4e-13              1.554e-11             7.6356e-07           
  -0.9                  -7.9166e-07           -2.2e-13              1.618e-11             7.9146e-07           
  -1                    -8.1904e-07           -1.8e-13              1.606e-11             8.1934e-07           
  -1.1                  -8.4642e-07           -2.2e-13              1.52e-11              8.467e-07            
  -1.2                  -8.7366e-07           -1.8e-13              1.572e-11             8.735e-07            
  -1.3                  -9.0058e-07           -2e-13                1.552e-11             9.0078e-07           
  -1.4                  -9.276e-07            -1.8e-13              1.536e-11             9.2752e-07           
  -1.5                  -9.5438e-07           -1.6e-13              1.522e-11             9.5444e-07           
  -1.6                  -9.812e-07            -1.8e-13              1.534e-11             9.8116e-07           
  -1.7                  -1.00738e-06          -1.6e-13              1.556e-11             1.00806e-06          
  -1.8                  -1.03478e-06          -1.8e-13              1.538e-11             1.03466e-06          
  -1.9                  -1.06056e-06          -4e-14                1.526e-11             1.0612e-06           
  -2                    -1.08836e-06          -2e-13                1.57e-11              1.08854e-06          
  -2.1                  -1.11566e-06          -2.2e-13              1.59e-11              1.116e-06            
  -2.2                  -1.1429e-06           -1.6e-13              1.682e-11             1.14314e-06          
  -2.3                  -1.169e-06            -1e-13                1.426e-11             1.1722e-06           
  -2.4                  -1.1974e-06           -2.6e-13              2.064e-11             1.2002e-06           
  -2.5                  -1.2258e-06           -1.8e-13              2.572e-11             1.2286e-06           
  -2.6                  -1.2538e-06           -1.6e-13              3.518e-11             1.2574e-06           
  -2.7                  -1.2828e-06           -1e-13                5.08e-11              1.286e-06            
  -2.8                  -1.3126e-06           -6e-14                7.73e-11              1.3156e-06           
  -2.9                  -1.3436e-06           -8e-14                1.2128e-10            1.3462e-06           
  -3                    -1.3734e-06           -1e-13                1.9362e-10            1.3754e-06           
  -3.1                  -1.4038e-06           -8e-14                3.0906e-10            1.4064e-06           
  -3.2                  -1.435e-06            -4e-14                4.903e-10             1.4372e-06           
  -3.3                  -1.4656e-06           -1.2e-13              7.7072e-10            1.4682e-06           
  -3.4                  -1.4994e-06           -1e-13                1.1934e-09            1.5014e-06           
  -3.5                  -1.5322e-06           -1.8e-13              1.8356e-09            1.5336e-06           
  -3.6                  -1.566e-06            -1.2e-13              2.7752e-09            1.5652e-06           
END_DB

