! VERSION = 6.00
BEGIN_HEADER
 ICCAP_INPUTS
  vd         V  D GROUND SMU1 0.1 LIN        1    -0         -3.6       37   -0.1      
  vg         V  G GROUND SMU2 0.001 LIN        2    -0.688     -3.6       5    -0.728    
  vb         V  B GROUND SMU4 0.1 CON        -0
  vs         V  S GROUND SMU3 0.1 CON        -0
 ICCAP_OUTPUTS
  id         I  D GROUND SMU1 B
  ig         I  G GROUND SMU2 B
  ib         I  B GROUND SMU4 B
  is         I  S GROUND SMU3 B
 ICCAP_VALUES
  MASTER_SETUP_TYPE "~dc_idvd~"
  LINVT_VALUE "|idvg|100.0n|100.0m|1.000m|5|3.600|"
  LISTVT_VALUE ""
  TYPE "-1"
  TEMP " 27.0000 "
  IS_TNOM " 1.00000 "
  MAIN.W "600.0n"
  MAIN.L "330.0n"
  MAIN.AD "204.0f"
  MAIN.AS "204.0f"
  MAIN.PD "1.880u"
  MAIN.PS "1.880u"
  MAIN.NF "1.000"
  MAIN.M "1"
  MAIN.NRD "0.000"
  MAIN.NRS "0.000"
  MAIN.LDRIFT1 "1E-06"
  MAIN.LDRIFT2 "1E-06"
  MAIN.SA "0.000"
  MAIN.SB "0.000"
  MAIN.SD "0.000"
  MAIN.SCA "0.000"
  MAIN.SCB "0.000"
  MAIN.SCC "0.000"
  MAIN.SC "0.000"
  MODULE "S564"
  PIN_D "20"
  PIN_G "1"
  PIN_S "2"
  PIN_B "19"
  PIN_E ""
  PIN_6 ""
  XY_ID ""
  FUNC "Additional"
  STI "SA ref"
  WPE "WPE ref"
  COMMENT ""
  DIS_MEAS ""
  TypeTCI "10"
END_HEADER

BEGIN_DB
 ICCAP_VAR vg         -0.688         
 ICCAP_VAR vb         -0             
 ICCAP_VAR vs         -0             

 #vd                    id                    ig                    ib                    is                   
  -0                    4.5968e-10            4e-14                 -6.6e-13              -6.159e-10           
  -0.1                  -5.356e-07            6e-14                 -9e-13                5.3596e-07           
  -0.2                  -6.3864e-07           1.6e-13               -8.6e-13              6.3814e-07           
  -0.3                  -6.781e-07            4e-14                 -7.6e-13              6.7834e-07           
  -0.4                  -7.0672e-07           -4e-14                -8.2e-13              7.0724e-07           
  -0.5                  -7.3026e-07           0                     -7e-13                7.3062e-07           
  -0.6                  -7.5018e-07           -6e-14                -6e-13                7.5102e-07           
  -0.7                  -7.68e-07             -8e-14                -6e-13                7.6878e-07           
  -0.8                  -7.8464e-07           4e-14                 -7.2e-13              7.853e-07            
  -0.9                  -8.0062e-07           0                     -7e-13                7.996e-07            
  -1                    -8.1568e-07           -4e-14                -6.8e-13              8.1498e-07           
  -1.1                  -8.2968e-07           0                     -5e-13                8.2974e-07           
  -1.2                  -8.4286e-07           -8e-14                -4.8e-13              8.4402e-07           
  -1.3                  -8.56e-07             -4e-14                -6.6e-13              8.5618e-07           
  -1.4                  -8.701e-07            -4e-14                -5.4e-13              8.7036e-07           
  -1.5                  -8.8348e-07           4e-14                 -5.2e-13              8.8336e-07           
  -1.6                  -8.9484e-07           -4e-14                -4e-13                8.9686e-07           
  -1.7                  -9.0826e-07           -8e-14                -3.4e-13              9.0858e-07           
  -1.8                  -9.2082e-07           -4e-14                -2e-14                9.2148e-07           
  -1.9                  -9.3394e-07           0                     3.6e-13               9.345e-07            
  -2                    -9.4438e-07           -6e-14                1.58e-12              9.4646e-07           
  -2.1                  -9.5884e-07           -1.2e-13              3.6e-12               9.5782e-07           
  -2.2                  -9.712e-07            -2e-14                7.68e-12              9.7026e-07           
  -2.3                  -9.8218e-07           -8e-14                1.498e-11             9.825e-07            
  -2.4                  -9.9528e-07           -6e-14                2.76e-11              9.954e-07            
  -2.5                  -1.00792e-06          -6e-14                4.912e-11             1.0075e-06           
  -2.6                  -1.01908e-06          -4e-14                8.444e-11             1.01854e-06          
  -2.7                  -1.0301e-06           -2e-14                1.4128e-10            1.03186e-06          
  -2.8                  -1.04352e-06          -6e-14                2.3146e-10            1.04384e-06          
  -2.9                  -1.05626e-06          -1e-13                3.7038e-10            1.05582e-06          
  -3                    -1.06812e-06          -1e-13                5.794e-10             1.06864e-06          
  -3.1                  -1.08126e-06          -1e-13                8.8894e-10            1.0806e-06           
  -3.2                  -1.0906e-06           2e-14                 1.3448e-09            1.095e-06            
  -3.3                  -1.1094e-06           -8e-14                1.992e-09             1.1116e-06           
  -3.4                  -1.1232e-06           -4e-14                2.9024e-09            1.1242e-06           
  -3.5                  -1.1386e-06           -8e-14                4.1506e-09            1.14e-06             
  -3.6                  -1.154e-06            -1e-13                5.8928e-09            1.1594e-06           
END_DB

BEGIN_DB
 ICCAP_VAR vg         -1.416         
 ICCAP_VAR vb         -0             
 ICCAP_VAR vs         -0             

 #vd                    id                    ig                    ib                    is                   
  -0                    3.0034e-09            -2.6e-13              -2.6e-13              -3.3392e-09          
  -0.1                  -7.4382e-06           -2.4e-13              -2.8e-13              7.44e-06             
  -0.2                  -1.356e-05            -1.6e-13              -2e-13                1.3576e-05           
  -0.3                  -1.8308e-05           -1.8e-13              -2.8e-13              1.8334e-05           
  -0.4                  -2.175e-05            -1.6e-13              -3e-13                2.177e-05            
  -0.5                  -2.4074e-05           -1.6e-13              -3.6e-13              2.4088e-05           
  -0.6                  -2.557e-05            -1.2e-13              -2.4e-13              2.5594e-05           
  -0.7                  -2.6522e-05           -2e-13                -1.4e-13              2.6546e-05           
  -0.8                  -2.7188e-05           -2.2e-13              -2.2e-13              2.721e-05            
  -0.9                  -2.7672e-05           -1e-13                -1.8e-13              2.77e-05             
  -1                    -2.8066e-05           -2.4e-13              -3e-13                2.8098e-05           
  -1.1                  -2.8392e-05           -1.6e-13              -2e-13                2.8422e-05           
  -1.2                  -2.8674e-05           -1e-13                -3.2e-13              2.8702e-05           
  -1.3                  -2.8948e-05           -1.6e-13              -2.8e-13              2.895e-05            
  -1.4                  -2.9164e-05           -1.6e-13              -2.2e-13              2.918e-05            
  -1.5                  -2.938e-05            -2.4e-13              -1e-13                2.94e-05             
  -1.6                  -2.9582e-05           -1.4e-13              -3e-13                2.9612e-05           
  -1.7                  -2.9766e-05           -1.8e-13              -3.2e-13              2.9784e-05           
  -1.8                  -2.9942e-05           -1.4e-13              -8e-14                2.9968e-05           
  -1.9                  -3.0128e-05           -1.2e-13              1e-13                 3.0134e-05           
  -2                    -3.0284e-05           -2.8e-13              8.4e-13               3.0304e-05           
  -2.1                  -3.045e-05            -1.6e-13              2.74e-12              3.0464e-05           
  -2.2                  -3.0616e-05           -2.6e-13              7.26e-12              3.062e-05            
  -2.3                  -3.0762e-05           -1.6e-13              1.728e-11             3.0782e-05           
  -2.4                  -3.092e-05            -1.8e-13              3.892e-11             3.0946e-05           
  -2.5                  -3.1066e-05           -1.8e-13              8.178e-11             3.1092e-05           
  -2.6                  -3.1204e-05           -1.2e-13              1.628e-10             3.1234e-05           
  -2.7                  -3.1362e-05           -2.4e-13              3.108e-10             3.1392e-05           
  -2.8                  -3.1514e-05           -1.6e-13              5.7224e-10            3.1526e-05           
  -2.9                  -3.1646e-05           -1.8e-13              1.02048e-09           3.167e-05            
  -3                    -3.18e-05             -1.4e-13              1.7688e-09            3.1826e-05           
  -3.1                  -3.1926e-05           -1.8e-13              2.986e-09             3.1942e-05           
  -3.2                  -3.2078e-05           -2.6e-13              4.9262e-09            3.2088e-05           
  -3.3                  -3.2208e-05           -1.8e-13              7.9578e-09            3.2242e-05           
  -3.4                  -3.2376e-05           -2.4e-13              1.2586e-08            3.239e-05            
  -3.5                  -3.2518e-05           -2e-13                1.953e-08             3.2528e-05           
  -3.6                  -3.2674e-05           -1.8e-13              2.9652e-08            3.2678e-05           
END_DB

BEGIN_DB
 ICCAP_VAR vg         -2.144         
 ICCAP_VAR vb         -0             
 ICCAP_VAR vs         -0             

 #vd                    id                    ig                    ib                    is                   
  -0                    3.0488e-09            -3.4e-13              -2e-14                -4.6296e-09          
  -0.1                  -1.2396e-05           -2.2e-13              -1.2e-13              1.2416e-05           
  -0.2                  -2.377e-05            -3.6e-13              -1.2e-13              2.379e-05            
  -0.3                  -3.3976e-05           -3.4e-13              -8e-14                3.3994e-05           
  -0.4                  -4.2934e-05           -3.2e-13              -2.4e-13              4.295e-05            
  -0.5                  -5.066e-05            -3e-13                -1e-13                5.0682e-05           
  -0.6                  -5.7166e-05           -2.4e-13              -1.6e-13              5.7194e-05           
  -0.7                  -6.2514e-05           -2.8e-13              -1.2e-13              6.2542e-05           
  -0.8                  -6.6832e-05           -2.2e-13              -4e-14                6.6842e-05           
  -0.9                  -7.0236e-05           -2.4e-13              -8e-14                7.0254e-05           
  -1                    -7.2884e-05           -3.4e-13              -1.4e-13              7.2906e-05           
  -1.1                  -7.4944e-05           -2.4e-13              -4e-14                7.4958e-05           
  -1.2                  -7.6542e-05           -3e-13                0                     7.6562e-05           
  -1.3                  -7.7824e-05           -3.6e-13              -8e-14                7.7832e-05           
  -1.4                  -7.885e-05            -3.2e-13              -1e-13                7.8878e-05           
  -1.5                  -7.9726e-05           -2.8e-13              -1e-13                7.9752e-05           
  -1.6                  -8.0472e-05           -3.2e-13              -1.4e-13              8.0488e-05           
  -1.7                  -8.1118e-05           -3.2e-13              -2.8e-13              8.1136e-05           
  -1.8                  -8.1686e-05           -1.2e-13              -2e-13                8.1708e-05           
  -1.9                  -8.2196e-05           -3.4e-13              -4e-14                8.2224e-05           
  -2                    -8.2668e-05           -3e-13                -8e-14                8.2688e-05           
  -2.1                  -8.3102e-05           -2.2e-13              0                     8.3126e-05           
  -2.2                  -8.3516e-05           -2e-13                3.8e-13               8.3544e-05           
  -2.3                  -8.39e-05             -2.4e-13              1.44e-12              8.3922e-05           
  -2.4                  -8.4262e-05           -1.6e-13              4.24e-12              8.429e-05            
  -2.5                  -8.4614e-05           -2.8e-13              1.094e-11             8.4632e-05           
  -2.6                  -8.4954e-05           -2.8e-13              2.58e-11              8.4972e-05           
  -2.7                  -8.5276e-05           -2.8e-13              5.706e-11             8.5298e-05           
  -2.8                  -8.5586e-05           -3e-13                1.1984e-10            8.56e-05             
  -2.9                  -8.5892e-05           -1e-13                2.403e-10             8.5908e-05           
  -3                    -8.6186e-05           -2.2e-13              4.6374e-10            8.6214e-05           
  -3.1                  -8.6484e-05           -2.6e-13              8.6268e-10            8.6504e-05           
  -3.2                  -8.6788e-05           -1.6e-13              1.5584e-09            8.6798e-05           
  -3.3                  -8.7058e-05           -3e-13                2.7426e-09            8.7078e-05           
  -3.4                  -8.7346e-05           -1.8e-13              4.6928e-09            8.7368e-05           
  -3.5                  -8.7622e-05           -2.2e-13              7.8618e-09            8.7644e-05           
  -3.6                  -8.7914e-05           -2e-14                1.2882e-08            8.7916e-05           
END_DB

BEGIN_DB
 ICCAP_VAR vg         -2.872         
 ICCAP_VAR vb         -0             
 ICCAP_VAR vs         -0             

 #vd                    id                    ig                    ib                    is                   
  -0                    1.0502e-08            -4.8e-13              -6e-14                -1.0196e-08          
  -0.1                  -1.6022e-05           -2.8e-13              0                     1.604e-05            
  -0.2                  -3.1204e-05           -3.2e-13              -6e-14                3.1212e-05           
  -0.3                  -4.5374e-05           -3e-13                -1e-13                4.5374e-05           
  -0.4                  -5.8432e-05           -3.2e-13              0                     5.8432e-05           
  -0.5                  -7.0374e-05           -4.2e-13              -1.2e-13              7.0386e-05           
  -0.6                  -8.1158e-05           -3.2e-13              -2e-14                8.1176e-05           
  -0.7                  -9.0754e-05           -4e-13                -6e-14                9.0784e-05           
  -0.8                  -9.9262e-05           -3.2e-13              -8e-14                9.929e-05            
  -0.9                  -0.000106684          -1.8e-13              -8e-14                0.0001067            
  -1                    -0.000113116          -3.2e-13              -1.2e-13              0.000113202          
  -1.1                  -0.00011852           -1.4e-13              -1e-13                0.0001189            
  -1.2                  -0.00012324           -2.2e-13              -6e-14                0.0001236            
  -1.3                  -0.00012724           -2.4e-13              8e-14                 0.0001276            
  -1.4                  -0.0001306            -3.2e-13              -6e-14                0.00013096           
  -1.5                  -0.00013344           -2.4e-13              -1.4e-13              0.00013376           
  -1.6                  -0.0001358            -2.4e-13              -2e-14                0.00013616           
  -1.7                  -0.00013786           -2.2e-13              -8e-14                0.00013822           
  -1.8                  -0.00013956           -1.2e-13              6e-14                 0.0001399            
  -1.9                  -0.000141             -3.2e-13              -2e-14                0.00014138           
  -2                    -0.00014228           -2.6e-13              -2e-14                0.00014264           
  -2.1                  -0.0001434            -3e-13                -1.2e-13              0.00014378           
  -2.2                  -0.00014428           -2.4e-13              -1.2e-13              0.00014464           
  -2.3                  -0.00014514           -2.2e-13              1.2e-13               0.00014552           
  -2.4                  -0.00014602           -2.2e-13              3.6e-13               0.00014644           
  -2.5                  -0.0001468            -2.8e-13              9e-13                 0.00014712           
  -2.6                  -0.00014738           -2.6e-13              2.58e-12              0.0001478            
  -2.7                  -0.00014804           -2.2e-13              6.54e-12              0.00014846           
  -2.8                  -0.00014858           -2.8e-13              1.592e-11             0.00014896           
  -2.9                  -0.00014914           -2.6e-13              3.596e-11             0.0001495            
  -3                    -0.00014964           -2.8e-13              7.678e-11             0.00015008           
  -3.1                  -0.00015018           -2.4e-13              1.564e-10             0.00015056           
  -3.2                  -0.00015068           -2.8e-13              3.0682e-10            0.00015102           
  -3.3                  -0.00015114           -2.8e-13              5.809e-10             0.00015152           
  -3.4                  -0.00015156           -2.8e-13              1.06556e-09           0.00015188           
  -3.5                  -0.000152             -2e-13                1.9108e-09            0.00015238           
  -3.6                  -0.00015236           -3.2e-13              3.3402e-09            0.00015276           
END_DB

BEGIN_DB
 ICCAP_VAR vg         -3.6           
 ICCAP_VAR vb         -0             
 ICCAP_VAR vs         -0             

 #vd                    id                    ig                    ib                    is                   
  -0                    1.2276e-08            -4e-13                -1.2e-13              -1.1672e-08          
  -0.1                  -1.8744e-05           -3.2e-13              -1.8e-13              1.8758e-05           
  -0.2                  -3.6788e-05           -3.6e-13              -2e-14                3.6788e-05           
  -0.3                  -5.3914e-05           -3.8e-13              0                     5.3952e-05           
  -0.4                  -7.0074e-05           -4e-13                0                     7.008e-05            
  -0.5                  -8.526e-05            -3.6e-13              -6e-14                8.525e-05            
  -0.6                  -9.9266e-05           -3.4e-13              -6e-14                9.9294e-05           
  -0.7                  -0.000112236          -2e-13                4e-14                 0.000112268          
  -0.8                  -0.00012394           -3e-13                -2e-14                0.00012432           
