! VERSION = 6.00
BEGIN_HEADER
 ICCAP_INPUTS
  vd         V  D GROUND SMU1 0.1 LIN        1    -0         -3.6       37   -0.1      
  vg         V  G GROUND SMU2 0.001 LIST       2 3 -1.626 -1.826 -2.026
  vb         V  B GROUND SMU4 0.1 CON        3.6
  vs         V  S GROUND SMU3 0.1 CON        -0
 ICCAP_OUTPUTS
  id         I  D GROUND SMU1 B
  ig         I  G GROUND SMU2 B
  ib         I  B GROUND SMU4 B
  is         I  S GROUND SMU3 B
 ICCAP_VALUES
  MASTER_SETUP_TYPE "~dc_idvd~"
  LINVT_VALUE ""
  LISTVT_VALUE "|idvg|100.0n|-200.0m|1.000m|3|200.0m|200.0m|"
  TYPE "-1"
  TEMP "-40.0000 "
  IS_TNOM " 0.00000 "
  MAIN.W "600.0n"
  MAIN.L "500.0n"
  MAIN.AD "204.0f"
  MAIN.AS "204.0f"
  MAIN.PD "1.880u"
  MAIN.PS "1.880u"
  MAIN.NF "1.000"
  MAIN.M "1"
  MAIN.NRD "0.000"
  MAIN.NRS "0.000"
  MAIN.LDRIFT1 "1E-06"
  MAIN.LDRIFT2 "1E-06"
  MAIN.SA "0.000"
  MAIN.SB "0.000"
  MAIN.SD "0.000"
  MAIN.SCA "0.000"
  MAIN.SCB "0.000"
  MAIN.SCC "0.000"
  MAIN.SC "0.000"
  MODULE "S564"
  PIN_D "16"
  PIN_G "5"
  PIN_S "6"
  PIN_B "15"
  PIN_E ""
  PIN_6 ""
  XY_ID ""
  FUNC "LW Scale"
  STI "SA ref"
  WPE "WPE ref"
  COMMENT ""
  DIS_MEAS ""
  TypeTCI "10"
END_HEADER

BEGIN_DB
 ICCAP_VAR vg         -1.626         
 ICCAP_VAR vb         3.6            
 ICCAP_VAR vs         -0             

 #vd                    id                    ig                    ib                    is                   
  -0                    4.4e-13               -1.6e-13              4.4e-13               -2e-13               
  -0.1                  -1.1506e-10           2e-13                 3.4e-13               1.1538e-10           
  -0.2                  -1.2312e-10           -4e-14                4.2e-13               1.233e-10            
  -0.3                  -1.2894e-10           3.8e-13               3.4e-13               1.2884e-10           
  -0.4                  -1.3424e-10           -1e-13                1.8e-13               1.3424e-10           
  -0.5                  -1.3922e-10           2e-13                 2.2e-13               1.389e-10            
  -0.6                  -1.4354e-10           -3.6e-13              2e-13                 1.4348e-10           
  -0.7                  -1.481e-10            1.8e-13               2e-13                 1.4746e-10           
  -0.8                  -1.5206e-10           3.6e-13               1.8e-13               1.5172e-10           
  -0.9                  -1.5616e-10           1.2e-13               2e-13                 1.5582e-10           
  -1                    -1.6014e-10           -1e-13                6e-14                 1.6002e-10           
  -1.1                  -1.6394e-10           2e-14                 1e-13                 1.638e-10            
  -1.2                  -1.6784e-10           2.4e-13               1.6e-13               1.678e-10            
  -1.3                  -1.7168e-10           3.8e-13               2e-13                 1.711e-10            
  -1.4                  -1.7548e-10           0                     1.2e-13               1.7524e-10           
  -1.5                  -1.7962e-10           1.2e-13               6e-14                 1.791e-10            
  -1.6                  -1.8326e-10           -2.2e-13              1.8e-13               1.8294e-10           
  -1.7                  -1.872e-10            1.8e-13               4e-14                 1.8678e-10           
  -1.8                  -1.908e-10            -3.2e-13              1.4e-13               1.9018e-10           
  -1.9                  -1.9452e-10           5.2e-13               6e-14                 1.9382e-10           
  -2                    -1.9798e-10           1.4e-13               8e-14                 1.9762e-10           
  -2.1                  -2.0188e-10           5.2e-13               2e-14                 2.0124e-10           
  -2.2                  -2.0602e-10           2.6e-13               1e-13                 2.0496e-10           
  -2.3                  -2.0938e-10           1.8e-13               -2e-14                2.091e-10            
  -2.4                  -2.1338e-10           -6e-14                1.2e-13               2.128e-10            
  -2.5                  -2.1718e-10           4e-14                 2e-14                 2.1668e-10           
  -2.6                  -2.2112e-10           4e-14                 0                     2.2062e-10           
  -2.7                  -2.2506e-10           8e-14                 1e-13                 2.2432e-10           
  -2.8                  -2.288e-10            6e-14                 6e-14                 2.283e-10            
  -2.9                  -2.3276e-10           4e-13                 4e-14                 2.3174e-10           
  -3                    -2.3654e-10           -8e-14                1e-13                 2.363e-10            
  -3.1                  -2.4088e-10           2.4e-13               1e-13                 2.4012e-10           
  -3.2                  -2.449e-10            -1e-13                2.4e-13               2.4402e-10           
  -3.3                  -2.4908e-10           8e-14                 3.4e-13               2.4798e-10           
  -3.4                  -2.5352e-10           -1.8e-13              5.4e-13               2.5214e-10           
  -3.5                  -2.5776e-10           -1.4e-13              8.2e-13               2.5622e-10           
  -3.6                  -2.6262e-10           2.2e-13               1.14e-12              2.61e-10             
END_DB

BEGIN_DB
 ICCAP_VAR vg         -1.826         
 ICCAP_VAR vb         3.6            
 ICCAP_VAR vs         -0             

 #vd                    id                    ig                    ib                    is                   
  -0                    8.678e-11             1.2e-13               -1.2e-13              -9.348e-11           
  -0.1                  -8.1878e-08           4e-14                 -4e-14                8.193e-08            
  -0.2                  -9.0804e-08           8e-14                 4e-14                 9.0884e-08           
  -0.3                  -9.5194e-08           -2.6e-13              1.4e-13               9.5198e-08           
  -0.4                  -9.8504e-08           -6e-13                1.2e-13               9.8476e-08           
  -0.5                  -1.0124e-07           3e-13                 6e-14                 1.01316e-07          
  -0.6                  -1.0366e-07           -4e-13                6e-14                 1.03804e-07          
  -0.7                  -1.059e-07            -4e-13                -4e-14                1.0607e-07           
  -0.8                  -1.0796e-07           2.2e-13               0                     1.08094e-07          
  -0.9                  -1.1008e-07           -1.2e-13              -2e-14                1.10216e-07          
  -1                    -1.1198e-07           -1e-13                2e-14                 1.12134e-07          
  -1.1                  -1.1392e-07           -1e-13                6e-14                 1.13948e-07          
  -1.2                  -1.1562e-07           -4e-14                1.4e-13               1.158e-07            
  -1.3                  -1.173e-07            -2e-14                1e-13                 1.1746e-07           
  -1.4                  -1.1902e-07           -4e-14                1.6e-13               1.192e-07            
  -1.5                  -1.2074e-07           2e-14                 1.2e-13               1.2094e-07           
  -1.6                  -1.2246e-07           -4e-14                4e-14                 1.2272e-07           
  -1.7                  -1.2406e-07           -1e-13                2e-14                 1.2434e-07           
  -1.8                  -1.2584e-07           1.2e-13               -8e-14                1.2594e-07           
  -1.9                  -1.274e-07            -2e-13                1e-13                 1.276e-07            
  -2                    -1.2902e-07           -2e-13                -1e-13                1.2918e-07           
  -2.1                  -1.3062e-07           -1.6e-13              2e-14                 1.3082e-07           
  -2.2                  -1.3236e-07           1.4e-13               1.8e-13               1.3244e-07           
  -2.3                  -1.3388e-07           2.8e-13               2e-13                 1.3402e-07           
  -2.4                  -1.3548e-07           0                     3.8e-13               1.3564e-07           
  -2.5                  -1.3714e-07           4e-14                 6e-13                 1.3712e-07           
  -2.6                  -1.388e-07            1.6e-13               1.22e-12              1.3894e-07           
  -2.7                  -1.4036e-07           2.6e-13               2.42e-12              1.4062e-07           
  -2.8                  -1.4202e-07           -1e-13                4.8e-12               1.4212e-07           
  -2.9                  -1.4346e-07           2e-14                 8.7e-12               1.4364e-07           
  -3                    -1.4516e-07           1.2e-13               1.578e-11             1.4528e-07           
  -3.1                  -1.4664e-07           -1.8e-13              2.78e-11              1.4672e-07           
  -3.2                  -1.4826e-07           -3.8e-13              4.786e-11             1.485e-07            
  -3.3                  -1.5006e-07           -2.8e-13              8.066e-11             1.501e-07            
  -3.4                  -1.5172e-07           1.2e-13               1.3292e-10            1.5178e-07           
  -3.5                  -1.534e-07            -1.4e-13              2.148e-10             1.5338e-07           
  -3.6                  -1.5514e-07           4.8e-13               3.4104e-10            1.5502e-07           
END_DB

BEGIN_DB
 ICCAP_VAR vg         -2.026         
 ICCAP_VAR vb         3.6            
 ICCAP_VAR vs         -0             

 #vd                    id                    ig                    ib                    is                   
  -0                    4.5752e-10            4e-14                 -8e-14                -4.6238e-10          
  -0.1                  -9.73e-07             1.8e-13               0                     9.7342e-07           
  -0.2                  -1.3708e-06           -8e-14                0                     1.3746e-06           
  -0.3                  -1.5078e-06           2.2e-13               6e-14                 1.5118e-06           
  -0.4                  -1.5702e-06           -3.6e-13              0                     1.5738e-06           
  -0.5                  -1.6104e-06           2.6e-13               6e-14                 1.6138e-06           
  -0.6                  -1.6416e-06           1.8e-13               4e-14                 1.645e-06            
  -0.7                  -1.6658e-06           -2e-13                0                     1.6688e-06           
  -0.8                  -1.6872e-06           -6e-14                0                     1.6908e-06           
  -0.9                  -1.707e-06            -3e-13                -2e-14                1.7106e-06           
  -1                    -1.725e-06            4.2e-13               1e-13                 1.729e-06            
  -1.1                  -1.7422e-06           1e-13                 8e-14                 1.746e-06            
  -1.2                  -1.7586e-06           1.8e-13               2e-14                 1.7624e-06           
  -1.3                  -1.7744e-06           -1.2e-13              2e-14                 1.7778e-06           
  -1.4                  -1.789e-06            -3.4e-13              1e-13                 1.7928e-06           
  -1.5                  -1.8042e-06           3e-13                 2e-14                 1.807e-06            
  -1.6                  -1.8182e-06           6e-14                 6e-14                 1.8218e-06           
  -1.7                  -1.8322e-06           -8e-14                8e-14                 1.8354e-06           
  -1.8                  -1.845e-06            1.4e-13               2e-14                 1.8482e-06           
  -1.9                  -1.8586e-06           2.4e-13               6e-14                 1.8616e-06           
  -2                    -1.8718e-06           -1.6e-13              6e-14                 1.8756e-06           
  -2.1                  -1.8848e-06           6e-14                 6e-14                 1.8882e-06           
  -2.2                  -1.8976e-06           4e-14                 2.2e-13               1.9006e-06           
  -2.3                  -1.91e-06             8e-14                 4.8e-13               1.9132e-06           
  -2.4                  -1.923e-06            3.6e-13               1.1e-12               1.9262e-06           
  -2.5                  -1.9344e-06           2e-14                 2.36e-12              1.9384e-06           
  -2.6                  -1.9468e-06           1.2e-13               5.3e-12               1.9502e-06           
  -2.7                  -1.9592e-06           -2e-14                1.104e-11             1.9626e-06           
  -2.8                  -1.971e-06            -1.4e-13              2.236e-11             1.9746e-06           
  -2.9                  -1.9832e-06           3.8e-13               4.344e-11             1.9864e-06           
  -3                    -1.9944e-06           6e-14                 8.194e-11             1.9982e-06           
  -3.1                  -2.0064e-06           1.6e-13               1.4986e-10            2.01e-06             
  -3.2                  -2.0192e-06           6e-14                 2.6718e-10            2.022e-06            
  -3.3                  -2.0312e-06           4.2e-13               4.6542e-10            2.0336e-06           
  -3.4                  -2.0428e-06           -2e-13                7.952e-10             2.046e-06            
  -3.5                  -2.0548e-06           -6e-14                1.3248e-09            2.055e-06            
  -3.6                  -2.0648e-06           6e-14                 2.1644e-09            2.0674e-06           
END_DB

