! VERSION = 6.00
BEGIN_HEADER
 ICCAP_INPUTS
  vg         V  G GROUND SMU2 0.001 LIN        1    0.5        -3.6       83   -0.05     
  vb         V  B GROUND SMU4 0.1 LIN        2    0          3.6        5    0.9       
  vd         V  D GROUND SMU1 0.1 LIN        3    -0.1       -3.3       3    -1.6      
  vs         V  S GROUND SMU3 0.1 CON        -0
 ICCAP_OUTPUTS
  id         I  D GROUND SMU1 B
  ig         I  G GROUND SMU2 B
  ib         I  B GROUND SMU4 B
  is         I  S GROUND SMU3 B
 ICCAP_VALUES
  MASTER_SETUP_TYPE "~dc_idvg~"
  LINVT_VALUE ""
  LISTVT_VALUE ""
  TYPE "-1"
  TEMP " 27.0000 "
  IS_TNOM " 1.00000 "
  MAIN.W "10.00u"
  MAIN.L "300.0n"
  MAIN.AD "3.400p"
  MAIN.AS "3.400p"
  MAIN.PD "20.68u"
  MAIN.PS "20.68u"
  MAIN.NF "1.000"
  MAIN.M "1"
  MAIN.NRD "0.000"
  MAIN.NRS "0.000"
  MAIN.LDRIFT1 "1E-06"
  MAIN.LDRIFT2 "1E-06"
  MAIN.SA "0.000"
  MAIN.SB "0.000"
  MAIN.SD "0.000"
  MAIN.SCA "0.000"
  MAIN.SCB "0.000"
  MAIN.SCC "0.000"
  MAIN.SC "0.000"
  MODULE "S561"
  PIN_D "20"
  PIN_G "1"
  PIN_S "2"
  PIN_B "19"
  PIN_E ""
  PIN_6 ""
  XY_ID ""
  FUNC "Additional"
  STI "SA ref"
  WPE "WPE ref"
  COMMENT ""
  DIS_MEAS ""
  TypeTCI "10"
END_HEADER

BEGIN_DB
 ICCAP_VAR vb         0              
 ICCAP_VAR vd         -0.1           
 ICCAP_VAR vs         -0             

 #vg                    id                    ig                    ib                    is                   
  0.5                   0                     1.824e-11             -4.1e-12              2e-13                
  0.45                  -2e-14                2.94e-12              -6.6e-13              2e-13                
  0.4                   8e-14                 6e-13                 -2e-14                1.6e-13              
  0.35                  0                     6e-14                 2e-14                 2.2e-13              
  0.3                   2e-14                 0                     6e-14                 2.8e-13              
  0.25                  0                     -4e-14                0                     1.6e-13              
  0.2                   -2e-14                -1.6e-13              2e-14                 2.2e-13              
  0.15                  4e-14                 -2e-13                -6e-14                3.4e-13              
  0.1                   -1.2e-13              -2.6e-13              2e-14                 3.4e-13              
  0.05                  -4.6e-13              -3e-13                -4e-14                8.8e-13              
  0                     -1.82e-12             -4.2e-13              -2e-14                2e-12                
  -0.05                 -6.22e-12             -3.4e-13              2e-14                 6.36e-12             
  -0.1                  -2.084e-11            -3.6e-13              0                     2.108e-11            
  -0.15                 -7.196e-11            -4e-13                -4e-14                7.196e-11            
  -0.2                  -2.477e-10            -3.8e-13              1e-13                 2.479e-10            
  -0.25                 -8.5966e-10           -3.2e-13              0                     8.5988e-10           
  -0.3                  -2.99e-09             -3.8e-13              -1e-13                2.9906e-09           
  -0.35                 -1.04358e-08          -3e-13                2e-14                 1.04388e-08          
  -0.4                  -3.603e-08            -3.4e-13              0                     3.6076e-08           
  -0.45                 -1.217e-07            -3.2e-13              0                     1.2186e-07           
  -0.5                  -3.9166e-07           -3.8e-13              2e-14                 3.9204e-07           
  -0.55                 -1.1554e-06           -3e-13                0                     1.158e-06            
  -0.6                  -2.9552e-06           -3.8e-13              -4e-14                2.9574e-06           
  -0.65                 -6.3922e-06           -5.2e-13              2e-14                 6.385e-06            
  -0.7                  -1.1726e-05           -2.8e-13              0                     1.1742e-05           
  -0.75                 -1.878e-05            -5e-13                -4e-14                1.8786e-05           
  -0.8                  -2.6896e-05           -3.8e-13              -4e-14                2.6912e-05           
  -0.85                 -3.5582e-05           -4.8e-13              0                     3.5586e-05           
  -0.9                  -4.4338e-05           -5.4e-13              -1e-13                4.4336e-05           
  -0.95                 -5.3008e-05           -5.6e-13              2e-14                 5.3048e-05           
  -1                    -6.1442e-05           -5.4e-13              -8e-14                6.1452e-05           
  -1.05                 -6.963e-05            -4.8e-13              0                     6.965e-05            
  -1.1                  -7.7516e-05           -4.8e-13              -2e-14                7.7532e-05           
  -1.15                 -8.5148e-05           -6.4e-13              -6e-14                8.5148e-05           
  -1.2                  -9.2456e-05           -5.8e-13              -6e-14                9.2476e-05           
  -1.25                 -9.956e-05            -6e-13                -8e-14                9.958e-05            
  -1.3                  -0.000106438          -6.2e-13              0                     0.000106462          
  -1.35                 -0.000113064          -5.6e-13              0                     0.000113086          
  -1.4                  -0.00011932           -5e-13                0                     0.0001197            
  -1.45                 -0.00012556           -6e-13                -1.2e-13              0.00012592           
  -1.5                  -0.00013162           -6.2e-13              -8e-14                0.000132             
  -1.55                 -0.0001375            -6e-13                4e-14                 0.00013786           
  -1.6                  -0.00014322           -6.4e-13              -6e-14                0.00014358           
  -1.65                 -0.00014878           -5.4e-13              -4e-14                0.00014916           
  -1.7                  -0.0001542            -6.4e-13              0                     0.00015456           
  -1.75                 -0.00015948           -6.2e-13              -1.2e-13              0.00015984           
  -1.8                  -0.0001646            -7.6e-13              -6e-14                0.00016498           
  -1.85                 -0.00016962           -6.6e-13              -8e-14                0.00016996           
  -1.9                  -0.0001745            -6.2e-13              2e-14                 0.00017486           
  -1.95                 -0.00017928           -6.4e-13              -2e-14                0.00017964           
  -2                    -0.00018392           -7e-13                -8e-14                0.00018426           
  -2.05                 -0.00018844           -6.8e-13              2e-14                 0.0001888            
  -2.1                  -0.00019286           -6.6e-13              0                     0.00019324           
  -2.15                 -0.0001972            -7e-13                -2e-14                0.00019756           
  -2.2                  -0.00020142           -7.8e-13              -1e-13                0.00020178           
  -2.25                 -0.00020556           -7.2e-13              -4e-14                0.00020594           
  -2.3                  -0.00020962           -6.6e-13              -1.4e-13              0.00020998           
  -2.35                 -0.00021358           -6.6e-13              -1e-13                0.00021394           
  -2.4                  -0.00021744           -7.2e-13              -2.4e-13              0.00021782           
  -2.45                 -0.00022124           -7.4e-13              2e-14                 0.00022158           
  -2.5                  -0.00022494           -6.6e-13              -1e-13                0.0002253            
  -2.55                 -0.00022856           -7.4e-13              2e-14                 0.00022892           
  -2.6                  -0.00023212           -7.8e-13              -8e-14                0.00023248           
  -2.65                 -0.0002356            -7.6e-13              -6e-14                0.00023598           
  -2.7                  -0.000239             -8.2e-13              -6e-14                0.00023936           
  -2.75                 -0.00024236           -7.2e-13              -6e-14                0.0002427            
  -2.8                  -0.00024562           -7.8e-13              -6e-14                0.00024598           
  -2.85                 -0.00024886           -8.2e-13              0                     0.00024922           
  -2.9                  -0.00025198           -8.2e-13              -1.2e-13              0.00025236           
  -2.95                 -0.00025508           -7.8e-13              -4e-14                0.00025542           
  -3                    -0.0002581            -7.8e-13              -1.8e-13              0.00025846           
  -3.05                 -0.00026106           -8e-13                4e-14                 0.00026144           
  -3.1                  -0.00026394           -8.2e-13              -2e-14                0.00026428           
  -3.15                 -0.00026682           -7.8e-13              -8e-14                0.00026718           
  -3.2                  -0.0002696            -7.8e-13              -6e-14                0.00026998           
  -3.25                 -0.00027236           -8e-13                -1.2e-13              0.00027274           
  -3.3                  -0.00027506           -8e-13                -6e-14                0.00027542           
  -3.35                 -0.0002777            -7.8e-13              -1.4e-13              0.00027806           
  -3.4                  -0.00028028           -8.4e-13              -2e-13                0.00028064           
  -3.45                 -0.00028282           -8.2e-13              -1.2e-13              0.00028316           
  -3.5                  -0.0002853            -8e-13                -1.2e-13              0.00028566           
  -3.55                 -0.00028776           -8.8e-13              -8e-14                0.00028812           
  -3.6                  -0.00029014           -7.6e-13              -8e-14                0.0002905            
END_DB

BEGIN_DB
 ICCAP_VAR vb         0.9            
 ICCAP_VAR vd         -0.1           
 ICCAP_VAR vs         -0             

 #vg                    id                    ig                    ib                    is                   
  0.5                   1.6e-13               7.2e-13               4.8e-13               1.2e-13              
  0.45                  6e-14                 4.2e-13               4.2e-13               2.2e-13              
  0.4                   4e-14                 2.8e-13               2.8e-13               1.6e-13              
  0.35                  1.2e-13               1.2e-13               3.4e-13               1.8e-13              
  0.3                   2e-14                 1.2e-13               2.8e-13               1e-13                
  0.25                  1.8e-13               -2e-14                3e-13                 2e-13                
  0.2                   4e-14                 0                     2.4e-13               2.6e-13              
  0.15                  8e-14                 -8e-14                1e-13                 1.4e-13              
  0.1                   0                     -4e-14                1.4e-13               2.4e-13              
  0.05                  8e-14                 -1.4e-13              2e-13                 8e-14                
  0                     6e-14                 -1.2e-13              1.4e-13               1.6e-13              
  -0.05                 1e-13                 -2e-13                2e-13                 1.4e-13              
  -0.1                  4e-14                 -2.4e-13              4e-14                 2e-14                
  -0.15                 -2e-14                -2.6e-13              1.4e-13               1.6e-13              
  -0.2                  -2e-14                -2e-13                1.6e-13               1e-13                
  -0.25                 0                     -3.6e-13              1.2e-13               1.8e-13              
  -0.3                  -2.4e-13              -3.8e-13              8e-14                 3.4e-13              
  -0.35                 -9.8e-13              -2.8e-13              4e-14                 1.12e-12             
  -0.4                  -4e-12                -3.6e-13              1.2e-13               4.24e-12             
  -0.45                 -1.598e-11            -3.2e-13              1e-13                 1.604e-11            
  -0.5                  -6.316e-11            -2.8e-13              6e-14                 6.344e-11            
  -0.55                 -2.5084e-10           -4e-13                4e-14                 2.511e-10            
  -0.6                  -9.871e-10            -4e-13                1e-13                 9.8728e-10           
  -0.65                 -3.853e-09            -3.2e-13              1.4e-13               3.8568e-09           
  -0.7                  -1.482e-08            -3.4e-13              4e-14                 1.4854e-08           
  -0.75                 -5.6e-08              -4.2e-13              1e-13                 5.593e-08            
  -0.8                  -1.9924e-07           -4.2e-13              1.4e-13               1.9944e-07           
  -0.85                 -6.517e-07            -4.6e-13              0                     6.5192e-07           
  -0.9                  -1.8398e-06           -3.4e-13              1e-13                 1.8412e-06           
  -0.95                 -4.392e-06            -4e-13                1e-13                 4.3944e-06           
  -1                    -8.7306e-06           -4.4e-13              -2e-14                8.7354e-06           
  -1.05                 -1.484e-05            -3.6e-13              -4e-14                1.4842e-05           
  -1.1                  -2.2188e-05           -4.2e-13              2e-14                 2.2216e-05           
  -1.15                 -3.0258e-05           -4.6e-13              -2e-14                3.0278e-05           
  -1.2                  -3.8526e-05           -5e-13                -2e-14                3.8526e-05           
  -1.25                 -4.673e-05            -4.4e-13              8e-14                 4.675e-05            
  -1.3                  -5.473e-05            -4.4e-13              8e-14                 5.4748e-05           
  -1.35                 -6.2454e-05           -4e-13                -2e-14                6.2464e-05           
  -1.4                  -6.991e-05            -6e-13                8e-14                 6.9932e-05           
  -1.45                 -7.7076e-05           -6e-13                0                     7.7096e-05           
  -1.5                  -8.4014e-05           -6.2e-13              1e-13                 8.4038e-05           
  -1.55                 -9.0694e-05           -6.8e-13              4e-14                 9.0714e-05           
  -1.6                  -9.7172e-05           -5.6e-13              8e-14                 9.7184e-05           
  -1.65                 -0.000103406          -6e-13                4e-14                 0.000103416          
  -1.7                  -0.000109442          -6.6e-13              0                     0.000109464          
  -1.75                 -0.00011512           -5.6e-13              4e-14                 0.00011548           
  -1.8                  -0.00012078           -6e-13                4e-14                 0.00012116           
  -1.85                 -0.00012632           -5.2e-13              6e-14                 0.00012668           
  -1.9                  -0.0001317            -6.6e-13              -4e-14                0.00013204           
  -1.95                 -0.00013694           -5.4e-13              0                     0.00013728           
  -2                    -0.000142             -6.2e-13              0                     0.00014236           
  -2.05                 -0.00014692           -6.8e-13              4e-14                 0.0001473            
  -2.1                  -0.0001518            -7.4e-13              0                     0.00015214           
  -2.15                 -0.00015646           -7.2e-13              -8e-14                0.0001568            
  -2.2                  -0.00016104           -6.4e-13              -4e-14                0.0001614            
  -2.25                 -0.00016552           -7.6e-13              2e-14                 0.00016588           
  -2.3                  -0.00016992           -7.2e-13              -1.4e-13              0.00017028           
  -2.35                 -0.0001742            -7e-13                4e-14                 0.00017454           
  -2.4                  -0.00017836           -7.2e-13              -1.2e-13              0.00017874           
  -2.45                 -0.00018244           -7.6e-13              -8e-14                0.0001828            
  -2.5                  -0.00018644           -6.8e-13              -8e-14                0.0001868            
  -2.55                 -0.00019032           -7.4e-13              0                     0.00019068           
  -2.6                  -0.00019416           -7e-13                -1e-13                0.00019452           
  -2.65                 -0.00019792           -8.2e-13              -2e-14                0.00019826           
  -2.7                  -0.00020154           -7.6e-13              0                     0.00020192           
  -2.75                 -0.00020512           -6.6e-13              8e-14                 0.0002055            
  -2.8                  -0.00020866           -7e-13                6e-14                 0.00020902           
  -2.85                 -0.00021208           -7.4e-13              -4e-14                0.00021242           
  -2.9                  -0.00021542           -6.4e-13              0                     0.0002158            
  -2.95                 -0.00021872           -7.4e-13              -8e-14                0.00021908           
  -3                    -0.00022196           -8e-13                0                     0.00022234           
  -3.05                 -0.00022516           -7.4e-13              -2e-14                0.0002255            
  -3.1                  -0.00022826           -7.4e-13              0                     0.00022862           
  -3.15                 -0.00023132           -7.2e-13              -8e-14                0.00023166           
  -3.2                  -0.00023426           -7.6e-13              4e-14                 0.00023462           
  -3.25                 -0.0002372            -7.4e-13              -1.4e-13              0.00023756           
  -3.3                  -0.00024006           -8e-13                -2e-14                0.0002404            
  -3.35                 -0.00024284           -8.2e-13              -8e-14                0.00024326           
  -3.4                  -0.00024566           -7.4e-13              -1.4e-13              0.00024598           
  -3.45                 -0.00024832           -8.8e-13              1.4e-13               0.00024868           
