! VERSION = 6.00
BEGIN_HEADER
 ICCAP_INPUTS
  vg         V  G GROUND SMU2 0.001 LIN        1    0.5        -3.6       83   -0.05     
  vb         V  B GROUND SMU4 0.1 LIN        2    0          3.6        5    0.9       
  vd         V  D GROUND SMU1 0.1 LIN        3    -0.1       -3.3       3    -1.6      
  vs         V  S GROUND SMU3 0.1 CON        -0
 ICCAP_OUTPUTS
  id         I  D GROUND SMU1 B
  ig         I  G GROUND SMU2 B
  ib         I  B GROUND SMU4 B
  is         I  S GROUND SMU3 B
 ICCAP_VALUES
  MASTER_SETUP_TYPE "~dc_idvg~"
  LINVT_VALUE ""
  LISTVT_VALUE ""
  TYPE "-1"
  TEMP " 27.0000 "
  IS_TNOM " 1.00000 "
  MAIN.W "2.000u"
  MAIN.L "3.000u"
  MAIN.AD "680.0f"
  MAIN.AS "680.0f"
  MAIN.PD "4.680u"
  MAIN.PS "4.680u"
  MAIN.NF "1.000"
  MAIN.M "1"
  MAIN.NRD "0.000"
  MAIN.NRS "0.000"
  MAIN.LDRIFT1 "1E-06"
  MAIN.LDRIFT2 "1E-06"
  MAIN.SA "0.000"
  MAIN.SB "0.000"
  MAIN.SD "0.000"
  MAIN.SCA "0.000"
  MAIN.SCB "0.000"
  MAIN.SCC "0.000"
  MAIN.SC "0.000"
  MODULE "S563"
  PIN_D "14"
  PIN_G "7"
  PIN_S "8"
  PIN_B "13"
  PIN_E ""
  PIN_6 ""
  XY_ID ""
  FUNC "LW Scale"
  STI "SA ref"
  WPE "WPE ref"
  COMMENT ""
  DIS_MEAS ""
  TypeTCI "10"
END_HEADER

BEGIN_DB
 ICCAP_VAR vb         0              
 ICCAP_VAR vd         -0.1           
 ICCAP_VAR vs         -0             

 #vg                    id                    ig                    ib                    is                   
  0.5                   -1.8e-13              1.834e-11             -4.54e-12             1.8e-13              
  0.45                  -1.6e-13              2.9e-12               -8.4e-13              8e-14                
  0.4                   -4e-14                3.6e-13               -2.4e-13              6e-14                
  0.35                  -8e-14                -1.4e-13              -2.2e-13              8e-14                
  0.3                   0                     -1.8e-13              -1e-13                6e-14                
  0.25                  -4e-14                -3e-13                -2.4e-13              8e-14                
  0.2                   -8e-14                -1.8e-13              -1e-13                0                    
  0.15                  -8e-14                -3.4e-13              -2.8e-13              1.8e-13              
  0.1                   0                     -3.4e-13              -2.8e-13              2e-14                
  0.05                  -8e-14                -3.8e-13              -2.2e-13              -2e-14               
  0                     -4e-14                -3.4e-13              -1.4e-13              1e-13                
  -0.05                 -1.2e-13              -3.6e-13              -1.4e-13              4e-14                
  -0.1                  -6e-14                -5.6e-13              -2.4e-13              2e-13                
  -0.15                 -3.2e-13              -3.8e-13              -1.2e-13              1.2e-13              
  -0.2                  -6.2e-13              -5.8e-13              -1.2e-13              7.6e-13              
  -0.25                 -2.04e-12             -5.4e-13              -2.6e-13              2.1e-12              
  -0.3                  -7.02e-12             -5.6e-13              -2e-13                6.96e-12             
  -0.35                 -2.422e-11            -6.6e-13              -2.2e-13              2.424e-11            
  -0.4                  -8.448e-11            -4e-13                -1.2e-13              8.446e-11            
  -0.45                 -2.9644e-10           -8.4e-13              -2.8e-13              2.9642e-10           
  -0.5                  -1.0386e-09           -6.2e-13              -1.8e-13              1.03832e-09          
  -0.55                 -3.5664e-09           -4.8e-13              -1.4e-13              3.5664e-09           
  -0.6                  -1.13254e-08          -5.2e-13              -2.6e-13              1.13266e-08          
  -0.65                 -3.1384e-08           -6.6e-13              -2.6e-13              3.1408e-08           
  -0.7                  -7.2912e-08           -5.4e-13              -2e-13                7.2902e-08           
  -0.75                 -1.4234e-07           -7.8e-13              -1.6e-13              1.4254e-07           
  -0.8                  -2.3886e-07           -7.6e-13              -2e-13                2.3902e-07           
  -0.85                 -3.5662e-07           -7e-13                -1.8e-13              3.569e-07            
  -0.9                  -4.874e-07            -7e-13                -2e-13                4.8762e-07           
  -0.95                 -6.26e-07             -7.4e-13              -2.4e-13              6.262e-07            
  -1                    -7.6752e-07           -8e-13                -2.2e-13              7.6784e-07           
  -1.05                 -9.1078e-07           -8.2e-13              -2.4e-13              9.1108e-07           
  -1.1                  -1.05348e-06          -5.8e-13              -2.4e-13              1.05372e-06          
  -1.15                 -1.1938e-06           -5.8e-13              -3e-13                1.1976e-06           
  -1.2                  -1.334e-06            -7.4e-13              -1.4e-13              1.3378e-06           
  -1.25                 -1.473e-06            -7.8e-13              -1.4e-13              1.4766e-06           
  -1.3                  -1.61e-06             -8.2e-13              -1.6e-13              1.6136e-06           
  -1.35                 -1.7444e-06           -7e-13                -2e-13                1.748e-06            
  -1.4                  -1.8774e-06           -8.2e-13              -2e-13                1.8812e-06           
  -1.45                 -2.0078e-06           -7.2e-13              -1.8e-13              2.0116e-06           
  -1.5                  -2.1364e-06           -7.4e-13              -1.6e-13              2.1402e-06           
  -1.55                 -2.2626e-06           -8.4e-13              -1.6e-13              2.2664e-06           
  -1.6                  -2.3876e-06           -7.6e-13              -2.2e-13              2.3912e-06           
  -1.65                 -2.5096e-06           -7.6e-13              -1.4e-13              2.5132e-06           
  -1.7                  -2.6298e-06           -9.2e-13              -1.6e-13              2.6336e-06           
  -1.75                 -2.7484e-06           -6.2e-13              -1.4e-13              2.752e-06            
  -1.8                  -2.8648e-06           -9.8e-13              -1.8e-13              2.8684e-06           
  -1.85                 -2.9788e-06           -7.8e-13              -1.6e-13              2.9826e-06           
  -1.9                  -3.0914e-06           -1.04e-12             -2.8e-13              3.0952e-06           
  -1.95                 -3.2024e-06           -9.2e-13              -1.4e-13              3.206e-06            
  -2                    -3.3112e-06           -9.6e-13              -2.4e-13              3.3148e-06           
  -2.05                 -3.418e-06            -8e-13                -3e-13                3.4216e-06           
  -2.1                  -3.5238e-06           -1.02e-12             -1.8e-13              3.5274e-06           
  -2.15                 -3.6276e-06           -8.2e-13              -2.2e-13              3.631e-06            
  -2.2                  -3.7292e-06           -1.14e-12             -1e-13                3.733e-06            
  -2.25                 -3.8292e-06           -9e-13                -2e-13                3.833e-06            
  -2.3                  -3.9286e-06           -8.4e-13              -2e-13                3.932e-06            
  -2.35                 -4.025e-06            -1e-12                -1.8e-13              4.0288e-06           
  -2.4                  -4.1204e-06           -1.02e-12             -2.6e-13              4.124e-06            
  -2.45                 -4.2142e-06           -9.2e-13              -1.4e-13              4.2178e-06           
  -2.5                  -4.3062e-06           -8e-13                -2e-13                4.3096e-06           
  -2.55                 -4.3966e-06           -1.02e-12             -2.4e-13              4.4004e-06           
  -2.6                  -4.4862e-06           -1e-12                -1e-13                4.49e-06             
  -2.65                 -4.5742e-06           -9e-13                -3.6e-13              4.578e-06            
  -2.7                  -4.6602e-06           -9e-13                -2e-13                4.664e-06            
  -2.75                 -4.7454e-06           -8.2e-13              -2e-13                4.7492e-06           
  -2.8                  -4.8292e-06           -8.4e-13              -1.4e-13              4.8328e-06           
  -2.85                 -4.9112e-06           -9.8e-13              -1.8e-13              4.915e-06            
  -2.9                  -4.9926e-06           -1.06e-12             -1.8e-13              4.996e-06            
  -2.95                 -5.072e-06            -6.8e-13              -2.6e-13              5.0754e-06           
  -3                    -5.1502e-06           -1.26e-12             -1.8e-13              5.1538e-06           
  -3.05                 -5.2274e-06           -9.8e-13              -2.8e-13              5.231e-06            
  -3.1                  -5.3028e-06           -9.6e-13              -2e-13                5.3066e-06           
  -3.15                 -5.3778e-06           -1.12e-12             -3e-13                5.3816e-06           
  -3.2                  -5.4506e-06           -9e-13                -2.6e-13              5.4542e-06           
  -3.25                 -5.523e-06            -1.24e-12             -2.4e-13              5.5268e-06           
  -3.3                  -5.5938e-06           -1.02e-12             -2.2e-13              5.5974e-06           
  -3.35                 -5.6644e-06           -1.06e-12             -2.2e-13              5.6676e-06           
  -3.4                  -5.7324e-06           -1.06e-12             -1.4e-13              5.7362e-06           
  -3.45                 -5.7996e-06           -9.2e-13              -2.4e-13              5.8034e-06           
  -3.5                  -5.8658e-06           -1.18e-12             -2.4e-13              5.8698e-06           
  -3.55                 -5.9316e-06           -7.6e-13              -2.2e-13              5.9352e-06           
  -3.6                  -5.9958e-06           -1.22e-12             -1.4e-13              5.9994e-06           
END_DB

BEGIN_DB
 ICCAP_VAR vb         0.9            
 ICCAP_VAR vd         -0.1           
 ICCAP_VAR vs         -0             

 #vg                    id                    ig                    ib                    is                   
  0.5                   8e-14                 7e-13                 4.6e-13               1.2e-13              
  0.45                  4e-14                 6e-13                 3e-13                 1.2e-13              
  0.4                   6e-14                 1.4e-13               2.4e-13               2.2e-13              
  0.35                  4e-14                 3.2e-13               3.6e-13               0                    
  0.3                   4e-14                 1.6e-13               1.6e-13               2e-13                
  0.25                  -6e-14                -6e-14                2.4e-13               8e-14                
  0.2                   8e-14                 4e-14                 2.2e-13               4e-14                
  0.15                  2e-14                 0                     2.2e-13               1e-13                
  0.1                   0                     0                     1.8e-13               4e-14                
  0.05                  2e-14                 -2.8e-13              1.4e-13               1.6e-13              
  0                     -2e-14                -1.6e-13              1e-13                 2e-14                
  -0.05                 4e-14                 -3.4e-13              1.4e-13               8e-14                
  -0.1                  0                     -2.2e-13              1e-13                 0                    
  -0.15                 1.4e-13               -5e-13                2e-13                 1.6e-13              
  -0.2                  6e-14                 -2.2e-13              1e-13                 4e-14                
  -0.25                 2e-14                 -4e-13                1.4e-13               1e-13                
  -0.3                  2e-14                 -5.6e-13              -2e-14                1.8e-13              
  -0.35                 8e-14                 -2.4e-13              2e-14                 6e-14                
  -0.4                  2e-14                 -4.2e-13              6e-14                 2e-13                
  -0.45                 0                     -4e-13                1e-13                 1.2e-13              
  -0.5                  -2e-14                -5e-13                8e-14                 1.4e-13              
  -0.55                 0                     -3.4e-13              2e-14                 2e-13                
  -0.6                  -3.6e-13              -6.2e-13              4e-14                 2.8e-13              
  -0.65                 -1.24e-12             -3.6e-13              4e-14                 1.42e-12             
  -0.7                  -5.3e-12              -4.4e-13              -6e-14                5.42e-12             
  -0.75                 -2.146e-11            -5.4e-13              6e-14                 2.146e-11            
  -0.8                  -8.632e-11            -6.2e-13              -4e-14                8.644e-11            
  -0.85                 -3.4734e-10           -4.6e-13              -2e-14                3.4736e-10           
  -0.9                  -1.3638e-09           -5e-13                0                     1.365e-09            
  -0.95                 -5.0648e-09           -4.8e-13              -4e-14                5.066e-09            
  -1                    -1.6348e-08           -4.8e-13              2e-14                 1.6366e-08           
  -1.05                 -4.3464e-08           -4.4e-13              0                     4.3484e-08           
  -1.1                  -9.3584e-08           -5.8e-13              4e-14                 9.3582e-08           
  -1.15                 -1.6862e-07           -5.2e-13              -4e-14                1.6874e-07           
  -1.2                  -2.6368e-07           -7.4e-13              2e-14                 2.639e-07            
  -1.25                 -3.7276e-07           -4.8e-13              -1e-13                3.73e-07             
  -1.3                  -4.8984e-07           -8e-13                2e-14                 4.9004e-07           
  -1.35                 -6.1044e-07           -5.6e-13              -2e-14                6.1074e-07           
  -1.4                  -7.3362e-07           -8.2e-13              -8e-14                7.3384e-07           
  -1.45                 -8.5686e-07           -6.2e-13              -2e-14                8.5716e-07           
  -1.5                  -9.8018e-07           -8.4e-13              -2e-14                9.8048e-07           
  -1.55                 -1.10208e-06          -6.6e-13              -2e-14                1.10244e-06          
  -1.6                  -1.2224e-06           -6e-13                -6e-14                1.226e-06            
  -1.65                 -1.3422e-06           -8.8e-13              8e-14                 1.3456e-06           
  -1.7                  -1.4604e-06           -6.6e-13              -8e-14                1.464e-06            
  -1.75                 -1.5776e-06           -9.8e-13              -2e-14                1.5814e-06           
  -1.8                  -1.6932e-06           -6.4e-13              -2e-14                1.6968e-06           
  -1.85                 -1.807e-06            -8e-13                -6e-14                1.8108e-06           
  -1.9                  -1.9194e-06           -8.4e-13              0                     1.923e-06            
  -1.95                 -2.0304e-06           -7.2e-13              -2e-14                2.034e-06            
  -2                    -2.1392e-06           -9e-13                0                     2.143e-06            
  -2.05                 -2.2468e-06           -8.6e-13              4e-14                 2.2504e-06           
  -2.1                  -2.3532e-06           -7.2e-13              -8e-14                2.3568e-06           
  -2.15                 -2.4574e-06           -9.6e-13              4e-14                 2.461e-06            
  -2.2                  -2.56e-06             -6.4e-13              -8e-14                2.5636e-06           
  -2.25                 -2.661e-06            -9e-13                -4e-14                2.6646e-06           
  -2.3                  -2.761e-06            -5.8e-13              6e-14                 2.7646e-06           
  -2.35                 -2.8588e-06           -8.4e-13              -8e-14                2.8624e-06           
  -2.4                  -2.9556e-06           -8.2e-13              2e-14                 2.9592e-06           
  -2.45                 -3.0506e-06           -8.2e-13              6e-14                 3.0544e-06           
  -2.5                  -3.1446e-06           -1.02e-12             -6e-14                3.1484e-06           
  -2.55                 -3.2368e-06           -1.06e-12             6e-14                 3.2406e-06           
  -2.6                  -3.3284e-06           -8.4e-13              -1.4e-13              3.3318e-06           
  -2.65                 -3.4182e-06           -9.6e-13              0                     3.422e-06            
  -2.7                  -3.5064e-06           -8.6e-13              -1.2e-13              3.5098e-06           
  -2.75                 -3.5932e-06           -1.02e-12             -4e-14                3.5968e-06           
  -2.8                  -3.6788e-06           -9.4e-13              2e-14                 3.6826e-06           
  -2.85                 -3.7632e-06           -1.08e-12             -8e-14                3.7668e-06           
  -2.9                  -3.8464e-06           -8.6e-13              -2e-14                3.8502e-06           
  -2.95                 -3.9286e-06           -1.14e-12             -2e-14                3.932e-06            
  -3                    -4.009e-06            -9.4e-13              -8e-14                4.0126e-06           
  -3.05                 -4.0888e-06           -1.06e-12             0                     4.092e-06            
  -3.1                  -4.1666e-06           -8.2e-13              -1.8e-13              4.17e-06             
  -3.15                 -4.2434e-06           -9.2e-13              -2e-14                4.2474e-06           
  -3.2                  -4.3194e-06           -7.8e-13              -2e-14                4.323e-06            
  -3.25                 -4.394e-06            -9e-13                0                     4.3976e-06           
  -3.3                  -4.4672e-06           -9e-13                2e-14                 4.471e-06            
  -3.35                 -4.5398e-06           -1.12e-12             -6e-14                4.5432e-06           
  -3.4                  -4.6106e-06           -8e-13                0                     4.6148e-06           
  -3.45                 -4.6808e-06           -1.06e-12             -4e-14                4.6848e-06           
