! VERSION = 6.00
BEGIN_HEADER
 ICCAP_INPUTS
  vg         V  G GROUND SMU2 0.001 LIN        1    0.5        -3.6       83   -0.05     
  vb         V  B GROUND SMU4 0.1 LIN        2    0          3.6        5    0.9       
  vd         V  D GROUND SMU1 0.1 LIN        3    -0.1       -3.3       3    -1.6      
  vs         V  S GROUND SMU3 0.1 CON        -0
 ICCAP_OUTPUTS
  id         I  D GROUND SMU1 B
  ig         I  G GROUND SMU2 B
  ib         I  B GROUND SMU4 B
  is         I  S GROUND SMU3 B
 ICCAP_VALUES
  MASTER_SETUP_TYPE "~dc_idvg~"
  LINVT_VALUE ""
  LISTVT_VALUE ""
  TYPE "-1"
  TEMP " 27.0000 "
  IS_TNOM " 1.00000 "
  MAIN.W "5.000u"
  MAIN.L "5.000u"
  MAIN.AD "1.700p"
  MAIN.AS "1.700p"
  MAIN.PD "10.68u"
  MAIN.PS "10.68u"
  MAIN.NF "1.000"
  MAIN.M "1"
  MAIN.NRD "0.000"
  MAIN.NRS "0.000"
  MAIN.LDRIFT1 "1E-06"
  MAIN.LDRIFT2 "1E-06"
  MAIN.SA "0.000"
  MAIN.SB "0.000"
  MAIN.SD "0.000"
  MAIN.SCA "0.000"
  MAIN.SCB "0.000"
  MAIN.SCC "0.000"
  MAIN.SC "0.000"
  MODULE "S562"
  PIN_D "12"
  PIN_G "9"
  PIN_S "10"
  PIN_B "11"
  PIN_E ""
  PIN_6 ""
  XY_ID ""
  FUNC "LW Scale"
  STI "SA ref"
  WPE "WPE ref"
  COMMENT ""
  DIS_MEAS ""
  TypeTCI "10"
END_HEADER

BEGIN_DB
 ICCAP_VAR vb         0              
 ICCAP_VAR vd         -0.1           
 ICCAP_VAR vs         -0             

 #vg                    id                    ig                    ib                    is                   
  0.5                   -2e-14                1.884e-11             -4.88e-12             1.2e-13              
  0.45                  0                     3e-12                 -7.8e-13              8e-14                
  0.4                   -4e-14                5.4e-13               -1.6e-13              1.6e-13              
  0.35                  6e-14                 1e-13                 6e-14                 4e-14                
  0.3                   0                     2e-14                 1.4e-13               -4e-14               
  0.25                  0                     -2e-13                2e-14                 2e-13                
  0.2                   -2e-14                -1.4e-13              1.4e-13               4e-14                
  0.15                  4e-14                 -2e-13                8e-14                 2.6e-13              
  0.1                   -6e-14                -2.8e-13              0                     2.2e-13              
  0.05                  4e-14                 -2.6e-13              1.6e-13               4e-14                
  0                     1.6e-13               -2.8e-13              0                     2.8e-13              
  -0.05                 -6e-14                -2.6e-13              0                     2.2e-13              
  -0.1                  2e-14                 -3.6e-13              1.2e-13               2.2e-13              
  -0.15                 -3.4e-13              -3.8e-13              4e-14                 4.4e-13              
  -0.2                  -7.4e-13              -3.4e-13              8e-14                 9.6e-13              
  -0.25                 -2.76e-12             -3.4e-13              -4e-14                3.04e-12             
  -0.3                  -9.5e-12              -4.8e-13              -2e-14                9.52e-12             
  -0.35                 -3.288e-11            -4.6e-13              6e-14                 3.312e-11            
  -0.4                  -1.1474e-10           -4.6e-13              -8e-14                1.1476e-10           
  -0.45                 -4.0314e-10           -3.6e-13              8e-14                 4.0302e-10           
  -0.5                  -1.4126e-09           -3.6e-13              6e-14                 1.414e-09            
  -0.55                 -4.8688e-09           -4.2e-13              0                     4.8694e-09           
  -0.6                  -1.5568e-08           -4.2e-13              2e-14                 1.5594e-08           
  -0.65                 -4.354e-08            -4.6e-13              2e-14                 4.3566e-08           
  -0.7                  -1.01994e-07          -6e-13                2e-14                 1.0202e-07           
  -0.75                 -2.005e-07            -4.8e-13              0                     2.007e-07            
  -0.8                  -3.3786e-07           -5.2e-13              1e-13                 3.3808e-07           
  -0.85                 -5.0594e-07           -5.4e-13              0                     5.0614e-07           
  -0.9                  -6.9272e-07           -5.4e-13              0                     6.9296e-07           
  -0.95                 -8.9096e-07           -6e-13                1.8e-13               8.9122e-07           
  -1                    -1.09372e-06          -5.8e-13              -4e-14                1.09406e-06          
  -1.05                 -1.2976e-06           -4.8e-13              8e-14                 1.3012e-06           
  -1.1                  -1.5022e-06           -6.6e-13              4e-14                 1.506e-06            
  -1.15                 -1.7064e-06           -5e-13                2e-14                 1.7102e-06           
  -1.2                  -1.9078e-06           -6.8e-13              -2e-14                1.9116e-06           
  -1.25                 -2.1076e-06           -6.4e-13              0                     2.1112e-06           
  -1.3                  -2.3044e-06           -6.2e-13              4e-14                 2.308e-06            
  -1.35                 -2.498e-06            -7.8e-13              4e-14                 2.5016e-06           
  -1.4                  -2.6892e-06           -5.8e-13              4e-14                 2.6928e-06           
  -1.45                 -2.8766e-06           -8.2e-13              1.4e-13               2.8804e-06           
  -1.5                  -3.062e-06            -6.8e-13              -4e-14                3.0654e-06           
  -1.55                 -3.2436e-06           -7e-13                -6e-14                3.2472e-06           
  -1.6                  -3.4232e-06           -7e-13                2e-14                 3.4268e-06           
  -1.65                 -3.599e-06            -6.4e-13              2e-14                 3.6028e-06           
  -1.7                  -3.7722e-06           -7.6e-13              2e-14                 3.776e-06            
  -1.75                 -3.9432e-06           -6.8e-13              0                     3.9466e-06           
  -1.8                  -4.1106e-06           -6.8e-13              -2e-14                4.1142e-06           
  -1.85                 -4.2754e-06           -6.8e-13              0                     4.2792e-06           
  -1.9                  -4.4374e-06           -6.8e-13              1.2e-13               4.441e-06            
  -1.95                 -4.5972e-06           -7.6e-13              8e-14                 4.6008e-06           
  -2                    -4.7542e-06           -6.2e-13              1e-13                 4.7578e-06           
  -2.05                 -4.9084e-06           -6.4e-13              2e-14                 4.9122e-06           
  -2.1                  -5.0606e-06           -7.4e-13              2e-14                 5.0642e-06           
  -2.15                 -5.2096e-06           -6.6e-13              0                     5.2132e-06           
  -2.2                  -5.3562e-06           -7.2e-13              -2e-14                5.3602e-06           
  -2.25                 -5.5012e-06           -8e-13                0                     5.5046e-06           
  -2.3                  -5.6436e-06           -9.2e-13              0                     5.6472e-06           
  -2.35                 -5.7832e-06           -7.2e-13              -2e-14                5.7866e-06           
  -2.4                  -5.9208e-06           -8.2e-13              -8e-14                5.9246e-06           
  -2.45                 -6.056e-06            -6.4e-13              -4e-14                6.0598e-06           
  -2.5                  -6.1894e-06           -8e-13                0                     6.193e-06            
  -2.55                 -6.32e-06             -7.2e-13              -6e-14                6.3234e-06           
  -2.6                  -6.449e-06            -8e-13                2e-14                 6.4526e-06           
  -2.65                 -6.576e-06            -7.2e-13              -4e-14                6.5794e-06           
  -2.7                  -6.7004e-06           -8.6e-13              6e-14                 6.7042e-06           
  -2.75                 -6.8236e-06           -7.4e-13              4e-14                 6.8272e-06           
  -2.8                  -6.9446e-06           -7.8e-13              0                     6.9478e-06           
  -2.85                 -7.0626e-06           -7.2e-13              -8e-14                7.0662e-06           
  -2.9                  -7.1798e-06           -8.2e-13              1e-13                 7.1834e-06           
  -2.95                 -7.2942e-06           -6.2e-13              -4e-14                7.298e-06            
  -3                    -7.4078e-06           -8.8e-13              -2e-14                7.4112e-06           
  -3.05                 -7.519e-06            -8.4e-13              4e-14                 7.5228e-06           
  -3.1                  -7.6284e-06           -8.2e-13              -4e-14                7.6322e-06           
  -3.15                 -7.7362e-06           -7.6e-13              1.2e-13               7.7398e-06           
  -3.2                  -7.8422e-06           -8.4e-13              0                     7.8458e-06           
  -3.25                 -7.9462e-06           -8.6e-13              0                     7.9498e-06           
  -3.3                  -8.0488e-06           -7.8e-13              2e-14                 8.0524e-06           
  -3.35                 -8.1502e-06           -9.8e-13              6e-14                 8.1534e-06           
  -3.4                  -8.2494e-06           -7.8e-13              0                     8.253e-06            
  -3.45                 -8.3466e-06           -1e-12                8e-14                 8.3502e-06           
  -3.5                  -8.4428e-06           -7.8e-13              -1e-13                8.4462e-06           
  -3.55                 -8.5374e-06           -9e-13                8e-14                 8.5412e-06           
  -3.6                  -8.6302e-06           -9.8e-13              -6e-14                8.6336e-06           
END_DB

BEGIN_DB
 ICCAP_VAR vb         0.9            
 ICCAP_VAR vd         -0.1           
 ICCAP_VAR vs         -0             

 #vg                    id                    ig                    ib                    is                   
  0.5                   -1.6e-13              6.2e-13               3e-13                 1.4e-13              
  0.45                  0                     4e-13                 3e-13                 -2e-14               
  0.4                   0                     2.6e-13               2.4e-13               1.6e-13              
  0.35                  4e-14                 2.8e-13               2.6e-13               0                    
  0.3                   6e-14                 1.4e-13               2e-13                 1.6e-13              
  0.25                  1e-13                 8e-14                 1.2e-13               8e-14                
  0.2                   2e-14                 0                     1.2e-13               3e-13                
  0.15                  8e-14                 -1e-13                1.6e-13               1.4e-13              
  0.1                   0                     -6e-14                1.6e-13               1.6e-13              
  0.05                  4e-14                 -8e-14                2.2e-13               2e-13                
  0                     0                     -6e-14                1.4e-13               1.2e-13              
  -0.05                 -4e-14                -1e-13                1.4e-13               8e-14                
  -0.1                  1.4e-13               -1.8e-13              1.6e-13               1.6e-13              
  -0.15                 -8e-14                -1.6e-13              4e-14                 6e-14                
  -0.2                  8e-14                 -2e-13                1.6e-13               1.8e-13              
  -0.25                 -4e-14                -2.6e-13              8e-14                 2e-14                
  -0.3                  -6e-14                -2.8e-13              1.2e-13               -4e-14               
  -0.35                 0                     -1.6e-13              8e-14                 1.4e-13              
  -0.4                  4e-14                 -2.8e-13              1.2e-13               4e-14                
  -0.45                 2e-14                 -3e-13                2e-14                 3.4e-13              
  -0.5                  -1.6e-13              -3.6e-13              1.6e-13               -2e-14               
  -0.55                 -1.4e-13              -4.2e-13              2e-14                 4e-13                
  -0.6                  -3.6e-13              -4e-13                4e-14                 5e-13                
  -0.65                 -1.86e-12             -4.8e-13              8e-14                 2.04e-12             
  -0.7                  -7.1e-12              -5.2e-13              6e-14                 7.22e-12             
  -0.75                 -2.894e-11            -3.8e-13              -6e-14                2.9e-11              
  -0.8                  -1.1576e-10           -5.2e-13              1.4e-13               1.1584e-10           
  -0.85                 -4.6654e-10           -3e-13                6e-14                 4.6666e-10           
  -0.9                  -1.8394e-09           -4.4e-13              1.4e-13               1.8408e-09           
  -0.95                 -6.8798e-09           -5e-13                4e-14                 6.8804e-09           
  -1                    -2.2432e-08           -3.6e-13              8e-14                 2.2456e-08           
  -1.05                 -6.0302e-08           -4.2e-13              8e-14                 6.0326e-08           
  -1.1                  -1.309e-07            -3.4e-13              8e-14                 1.3106e-07           
  -1.15                 -2.375e-07            -4.8e-13              4e-14                 2.377e-07            
  -1.2                  -3.7286e-07           -4e-13                1.4e-13               3.731e-07            
  -1.25                 -5.283e-07            -4.6e-13              4e-14                 5.2846e-07           
  -1.3                  -6.952e-07            -4e-13                8e-14                 6.9542e-07           
  -1.35                 -8.6756e-07           -4.8e-13              6e-14                 8.6782e-07           
  -1.4                  -1.0436e-06           -5.4e-13              6e-14                 1.04386e-06          
  -1.45                 -1.2182e-06           -6.2e-13              1e-13                 1.222e-06            
  -1.5                  -1.395e-06            -5.2e-13              -1.2e-13              1.3988e-06           
  -1.55                 -1.57e-06             -6.4e-13              1.6e-13               1.5736e-06           
  -1.6                  -1.7446e-06           -5.4e-13              1.4e-13               1.7482e-06           
  -1.65                 -1.9164e-06           -6e-13                2e-14                 1.92e-06             
  -1.7                  -2.0864e-06           -5.8e-13              6e-14                 2.09e-06             
  -1.75                 -2.2546e-06           -6.4e-13              -2e-14                2.2584e-06           
  -1.8                  -2.4202e-06           -5.8e-13              2e-14                 2.424e-06            
  -1.85                 -2.5838e-06           -6.2e-13              4e-14                 2.5874e-06           
  -1.9                  -2.7448e-06           -5.8e-13              6e-14                 2.7486e-06           
  -1.95                 -2.9042e-06           -7.2e-13              -6e-14                2.9078e-06           
  -2                    -3.0606e-06           -7e-13                6e-14                 3.0644e-06           
  -2.05                 -3.2148e-06           -7.4e-13              1e-13                 3.2186e-06           
  -2.1                  -3.3676e-06           -7.6e-13              0                     3.3712e-06           
  -2.15                 -3.5172e-06           -7e-13                6e-14                 3.5208e-06           
  -2.2                  -3.6646e-06           -7e-13                0                     3.6684e-06           
  -2.25                 -3.81e-06             -7.6e-13              1.2e-13               3.8138e-06           
  -2.3                  -3.9538e-06           -7.2e-13              1.4e-13               3.9576e-06           
  -2.35                 -4.0948e-06           -7.4e-13              -4e-14                4.0986e-06           
  -2.4                  -4.2342e-06           -7.6e-13              8e-14                 4.2378e-06           
  -2.45                 -4.3708e-06           -7.2e-13              -2e-14                4.3746e-06           
  -2.5                  -4.506e-06            -7.4e-13              6e-14                 4.5096e-06           
  -2.55                 -4.6388e-06           -7.2e-13              2e-14                 4.6422e-06           
  -2.6                  -4.7698e-06           -6.8e-13              4e-14                 4.7732e-06           
  -2.65                 -4.8988e-06           -5.8e-13              0                     4.9022e-06           
  -2.7                  -5.0254e-06           -6.4e-13              4e-14                 5.0288e-06           
  -2.75                 -5.1508e-06           -8.6e-13              1e-13                 5.1544e-06           
  -2.8                  -5.2742e-06           -7e-13                0                     5.2778e-06           
  -2.85                 -5.3952e-06           -7.2e-13              1.8e-13               5.3988e-06           
  -2.9                  -5.515e-06            -8.2e-13              -4e-14                5.5186e-06           
  -2.95                 -5.6322e-06           -7.6e-13              0                     5.636e-06            
  -3                    -5.7484e-06           -8.6e-13              1e-13                 5.752e-06            
  -3.05                 -5.8626e-06           -8.4e-13              -6e-14                5.8662e-06           
  -3.1                  -5.9748e-06           -8.6e-13              1e-13                 5.9784e-06           
  -3.15                 -6.0858e-06           -7.4e-13              2e-14                 6.0894e-06           
  -3.2                  -6.1946e-06           -9e-13                0                     6.1982e-06           
  -3.25                 -6.302e-06            -7.2e-13              4e-14                 6.3056e-06           
  -3.3                  -6.4076e-06           -9e-13                -4e-14                6.411e-06            
  -3.35                 -6.5118e-06           -7.4e-13              0                     6.5154e-06           
  -3.4                  -6.6144e-06           -8.8e-13              -2e-14                6.6178e-06           
  -3.45                 -6.7154e-06           -7.2e-13              1e-13                 6.7188e-06           
