! VERSION = 6.00
BEGIN_HEADER
 ICCAP_INPUTS
  vd         V  D GROUND SMU1 0.1 LIN        1    -0         -3.6       37   -0.1      
  vg         V  G GROUND SMU2 0.001 LIN        2    -1.632     -3.6       5    -0.492    
  vb         V  B GROUND SMU4 0.1 CON        3.6
  vs         V  S GROUND SMU3 0.1 CON        -0
 ICCAP_OUTPUTS
  id         I  D GROUND SMU1 B
  ig         I  G GROUND SMU2 B
  ib         I  B GROUND SMU4 B
  is         I  S GROUND SMU3 B
 ICCAP_VALUES
  MASTER_SETUP_TYPE "~dc_idvd~"
  LINVT_VALUE "|idvg|100.0n|100.0m|1.000m|5|3.600|"
  LISTVT_VALUE ""
  TYPE "-1"
  TEMP " 27.0000 "
  IS_TNOM " 1.00000 "
  MAIN.W "5.000u"
  MAIN.L "330.0n"
  MAIN.AD "1.700p"
  MAIN.AS "1.700p"
  MAIN.PD "10.68u"
  MAIN.PS "10.68u"
  MAIN.NF "1.000"
  MAIN.M "1"
  MAIN.NRD "0.000"
  MAIN.NRS "0.000"
  MAIN.LDRIFT1 "1E-06"
  MAIN.LDRIFT2 "1E-06"
  MAIN.SA "0.000"
  MAIN.SB "0.000"
  MAIN.SD "0.000"
  MAIN.SCA "0.000"
  MAIN.SCB "0.000"
  MAIN.SCC "0.000"
  MAIN.SC "0.000"
  MODULE "S562"
  PIN_D "14"
  PIN_G "7"
  PIN_S "8"
  PIN_B "13"
  PIN_E ""
  PIN_6 ""
  XY_ID ""
  FUNC "Additional"
  STI "SA ref"
  WPE "WPE ref"
  COMMENT ""
  DIS_MEAS ""
  TypeTCI "10"
END_HEADER

BEGIN_DB
 ICCAP_VAR vg         -1.632         
 ICCAP_VAR vb         3.6            
 ICCAP_VAR vs         -0             

 #vd                    id                    ig                    ib                    is                   
  -0                    1.564e-09             -8.6e-13              1.18e-12              -1.7892e-09          
  -0.1                  -2.4298e-06           -1.8e-13              9.4e-13               2.4372e-06           
  -0.2                  -3.2264e-06           -5.2e-13              9e-13                 3.2264e-06           
  -0.3                  -3.7184e-06           -4.4e-13              7.4e-13               3.7054e-06           
  -0.4                  -4.112e-06            -3.6e-13              7e-13                 4.1212e-06           
  -0.5                  -4.4862e-06           -4.8e-13              7e-13                 4.509e-06            
  -0.6                  -4.8566e-06           -4e-13                5.2e-13               4.8596e-06           
  -0.7                  -5.1938e-06           -3e-13                5.2e-13               5.1984e-06           
  -0.8                  -5.523e-06            -2.4e-13              6e-13                 5.529e-06            
  -0.9                  -5.8488e-06           -2.2e-13              5.4e-13               5.8562e-06           
  -1                    -6.1688e-06           -1.8e-13              5.6e-13               6.1714e-06           
  -1.1                  -6.4904e-06           4e-14                 4.4e-13               6.4872e-06           
  -1.2                  -6.8028e-06           -8e-14                4.2e-13               6.8156e-06           
  -1.3                  -7.1182e-06           -1.8e-13              4.6e-13               7.1098e-06           
  -1.4                  -7.4112e-06           -8e-14                3.6e-13               7.4318e-06           
  -1.5                  -7.7528e-06           -1.8e-13              3.4e-13               7.7644e-06           
  -1.6                  -8.0762e-06           -1.6e-13              3.4e-13               8.07e-06             
  -1.7                  -8.3924e-06           -1.6e-13              4.2e-13               8.39e-06             
  -1.8                  -8.6906e-06           -4e-14                6.2e-13               8.6852e-06           
  -1.9                  -9.0346e-06           -2.2e-13              1.08e-12              9.0414e-06           
  -2                    -9.3676e-06           -2e-13                2.58e-12              9.3454e-06           
  -2.1                  -9.7026e-06           -2e-14                6.02e-12              9.7034e-06           
  -2.2                  -1.00396e-05          4e-14                 1.342e-11             1.00442e-05          
  -2.3                  -1.03868e-05          2e-14                 2.924e-11             1.04014e-05          
  -2.4                  -1.0726e-05           8e-14                 6.104e-11             1.07382e-05          
  -2.5                  -1.1072e-05           -1e-13                1.2288e-10            1.10958e-05          
  -2.6                  -1.1444e-05           -1.4e-13              2.3896e-10            1.14568e-05          
  -2.7                  -1.1814e-05           -1e-13                4.5024e-10            1.1832e-05           
  -2.8                  -1.2166e-05           -1.2e-13              8.2394e-10            1.2202e-05           
  -2.9                  -1.257e-05            -1e-13                1.4722e-09            1.2594e-05           
  -3                    -1.2954e-05           -2.8e-13              2.5634e-09            1.2968e-05           
  -3.1                  -1.3328e-05           -8e-14                4.3752e-09            1.3388e-05           
  -3.2                  -1.3762e-05           2e-14                 7.3046e-09            1.3758e-05           
  -3.3                  -1.4162e-05           -2.8e-13              1.1972e-08            1.4184e-05           
  -3.4                  -1.4602e-05           -1.6e-13              1.919e-08             1.459e-05            
  -3.5                  -1.504e-05            1.4e-13               3.034e-08             1.5026e-05           
  -3.6                  -1.5458e-05           4e-13                 4.6944e-08            1.543e-05            
END_DB

BEGIN_DB
 ICCAP_VAR vg         -2.124         
 ICCAP_VAR vb         3.6            
 ICCAP_VAR vs         -0             

 #vd                    id                    ig                    ib                    is                   
  -0                    2.1072e-08            -3.6e-13              3e-13                 -1.8788e-08          
  -0.1                  -3.1554e-05           -2.4e-13              2e-13                 3.1572e-05           
  -0.2                  -5.6582e-05           -1.4e-13              3e-13                 5.6584e-05           
  -0.3                  -7.5204e-05           -3.2e-13              1.4e-13               7.5216e-05           
  -0.4                  -8.8382e-05           -1.2e-13              2.8e-13               8.841e-05            
  -0.5                  -9.7504e-05           -2.8e-13              6e-14                 9.7554e-05           
  -0.6                  -0.000103996          -2.6e-13              2.2e-13               0.000104004          
  -0.7                  -0.000108844          6e-14                 1.4e-13               0.000108894          
  -0.8                  -0.000112714          -1.2e-13              1.8e-13               0.00011272           
  -0.9                  -0.00011574           -1.8e-13              6e-14                 0.00011614           
  -1                    -0.0001186            -8e-14                0                     0.00011896           
  -1.1                  -0.00012118           1.4e-13               6e-14                 0.0001216            
  -1.2                  -0.00012368           -1.8e-13              8e-14                 0.00012404           
  -1.3                  -0.00012598           -4.6e-13              0                     0.00012634           
  -1.4                  -0.00012812           -2e-13                1.6e-13               0.00012848           
  -1.5                  -0.0001302            1.2e-13               4e-14                 0.0001306            
  -1.6                  -0.00013222           1e-13                 -2e-14                0.00013258           
  -1.7                  -0.00013412           -6e-14                0                     0.00013452           
  -1.8                  -0.00013602           -1.2e-13              2e-13                 0.00013638           
  -1.9                  -0.00013778           -2e-14                4.2e-13               0.0001381            
  -2                    -0.00013952           -8e-14                1.44e-12              0.00013984           
  -2.1                  -0.00014124           -1.8e-13              4.28e-12              0.00014156           
  -2.2                  -0.00014292           -1e-13                1.14e-11              0.00014338           
  -2.3                  -0.0001447            -1e-13                2.866e-11             0.000145             
  -2.4                  -0.00014638           -2.8e-13              6.8e-11               0.0001468            
  -2.5                  -0.00014806           -8e-14                1.5256e-10            0.00014844           
  -2.6                  -0.00014976           6e-14                 3.2652e-10            0.0001501            
  -2.7                  -0.00015132           -2e-14                6.7036e-10            0.00015172           
  -2.8                  -0.00015302           1.6e-13               1.3274e-09            0.00015342           
  -2.9                  -0.00015476           -1.6e-13              2.5354e-09            0.00015514           
  -3                    -0.00015638           -3e-13                4.698e-09             0.00015672           
  -3.1                  -0.00015796           -2e-13                8.4616e-09            0.00015828           
  -3.2                  -0.00015954           -2.8e-13              1.4942e-08            0.00015984           
  -3.3                  -0.00016116           -1.2e-13              2.57e-08              0.00016138           
  -3.4                  -0.00016276           -2.4e-13              4.328e-08             0.000163             
  -3.5                  -0.00016428           2e-14                 7.1422e-08            0.00016454           
  -3.6                  -0.00016554           -2e-14                1.1598e-07            0.00016568           
END_DB

BEGIN_DB
 ICCAP_VAR vg         -2.616         
 ICCAP_VAR vb         3.6            
 ICCAP_VAR vs         -0             

 #vd                    id                    ig                    ib                    is                   
  -0                    3.3352e-08            -2.4e-13              2e-13                 -3.1118e-08          
  -0.1                  -5.5236e-05           -4e-13                1.6e-13               5.5264e-05           
  -0.2                  -0.0001053            -3e-13                1.2e-13               0.000105288          
  -0.3                  -0.00014946           -1e-13                6e-14                 0.0001498            
  -0.4                  -0.00018788           -1.4e-13              1e-13                 0.00018824           
  -0.5                  -0.00022054           -8e-14                1e-13                 0.00022094           
  -0.6                  -0.00024774           -3.6e-13              4e-14                 0.00024816           
  -0.7                  -0.00026978           -1.6e-13              0                     0.0002702            
  -0.8                  -0.00028738           -6e-14                -6e-14                0.0002878            
  -0.9                  -0.00030136           -1e-13                -6e-14                0.0003018            
  -1                    -0.00031246           -1.8e-13              1.4e-13               0.00031288           
  -1.1                  -0.00032158           -1e-13                0                     0.00032188           
  -1.2                  -0.00032906           -2.2e-13              -6e-14                0.00032944           
  -1.3                  -0.0003355            -3.2e-13              -6e-14                0.00033596           
  -1.4                  -0.0003411            -8e-14                -2e-14                0.00034144           
  -1.5                  -0.00034616           -1.8e-13              -2e-14                0.00034644           
  -1.6                  -0.00035078           -3.4e-13              -4e-14                0.00035106           
  -1.7                  -0.00035508           -1e-13                -1e-13                0.00035536           
  -1.8                  -0.00035918           -2.4e-13              2e-14                 0.00035954           
  -1.9                  -0.00036296           -3.2e-13              -8e-14                0.00036328           
  -2                    -0.00036662           -1e-13                6e-14                 0.00036708           
  -2.1                  -0.00037016           -1.8e-13              5.8e-13               0.00037046           
  -2.2                  -0.00037362           -2e-13                2.12e-12              0.00037396           
  -2.3                  -0.00037682           -1e-13                6.14e-12              0.00037718           
  -2.4                  -0.0003799            -4e-14                1.674e-11             0.00038028           
  -2.5                  -0.00038292           -1.8e-13              4.234e-11             0.00038336           
  -2.6                  -0.00038596           -2e-14                1.006e-10             0.00038634           
  -2.7                  -0.00038894           4e-14                 2.2584e-10            0.0003893            
  -2.8                  -0.00039176           -2.2e-13              4.8436e-10            0.00039208           
  -2.9                  -0.0003946            -8e-14                9.934e-10             0.00039496           
  -3                    -0.00039754           -2e-13                1.9684e-09            0.00039772           
  -3.1                  -0.00040004           -6e-14                3.7744e-09            0.00040044           
  -3.2                  -0.0004029            -2e-14                7.0512e-09            0.0004032            
  -3.3                  -0.00040554           -2.8e-13              1.2826e-08            0.00040564           
  -3.4                  -0.0004081            -3e-13                2.2722e-08            0.00040816           
  -3.5                  -0.00041056           -6e-14                3.9554e-08            0.00041086           
  -3.6                  -0.00041294           -1.4e-13              6.7424e-08            0.0004131            
END_DB

BEGIN_DB
 ICCAP_VAR vg         -3.108         
 ICCAP_VAR vb         3.6            
 ICCAP_VAR vs         -0             

 #vd                    id                    ig                    ib                    is                   
  -0                    4.522e-08             -3.8e-13              2.4e-13               -4.1812e-08          
  -0.1                  -7.3484e-05           -4.2e-13              2e-14                 7.3498e-05           
  -0.2                  -0.00014248           -2.4e-13              1e-13                 0.00014284           
  -0.3                  -0.00020682           -2.8e-13              0                     0.0002072            
  -0.4                  -0.00026592           -8e-14                -2e-14                0.00026626           
  -0.5                  -0.00031968           -2.8e-13              -2e-14                0.00032002           
  -0.6                  -0.000368             -2e-14                6e-14                 0.00036842           
  -0.7                  -0.00041092           -3.6e-13              6e-14                 0.00041132           
  -0.8                  -0.00044862           -1.8e-13              -6e-14                0.00044902           
  -0.9                  -0.00048114           -1.4e-13              -8e-14                0.00048148           
  -1                    -0.00050894           -2.2e-13              -1e-13                0.00050946           
  -1.1                  -0.0005327            -4e-13                -1e-13                0.00053318           
  -1.2                  -0.0005528            -4.2e-13              -2e-14                0.00055318           
  -1.3                  -0.00056952           -6e-14                -6e-14                0.00056996           
  -1.4                  -0.0005838            -2.6e-13              -6e-14                0.00058414           
  -1.5                  -0.00059596           -1e-13                -1e-13                0.00059618           
  -1.6                  -0.0006065            1.2e-13               -4e-14                0.00060686           
  -1.7                  -0.00061554           -8e-14                -6e-14                0.00061608           
  -1.8                  -0.00062378           -2e-13                0                     0.00062396           
  -1.9                  -0.00063102           -4e-14                -6e-14                0.00063162           
  -2                    -0.00063796           -1.6e-13              -1.4e-13              0.00063846           
  -2.1                  -0.00064412           -2.2e-13              0                     0.00064432           
  -2.2                  -0.00064996           -8e-14                1.8e-13               0.00065028           
  -2.3                  -0.0006554            -1.4e-13              8.8e-13               0.00065566           
  -2.4                  -0.0006604            -2.2e-13              2.9e-12               0.00066078           
  -2.5                  -0.00066554           -6e-14                8.46e-12              0.00066584           
  -2.6                  -0.0006701            -1.2e-13              2.218e-11             0.00067048           
  -2.7                  -0.00067474           -1.6e-13              5.534e-11             0.00067516           
  -2.8                  -0.00067908           -2.2e-13              1.2996e-10            0.00067938           
  -2.9                  -0.0006832            -1.4e-13              2.888e-10             0.00068366           
  -3                    -0.0006874            8e-14                 6.1286e-10            0.00068762           
  -3.1                  -0.00069148           -6e-14                1.2482e-09            0.00069152           
  -3.2                  -0.0006953            -4e-14                2.4506e-09            0.0006957            
  -3.3                  -0.00069906           -2.2e-13              4.6648e-09            0.00069936           
  -3.4                  -0.00070284           -1.4e-13              8.6222e-09            0.00070314           
  -3.5                  -0.00070642           -2.4e-13              1.558e-08             0.0007065            
  -3.6                  -0.00070978           -2.4e-13              2.7594e-08            0.00070998           
END_DB

BEGIN_DB
 ICCAP_VAR vg         -3.6           
 ICCAP_VAR vb         3.6            
 ICCAP_VAR vs         -0             

 #vd                    id                    ig                    ib                    is                   
  -0                    5.298e-08             -6e-13                0                     -4.8286e-08          
  -0.1                  -8.8356e-05           -1.6e-13              1e-13                 8.8362e-05           
  -0.2                  -0.00017284           -3.2e-13              6e-14                 0.00017322           
  -0.3                  -0.0002533            -1.2e-13              2e-14                 0.00025372           
  -0.4                  -0.00032904           -3.2e-13              0                     0.00032942           
  -0.5                  -0.00040004           -3e-13                0                     0.00040046           
  -0.6                  -0.00046592           -4.2e-13              -1e-13                0.00046624           
  -0.7                  -0.0005267            -1.4e-13              -4e-14                0.00052698           
  -0.8                  -0.00058232           -3.6e-13              2e-14                 0.00058262           
