! VERSION = 6.00
BEGIN_HEADER
 ICCAP_INPUTS
  vd         V  D GROUND SMU1 0.1 LIN        1    -0         -3.6       37   -0.1      
  vg         V  G GROUND SMU2 0.001 LIN        2    -1.628     -3.6       5    -0.493    
  vb         V  B GROUND SMU4 0.1 CON        3.6
  vs         V  S GROUND SMU3 0.1 CON        -0
 ICCAP_OUTPUTS
  id         I  D GROUND SMU1 B
  ig         I  G GROUND SMU2 B
  ib         I  B GROUND SMU4 B
  is         I  S GROUND SMU3 B
 ICCAP_VALUES
  MASTER_SETUP_TYPE "~dc_idvd~"
  LINVT_VALUE "|idvg|100.0n|100.0m|1.000m|5|3.600|"
  LISTVT_VALUE ""
  TYPE "-1"
  TEMP " 27.0000 "
  IS_TNOM " 1.00000 "
  MAIN.W "2.000u"
  MAIN.L "330.0n"
  MAIN.AD "680.0f"
  MAIN.AS "680.0f"
  MAIN.PD "4.680u"
  MAIN.PS "4.680u"
  MAIN.NF "1.000"
  MAIN.M "1"
  MAIN.NRD "0.000"
  MAIN.NRS "0.000"
  MAIN.LDRIFT1 "1E-06"
  MAIN.LDRIFT2 "1E-06"
  MAIN.SA "0.000"
  MAIN.SB "0.000"
  MAIN.SD "0.000"
  MAIN.SCA "0.000"
  MAIN.SCB "0.000"
  MAIN.SCC "0.000"
  MAIN.SC "0.000"
  MODULE "S563"
  PIN_D "18"
  PIN_G "3"
  PIN_S "4"
  PIN_B "17"
  PIN_E ""
  PIN_6 ""
  XY_ID ""
  FUNC "Additional"
  STI "SA ref"
  WPE "WPE ref"
  COMMENT ""
  DIS_MEAS ""
  TypeTCI "10"
END_HEADER

BEGIN_DB
 ICCAP_VAR vg         -1.628         
 ICCAP_VAR vb         3.6            
 ICCAP_VAR vs         -0             

 #vd                    id                    ig                    ib                    is                   
  -0                    7.4348e-10            -5.4e-13              1.78e-12              -9.538e-10           
  -0.1                  -8.4926e-07           -3.6e-13              1.56e-12              8.4954e-07           
  -0.2                  -1.13938e-06          -3.4e-13              1.54e-12              1.13962e-06          
  -0.3                  -1.3394e-06           -1e-13                1.4e-12               1.3428e-06           
  -0.4                  -1.5096e-06           -2.2e-13              1.26e-12              1.5142e-06           
  -0.5                  -1.6668e-06           -3.4e-13              1.16e-12              1.6708e-06           
  -0.6                  -1.8158e-06           -1.8e-13              1.28e-12              1.8196e-06           
  -0.7                  -1.96e-06             -1.4e-13              1.32e-12              1.9638e-06           
  -0.8                  -2.1018e-06           -2.2e-13              1.16e-12              2.1064e-06           
  -0.9                  -2.243e-06            -8e-14                1.02e-12              2.2468e-06           
  -1                    -2.3832e-06           6e-14                 1.1e-12               2.3868e-06           
  -1.1                  -2.5234e-06           -8e-14                1.04e-12              2.5282e-06           
  -1.2                  -2.6636e-06           -1.4e-13              9.4e-13               2.6672e-06           
  -1.3                  -2.803e-06            -1.2e-13              9.8e-13               2.807e-06            
  -1.4                  -2.9432e-06           -1e-13                9.4e-13               2.9478e-06           
  -1.5                  -3.085e-06            -1.4e-13              9.6e-13               3.0882e-06           
  -1.6                  -3.2278e-06           -8e-14                9.4e-13               3.232e-06            
  -1.7                  -3.3716e-06           -2.2e-13              8e-13                 3.3742e-06           
  -1.8                  -3.5172e-06           -1e-13                9.6e-13               3.5218e-06           
  -1.9                  -3.6644e-06           -1.2e-13              1.16e-12              3.6676e-06           
  -2                    -3.814e-06            -8e-14                1.76e-12              3.8168e-06           
  -2.1                  -3.967e-06            -1.2e-13              3.04e-12              3.969e-06            
  -2.2                  -4.1202e-06           -2e-14                6.22e-12              4.1244e-06           
  -2.3                  -4.2716e-06           -8e-14                1.252e-11             4.2728e-06           
  -2.4                  -4.43e-06             -1e-13                2.536e-11             4.4332e-06           
  -2.5                  -4.5926e-06           -6e-14                5.082e-11             4.5948e-06           
  -2.6                  -4.7576e-06           -4e-14                9.826e-11             4.7612e-06           
  -2.7                  -4.9274e-06           -8e-14                1.8458e-10            4.9306e-06           
  -2.8                  -5.0984e-06           8e-14                 3.381e-10             5.1028e-06           
  -2.9                  -5.2746e-06           1.2e-13               6.0362e-10            5.2766e-06           
  -3                    -5.4522e-06           -6e-14                1.0548e-09            5.4578e-06           
  -3.1                  -5.6356e-06           0                     1.8028e-09            5.6214e-06           
  -3.2                  -5.8208e-06           -6e-14                3.018e-09             5.8208e-06           
  -3.3                  -6.0118e-06           -6e-14                4.9552e-09            6.0118e-06           
  -3.4                  -6.2102e-06           -2e-14                7.9878e-09            6.2098e-06           
  -3.5                  -6.4164e-06           0                     1.2636e-08            6.4064e-06           
  -3.6                  -6.6136e-06           0                     1.9608e-08            6.5826e-06           
END_DB

BEGIN_DB
 ICCAP_VAR vg         -2.121         
 ICCAP_VAR vb         3.6            
 ICCAP_VAR vs         -0             

 #vd                    id                    ig                    ib                    is                   
  -0                    2.8994e-09            -1.6e-13              4.4e-13               -4.5444e-09          
  -0.1                  -1.306e-05            -2e-13                3.8e-13               1.308e-05            
  -0.2                  -2.333e-05            -1.4e-13              3.6e-13               2.3352e-05           
  -0.3                  -3.091e-05            -8e-14                5.8e-13               3.0932e-05           
  -0.4                  -3.6232e-05           -2.2e-13              4.4e-13               3.6254e-05           
  -0.5                  -3.9934e-05           -1.8e-13              3.4e-13               3.995e-05            
  -0.6                  -4.2588e-05           -8e-14                4.4e-13               4.2608e-05           
  -0.7                  -4.4616e-05           -8e-14                4.2e-13               4.462e-05            
  -0.8                  -4.6234e-05           -1.2e-13              4.6e-13               4.625e-05            
  -0.9                  -4.762e-05            -2.2e-13              4e-13                 4.7612e-05           
  -1                    -4.882e-05            -1.2e-13              3.6e-13               4.8842e-05           
  -1.1                  -4.993e-05            -1.6e-13              3.8e-13               4.9944e-05           
  -1.2                  -5.0974e-05           -1.4e-13              3.8e-13               5.1008e-05           
  -1.3                  -5.1982e-05           -8e-14                3.8e-13               5.2e-05              
  -1.4                  -5.285e-05            -6e-14                4.6e-13               5.2934e-05           
  -1.5                  -5.3822e-05           -1e-13                4.6e-13               5.384e-05            
  -1.6                  -5.4692e-05           -2e-13                3.4e-13               5.4676e-05           
  -1.7                  -5.5482e-05           -6e-14                3e-13                 5.5564e-05           
  -1.8                  -5.6358e-05           -2e-14                5e-13                 5.6362e-05           
  -1.9                  -5.7116e-05           -2e-14                5.6e-13               5.7156e-05           
  -2                    -5.7928e-05           -1.4e-13              1e-12                 5.7958e-05           
  -2.1                  -5.869e-05            -1e-13                2.22e-12              5.8726e-05           
  -2.2                  -5.9464e-05           -1.2e-13              5.28e-12              5.9488e-05           
  -2.3                  -6.0172e-05           -1.2e-13              1.26e-11              6.0238e-05           
  -2.4                  -6.0954e-05           0                     2.922e-11             6.0976e-05           
  -2.5                  -6.165e-05            8e-14                 6.504e-11             6.1712e-05           
  -2.6                  -6.2402e-05           -2e-14                1.3818e-10            6.2442e-05           
  -2.7                  -6.3144e-05           -1.2e-13              2.8182e-10            6.317e-05            
  -2.8                  -6.3874e-05           4e-14                 5.5418e-10            6.3888e-05           
  -2.9                  -6.4582e-05           4e-14                 1.05608e-09           6.4628e-05           
  -3                    -6.5312e-05           -4e-14                1.9578e-09            6.5348e-05           
  -3.1                  -6.6046e-05           0                     3.5206e-09            6.6074e-05           
  -3.2                  -6.6782e-05           -2e-14                6.1876e-09            6.6792e-05           
  -3.3                  -6.7474e-05           -8e-14                1.06116e-08           6.7454e-05           
  -3.4                  -6.8086e-05           1.2e-13               1.7956e-08            6.8044e-05           
  -3.5                  -6.8736e-05           4e-14                 2.9634e-08            6.8726e-05           
  -3.6                  -6.9386e-05           -1e-13                4.8148e-08            6.9294e-05           
END_DB

BEGIN_DB
 ICCAP_VAR vg         -2.614         
 ICCAP_VAR vb         3.6            
 ICCAP_VAR vs         -0             

 #vd                    id                    ig                    ib                    is                   
  -0                    1.429e-08             -2e-13                8e-14                 -1.3598e-08          
  -0.1                  -2.3114e-05           -2.4e-13              4e-14                 2.313e-05            
  -0.2                  -4.4004e-05           -1e-13                2.8e-13               4.4048e-05           
  -0.3                  -6.2526e-05           -1.6e-13              1.8e-13               6.2556e-05           
  -0.4                  -7.8502e-05           -3.2e-13              2e-13                 7.8506e-05           
  -0.5                  -9.204e-05            -2.2e-13              2.4e-13               9.202e-05            
  -0.6                  -0.000103188          -1.2e-13              2.8e-13               0.00010321           
  -0.7                  -0.00011227           -1.6e-13              8e-14                 0.00011224           
  -0.8                  -0.00011924           -1e-13                3e-13                 0.00011956           
  -0.9                  -0.00012488           -6e-14                1.8e-13               0.00012538           
  -1                    -0.00012958           -4e-14                1.8e-13               0.00012982           
  -1.1                  -0.00013322           -2.2e-13              3.2e-13               0.00013362           
  -1.2                  -0.00013634           -1.6e-13              2.8e-13               0.0001367            
  -1.3                  -0.00013904           -4e-14                1.2e-13               0.00013942           
  -1.4                  -0.00014138           -6e-14                2.6e-13               0.00014186           
  -1.5                  -0.00014354           -4e-14                2.6e-13               0.0001439            
  -1.6                  -0.0001455            -2e-14                2.8e-13               0.0001459            
  -1.7                  -0.00014734           -1e-13                2.6e-13               0.00014772           
  -1.8                  -0.00014904           -1e-13                3e-13                 0.0001494            
  -1.9                  -0.0001507            -2e-14                3.4e-13               0.00015104           
  -2                    -0.00015218           -1.4e-13              3.4e-13               0.00015258           
  -2.1                  -0.00015374           0                     6.8e-13               0.00015418           
  -2.2                  -0.0001552            -1e-13                1.38e-12              0.00015548           
  -2.3                  -0.00015656           -2e-14                3.28e-12              0.00015682           
  -2.4                  -0.00015778           6e-14                 7.94e-12              0.00015824           
  -2.5                  -0.00015922           6e-14                 1.926e-11             0.00015952           
  -2.6                  -0.00016052           8e-14                 4.448e-11             0.0001609            
  -2.7                  -0.00016176           -4e-14                9.854e-11             0.0001622            
  -2.8                  -0.00016302           0                     2.0926e-10            0.00016352           
  -2.9                  -0.00016428           -1e-13                4.275e-10             0.00016468           
  -3                    -0.0001655            0                     8.4216e-10            0.00016584           
  -3.1                  -0.00016672           -1.8e-13              1.607e-09             0.00016708           
  -3.2                  -0.00016794           4e-14                 2.9864e-09            0.00016826           
  -3.3                  -0.00016906           -2e-14                5.4076e-09            0.00016948           
  -3.4                  -0.00017022           2e-14                 9.5842e-09            0.00017058           
  -3.5                  -0.00017138           -1e-13                1.6648e-08            0.00017154           
  -3.6                  -0.00017238           -2e-14                2.8212e-08            0.00017268           
END_DB

BEGIN_DB
 ICCAP_VAR vg         -3.107         
 ICCAP_VAR vb         3.6            
 ICCAP_VAR vs         -0             

 #vd                    id                    ig                    ib                    is                   
  -0                    1.9358e-08            -2.6e-13              0                     -1.9044e-08          
  -0.1                  -3.0878e-05           -1.6e-13              6e-14                 3.0904e-05           
  -0.2                  -5.996e-05            -1.6e-13              4e-14                 5.9984e-05           
  -0.3                  -8.6938e-05           -1.8e-13              2e-13                 8.6946e-05           
  -0.4                  -0.000111664          -2.4e-13              2.2e-13               0.000111678          
  -0.5                  -0.00013392           -2e-14                1.6e-13               0.00013426           
  -0.6                  -0.00015398           -2.6e-13              1e-13                 0.00015438           
  -0.7                  -0.00017178           -1e-13                2.4e-13               0.0001722            
  -0.8                  -0.00018726           -1.4e-13              2.2e-13               0.00018766           
  -0.9                  -0.0002008            -2.8e-13              2.2e-13               0.00020118           
  -1                    -0.0002122            -1e-13                2.8e-13               0.00021264           
  -1.1                  -0.00022184           -6e-14                1.6e-13               0.0002222            
  -1.2                  -0.00023012           -1.8e-13              3e-13                 0.00023044           
  -1.3                  -0.00023698           -1.4e-13              1.8e-13               0.0002374            
  -1.4                  -0.00024284           2e-14                 6e-14                 0.00024324           
  -1.5                  -0.00024786           -6e-14                2.6e-13               0.00024818           
  -1.6                  -0.0002521            -1.4e-13              2.6e-13               0.0002525            
  -1.7                  -0.000256             -1.2e-13              3e-13                 0.00025636           
  -1.8                  -0.0002594            -1e-13                1.2e-13               0.00025972           
  -1.9                  -0.00026246           -1e-13                1.4e-13               0.0002626            
  -2                    -0.00026528           -2e-14                3e-13                 0.0002657            
  -2.1                  -0.00026786           0                     2.4e-13               0.00026802           
  -2.2                  -0.0002701            -8e-14                3.8e-13               0.00027054           
  -2.3                  -0.00027242           -4e-14                8.2e-13               0.00027282           
  -2.4                  -0.00027468           -8e-14                1.68e-12              0.0002751            
  -2.5                  -0.00027676           -6e-14                4.1e-12               0.0002771            
  -2.6                  -0.00027872           1e-13                 1.072e-11             0.00027926           
  -2.7                  -0.00028076           -4e-14                2.616e-11             0.00028114           
  -2.8                  -0.00028246           -1.8e-13              5.94e-11              0.00028296           
  -2.9                  -0.00028436           -4e-14                1.299e-10             0.00028472           
  -3                    -0.00028612           8e-14                 2.7158e-10            0.00028648           
  -3.1                  -0.00028794           -6e-14                5.4768e-10            0.00028816           
  -3.2                  -0.00028956           0                     1.06668e-09           0.00028986           
  -3.3                  -0.00029122           -1e-13                2.0226e-09            0.00029162           
  -3.4                  -0.00029266           -1e-13                3.699e-09             0.0002929            
  -3.5                  -0.00029402           -1.2e-13              6.6478e-09            0.00029432           
  -3.6                  -0.00029522           -2e-14                1.1844e-08            0.00029532           
END_DB

BEGIN_DB
 ICCAP_VAR vg         -3.6           
 ICCAP_VAR vb         3.6            
 ICCAP_VAR vs         -0             

 #vd                    id                    ig                    ib                    is                   
  -0                    2.2646e-08            -3.4e-13              6e-14                 -2.1442e-08          
  -0.1                  -3.7156e-05           -3.2e-13              6e-14                 3.7174e-05           
  -0.2                  -7.2752e-05           -2.6e-13              2.8e-13               7.2772e-05           
  -0.3                  -0.000106518          -1.6e-13              3.2e-13               0.000106548          
  -0.4                  -0.0001381            -2e-13                1.2e-13               0.00013844           
  -0.5                  -0.00016778           -2e-13                6e-14                 0.00016816           
  -0.6                  -0.00019534           -1.6e-13              1.8e-13               0.0001957            
  -0.7                  -0.00022062           -1.2e-13              3.2e-13               0.00022096           
  -0.8                  -0.00024372           -1.4e-13              1.4e-13               0.00024412           
