! VERSION = 6.00
BEGIN_HEADER
 ICCAP_INPUTS
  vd         V  D GROUND SMU1 0.1 LIN        1    -0         -3.6       37   -0.1      
  vg         V  G GROUND SMU2 0.001 LIST       2 3 -0.324 -0.524 -0.724
  vb         V  B GROUND SMU4 0.1 CON        -0
  vs         V  S GROUND SMU3 0.1 CON        -0
 ICCAP_OUTPUTS
  id         I  D GROUND SMU1 B
  ig         I  G GROUND SMU2 B
  ib         I  B GROUND SMU4 B
  is         I  S GROUND SMU3 B
 ICCAP_VALUES
  MASTER_SETUP_TYPE "~dc_idvd~"
  LINVT_VALUE ""
  LISTVT_VALUE "|idvg|100.0n|-200.0m|1.000m|3|200.0m|200.0m|"
  TYPE "-1"
  TEMP " 125.000 "
  IS_TNOM " 0.00000 "
  MAIN.W "300.0n"
  MAIN.L "350.0n"
  MAIN.AD "102.0f"
  MAIN.AS "102.0f"
  MAIN.PD "1.280u"
  MAIN.PS "1.280u"
  MAIN.NF "1.000"
  MAIN.M "1"
  MAIN.NRD "0.000"
  MAIN.NRS "0.000"
  MAIN.LDRIFT1 "1E-06"
  MAIN.LDRIFT2 "1E-06"
  MAIN.SA "0.000"
  MAIN.SB "0.000"
  MAIN.SD "0.000"
  MAIN.SCA "0.000"
  MAIN.SCB "0.000"
  MAIN.SCC "0.000"
  MAIN.SC "0.000"
  MODULE "S565"
  PIN_D "16"
  PIN_G "5"
  PIN_S "6"
  PIN_B "15"
  PIN_E ""
  PIN_6 ""
  XY_ID ""
  FUNC "Small"
  STI "SA ref"
  WPE "WPE ref"
  COMMENT ""
  DIS_MEAS ""
  TypeTCI "10"
END_HEADER

BEGIN_DB
 ICCAP_VAR vg         -0.324         
 ICCAP_VAR vb         -0             
 ICCAP_VAR vs         -0             

 #vd                    id                    ig                    ib                    is                   
  -0                    1.32e-12              8.4e-13               -1.276e-11            -2.78e-12            
  -0.1                  -2.3722e-09           8e-13                 -1.238e-11            2.371e-09            
  -0.2                  -2.573e-09            8.4e-13               -1.072e-11            2.5706e-09           
  -0.3                  -2.6358e-09           6.6e-13               -9.98e-12             2.6342e-09           
  -0.4                  -2.686e-09            7.2e-13               -9.46e-12             2.6856e-09           
  -0.5                  -2.7318e-09           6.8e-13               -9.02e-12             2.7312e-09           
  -0.6                  -2.776e-09            6.2e-13               -8.72e-12             2.7736e-09           
  -0.7                  -2.8144e-09           5.6e-13               -8.6e-12              2.8116e-09           
  -0.8                  -2.8514e-09           6.6e-13               -7.94e-12             2.852e-09            
  -0.9                  -2.8864e-09           6.8e-13               -7.54e-12             2.89e-09             
  -1                    -2.9282e-09           5.8e-13               -7.28e-12             2.9278e-09           
  -1.1                  -2.9634e-09           6.8e-13               -7.2e-12              2.9638e-09           
  -1.2                  -3.0006e-09           5.8e-13               -6.74e-12             2.9992e-09           
  -1.3                  -3.033e-09            5.6e-13               -6.68e-12             3.0352e-09           
  -1.4                  -3.0692e-09           5.4e-13               -6.46e-12             3.0686e-09           
  -1.5                  -3.1046e-09           5.6e-13               -5.9e-12              3.1036e-09           
  -1.6                  -3.138e-09            5.4e-13               -5.94e-12             3.1384e-09           
  -1.7                  -3.1726e-09           4.4e-13               -5.82e-12             3.1712e-09           
  -1.8                  -3.2078e-09           4e-13                 -5.78e-12             3.2068e-09           
  -1.9                  -3.2428e-09           5.4e-13               -5.28e-12             3.2414e-09           
  -2                    -3.2794e-09           3.6e-13               -5.38e-12             3.2754e-09           
  -2.1                  -3.3138e-09           4.6e-13               -5.1e-12              3.3098e-09           
  -2.2                  -3.349e-09            4.8e-13               -5.16e-12             3.3472e-09           
  -2.3                  -3.3798e-09           4.2e-13               -4.68e-12             3.3786e-09           
  -2.4                  -3.4172e-09           4.6e-13               -4.4e-12              3.4176e-09           
  -2.5                  -3.4552e-09           3.6e-13               -4.2e-12              3.451e-09            
  -2.6                  -3.4914e-09           4.8e-13               -3.46e-12             3.49e-09             
  -2.7                  -3.5268e-09           3.4e-13               -3.12e-12             3.5248e-09           
  -2.8                  -3.5654e-09           3e-13                 -2.74e-12             3.5618e-09           
  -2.9                  -3.6028e-09           4.2e-13               -1.06e-12             3.598e-09            
  -3                    -3.6412e-09           4.4e-13               1.6e-13               3.631e-09            
  -3.1                  -3.6796e-09           4.2e-13               3.2e-12               3.6724e-09           
  -3.2                  -3.7202e-09           3.2e-13               5.54e-12              3.708e-09            
  -3.3                  -3.7608e-09           4.8e-13               9.6e-12               3.7438e-09           
  -3.4                  -3.8028e-09           3.8e-13               1.494e-11             3.7826e-09           
  -3.5                  -3.8474e-09           2.8e-13               2.174e-11             3.8244e-09           
  -3.6                  -3.8994e-09           3.2e-13               3.112e-11             3.8632e-09           
END_DB

BEGIN_DB
 ICCAP_VAR vg         -0.524         
 ICCAP_VAR vb         -0             
 ICCAP_VAR vs         -0             

 #vd                    id                    ig                    ib                    is                   
  -0                    5.868e-11             -2e-14                -9.56e-12             -5.514e-11           
  -0.1                  -6.5892e-08           -2e-14                -9.76e-12             6.5962e-08           
  -0.2                  -7.4244e-08           1e-13                 -5.02e-12             7.4174e-08           
  -0.3                  -7.6516e-08           2e-14                 -5.12e-12             7.6536e-08           
  -0.4                  -7.8078e-08           2.4e-13               -4.54e-12             7.8076e-08           
  -0.5                  -7.9464e-08           8e-14                 -3.82e-12             7.9488e-08           
  -0.6                  -8.082e-08            -4e-14                -3.8e-12              8.0798e-08           
  -0.7                  -8.203e-08            1e-13                 -3.58e-12             8.1968e-08           
  -0.8                  -8.3118e-08           8e-14                 -2.8e-12              8.3144e-08           
  -0.9                  -8.4266e-08           2e-13                 -2.72e-12             8.4264e-08           
  -1                    -8.527e-08            1.6e-13               -2.46e-12             8.5336e-08           
  -1.1                  -8.6282e-08           8e-14                 -2.5e-12              8.6356e-08           
  -1.2                  -8.7296e-08           1.4e-13               -2.6e-12              8.726e-08            
  -1.3                  -8.8236e-08           1.8e-13               -2.36e-12             8.8268e-08           
  -1.4                  -8.9182e-08           1.6e-13               -2.08e-12             8.9214e-08           
  -1.5                  -9.0158e-08           2e-13                 -2.24e-12             9.0154e-08           
  -1.6                  -9.1074e-08           2.2e-13               -2.02e-12             9.0974e-08           
  -1.7                  -9.1978e-08           4e-14                 -1.56e-12             9.204e-08            
  -1.8                  -9.2884e-08           1.8e-13               -1.3e-12              9.2974e-08           
  -1.9                  -9.389e-08            2e-13                 -1.24e-12             9.3858e-08           
  -2                    -9.4766e-08           1.8e-13               -1.08e-12             9.4778e-08           
  -2.1                  -9.5746e-08           2.2e-13               2e-14                 9.5722e-08           
  -2.2                  -9.667e-08            1.4e-13               5e-13                 9.6666e-08           
  -2.3                  -9.7626e-08           2.2e-13               2.08e-12              9.7644e-08           
  -2.4                  -9.8578e-08           1.8e-13               4.34e-12              9.8588e-08           
  -2.5                  -9.947e-08            6e-14                 7.96e-12              9.9486e-08           
  -2.6                  -1.004e-07            6e-14                 1.234e-11             1.00528e-07          
  -2.7                  -1.0142e-07           1e-13                 2.206e-11             1.01476e-07          
  -2.8                  -1.024e-07            1.6e-13               3.524e-11             1.02392e-07          
  -2.9                  -1.034e-07            2.4e-13               5.406e-11             1.03356e-07          
  -3                    -1.0436e-07           3e-13                 8.004e-11             1.04298e-07          
  -3.1                  -1.053e-07            1.4e-13               1.1828e-10            1.05256e-07          
  -3.2                  -1.064e-07            1.6e-13               1.7128e-10            1.06336e-07          
  -3.3                  -1.0746e-07           6e-14                 2.436e-10             1.07236e-07          
  -3.4                  -1.0854e-07           1.6e-13               3.4336e-10            1.0835e-07           
  -3.5                  -1.0972e-07           1.2e-13               4.7624e-10            1.09284e-07          
  -3.6                  -1.1092e-07           1.4e-13               6.5096e-10            1.10598e-07          
END_DB

BEGIN_DB
 ICCAP_VAR vg         -0.724         
 ICCAP_VAR vb         -0             
 ICCAP_VAR vs         -0             

 #vd                    id                    ig                    ib                    is                   
  -0                    2.0106e-10            -6e-14                -8.1e-12              -2.2274e-10          
  -0.1                  -4.9428e-07           -2e-13                -8.5e-12              4.9446e-07           
  -0.2                  -6.5972e-07           -2e-13                -3.56e-12             6.5982e-07           
  -0.3                  -7.0824e-07           2e-14                 -2.86e-12             7.1024e-07           
  -0.4                  -7.3058e-07           6e-14                 -2.76e-12             7.3094e-07           
  -0.5                  -7.4464e-07           1e-13                 -2.44e-12             7.4478e-07           
  -0.6                  -7.562e-07            1.6e-13               -2.48e-12             7.562e-07            
  -0.7                  -7.6626e-07           1e-13                 -2.02e-12             7.6682e-07           
  -0.8                  -7.762e-07            4e-14                 -2.16e-12             7.7608e-07           
  -0.9                  -7.8466e-07           4e-14                 -1.86e-12             7.8498e-07           
  -1                    -7.9312e-07           1e-13                 -1.76e-12             7.9338e-07           
  -1.1                  -8.0094e-07           0                     -1.72e-12             8.0108e-07           
  -1.2                  -8.0806e-07           6e-14                 -1.12e-12             8.0802e-07           
  -1.3                  -8.1548e-07           -2e-14                -1.42e-12             8.1524e-07           
  -1.4                  -8.2214e-07           -1e-13                -1.52e-12             8.2224e-07           
  -1.5                  -8.288e-07            2e-14                 -1.18e-12             8.2888e-07           
  -1.6                  -8.356e-07            -2e-14                -1.02e-12             8.3578e-07           
  -1.7                  -8.426e-07            4e-14                 -4.8e-13              8.426e-07            
  -1.8                  -8.4924e-07           6e-14                 -2.8e-13              8.4918e-07           
  -1.9                  -8.555e-07            1.8e-13               4e-14                 8.5532e-07           
  -2                    -8.6166e-07           6e-14                 1.54e-12              8.6224e-07           
  -2.1                  -8.6872e-07           2e-14                 3.12e-12              8.6896e-07           
  -2.2                  -8.7508e-07           0                     6.74e-12              8.7526e-07           
  -2.3                  -8.8162e-07           -6e-14                1.328e-11             8.8192e-07           
  -2.4                  -8.881e-07            2e-14                 2.398e-11             8.8796e-07           
  -2.5                  -8.9422e-07           4e-14                 4.09e-11              8.9474e-07           
  -2.6                  -9.0056e-07           1.4e-13               6.756e-11             9.0088e-07           
  -2.7                  -9.0742e-07           6e-14                 1.0912e-10            9.074e-07            
  -2.8                  -9.1376e-07           8e-14                 1.7252e-10            9.139e-07            
  -2.9                  -9.2088e-07           6e-14                 2.6678e-10            9.212e-07            
  -3                    -9.271e-07            -4e-14                4.0654e-10            9.2702e-07           
  -3.1                  -9.3348e-07           6e-14                 6.0868e-10            9.334e-07            
  -3.2                  -9.408e-07            1.6e-13               8.9856e-10            9.4036e-07           
  -3.3                  -9.477e-07            -8e-14                1.3034e-09            9.4626e-07           
  -3.4                  -9.5474e-07           0                     1.8658e-09            9.5338e-07           
  -3.5                  -9.63e-07             4e-14                 2.6248e-09            9.6046e-07           
  -3.6                  -9.7064e-07           8e-14                 3.6604e-09            9.6704e-07           
END_DB

