! VERSION = 6.00
BEGIN_HEADER
 ICCAP_INPUTS
  vd         V  D GROUND SMU1 0.1 LIN        1    -0         -3.6       37   -0.1      
  vg         V  G GROUND SMU2 0.001 LIN        2    -0.864     -3.6       5    -0.684    
  vb         V  B GROUND SMU4 0.1 CON        -0
  vs         V  S GROUND SMU3 0.1 CON        -0
 ICCAP_OUTPUTS
  id         I  D GROUND SMU1 B
  ig         I  G GROUND SMU2 B
  ib         I  B GROUND SMU4 B
  is         I  S GROUND SMU3 B
 ICCAP_VALUES
  MASTER_SETUP_TYPE "~dc_idvd~"
  LINVT_VALUE "|idvg|100.0n|100.0m|1.000m|5|3.600|"
  LISTVT_VALUE ""
  TYPE "-1"
  TEMP "-40.0000 "
  IS_TNOM " 0.00000 "
  MAIN.W "2.000u"
  MAIN.L "1.200u"
  MAIN.AD "680.0f"
  MAIN.AS "680.0f"
  MAIN.PD "4.680u"
  MAIN.PS "4.680u"
  MAIN.NF "1.000"
  MAIN.M "1"
  MAIN.NRD "0.000"
  MAIN.NRS "0.000"
  MAIN.LDRIFT1 "1E-06"
  MAIN.LDRIFT2 "1E-06"
  MAIN.SA "0.000"
  MAIN.SB "0.000"
  MAIN.SD "0.000"
  MAIN.SCA "0.000"
  MAIN.SCB "0.000"
  MAIN.SCC "0.000"
  MAIN.SC "0.000"
  MODULE "S563"
  PIN_D "16"
  PIN_G "5"
  PIN_S "6"
  PIN_B "15"
  PIN_E ""
  PIN_6 ""
  XY_ID ""
  FUNC "LW Scale"
  STI "SA ref"
  WPE "WPE ref"
  COMMENT ""
  DIS_MEAS ""
  TypeTCI "10"
END_HEADER

BEGIN_DB
 ICCAP_VAR vg         -0.864         
 ICCAP_VAR vb         -0             
 ICCAP_VAR vs         -0             

 #vd                    id                    ig                    ib                    is                   
  -0                    3.4612e-10            6e-14                 -7e-13                -5.2352e-10          
  -0.1                  -7.1276e-07           -1e-13                -5.4e-13              7.1296e-07           
  -0.2                  -7.964e-07            0                     -7e-13                7.9676e-07           
  -0.3                  -8.0268e-07           -1.2e-13              -5.8e-13              8.0306e-07           
  -0.4                  -8.053e-07            4.4e-13               -4.8e-13              8.0556e-07           
  -0.5                  -8.072e-07            0                     -5.4e-13              8.0736e-07           
  -0.6                  -8.086e-07            3e-13                 -4.8e-13              8.0888e-07           
  -0.7                  -8.0994e-07           2e-14                 -4.6e-13              8.1016e-07           
  -0.8                  -8.1098e-07           1.4e-13               -4.8e-13              8.1122e-07           
  -0.9                  -8.1194e-07           1.8e-13               -4.2e-13              8.1226e-07           
  -1                    -8.1282e-07           -2.2e-13              -5.6e-13              8.131e-07            
  -1.1                  -8.1354e-07           -4e-14                -5.8e-13              8.1378e-07           
  -1.2                  -8.1426e-07           2e-14                 -4.6e-13              8.1456e-07           
  -1.3                  -8.1506e-07           2.4e-13               -4.6e-13              8.1536e-07           
  -1.4                  -8.1566e-07           -2.2e-13              -3.4e-13              8.1602e-07           
  -1.5                  -8.1644e-07           2.4e-13               -4.6e-13              8.1676e-07           
  -1.6                  -8.1698e-07           2.8e-13               -3.8e-13              8.1738e-07           
  -1.7                  -8.1772e-07           -4e-14                -1.4e-13              8.1786e-07           
  -1.8                  -8.1832e-07           4.6e-13               -3.2e-13              8.186e-07            
  -1.9                  -8.1892e-07           -2.4e-13              -2e-13                8.192e-07            
  -2                    -8.1956e-07           8e-14                 1.6e-13               8.1986e-07           
  -2.1                  -8.2014e-07           -1e-13                8.8e-13               8.2042e-07           
  -2.2                  -8.2064e-07           1.6e-13               2.28e-12              8.2088e-07           
  -2.3                  -8.2124e-07           -1.4e-13              5.02e-12              8.2156e-07           
  -2.4                  -8.2176e-07           3.8e-13               1.002e-11             8.2212e-07           
  -2.5                  -8.2238e-07           4.4e-13               1.908e-11             8.2234e-07           
  -2.6                  -8.227e-07            -1.6e-13              3.5e-11               8.23e-07             
  -2.7                  -8.233e-07            2e-13                 6.17e-11              8.2332e-07           
  -2.8                  -8.2368e-07           -1.8e-13              1.0556e-10            8.238e-07            
  -2.9                  -8.2386e-07           -1e-13                1.7632e-10            8.2394e-07           
  -3                    -8.2448e-07           8e-14                 2.8688e-10            8.2466e-07           
  -3.1                  -8.2548e-07           -6e-14                4.5512e-10            8.2518e-07           
  -3.2                  -8.2606e-07           -4e-14                7.0836e-10            8.255e-07            
  -3.3                  -8.2684e-07           3e-13                 1.07992e-09           8.2594e-07           
  -3.4                  -8.2788e-07           2.6e-13               1.6114e-09            8.2648e-07           
  -3.5                  -8.2916e-07           -6e-14                2.358e-09             8.2698e-07           
  -3.6                  -8.3052e-07           1.4e-13               3.3972e-09            8.276e-07            
END_DB

BEGIN_DB
 ICCAP_VAR vg         -1.548         
 ICCAP_VAR vb         -0             
 ICCAP_VAR vs         -0             

 #vd                    id                    ig                    ib                    is                   
  -0                    1.749e-09             -1.4e-13              -2.6e-13              -1.737e-09           
  -0.1                  -6.9982e-06           2.4e-13               -3.2e-13              7.0012e-06           
  -0.2                  -1.266e-05            -4e-13                -3.4e-13              1.2678e-05           
  -0.3                  -1.6996e-05           -1.2e-13              -2.6e-13              1.7016e-05           
  -0.4                  -2.0038e-05           2.2e-13               -2e-13                2.0054e-05           
  -0.5                  -2.1898e-05           -6e-14                -2.2e-13              2.1914e-05           
  -0.6                  -2.2802e-05           -4.2e-13              -1.6e-13              2.282e-05            
  -0.7                  -2.3158e-05           6e-14                 -1.2e-13              2.3174e-05           
  -0.8                  -2.331e-05            -1.6e-13              -1.2e-13              2.3326e-05           
  -0.9                  -2.3398e-05           1e-13                 -2.4e-13              2.3414e-05           
  -1                    -2.3458e-05           -2e-13                -1.8e-13              2.3476e-05           
  -1.1                  -2.3508e-05           -1.4e-13              -1.8e-13              2.3526e-05           
  -1.2                  -2.3548e-05           0                     -1.4e-13              2.3566e-05           
  -1.3                  -2.3588e-05           -1e-13                -1.6e-13              2.3602e-05           
  -1.4                  -2.3618e-05           -4e-14                -2e-13                2.3636e-05           
  -1.5                  -2.365e-05            -8.2e-13              -1.6e-13              2.3666e-05           
  -1.6                  -2.3676e-05           1.4e-13               -1.6e-13              2.3694e-05           
  -1.7                  -2.3702e-05           -1.4e-13              -1.2e-13              2.3718e-05           
  -1.8                  -2.3726e-05           8e-14                 -1.2e-13              2.3742e-05           
  -1.9                  -2.3746e-05           -8e-14                -1.6e-13              2.3764e-05           
  -2                    -2.3768e-05           -3.6e-13              -1.2e-13              2.3786e-05           
  -2.1                  -2.3788e-05           3e-13                 -1.2e-13              2.3806e-05           
  -2.2                  -2.3808e-05           -2.2e-13              3e-13                 2.3824e-05           
  -2.3                  -2.3826e-05           -3.2e-13              1.36e-12              2.3844e-05           
  -2.4                  -2.3844e-05           -4e-14                4.1e-12               2.3862e-05           
  -2.5                  -2.3864e-05           6e-14                 1.084e-11             2.3882e-05           
  -2.6                  -2.388e-05            2e-14                 2.624e-11             2.3898e-05           
  -2.7                  -2.3898e-05           0                     5.844e-11             2.3916e-05           
  -2.8                  -2.3916e-05           -1.6e-13              1.223e-10             2.3932e-05           
  -2.9                  -2.3934e-05           1.6e-13               2.433e-10             2.395e-05            
  -3                    -2.3948e-05           -2e-13                4.6324e-10            2.3964e-05           
  -3.1                  -2.3966e-05           3e-13                 8.506e-10             2.3984e-05           
  -3.2                  -2.3986e-05           -1.8e-13              1.5172e-09            2.4e-05              
  -3.3                  -2.4002e-05           0                     2.6264e-09            2.4014e-05           
  -3.4                  -2.4018e-05           1.2e-13               4.4266e-09            2.403e-05            
  -3.5                  -2.4036e-05           -1.8e-13              7.2842e-09            2.4046e-05           
  -3.6                  -2.4056e-05           1.6e-13               1.17e-08              2.4064e-05           
END_DB

BEGIN_DB
 ICCAP_VAR vg         -2.232         
 ICCAP_VAR vb         -0             
 ICCAP_VAR vs         -0             

 #vd                    id                    ig                    ib                    is                   
  -0                    2.2402e-09            -4e-13                -2e-13                -2.5414e-09          
  -0.1                  -1.1848e-05           -5.2e-13              -1.6e-13              1.1864e-05           
  -0.2                  -2.261e-05            -8e-14                -1.4e-13              2.2626e-05           
  -0.3                  -3.2232e-05           6e-14                 -1.8e-13              3.225e-05            
  -0.4                  -4.0696e-05           -1.4e-13              -1.2e-13              4.071e-05            
  -0.5                  -4.803e-05            -2.2e-13              -8e-14                4.805e-05            
  -0.6                  -5.4228e-05           -6e-14                -1e-13                5.4244e-05           
  -0.7                  -5.9272e-05           -2e-13                -1.8e-13              5.929e-05            
  -0.8                  -6.323e-05            -2e-13                -1.4e-13              6.3252e-05           
  -0.9                  -6.615e-05            -6e-14                -1.2e-13              6.617e-05            
  -1                    -6.8116e-05           -4e-14                -6e-14                6.8138e-05           
  -1.1                  -6.934e-05            2.4e-13               -1.2e-13              6.9364e-05           
  -1.2                  -7.0054e-05           -2.2e-13              -2e-13                7.0072e-05           
  -1.3                  -7.0468e-05           -1e-13                -1.2e-13              7.0494e-05           
  -1.4                  -7.0734e-05           -2.4e-13              -1.2e-13              7.0748e-05           
  -1.5                  -7.0934e-05           4e-14                 -2e-14                7.0948e-05           
  -1.6                  -7.1086e-05           4e-14                 -8e-14                7.1114e-05           
  -1.7                  -7.1218e-05           -3e-13                -4e-14                7.124e-05            
  -1.8                  -7.1346e-05           -1.2e-13              -4e-14                7.1354e-05           
  -1.9                  -7.1428e-05           -1.2e-13              -1.4e-13              7.1452e-05           
  -2                    -7.1522e-05           4.6e-13               -8e-14                7.1546e-05           
  -2.1                  -7.1606e-05           0                     0                     7.1622e-05           
  -2.2                  -7.1678e-05           -2.2e-13              -6e-14                7.1708e-05           
  -2.3                  -7.1734e-05           2e-14                 -6e-14                7.1756e-05           
  -2.4                  -7.1802e-05           2.2e-13               6e-14                 7.182e-05            
  -2.5                  -7.1876e-05           -4e-14                0                     7.1888e-05           
  -2.6                  -7.1936e-05           6e-14                 4.2e-13               7.195e-05            
  -2.7                  -7.1992e-05           -8e-14                1.4e-12               7.201e-05            
  -2.8                  -7.2044e-05           4.2e-13               4.18e-12              7.2062e-05           
  -2.9                  -7.2102e-05           -2e-14                1.192e-11             7.2124e-05           
  -3                    -7.2152e-05           4e-14                 3.058e-11             7.2166e-05           
  -3.1                  -7.2204e-05           -2.2e-13              7.212e-11             7.222e-05            
  -3.2                  -7.2248e-05           0                     1.594e-10             7.2268e-05           
  -3.3                  -7.2304e-05           5.4e-13               3.33e-10              7.2314e-05           
  -3.4                  -7.2348e-05           -1.4e-13              6.6372e-10            7.236e-05            
  -3.5                  -7.239e-05            -3.2e-13              1.2734e-09            7.2402e-05           
  -3.6                  -7.2442e-05           1e-13                 2.3496e-09            7.2436e-05           
END_DB

BEGIN_DB
 ICCAP_VAR vg         -2.916         
 ICCAP_VAR vb         -0             
 ICCAP_VAR vs         -0             

 #vd                    id                    ig                    ib                    is                   
  -0                    1.8824e-09            -3.2e-13              -2e-13                -3.0458e-09          
  -0.1                  -1.5448e-05           -3e-13                -2e-13                1.5466e-05           
  -0.2                  -2.9998e-05           -5e-13                -2e-13                3.0014e-05           
  -0.3                  -4.3588e-05           -3.2e-13              -1.8e-13              4.3608e-05           
  -0.4                  -5.6178e-05           -2.8e-13              -1e-13                5.6194e-05           
  -0.5                  -6.7808e-05           -1e-13                -6e-14                6.7826e-05           
  -0.6                  -7.8444e-05           -4e-13                0                     7.8448e-05           
  -0.7                  -8.8044e-05           -1.4e-13              -8e-14                8.8062e-05           
  -0.8                  -9.667e-05            1.6e-13               -1.2e-13              9.6696e-05           
  -0.9                  -0.000104292          1.8e-13               -1e-13                0.000104302          
  -1                    -0.000110878          -2.2e-13              -4e-14                0.000110896          
  -1.1                  -0.00011632           -2e-13                -1.2e-13              0.00011668           
  -1.2                  -0.00012098           -4e-14                -1.8e-13              0.00012134           
  -1.3                  -0.00012472           6e-14                 -2e-14                0.00012506           
  -1.4                  -0.0001276            -8e-14                2e-14                 0.00012794           
  -1.5                  -0.00012972           -1.4e-13              -4e-14                0.00013006           
  -1.6                  -0.00013122           -2.6e-13              -6e-14                0.00013156           
  -1.7                  -0.00013224           -2.6e-13              -8e-14                0.00013258           
  -1.8                  -0.00013292           3.8e-13               -1.6e-13              0.00013328           
  -1.9                  -0.00013342           -5.4e-13              -6e-14                0.00013378           
  -2                    -0.00013382           -2.4e-13              4e-14                 0.00013416           
  -2.1                  -0.0001341            -2.2e-13              -1e-13                0.00013444           
  -2.2                  -0.00013434           -8e-14                -1e-13                0.0001347            
  -2.3                  -0.00013456           6e-14                 0                     0.0001349            
  -2.4                  -0.00013476           -8e-14                -2e-14                0.0001351            
  -2.5                  -0.00013492           -8e-14                -1e-13                0.00013526           
  -2.6                  -0.00013506           8e-14                 0                     0.00013538           
  -2.7                  -0.00013518           -1.6e-13              -8e-14                0.00013552           
  -2.8                  -0.0001353            -4e-14                -6e-14                0.00013566           
  -2.9                  -0.0001354            -3e-13                6e-14                 0.00013576           
  -3                    -0.00013554           -4e-13                2.8e-13               0.00013588           
  -3.1                  -0.00013562           -2.6e-13              1.06e-12              0.00013598           
  -3.2                  -0.00013572           0                     3.46e-12              0.00013606           
  -3.3                  -0.00013582           -1.4e-13              9.64e-12              0.00013618           
  -3.4                  -0.00013592           0                     2.516e-11             0.00013628           
  -3.5                  -0.00013602           -1.8e-13              6.12e-11              0.00013634           
  -3.6                  -0.0001361            2e-13                 1.4034e-10            0.00013646           
END_DB

BEGIN_DB
 ICCAP_VAR vg         -3.6           
 ICCAP_VAR vb         -0             
 ICCAP_VAR vs         -0             

 #vd                    id                    ig                    ib                    is                   
  -0                    2.0026e-09            -2e-13                -1e-13                -3.2666e-09          
  -0.1                  -1.8144e-05           -5e-13                -1.4e-13              1.816e-05            
  -0.2                  -3.5534e-05           -1.4e-13              -1.4e-13              3.5546e-05           
  -0.3                  -5.21e-05             -2e-13                -1.8e-13              5.2116e-05           
  -0.4                  -6.7798e-05           -4.8e-13              -1.4e-13              6.7814e-05           
  -0.5                  -8.2678e-05           -1.8e-13              -8e-14                8.27e-05             
  -0.6                  -9.671e-05            1e-13                 -1e-13                9.6732e-05           
  -0.7                  -0.000109844          -2e-13                -1e-13                0.000109866          
  -0.8                  -0.00012196           -3.8e-13              -4e-14                0.00012232           
