! VERSION = 6.00
BEGIN_HEADER
 ICCAP_INPUTS
  vg         V  G GROUND SMU2 0.001 LIN        1    0.5        -3.6       83   -0.05     
  vb         V  B GROUND SMU4 0.1 LIN        2    0          3.6        5    0.9       
  vd         V  D GROUND SMU1 0.1 LIN        3    -0.1       -3.3       3    -1.6      
  vs         V  S GROUND SMU3 0.1 CON        -0
 ICCAP_OUTPUTS
  id         I  D GROUND SMU1 B
  ig         I  G GROUND SMU2 B
  ib         I  B GROUND SMU4 B
  is         I  S GROUND SMU3 B
 ICCAP_VALUES
  MASTER_SETUP_TYPE "~dc_idvg~"
  LINVT_VALUE ""
  LISTVT_VALUE ""
  TYPE "-1"
  TEMP " 27.0000 "
  IS_TNOM " 1.00000 "
  MAIN.W "5.000u"
  MAIN.L "330.0n"
  MAIN.AD "1.700p"
  MAIN.AS "1.700p"
  MAIN.PD "10.68u"
  MAIN.PS "10.68u"
  MAIN.NF "1.000"
  MAIN.M "1"
  MAIN.NRD "0.000"
  MAIN.NRS "0.000"
  MAIN.LDRIFT1 "1E-06"
  MAIN.LDRIFT2 "1E-06"
  MAIN.SA "0.000"
  MAIN.SB "0.000"
  MAIN.SD "0.000"
  MAIN.SCA "0.000"
  MAIN.SCB "0.000"
  MAIN.SCC "0.000"
  MAIN.SC "0.000"
  MODULE "S562"
  PIN_D "14"
  PIN_G "7"
  PIN_S "8"
  PIN_B "13"
  PIN_E ""
  PIN_6 ""
  XY_ID ""
  FUNC "Additional"
  STI "SA ref"
  WPE "WPE ref"
  COMMENT ""
  DIS_MEAS ""
  TypeTCI "10"
END_HEADER

BEGIN_DB
 ICCAP_VAR vb         0              
 ICCAP_VAR vd         -0.1           
 ICCAP_VAR vs         -0             

 #vg                    id                    ig                    ib                    is                   
  0.5                   -4e-14                1.878e-11             -4.58e-12             1.4e-13              
  0.45                  -6e-14                3.02e-12              -7.2e-13              1.2e-13              
  0.4                   4e-14                 1.2e-13               -4e-14                1.6e-13              
  0.35                  4e-14                 2e-13                 4e-14                 0                    
  0.3                   0                     -1.6e-13              2e-14                 1e-13                
  0.25                  2e-14                 -2e-13                2e-14                 1e-13                
  0.2                   6e-14                 -2.8e-13              1.2e-13               1.2e-13              
  0.15                  -8e-14                -3e-13                2e-14                 1e-13                
  0.1                   2e-14                 -5.2e-13              8e-14                 1.6e-13              
  0.05                  -1.6e-13              -1.8e-13              -4e-14                2.8e-13              
  0                     -6e-13                -5.2e-13              -2e-14                8.4e-13              
  -0.05                 -1.84e-12             -5.4e-13              -2e-14                1.98e-12             
  -0.1                  -6.42e-12             -3.8e-13              -8e-14                6.52e-12             
  -0.15                 -2.176e-11            -6.8e-13              1e-13                 2.19e-11             
  -0.2                  -7.458e-11            -4.4e-13              -1.2e-13              7.482e-11            
  -0.25                 -2.5716e-10           -7.4e-13              0                     2.5702e-10           
  -0.3                  -8.9214e-10           -4.6e-13              0                     8.9198e-10           
  -0.35                 -3.1152e-09           -3.4e-13              -2e-14                3.115e-09            
  -0.4                  -1.07954e-08          -4.8e-13              -2e-14                1.07992e-08          
  -0.45                 -3.6818e-08           -3.2e-13              0                     3.685e-08            
  -0.5                  -1.2116e-07           -5.4e-13              -8e-14                1.214e-07            
  -0.55                 -3.7176e-07           -8e-13                8e-14                 3.7204e-07           
  -0.6                  -1.0038e-06           -6e-13                -1e-13                1.004e-06            
  -0.65                 -2.3038e-06           -4.4e-13              -8e-14                2.3058e-06           
  -0.7                  -4.458e-06            -6e-13                0                     4.4622e-06           
  -0.75                 -7.4306e-06           -4.4e-13              0                     7.4296e-06           
  -0.8                  -1.09682e-05          -6.4e-13              -4e-14                1.0974e-05           
  -0.85                 -1.4818e-05           -4.2e-13              -6e-14                1.484e-05            
  -0.9                  -1.8776e-05           -6.4e-13              4e-14                 1.8786e-05           
  -0.95                 -2.2712e-05           -6.4e-13              -2e-14                2.2734e-05           
  -1                    -2.6552e-05           -7.6e-13              -2e-14                2.6568e-05           
  -1.05                 -3.0292e-05           -8.2e-13              -1e-13                3.0316e-05           
  -1.1                  -3.392e-05            -9.4e-13              -8e-14                3.3942e-05           
  -1.15                 -3.7434e-05           -6.8e-13              -1.4e-13              3.7452e-05           
  -1.2                  -4.0822e-05           -8.6e-13              -1.6e-13              4.0844e-05           
  -1.25                 -4.4116e-05           -8.8e-13              0                     4.414e-05            
  -1.3                  -4.7312e-05           -7.8e-13              4e-14                 4.7324e-05           
  -1.35                 -5.0384e-05           -7.6e-13              -1.4e-13              5.0398e-05           
  -1.4                  -5.3376e-05           -8.6e-13              -2e-14                5.3388e-05           
  -1.45                 -5.6278e-05           -7.6e-13              -6e-14                5.629e-05            
  -1.5                  -5.9106e-05           -8.2e-13              0                     5.9118e-05           
  -1.55                 -6.1848e-05           -7.8e-13              -2e-14                6.1862e-05           
  -1.6                  -6.453e-05            -7.4e-13              -4e-14                6.4552e-05           
  -1.65                 -6.7132e-05           -6.6e-13              2e-14                 6.7148e-05           
  -1.7                  -6.9656e-05           -6.6e-13              0                     6.9684e-05           
  -1.75                 -7.2154e-05           -9.6e-13              0                     7.2164e-05           
  -1.8                  -7.456e-05            -7e-13                -2e-14                7.4588e-05           
  -1.85                 -7.6914e-05           -8.6e-13              -1.2e-13              7.6934e-05           
  -1.9                  -7.9206e-05           -7.2e-13              -4e-14                7.9218e-05           
  -1.95                 -8.1454e-05           -9.2e-13              -4e-14                8.1472e-05           
  -2                    -8.3622e-05           -7.4e-13              -1e-13                8.3664e-05           
  -2.05                 -8.5778e-05           -1.04e-12             0                     8.5786e-05           
  -2.1                  -8.7868e-05           -7.6e-13              -6e-14                8.7886e-05           
  -2.15                 -8.9898e-05           -9.8e-13              -8e-14                8.9908e-05           
  -2.2                  -9.1898e-05           -7.8e-13              -1.2e-13              9.191e-05            
  -2.25                 -9.3858e-05           -1.02e-12             -1.6e-13              9.3894e-05           
  -2.3                  -9.5786e-05           -8.4e-13              -8e-14                9.58e-05             
  -2.35                 -9.764e-05            -1.08e-12             -4e-14                9.7644e-05           
  -2.4                  -9.9476e-05           -9.4e-13              -1e-13                9.9492e-05           
  -2.45                 -0.00010126           -1.16e-12             -4e-14                0.000101294          
  -2.5                  -0.000103034          -9.4e-13              -1.4e-13              0.000103044          
  -2.55                 -0.000104758          -9.4e-13              -2e-14                0.000104772          
  -2.6                  -0.00010643           -7e-13                -1.2e-13              0.000106458          
  -2.65                 -0.000108102          -8.8e-13              0                     0.000108122          
  -2.7                  -0.000109706          -1.06e-12             -2e-14                0.00010972           
  -2.75                 -0.000111312          -9e-13                0                     0.00011132           
  -2.8                  -0.000112874          -1.04e-12             -8e-14                0.000112894          
  -2.85                 -0.00011441           -9.2e-13              0                     0.000114406          
  -2.9                  -0.0001157            -7.2e-13              -2e-14                0.00011608           
  -2.95                 -0.00011718           -7e-13                -6e-14                0.00011754           
  -3                    -0.00011862           -1.12e-12             -6e-14                0.00011898           
  -3.05                 -0.00012002           -7.6e-13              -6e-14                0.0001204            
  -3.1                  -0.00012142           -9.8e-13              -6e-14                0.00012178           
  -3.15                 -0.00012278           -9.2e-13              -6e-14                0.00012316           
  -3.2                  -0.00012414           -8.2e-13              -8e-14                0.00012448           
  -3.25                 -0.00012544           -1.06e-12             -4e-14                0.0001258            
  -3.3                  -0.00012674           -7.8e-13              -6e-14                0.0001271            
  -3.35                 -0.000128             -1.08e-12             -1e-13                0.00012836           
  -3.4                  -0.00012924           -1.1e-12              -4e-14                0.00012962           
  -3.45                 -0.00013048           -8.4e-13              -6e-14                0.00013082           
  -3.5                  -0.00013166           -1.22e-12             -1e-13                0.00013204           
  -3.55                 -0.00013284           -9.2e-13              -6e-14                0.0001332            
  -3.6                  -0.00013398           -1.08e-12             -1.8e-13              0.00013434           
END_DB

BEGIN_DB
 ICCAP_VAR vb         0.9            
 ICCAP_VAR vd         -0.1           
 ICCAP_VAR vs         -0             

 #vg                    id                    ig                    ib                    is                   
  0.5                   1.2e-13               7.8e-13               3e-13                 0                    
  0.45                  1.2e-13               4.2e-13               3.4e-13               2.6e-13              
  0.4                   -6e-14                3e-13                 2.4e-13               2e-14                
  0.35                  6e-14                 3e-13                 2.4e-13               2.6e-13              
  0.3                   -2e-14                2.6e-13               2.2e-13               2e-14                
  0.25                  6e-14                 -2e-14                2.6e-13               1.4e-13              
  0.2                   1.2e-13               1.4e-13               1.6e-13               -4e-14               
  0.15                  8e-14                 -2e-14                2.6e-13               4e-14                
  0.1                   0                     -1.6e-13              2.2e-13               6e-14                
  0.05                  4e-14                 2e-14                 1.6e-13               2e-13                
  0                     0                     -1.6e-13              1.6e-13               0                    
  -0.05                 8e-14                 -1.8e-13              2.2e-13               2e-14                
  -0.1                  4e-14                 -1.4e-13              8e-14                 1.4e-13              
  -0.15                 8e-14                 -4e-13                1e-13                 1.8e-13              
  -0.2                  0                     -2.4e-13              8e-14                 1.6e-13              
  -0.25                 4e-14                 -3.8e-13              1.2e-13               4e-14                
  -0.3                  2e-14                 -4.6e-13              6e-14                 3e-13                
  -0.35                 -2.2e-13              -2.6e-13              8e-14                 2.6e-13              
  -0.4                  -6e-13                -6.4e-13              1.2e-13               9.6e-13              
  -0.45                 -2.8e-12              -2.2e-13              2e-14                 2.76e-12             
  -0.5                  -1.096e-11            -6e-13                8e-14                 1.13e-11             
  -0.55                 -4.422e-11            -4.4e-13              1.2e-13               4.43e-11             
  -0.6                  -1.7592e-10           -5.8e-13              1e-13                 1.7606e-10           
  -0.65                 -6.9486e-10           -5e-13                1.4e-13               6.9506e-10           
  -0.7                  -2.7216e-09           -2.4e-13              6e-14                 2.7216e-09           
  -0.75                 -1.052e-08            -6.8e-13              8e-14                 1.05226e-08          
  -0.8                  -3.9136e-08           -2.2e-13              6e-14                 3.9144e-08           
  -0.85                 -1.37e-07             -3.4e-13              2e-14                 1.3706e-07           
  -0.9                  -4.2896e-07           -5.8e-13              -2e-14                4.2922e-07           
  -0.95                 -1.1552e-06           -4.4e-13              4e-14                 1.1582e-06           
  -1                    -2.5876e-06           -5.4e-13              0                     2.5908e-06           
  -1.05                 -4.8582e-06           -5.4e-13              0                     4.8614e-06           
  -1.1                  -7.8444e-06           -5.4e-13              2e-14                 7.8528e-06           
  -1.15                 -1.1313e-05           -6.4e-13              1.2e-13               1.13196e-05          
  -1.2                  -1.4962e-05           -4.4e-13              4e-14                 1.4978e-05           
  -1.25                 -1.8666e-05           -5.8e-13              4e-14                 1.8684e-05           
  -1.3                  -2.231e-05            -6.4e-13              -4e-14                2.2328e-05           
  -1.35                 -2.5864e-05           -6.4e-13              0                     2.5886e-05           
  -1.4                  -2.9318e-05           -9e-13                -2e-14                2.9344e-05           
  -1.45                 -3.2654e-05           -5.6e-13              -8e-14                3.2672e-05           
  -1.5                  -3.5884e-05           -8e-13                6e-14                 3.5894e-05           
  -1.55                 -3.898e-05            -7.8e-13              0                     3.9e-05              
  -1.6                  -4.1994e-05           -5.8e-13              2e-14                 4.202e-05            
  -1.65                 -4.4908e-05           -8e-13                0                     4.4924e-05           
  -1.7                  -4.7742e-05           -7e-13                8e-14                 4.7762e-05           
  -1.75                 -5.0496e-05           -6.2e-13              0                     5.0518e-05           
  -1.8                  -5.3166e-05           -7.4e-13              2e-14                 5.3194e-05           
  -1.85                 -5.5764e-05           -6.4e-13              -8e-14                5.5784e-05           
  -1.9                  -5.828e-05            -6.6e-13              2e-14                 5.8302e-05           
  -1.95                 -6.0748e-05           -7.6e-13              0                     6.0762e-05           
  -2                    -6.3132e-05           -5.6e-13              8e-14                 6.3144e-05           
  -2.05                 -6.546e-05            -9.2e-13              -4e-14                6.5478e-05           
  -2.1                  -6.7748e-05           -8e-13                2e-14                 6.776e-05            
  -2.15                 -6.9934e-05           -8.2e-13              -6e-14                6.9962e-05           
  -2.2                  -7.2114e-05           -9.2e-13              6e-14                 7.2146e-05           
  -2.25                 -7.4242e-05           -8.2e-13              -4e-14                7.4264e-05           
  -2.3                  -7.6302e-05           -9.6e-13              6e-14                 7.6322e-05           
  -2.35                 -7.8312e-05           -6.6e-13              -8e-14                7.8334e-05           
  -2.4                  -8.0304e-05           -1.12e-12             -2e-14                8.032e-05            
  -2.45                 -8.2228e-05           -8.8e-13              -2e-14                8.224e-05            
  -2.5                  -8.4122e-05           -8e-13                -8e-14                8.4136e-05           
  -2.55                 -8.5958e-05           -1.02e-12             -1.2e-13              8.598e-05            
  -2.6                  -8.7786e-05           -9.4e-13              6e-14                 8.7802e-05           
  -2.65                 -8.9566e-05           -8.8e-13              -1.8e-13              8.9584e-05           
  -2.7                  -9.129e-05            -1.04e-12             8e-14                 9.1312e-05           
  -2.75                 -9.3002e-05           -8e-13                0                     9.3028e-05           
  -2.8                  -9.4662e-05           -1.02e-12             2e-14                 9.4696e-05           
  -2.85                 -9.6318e-05           -8e-13                -6e-14                9.6338e-05           
  -2.9                  -9.7926e-05           -9e-13                -4e-14                9.7946e-05           
  -2.95                 -9.9484e-05           -8e-13                6e-14                 9.9496e-05           
  -3                    -0.000101032          -9.2e-13              -6e-14                0.00010106           
  -3.05                 -0.000102542          -9.2e-13              -8e-14                0.000102564          
  -3.1                  -0.000104036          -9.8e-13              6e-14                 0.000104042          
  -3.15                 -0.00010548           -8.8e-13              0                     0.000105496          
  -3.2                  -0.00010692           -9.2e-13              0                     0.00010694           
  -3.25                 -0.00010832           -9e-13                0                     0.000108336          
  -3.3                  -0.000109688          -1.02e-12             -8e-14                0.00010971           
  -3.35                 -0.000111058          -1.08e-12             0                     0.000111074          
  -3.4                  -0.000112364          -9.2e-13              -6e-14                0.00011238           
  -3.45                 -0.000113658          -1.06e-12             -6e-14                0.000113688          
