! VERSION = 6.00
BEGIN_HEADER
 ICCAP_INPUTS
  vd         V  D GROUND SMU1 0.1 LIN        1    -0         -3.6       37   -0.1      
  vg         V  G GROUND SMU2 0.001 LIN        2    -1.944     -3.6       5    -0.414    
  vb         V  B GROUND SMU4 0.1 CON        3.6
  vs         V  S GROUND SMU3 0.1 CON        -0
 ICCAP_OUTPUTS
  id         I  D GROUND SMU1 B
  ig         I  G GROUND SMU2 B
  ib         I  B GROUND SMU4 B
  is         I  S GROUND SMU3 B
 ICCAP_VALUES
  MASTER_SETUP_TYPE "~dc_idvd~"
  LINVT_VALUE "|idvg|100.0n|100.0m|1.000m|5|3.600|"
  LISTVT_VALUE ""
  TYPE "-1"
  TEMP " 70.0000 "
  IS_TNOM " 0.00000 "
  MAIN.W "2.000u"
  MAIN.L "1.200u"
  MAIN.AD "680.0f"
  MAIN.AS "680.0f"
  MAIN.PD "4.680u"
  MAIN.PS "4.680u"
  MAIN.NF "1.000"
  MAIN.M "1"
  MAIN.NRD "0.000"
  MAIN.NRS "0.000"
  MAIN.LDRIFT1 "1E-06"
  MAIN.LDRIFT2 "1E-06"
  MAIN.SA "0.000"
  MAIN.SB "0.000"
  MAIN.SD "0.000"
  MAIN.SCA "0.000"
  MAIN.SCB "0.000"
  MAIN.SCC "0.000"
  MAIN.SC "0.000"
  MODULE "S563"
  PIN_D "16"
  PIN_G "5"
  PIN_S "6"
  PIN_B "15"
  PIN_E ""
  PIN_6 ""
  XY_ID ""
  FUNC "LW Scale"
  STI "SA ref"
  WPE "WPE ref"
  COMMENT ""
  DIS_MEAS ""
  TypeTCI "10"
END_HEADER

BEGIN_DB
 ICCAP_VAR vg         -1.944         
 ICCAP_VAR vb         3.6            
 ICCAP_VAR vs         -0             

 #vd                    id                    ig                    ib                    is                   
  -0                    2.0584e-10            -9.6e-13              1.18e-11              -2.6164e-10          
  -0.1                  -4.4912e-07           -6.4e-13              1.18e-11              4.4906e-07           
  -0.2                  -5.7282e-07           -4.6e-13              1.176e-11             5.7332e-07           
  -0.3                  -5.9144e-07           -6.2e-13              1.168e-11             5.924e-07            
  -0.4                  -5.955e-07            -5.6e-13              1.17e-11              5.9572e-07           
  -0.5                  -5.9698e-07           -5.2e-13              1.18e-11              5.9718e-07           
  -0.6                  -5.983e-07            -4.2e-13              1.17e-11              5.9872e-07           
  -0.7                  -5.9952e-07           -4.6e-13              1.164e-11             5.9972e-07           
  -0.8                  -5.9984e-07           -4.4e-13              1.178e-11             6.0044e-07           
  -0.9                  -6.0122e-07           -3e-13                1.162e-11             6.0126e-07           
  -1                    -6.016e-07            -4e-13                1.166e-11             6.0174e-07           
  -1.1                  -6.0268e-07           -4.2e-13              1.168e-11             6.0236e-07           
  -1.2                  -6.0292e-07           -3e-13                1.172e-11             6.0296e-07           
  -1.3                  -6.039e-07            -2.8e-13              1.156e-11             6.0332e-07           
  -1.4                  -6.039e-07            -2.8e-13              1.162e-11             6.04e-07             
  -1.5                  -6.0474e-07           -2.8e-13              1.16e-11              6.049e-07            
  -1.6                  -6.0512e-07           -2e-13                1.152e-11             6.0552e-07           
  -1.7                  -6.0564e-07           -2e-13                1.15e-11              6.0566e-07           
  -1.8                  -6.0618e-07           -2.4e-13              1.16e-11              6.063e-07            
  -1.9                  -6.0646e-07           -8e-14                1.15e-11              6.0616e-07           
  -2                    -6.0666e-07           -2.8e-13              1.158e-11             6.066e-07            
  -2.1                  -6.0726e-07           -2.8e-13              1.148e-11             6.0714e-07           
  -2.2                  -6.0748e-07           2e-14                 1.158e-11             6.0802e-07           
  -2.3                  -6.08e-07             -2.8e-13              1.178e-11             6.0808e-07           
  -2.4                  -6.0852e-07           -1.6e-13              1.182e-11             6.0864e-07           
  -2.5                  -6.0884e-07           -3.2e-13              1.248e-11             6.0872e-07           
  -2.6                  -6.093e-07            -1e-13                1.346e-11             6.0906e-07           
  -2.7                  -6.0968e-07           -1.6e-13              1.56e-11              6.0966e-07           
  -2.8                  -6.1012e-07           -1.6e-13              1.944e-11             6.1088e-07           
  -2.9                  -6.1068e-07           -1.4e-13              2.61e-11              6.108e-07            
  -3                    -6.1084e-07           -1e-13                3.76e-11              6.1094e-07           
  -3.1                  -6.1074e-07           -1.4e-13              5.69e-11              6.1114e-07           
  -3.2                  -6.1184e-07           -2.4e-13              8.896e-11             6.1172e-07           
  -3.3                  -6.1204e-07           -1.2e-13              1.4076e-10            6.1226e-07           
  -3.4                  -6.1272e-07           -6e-14                2.2244e-10            6.1268e-07           
  -3.5                  -6.125e-07            -1.6e-13              3.4896e-10            6.1272e-07           
  -3.6                  -6.133e-07            -1.4e-13              5.4156e-10            6.1272e-07           
END_DB

BEGIN_DB
 ICCAP_VAR vg         -2.358         
 ICCAP_VAR vb         3.6            
 ICCAP_VAR vs         -0             

 #vd                    id                    ig                    ib                    is                   
  -0                    8.2934e-10            -4.2e-13              1.056e-11             -7.845e-10           
  -0.1                  -2.2236e-06           -3.4e-13              1.076e-11             2.227e-06            
  -0.2                  -3.9094e-06           -2.4e-13              1.084e-11             3.9124e-06           
  -0.3                  -5.0732e-06           -2.8e-13              1.068e-11             5.0772e-06           
  -0.4                  -5.7702e-06           -2.8e-13              1.084e-11             5.7734e-06           
  -0.5                  -6.1118e-06           -3.4e-13              1.094e-11             6.1174e-06           
  -0.6                  -6.2514e-06           -2.2e-13              1.094e-11             6.2552e-06           
  -0.7                  -6.3036e-06           -1.8e-13              1.106e-11             6.3108e-06           
  -0.8                  -6.3346e-06           -1.8e-13              1.096e-11             6.3408e-06           
  -0.9                  -6.355e-06            -1.6e-13              1.112e-11             6.3568e-06           
  -1                    -6.367e-06            -1.8e-13              1.1e-11               6.371e-06            
  -1.1                  -6.3812e-06           -2.2e-13              1.11e-11              6.3822e-06           
  -1.2                  -6.3886e-06           -2e-14                1.106e-11             6.3934e-06           
  -1.3                  -6.398e-06            -2e-13                1.094e-11             6.4022e-06           
  -1.4                  -6.4068e-06           -3.4e-13              1.1e-11               6.4108e-06           
  -1.5                  -6.4152e-06           -1.4e-13              1.102e-11             6.4182e-06           
  -1.6                  -6.4218e-06           -3e-13                1.112e-11             6.425e-06            
  -1.7                  -6.43e-06             -1.2e-13              1.11e-11              6.4316e-06           
  -1.8                  -6.4352e-06           -2.2e-13              1.11e-11              6.4394e-06           
  -1.9                  -6.442e-06            -1e-13                1.11e-11              6.4474e-06           
  -2                    -6.4498e-06           -1.6e-13              1.11e-11              6.4526e-06           
  -2.1                  -6.454e-06            -2.2e-13              1.108e-11             6.4568e-06           
  -2.2                  -6.4612e-06           -1.2e-13              1.102e-11             6.4634e-06           
  -2.3                  -6.4672e-06           -2.8e-13              1.114e-11             6.4698e-06           
  -2.4                  -6.4706e-06           -1.6e-13              1.126e-11             6.4744e-06           
  -2.5                  -6.4758e-06           -1.6e-13              1.164e-11             6.4788e-06           
  -2.6                  -6.4812e-06           -1.8e-13              1.254e-11             6.4838e-06           
  -2.7                  -6.4862e-06           -2e-13                1.458e-11             6.4872e-06           
  -2.8                  -6.4888e-06           -2.8e-13              1.88e-11              6.494e-06            
  -2.9                  -6.4938e-06           -6e-14                2.712e-11             6.4968e-06           
  -3                    -6.4978e-06           -1.4e-13              4.326e-11             6.499e-06            
  -3.1                  -6.4994e-06           -1.4e-13              7.302e-11             6.5026e-06           
  -3.2                  -6.5042e-06           -6e-14                1.2654e-10            6.509e-06            
  -3.3                  -6.5124e-06           -8e-14                2.215e-10             6.5162e-06           
  -3.4                  -6.517e-06            -4e-14                3.822e-10             6.5196e-06           
  -3.5                  -6.5188e-06           -2.6e-13              6.5036e-10            6.521e-06            
  -3.6                  -6.524e-06            -1.6e-13              1.09126e-09           6.527e-06            
END_DB

BEGIN_DB
 ICCAP_VAR vg         -2.772         
 ICCAP_VAR vb         3.6            
 ICCAP_VAR vs         -0             

 #vd                    id                    ig                    ib                    is                   
  -0                    1.2252e-09            -5.4e-13              1.056e-11             -1.12186e-09         
  -0.1                  -3.9386e-06           -1.8e-13              1.056e-11             3.9414e-06           
  -0.2                  -7.3778e-06           -3.2e-13              1.07e-11              7.3808e-06           
  -0.3                  -1.03038e-05          -3.2e-13              1.074e-11             1.0306e-05           
  -0.4                  -1.2714e-05           -3.2e-13              1.074e-11             1.272e-05            
  -0.5                  -1.463e-05            -2.2e-13              1.074e-11             1.4638e-05           
  -0.6                  -1.6068e-05           -2.4e-13              1.082e-11             1.6074e-05           
  -0.7                  -1.7064e-05           -2.4e-13              1.08e-11              1.7072e-05           
  -0.8                  -1.7692e-05           -2.8e-13              1.086e-11             1.7698e-05           
  -0.9                  -1.8054e-05           -2.4e-13              1.082e-11             1.8062e-05           
  -1                    -1.8248e-05           -1.8e-13              1.1e-11               1.8256e-05           
  -1.1                  -1.8352e-05           -2.8e-13              1.084e-11             1.836e-05            
  -1.2                  -1.8422e-05           -2.8e-13              1.08e-11              1.8432e-05           
  -1.3                  -1.8474e-05           -3e-13                1.092e-11             1.8476e-05           
  -1.4                  -1.8506e-05           -2.2e-13              1.098e-11             1.8516e-05           
  -1.5                  -1.8542e-05           -1.4e-13              1.084e-11             1.8554e-05           
  -1.6                  -1.8574e-05           -1.8e-13              1.09e-11              1.8582e-05           
  -1.7                  -1.86e-05             -1.4e-13              1.08e-11              1.8606e-05           
  -1.8                  -1.8624e-05           -1.8e-13              1.09e-11              1.8634e-05           
  -1.9                  -1.8648e-05           -2.8e-13              1.088e-11             1.8656e-05           
  -2                    -1.867e-05            -1.6e-13              1.09e-11              1.8676e-05           
  -2.1                  -1.869e-05            -1.6e-13              1.092e-11             1.8698e-05           
  -2.2                  -1.871e-05            6e-14                 1.1e-11               1.8712e-05           
  -2.3                  -1.8728e-05           -2e-14                1.09e-11              1.8734e-05           
  -2.4                  -1.874e-05            -2e-13                1.086e-11             1.875e-05            
  -2.5                  -1.876e-05            -1.6e-13              1.09e-11              1.8764e-05           
  -2.6                  -1.8774e-05           -2.4e-13              1.122e-11             1.8776e-05           
  -2.7                  -1.8784e-05           -1e-13                1.142e-11             1.8798e-05           
  -2.8                  -1.8806e-05           -1.6e-13              1.23e-11              1.8812e-05           
  -2.9                  -1.8822e-05           -2.4e-13              1.44e-11              1.8826e-05           
  -3                    -1.8838e-05           -1e-13                1.884e-11             1.8846e-05           
  -3.1                  -1.8858e-05           -6e-14                2.786e-11             1.8858e-05           
  -3.2                  -1.8872e-05           -1.2e-13              4.616e-11             1.8882e-05           
  -3.3                  -1.888e-05            -4e-14                8.156e-11             1.8888e-05           
  -3.4                  -1.8892e-05           -1.2e-13              1.4788e-10            1.89e-05             
  -3.5                  -1.8906e-05           -1.8e-13              2.702e-10             1.891e-05            
  -3.6                  -1.8922e-05           -8e-14                4.8766e-10            1.8924e-05           
END_DB

BEGIN_DB
 ICCAP_VAR vg         -3.186         
 ICCAP_VAR vb         3.6            
 ICCAP_VAR vs         -0             

 #vd                    id                    ig                    ib                    is                   
  -0                    1.5888e-09            -3.4e-13              1.048e-11             -1.3876e-09          
  -0.1                  -5.4678e-06           -3e-13                1.06e-11              5.4722e-06           
  -0.2                  -1.04826e-05          -3e-13                1.058e-11             1.04888e-05          
  -0.3                  -1.5022e-05           -2.6e-13              1.058e-11             1.5024e-05           
  -0.4                  -1.907e-05            -3.8e-13              1.07e-11              1.9078e-05           
  -0.5                  -2.265e-05            -4e-13                1.066e-11             2.266e-05            
  -0.6                  -2.5758e-05           -2.2e-13              1.08e-11              2.5758e-05           
  -0.7                  -2.8376e-05           -2.2e-13              1.072e-11             2.8382e-05           
  -0.8                  -3.0532e-05           -1e-13                1.08e-11              3.0538e-05           
  -0.9                  -3.2236e-05           -3.6e-13              1.084e-11             3.225e-05            
  -1                    -3.3532e-05           -2.2e-13              1.082e-11             3.3542e-05           
  -1.1                  -3.4452e-05           -1.6e-13              1.086e-11             3.447e-05            
  -1.2                  -3.5082e-05           -2.6e-13              1.066e-11             3.5078e-05           
  -1.3                  -3.548e-05            -2.4e-13              1.078e-11             3.5482e-05           
  -1.4                  -3.5734e-05           -1.4e-13              1.082e-11             3.574e-05            
  -1.5                  -3.5896e-05           -2.4e-13              1.084e-11             3.5914e-05           
  -1.6                  -3.6014e-05           -1.6e-13              1.088e-11             3.6016e-05           
  -1.7                  -3.6094e-05           -2.2e-13              1.09e-11              3.6112e-05           
  -1.8                  -3.6174e-05           -2.8e-13              1.076e-11             3.6192e-05           
  -1.9                  -3.625e-05            -2e-13                1.084e-11             3.6258e-05           
  -2                    -3.6306e-05           -3e-13                1.084e-11             3.6302e-05           
  -2.1                  -3.635e-05            -1.8e-13              1.088e-11             3.6352e-05           
  -2.2                  -3.6408e-05           -2.6e-13              1.082e-11             3.6406e-05           
  -2.3                  -3.6438e-05           -1e-13                1.076e-11             3.6452e-05           
  -2.4                  -3.6484e-05           -2.2e-13              1.076e-11             3.6496e-05           
  -2.5                  -3.6528e-05           -2.2e-13              1.086e-11             3.6532e-05           
  -2.6                  -3.6568e-05           -2e-13                1.086e-11             3.6572e-05           
  -2.7                  -3.6602e-05           -8e-14                1.088e-11             3.6608e-05           
  -2.8                  -3.6634e-05           -1.4e-13              1.094e-11             3.6636e-05           
  -2.9                  -3.6666e-05           -1e-13                1.122e-11             3.6668e-05           
  -3                    -3.6696e-05           -3.2e-13              1.172e-11             3.6706e-05           
  -3.1                  -3.6728e-05           -1.8e-13              1.318e-11             3.6744e-05           
  -3.2                  -3.6756e-05           -2.2e-13              1.644e-11             3.6766e-05           
  -3.3                  -3.6792e-05           -1.2e-13              2.34e-11              3.6796e-05           
  -3.4                  -3.6816e-05           -1.4e-13              3.768e-11             3.6818e-05           
  -3.5                  -3.6838e-05           -2.2e-13              6.624e-11             3.6844e-05           
  -3.6                  -3.687e-05            -1.6e-13              1.2236e-10            3.6872e-05           
END_DB

BEGIN_DB
 ICCAP_VAR vg         -3.6           
 ICCAP_VAR vb         3.6            
 ICCAP_VAR vs         -0             

 #vd                    id                    ig                    ib                    is                   
  -0                    1.7188e-09            -4.2e-13              1.026e-11             -1.6342e-09          
  -0.1                  -6.8292e-06           -4.2e-13              1.046e-11             6.8324e-06           
  -0.2                  -1.3244e-05           -3.2e-13              1.054e-11             1.325e-05            
  -0.3                  -1.9224e-05           -3e-13                1.052e-11             1.9232e-05           
  -0.4                  -2.4752e-05           -3.6e-13              1.056e-11             2.4758e-05           
  -0.5                  -2.9844e-05           -3.2e-13              1.062e-11             2.9852e-05           
  -0.6                  -3.4486e-05           -2.4e-13              1.07e-11              3.4496e-05           
  -0.7                  -3.8672e-05           -2.4e-13              1.072e-11             3.8686e-05           
  -0.8                  -4.2412e-05           -2.6e-13              1.074e-11             4.2428e-05           
