! VERSION = 6.00
BEGIN_HEADER
 ICCAP_INPUTS
  vd         V  D GROUND SMU1 0.1 LIN        1    -0         -3.6       37   -0.1      
  vg         V  G GROUND SMU2 0.001 LIN        2    -0.8       -3.6       5    -0.7      
  vb         V  B GROUND SMU4 0.1 CON        -0
  vs         V  S GROUND SMU3 0.1 CON        -0
 ICCAP_OUTPUTS
  id         I  D GROUND SMU1 B
  ig         I  G GROUND SMU2 B
  ib         I  B GROUND SMU4 B
  is         I  S GROUND SMU3 B
 ICCAP_VALUES
  MASTER_SETUP_TYPE "~dc_idvd~"
  LINVT_VALUE "|idvg|100.0n|100.0m|1.000m|5|3.600|"
  LISTVT_VALUE ""
  TYPE "-1"
  TEMP " 27.0000 "
  IS_TNOM " 1.00000 "
  MAIN.W "10.00u"
  MAIN.L "5.000u"
  MAIN.AD "3.400p"
  MAIN.AS "3.400p"
  MAIN.PD "20.68u"
  MAIN.PS "20.68u"
  MAIN.NF "1.000"
  MAIN.M "1"
  MAIN.NRD "0.000"
  MAIN.NRS "0.000"
  MAIN.LDRIFT1 "1E-06"
  MAIN.LDRIFT2 "1E-06"
  MAIN.SA "0.000"
  MAIN.SB "0.000"
  MAIN.SD "0.000"
  MAIN.SCA "0.000"
  MAIN.SCB "0.000"
  MAIN.SCC "0.000"
  MAIN.SC "0.000"
  MODULE "S562"
  PIN_D "18"
  PIN_G "3"
  PIN_S "4"
  PIN_B "17"
  PIN_E ""
  PIN_6 ""
  XY_ID ""
  FUNC "L Scale"
  STI "SA ref"
  WPE "WPE ref"
  COMMENT ""
  DIS_MEAS ""
  TypeTCI "10"
END_HEADER

BEGIN_DB
 ICCAP_VAR vg         -0.8           
 ICCAP_VAR vb         -0             
 ICCAP_VAR vs         -0             

 #vd                    id                    ig                    ib                    is                   
  -0                    4.8436e-10            -1.2e-13              -1.02e-12             -6.0156e-10          
  -0.1                  -6.578e-07            -2e-14                -1e-12                6.5806e-07           
  -0.2                  -7.4696e-07           4e-14                 -8.6e-13              7.473e-07            
  -0.3                  -7.511e-07            6e-14                 -8.6e-13              7.5142e-07           
  -0.4                  -7.518e-07            8e-14                 -7.8e-13              7.521e-07            
  -0.5                  -7.522e-07            1e-13                 -6.6e-13              7.5258e-07           
  -0.6                  -7.5256e-07           -2e-14                -7e-13                7.5286e-07           
  -0.7                  -7.5288e-07           6e-14                 -5.2e-13              7.5316e-07           
  -0.8                  -7.5312e-07           1.8e-13               -6e-13                7.5344e-07           
  -0.9                  -7.5338e-07           8e-14                 -7.6e-13              7.536e-07            
  -1                    -7.535e-07            1.6e-13               -6.2e-13              7.5376e-07           
  -1.1                  -7.537e-07            1.6e-13               -6.2e-13              7.54e-07             
  -1.2                  -7.5388e-07           1.2e-13               -5.8e-13              7.5422e-07           
  -1.3                  -7.541e-07            6e-14                 -5e-13                7.5438e-07           
  -1.4                  -7.5424e-07           -2e-14                -5.4e-13              7.5456e-07           
  -1.5                  -7.5438e-07           1.2e-13               -6.2e-13              7.5462e-07           
  -1.6                  -7.545e-07            8e-14                 -5.4e-13              7.5488e-07           
  -1.7                  -7.5476e-07           1e-13                 -5.8e-13              7.5498e-07           
  -1.8                  -7.5488e-07           1.6e-13               -5e-13                7.5514e-07           
  -1.9                  -7.549e-07            2.2e-13               -2e-14                7.5526e-07           
  -2                    -7.5504e-07           6e-14                 3.2e-13               7.5538e-07           
  -2.1                  -7.552e-07            6e-14                 1.42e-12              7.5558e-07           
  -2.2                  -7.5534e-07           1.8e-13               3.08e-12              7.5562e-07           
  -2.3                  -7.5552e-07           1.2e-13               6.26e-12              7.5578e-07           
  -2.4                  -7.5556e-07           1.4e-13               1.216e-11             7.5584e-07           
  -2.5                  -7.5572e-07           1.2e-13               2.232e-11             7.5596e-07           
  -2.6                  -7.5582e-07           1.6e-13               3.918e-11             7.5602e-07           
  -2.7                  -7.5594e-07           1.8e-13               6.67e-11              7.562e-07            
  -2.8                  -7.5618e-07           1.6e-13               1.1044e-10            7.5636e-07           
  -2.9                  -7.5638e-07           -2e-14                1.788e-10             7.5652e-07           
  -3                    -7.566e-07            6e-14                 2.8286e-10            7.5664e-07           
  -3.1                  -7.569e-07            1e-13                 4.382e-10             7.5668e-07           
  -3.2                  -7.5718e-07           4e-14                 6.6672e-10            7.5682e-07           
  -3.3                  -7.5762e-07           1.2e-13               9.9586e-10            7.5688e-07           
  -3.4                  -7.5826e-07           1.4e-13               1.461e-09             7.5692e-07           
  -3.5                  -7.5894e-07           1.8e-13               2.1078e-09            7.5708e-07           
  -3.6                  -7.5992e-07           -2e-14                2.9926e-09            7.5728e-07           
END_DB

BEGIN_DB
 ICCAP_VAR vg         -1.5           
 ICCAP_VAR vb         -0             
 ICCAP_VAR vs         -0             

 #vd                    id                    ig                    ib                    is                   
  -0                    2.3654e-09            -2.4e-13              -3.2e-13              -2.308e-09           
  -0.1                  -5.981e-06            -8e-14                -2.4e-13              5.9848e-06           
  -0.2                  -1.0805e-05           -6e-14                -3.2e-13              1.08088e-05          
  -0.3                  -1.446e-05            -1.6e-13              -2.8e-13              1.448e-05            
  -0.4                  -1.6988e-05           4e-14                 -2.2e-13              1.7008e-05           
  -0.5                  -1.8452e-05           -1.2e-13              -2.6e-13              1.8472e-05           
  -0.6                  -1.9044e-05           -1.4e-13              -2.6e-13              1.9064e-05           
  -0.7                  -1.9184e-05           -2.2e-13              -2.6e-13              1.9204e-05           
  -0.8                  -1.9218e-05           -1.2e-13              -2.8e-13              1.9238e-05           
  -0.9                  -1.9234e-05           -1.6e-13              -2.4e-13              1.9254e-05           
  -1                    -1.9244e-05           0                     -2.8e-13              1.9264e-05           
  -1.1                  -1.9252e-05           -1.2e-13              -2.6e-13              1.9274e-05           
  -1.2                  -1.926e-05            -1.6e-13              -1.2e-13              1.928e-05            
  -1.3                  -1.9266e-05           -1e-13                -1.8e-13              1.9286e-05           
  -1.4                  -1.9272e-05           4e-14                 -2.8e-13              1.9292e-05           
  -1.5                  -1.9278e-05           -2e-14                -2e-13                1.9298e-05           
  -1.6                  -1.9282e-05           -4e-14                -1.8e-13              1.9302e-05           
  -1.7                  -1.9286e-05           2e-14                 -1.4e-13              1.9308e-05           
  -1.8                  -1.929e-05            -4e-14                -1.4e-13              1.9312e-05           
  -1.9                  -1.9296e-05           1.2e-13               -1.4e-13              1.9316e-05           
  -2                    -1.93e-05             2e-14                 -1.2e-13              1.932e-05            
  -2.1                  -1.9304e-05           8e-14                 -4e-14                1.9324e-05           
  -2.2                  -1.9306e-05           4e-14                 4.6e-13               1.9326e-05           
  -2.3                  -1.931e-05            6e-14                 1.74e-12              1.933e-05            
  -2.4                  -1.9314e-05           -8e-14                4.52e-12              1.9334e-05           
  -2.5                  -1.9318e-05           0                     1.126e-11             1.9338e-05           
  -2.6                  -1.932e-05            8e-14                 2.616e-11             1.9342e-05           
  -2.7                  -1.9324e-05           0                     5.588e-11             1.9346e-05           
  -2.8                  -1.9328e-05           2e-14                 1.1288e-10            1.9348e-05           
  -2.9                  -1.933e-05            1e-13                 2.17e-10              1.935e-05            
  -3                    -1.9332e-05           -2e-14                4.0072e-10            1.9352e-05           
  -3.1                  -1.9338e-05           -4e-14                7.149e-10             1.9358e-05           
  -3.2                  -1.9342e-05           -2e-14                1.2406e-09            1.936e-05            
  -3.3                  -1.9346e-05           -4e-14                2.0944e-09            1.9364e-05           
  -3.4                  -1.935e-05            0                     3.4494e-09            1.9366e-05           
  -3.5                  -1.9356e-05           8e-14                 5.5606e-09            1.937e-05            
  -3.6                  -1.936e-05            6e-14                 8.7738e-09            1.9372e-05           
END_DB

BEGIN_DB
 ICCAP_VAR vg         -2.2           
 ICCAP_VAR vb         -0             
 ICCAP_VAR vs         -0             

 #vd                    id                    ig                    ib                    is                   
  -0                    2.9916e-09            -3.2e-13              -2.8e-13              -3.5158e-09          
  -0.1                  -1.045e-05            -1.8e-13              -2.2e-13              1.047e-05            
  -0.2                  -1.991e-05            -2.2e-13              -1.8e-13              1.993e-05            
  -0.3                  -2.8348e-05           -2.4e-13              -2.4e-13              2.8368e-05           
  -0.4                  -3.5754e-05           -1.6e-13              -1.4e-13              3.5774e-05           
  -0.5                  -4.2162e-05           -2.8e-13              -4e-14                4.2184e-05           
  -0.6                  -4.7564e-05           -1.8e-13              -1e-13                4.7586e-05           
  -0.7                  -5.1952e-05           -1e-13                -1.8e-13              5.1972e-05           
  -0.8                  -5.535e-05            -1e-13                0                     5.5372e-05           
  -0.9                  -5.778e-05            -1.6e-13              -4e-14                5.78e-05             
  -1                    -5.9298e-05           -1.8e-13              -1.8e-13              5.932e-05            
  -1.1                  -6.0066e-05           -2.2e-13              -1.2e-13              6.0084e-05           
  -1.2                  -6.0364e-05           -4e-14                -2e-14                6.0384e-05           
  -1.3                  -6.0476e-05           -4e-14                -1.6e-13              6.0498e-05           
  -1.4                  -6.0534e-05           -1e-13                -8e-14                6.0556e-05           
  -1.5                  -6.057e-05            -6e-14                4e-14                 6.0592e-05           
  -1.6                  -6.0602e-05           -6e-14                2e-14                 6.0624e-05           
  -1.7                  -6.0626e-05           -1.2e-13              -4e-14                6.0646e-05           
  -1.8                  -6.0648e-05           -1.4e-13              -1.4e-13              6.0668e-05           
  -1.9                  -6.0666e-05           -8e-14                -1e-13                6.0686e-05           
  -2                    -6.0682e-05           -6e-14                -2e-14                6.0704e-05           
  -2.1                  -6.07e-05             -1e-13                -4e-14                6.072e-05            
  -2.2                  -6.0714e-05           -4e-14                0                     6.0734e-05           
  -2.3                  -6.0728e-05           0                     -8e-14                6.0748e-05           
  -2.4                  -6.0742e-05           -4e-14                -4e-14                6.076e-05            
  -2.5                  -6.075e-05            0                     -1e-13                6.077e-05            
  -2.6                  -6.0762e-05           -2e-14                8e-14                 6.0784e-05           
  -2.7                  -6.0774e-05           -4e-14                7.4e-13               6.0796e-05           
  -2.8                  -6.0784e-05           -4e-14                2.72e-12              6.0804e-05           
  -2.9                  -6.0794e-05           0                     7.42e-12              6.0816e-05           
  -3                    -6.0806e-05           -6e-14                1.938e-11             6.0826e-05           
  -3.1                  -6.0816e-05           -2e-14                4.622e-11             6.0836e-05           
  -3.2                  -6.0826e-05           -4e-14                1.0278e-10            6.0844e-05           
  -3.3                  -6.0834e-05           -1.4e-13              2.1514e-10            6.0858e-05           
  -3.4                  -6.0846e-05           -2e-14                4.2748e-10            6.0864e-05           
  -3.5                  -6.0856e-05           0                     8.1456e-10            6.0876e-05           
  -3.6                  -6.0866e-05           8e-14                 1.4962e-09            6.0886e-05           
END_DB

BEGIN_DB
 ICCAP_VAR vg         -2.9           
 ICCAP_VAR vb         -0             
 ICCAP_VAR vs         -0             

 #vd                    id                    ig                    ib                    is                   
  -0                    2.5392e-09            -4.8e-13              -1.8e-13              -4.0268e-09          
  -0.1                  -1.4008e-05           -3.2e-13              -1.2e-13              1.4028e-05           
  -0.2                  -2.716e-05            -1.4e-13              -8e-14                2.718e-05            
  -0.3                  -3.9416e-05           -3e-13                -2e-14                3.9436e-05           
  -0.4                  -5.0758e-05           -2.4e-13              1e-13                 5.0778e-05           
  -0.5                  -6.1238e-05           -1.8e-13              1e-13                 6.126e-05            
  -0.6                  -7.0834e-05           -2.4e-13              -1e-13                7.0856e-05           
  -0.7                  -7.9528e-05           -1.8e-13              -1e-13                7.9546e-05           
  -0.8                  -8.7348e-05           -1.6e-13              -2e-14                8.7368e-05           
  -0.9                  -9.4276e-05           -1.2e-13              4e-14                 9.4298e-05           
  -1                    -0.000100302          -2.2e-13              4e-14                 0.000100322          
  -1.1                  -0.00010545           -1e-13                0                     0.00010547           
  -1.2                  -0.000109708          -1.2e-13              -8e-14                0.00010973           
  -1.3                  -0.00011309           -1.4e-13              -8e-14                0.000113112          
  -1.4                  -0.00011544           -2e-13                -2e-14                0.0001158            
  -1.5                  -0.00011716           -6e-14                0                     0.00011752           
  -1.6                  -0.0001182            -2e-14                -2e-14                0.00011856           
  -1.7                  -0.00011874           -2e-13                0                     0.0001191            
  -1.8                  -0.00011898           -2e-14                -4e-14                0.00011934           
  -1.9                  -0.00011912           -1e-13                -8e-14                0.00011948           
  -2                    -0.0001192            -1.4e-13              -6e-14                0.00011956           
  -2.1                  -0.00011928           -1.2e-13              6e-14                 0.00011964           
  -2.2                  -0.00011932           2e-14                 2e-14                 0.0001197            
  -2.3                  -0.00011936           -1.2e-13              -4e-14                0.00011974           
  -2.4                  -0.00011942           0                     -2e-14                0.00011978           
  -2.5                  -0.00011944           8e-14                 -2e-14                0.0001198            
  -2.6                  -0.00011948           -1e-13                -1.2e-13              0.00011984           
  -2.7                  -0.0001195            -1.2e-13              2e-14                 0.00011988           
  -2.8                  -0.00011952           0                     -2e-14                0.0001199            
  -2.9                  -0.00011956           -8e-14                -8e-14                0.00011992           
  -3                    -0.00011958           -1.6e-13              -2e-14                0.00011994           
  -3.1                  -0.0001196            -6e-14                2e-13                 0.00011998           
  -3.2                  -0.00011962           -2e-14                8.4e-13               0.00011998           
  -3.3                  -0.00011964           -1e-13                2.46e-12              0.00012002           
  -3.4                  -0.00011966           -8e-14                7.34e-12              0.00012004           
  -3.5                  -0.00011968           4e-14                 1.984e-11             0.00012006           
  -3.6                  -0.0001197            -8e-14                4.908e-11             0.00012008           
END_DB

BEGIN_DB
 ICCAP_VAR vg         -3.6           
 ICCAP_VAR vb         -0             
 ICCAP_VAR vs         -0             

 #vd                    id                    ig                    ib                    is                   
  -0                    2.303e-09             -3.6e-13              -1.6e-13              -4.6526e-09          
  -0.1                  -1.6838e-05           -3.8e-13              -1.2e-13              1.6858e-05           
  -0.2                  -3.293e-05            -3e-13                -6e-14                3.2952e-05           
  -0.3                  -4.8236e-05           -3.4e-13              -1e-13                4.8256e-05           
  -0.4                  -6.2726e-05           -1.4e-13              -6e-14                6.2748e-05           
  -0.5                  -7.647e-05            -2.2e-13              2e-14                 7.6492e-05           
  -0.6                  -8.944e-05            -2e-13                -4e-14                8.9462e-05           
  -0.7                  -0.000101604          -2e-13                -8e-14                0.00010163           
  -0.8                  -0.000113016          -2.6e-13              -6e-14                0.00011304           
