! VERSION = 6.00
BEGIN_HEADER
 ICCAP_INPUTS
  vd         V  D GROUND SMU1 0.1 LIN        1    -0         -3.6       37   -0.1      
  vg         V  G GROUND SMU2 0.001 LIN        2    -1.976     -3.6       5    -0.406    
  vb         V  B GROUND SMU4 0.1 CON        3.6
  vs         V  S GROUND SMU3 0.1 CON        -0
 ICCAP_OUTPUTS
  id         I  D GROUND SMU1 B
  ig         I  G GROUND SMU2 B
  ib         I  B GROUND SMU4 B
  is         I  S GROUND SMU3 B
 ICCAP_VALUES
  MASTER_SETUP_TYPE "~dc_idvd~"
  LINVT_VALUE "|idvg|100.0n|100.0m|1.000m|5|3.600|"
  LISTVT_VALUE ""
  TYPE "-1"
  TEMP " 27.0000 "
  IS_TNOM " 1.00000 "
  MAIN.W "600.0n"
  MAIN.L "1.200u"
  MAIN.AD "204.0f"
  MAIN.AS "204.0f"
  MAIN.PD "1.880u"
  MAIN.PS "1.880u"
  MAIN.NF "1.000"
  MAIN.M "1"
  MAIN.NRD "0.000"
  MAIN.NRS "0.000"
  MAIN.LDRIFT1 "1E-06"
  MAIN.LDRIFT2 "1E-06"
  MAIN.SA "0.000"
  MAIN.SB "0.000"
  MAIN.SD "0.000"
  MAIN.SCA "0.000"
  MAIN.SCB "0.000"
  MAIN.SCC "0.000"
  MAIN.SC "0.000"
  MODULE "S564"
  PIN_D "14"
  PIN_G "7"
  PIN_S "8"
  PIN_B "13"
  PIN_E ""
  PIN_6 ""
  XY_ID ""
  FUNC "LW Scale"
  STI "SA ref"
  WPE "WPE ref"
  COMMENT ""
  DIS_MEAS ""
  TypeTCI "10"
END_HEADER

BEGIN_DB
 ICCAP_VAR vg         -1.976         
 ICCAP_VAR vb         3.6            
 ICCAP_VAR vs         -0             

 #vd                    id                    ig                    ib                    is                   
  -0                    1.2134e-10            -1.1e-12              1.2e-12               -1.4228e-10          
  -0.1                  -1.5412e-07           -7.4e-13              9.6e-13               1.543e-07            
  -0.2                  -1.8952e-07           -6.8e-13              9.8e-13               1.8964e-07           
  -0.3                  -1.9406e-07           -5.4e-13              8e-13                 1.9438e-07           
  -0.4                  -1.9524e-07           -3e-13                7.4e-13               1.9534e-07           
  -0.5                  -1.958e-07            -1.8e-13              7.4e-13               1.9596e-07           
  -0.6                  -1.9622e-07           -2.6e-13              7.6e-13               1.9646e-07           
  -0.7                  -1.9664e-07           -2.6e-13              6e-13                 1.9684e-07           
  -0.8                  -1.97e-07             -2.6e-13              5.6e-13               1.9718e-07           
  -0.9                  -1.9734e-07           -3.6e-13              4.4e-13               1.9752e-07           
  -1                    -1.9762e-07           -3.8e-13              4.8e-13               1.9784e-07           
  -1.1                  -1.9788e-07           -1e-13                5.2e-13               1.9806e-07           
  -1.2                  -1.9814e-07           -3.4e-13              3.2e-13               1.9834e-07           
  -1.3                  -1.984e-07            -2.6e-13              3.2e-13               1.9858e-07           
  -1.4                  -1.9862e-07           -2e-14                3.2e-13               1.9884e-07           
  -1.5                  -1.9886e-07           -2.2e-13              3.2e-13               1.9906e-07           
  -1.6                  -1.9906e-07           -2.4e-13              3e-13                 1.9924e-07           
  -1.7                  -1.9928e-07           -1.8e-13              2.4e-13               1.9948e-07           
  -1.8                  -1.9946e-07           -2.6e-13              3.2e-13               1.9972e-07           
  -1.9                  -1.997e-07            -2.2e-13              3.6e-13               1.9992e-07           
  -2                    -1.9992e-07           8e-14                 2.2e-13               2.001e-07            
  -2.1                  -2.0008e-07           6e-14                 1.4e-13               2.0032e-07           
  -2.2                  -2.0028e-07           6e-14                 1.6e-13               2.0048e-07           
  -2.3                  -2.0062e-07           -2e-13                2.4e-13               2.0086e-07           
  -2.4                  -2.0066e-07           -3.2e-13              3e-13                 2.0084e-07           
  -2.5                  -2.0082e-07           -1.4e-13              4.8e-13               2.0122e-07           
  -2.6                  -2.0106e-07           0                     7.2e-13               2.0124e-07           
  -2.7                  -2.0112e-07           -6e-14                1.36e-12              2.0136e-07           
  -2.8                  -2.0128e-07           -1e-13                2.64e-12              2.015e-07            
  -2.9                  -2.0166e-07           -1.2e-13              4.8e-12               2.0178e-07           
  -3                    -2.0166e-07           -4e-14                8.62e-12              2.0184e-07           
  -3.1                  -2.0182e-07           0                     1.528e-11             2.022e-07            
  -3.2                  -2.022e-07            -2.4e-13              2.648e-11             2.0238e-07           
  -3.3                  -2.0238e-07           -2.4e-13              4.49e-11              2.0254e-07           
  -3.4                  -2.0244e-07           -8e-14                7.406e-11             2.0254e-07           
  -3.5                  -2.0262e-07           0                     1.2044e-10            2.0274e-07           
  -3.6                  -2.0286e-07           -4e-14                1.9212e-10            2.0284e-07           
END_DB

BEGIN_DB
 ICCAP_VAR vg         -2.382         
 ICCAP_VAR vb         3.6            
 ICCAP_VAR vs         -0             

 #vd                    id                    ig                    ib                    is                   
  -0                    4.9734e-10            -4.2e-13              3.4e-13               -5.1276e-10          
  -0.1                  -8.0888e-07           -2.4e-13              2.4e-13               8.0922e-07           
  -0.2                  -1.4084e-06           6e-14                 2e-13                 1.413e-06            
  -0.3                  -1.8108e-06           -2.4e-13              1.6e-13               1.8142e-06           
  -0.4                  -2.0378e-06           -3.2e-13              1.6e-13               2.0412e-06           
  -0.5                  -2.1424e-06           -1.8e-13              4e-14                 2.1462e-06           
  -0.6                  -2.1812e-06           -1.6e-13              6e-14                 2.1856e-06           
  -0.7                  -2.1992e-06           4e-14                 6e-14                 2.1996e-06           
  -0.8                  -2.2062e-06           1e-13                 4e-14                 2.2092e-06           
  -0.9                  -2.2148e-06           -1.8e-13              6e-14                 2.2156e-06           
  -1                    -2.221e-06            -2.2e-13              1e-13                 2.2224e-06           
  -1.1                  -2.225e-06            -8e-14                8e-14                 2.2254e-06           
  -1.2                  -2.2282e-06           -2e-14                0                     2.2294e-06           
  -1.3                  -2.2296e-06           -3e-13                -4e-14                2.2352e-06           
  -1.4                  -2.2346e-06           -2.8e-13              6e-14                 2.236e-06            
  -1.5                  -2.2356e-06           0                     4e-14                 2.2426e-06           
  -1.6                  -2.239e-06            -1.4e-13              -4e-14                2.244e-06            
  -1.7                  -2.2434e-06           -8e-14                0                     2.245e-06            
  -1.8                  -2.246e-06            8e-14                 8e-14                 2.247e-06            
  -1.9                  -2.2458e-06           -1e-13                -6e-14                2.2512e-06           
  -2                    -2.2482e-06           -2e-13                0                     2.2544e-06           
  -2.1                  -2.2526e-06           -1e-13                4e-14                 2.2544e-06           
  -2.2                  -2.2544e-06           -3.2e-13              0                     2.258e-06            
  -2.3                  -2.2548e-06           -1.2e-13              -1.2e-13              2.261e-06            
  -2.4                  -2.2588e-06           -2e-13                0                     2.2628e-06           
  -2.5                  -2.26e-06             -2.2e-13              1e-13                 2.265e-06            
  -2.6                  -2.2634e-06           -6e-14                4.2e-13               2.267e-06            
  -2.7                  -2.2648e-06           -8e-14                1.04e-12              2.2692e-06           
  -2.8                  -2.268e-06            -2.8e-13              2.48e-12              2.2706e-06           
  -2.9                  -2.2686e-06           -3.4e-13              5.18e-12              2.273e-06            
  -3                    -2.2722e-06           -6e-14                1.068e-11             2.2742e-06           
  -3.1                  -2.2728e-06           4e-14                 2.108e-11             2.2744e-06           
  -3.2                  -2.275e-06            -2.4e-13              4.032e-11             2.2776e-06           
  -3.3                  -2.276e-06            -4e-14                7.5e-11               2.2798e-06           
  -3.4                  -2.2782e-06           -6e-14                1.349e-10             2.2812e-06           
  -3.5                  -2.2802e-06           -1.4e-13              2.3738e-10            2.284e-06            
  -3.6                  -2.282e-06            -6e-14                4.0782e-10            2.2854e-06           
END_DB

BEGIN_DB
 ICCAP_VAR vg         -2.788         
 ICCAP_VAR vb         3.6            
 ICCAP_VAR vs         -0             

 #vd                    id                    ig                    ib                    is                   
  -0                    8.986e-10             -1.6e-13              1.6e-13               -8.0632e-10          
  -0.1                  -1.4452e-06           -1.8e-13              1.2e-13               1.4494e-06           
  -0.2                  -2.6992e-06           -1e-13                8e-14                 2.7032e-06           
  -0.3                  -3.7546e-06           -1.6e-13              2e-14                 3.7568e-06           
  -0.4                  -4.6124e-06           -1.2e-13              -4e-14                4.6168e-06           
  -0.5                  -5.2816e-06           0                     0                     5.2864e-06           
  -0.6                  -5.7696e-06           -1.6e-13              8e-14                 5.7728e-06           
  -0.7                  -6.0906e-06           -3.4e-13              2e-14                 6.0948e-06           
  -0.8                  -6.2848e-06           -1.2e-13              -2e-14                6.289e-06            
  -0.9                  -6.3948e-06           -2e-14                -8e-14                6.3992e-06           
  -1                    -6.453e-06            -8e-14                0                     6.4556e-06           
  -1.1                  -6.4836e-06           1.6e-13               -2e-14                6.4884e-06           
  -1.2                  -6.5088e-06           2e-14                 -2e-14                6.508e-06            
  -1.3                  -6.523e-06            -2.6e-13              4e-14                 6.5296e-06           
  -1.4                  -6.5396e-06           -1.2e-13              -2e-14                6.5432e-06           
  -1.5                  -6.5508e-06           2e-14                 -6e-14                6.5552e-06           
  -1.6                  -6.5654e-06           -8e-14                -1.2e-13              6.5664e-06           
  -1.7                  -6.5732e-06           -6e-14                2e-14                 6.5782e-06           
  -1.8                  -6.5804e-06           4e-14                 2e-14                 6.5844e-06           
  -1.9                  -6.589e-06            4e-14                 -1.4e-13              6.5938e-06           
  -2                    -6.5972e-06           -1.8e-13              -2.2e-13              6.6026e-06           
  -2.1                  -6.6086e-06           -1.8e-13              -6e-14                6.6044e-06           
  -2.2                  -6.6054e-06           -1.4e-13              -1.4e-13              6.6092e-06           
  -2.3                  -6.6136e-06           -1.2e-13              -1e-13                6.6164e-06           
  -2.4                  -6.6194e-06           -1.4e-13              -2e-14                6.624e-06            
  -2.5                  -6.6254e-06           -2.2e-13              2e-14                 6.6298e-06           
  -2.6                  -6.6298e-06           -2e-13                -1e-13                6.6344e-06           
  -2.7                  -6.6358e-06           1e-13                 0                     6.6384e-06           
  -2.8                  -6.646e-06            -8e-14                4e-13                 6.6492e-06           
  -2.9                  -6.653e-06            -3.2e-13              9.6e-13               6.6528e-06           
  -3                    -6.6548e-06           -8e-14                2.52e-12              6.658e-06            
  -3.1                  -6.66e-06             0                     5.7e-12               6.6616e-06           
  -3.2                  -6.6626e-06           -1.2e-13              1.208e-11             6.67e-06             
  -3.3                  -6.6718e-06           -1e-13                2.506e-11             6.6726e-06           
  -3.4                  -6.6766e-06           1.2e-13               4.998e-11             6.6808e-06           
  -3.5                  -6.6794e-06           -8e-14                9.646e-11             6.6824e-06           
  -3.6                  -6.687e-06            -2.6e-13              1.8102e-10            6.6908e-06           
END_DB

BEGIN_DB
 ICCAP_VAR vg         -3.194         
 ICCAP_VAR vb         3.6            
 ICCAP_VAR vs         -0             

 #vd                    id                    ig                    ib                    is                   
  -0                    1.1818e-09            -3e-13                1.6e-13               -1.1126e-09          
  -0.1                  -2.0166e-06           4e-14                 6e-14                 2.0204e-06           
  -0.2                  -3.8578e-06           -4.4e-13              6e-14                 3.8624e-06           
  -0.3                  -5.516e-06            -3.8e-13              -2e-14                5.5212e-06           
  -0.4                  -6.9894e-06           -8e-14                -4e-14                6.9924e-06           
  -0.5                  -8.2736e-06           -6e-14                2e-14                 8.2786e-06           
  -0.6                  -9.3804e-06           -3.8e-13              -6e-14                9.3868e-06           
  -0.7                  -1.02984e-05          -2.2e-13              -6e-14                1.0304e-05           
  -0.8                  -1.1036e-05           -4e-14                -1.2e-13              1.10478e-05          
  -0.9                  -1.1606e-05           -1e-13                -8e-14                1.1626e-05           
  -1                    -1.203e-05            -2e-14                -1e-13                1.2052e-05           
  -1.1                  -1.232e-05            -1.8e-13              -4e-14                1.2342e-05           
  -1.2                  -1.2508e-05           -4e-13                -4e-14                1.2528e-05           
  -1.3                  -1.2626e-05           -1.6e-13              -4e-14                1.2642e-05           
  -1.4                  -1.2702e-05           -6e-14                -1.2e-13              1.2728e-05           
  -1.5                  -1.2762e-05           -1.6e-13              -1.2e-13              1.278e-05            
  -1.6                  -1.2796e-05           -1e-13                -6e-14                1.2814e-05           
  -1.7                  -1.2828e-05           1.8e-13               -1e-13                1.2846e-05           
  -1.8                  -1.2848e-05           -1.4e-13              -1.4e-13              1.2872e-05           
  -1.9                  -1.2876e-05           -2.4e-13              -1.2e-13              1.2896e-05           
  -2                    -1.289e-05            -2e-14                -1.2e-13              1.291e-05            
  -2.1                  -1.2912e-05           -2e-14                -2.2e-13              1.2932e-05           
  -2.2                  -1.2936e-05           -8e-14                -1.8e-13              1.2954e-05           
  -2.3                  -1.2948e-05           -1.4e-13              2e-14                 1.2964e-05           
  -2.4                  -1.2954e-05           -1.8e-13              -1.4e-13              1.2974e-05           
  -2.5                  -1.297e-05            -2.8e-13              -1e-13                1.2986e-05           
  -2.6                  -1.2982e-05           1e-13                 -2.2e-13              1.3008e-05           
  -2.7                  -1.3006e-05           -2e-14                -1.6e-13              1.3026e-05           
  -2.8                  -1.3018e-05           -1e-13                -1.2e-13              1.3032e-05           
  -2.9                  -1.303e-05            -1.2e-13              -6e-14                1.305e-05            
  -3                    -1.3046e-05           -1.8e-13              2e-13                 1.3062e-05           
  -3.1                  -1.3052e-05           -2.2e-13              7.2e-13               1.3074e-05           
  -3.2                  -1.3062e-05           -4e-14                1.72e-12              1.308e-05            
  -3.3                  -1.3074e-05           0                     4.18e-12              1.3086e-05           
  -3.4                  -1.3076e-05           -1e-13                9.58e-12              1.3094e-05           
  -3.5                  -1.3088e-05           -2e-13                2.05e-11              1.3108e-05           
  -3.6                  -1.3098e-05           -1.8e-13              4.242e-11             1.3116e-05           
END_DB

BEGIN_DB
 ICCAP_VAR vg         -3.6           
 ICCAP_VAR vb         3.6            
 ICCAP_VAR vs         -0             

 #vd                    id                    ig                    ib                    is                   
  -0                    1.4664e-09            -2.2e-13              8e-14                 -1.2898e-09          
  -0.1                  -2.5256e-06           -2.8e-13              0                     2.5304e-06           
  -0.2                  -4.8938e-06           -1.4e-13              2e-14                 4.8984e-06           
  -0.3                  -7.0926e-06           4e-14                 4e-14                 7.096e-06            
  -0.4                  -9.1158e-06           -3.2e-13              4e-14                 9.1188e-06           
  -0.5                  -1.09694e-05          -2e-13                -2e-14                1.09744e-05          
  -0.6                  -1.2644e-05           -6e-14                -6e-14                1.2662e-05           
  -0.7                  -1.4142e-05           -3e-13                -1e-13                1.4162e-05           
  -0.8                  -1.5468e-05           -4e-14                -2e-14                1.5494e-05           
