! VERSION = 6.00
BEGIN_HEADER
 ICCAP_INPUTS
  vd         V  D GROUND SMU1 0.1 LIN        1    -0         -3.6       37   -0.1      
  vg         V  G GROUND SMU2 0.001 LIST       2 3 -0.528 -0.728 -0.928
  vb         V  B GROUND SMU4 0.1 CON        -0
  vs         V  S GROUND SMU3 0.1 CON        -0
 ICCAP_OUTPUTS
  id         I  D GROUND SMU1 B
  ig         I  G GROUND SMU2 B
  ib         I  B GROUND SMU4 B
  is         I  S GROUND SMU3 B
 ICCAP_VALUES
  MASTER_SETUP_TYPE "~dc_idvd~"
  LINVT_VALUE ""
  LISTVT_VALUE "|idvg|100.0n|-200.0m|1.000m|3|200.0m|200.0m|"
  TYPE "-1"
  TEMP "-40.0000 "
  IS_TNOM " 0.00000 "
  MAIN.W "600.0n"
  MAIN.L "500.0n"
  MAIN.AD "204.0f"
  MAIN.AS "204.0f"
  MAIN.PD "1.880u"
  MAIN.PS "1.880u"
  MAIN.NF "1.000"
  MAIN.M "1"
  MAIN.NRD "0.000"
  MAIN.NRS "0.000"
  MAIN.LDRIFT1 "1E-06"
  MAIN.LDRIFT2 "1E-06"
  MAIN.SA "0.000"
  MAIN.SB "0.000"
  MAIN.SD "0.000"
  MAIN.SCA "0.000"
  MAIN.SCB "0.000"
  MAIN.SCC "0.000"
  MAIN.SC "0.000"
  MODULE "S564"
  PIN_D "16"
  PIN_G "5"
  PIN_S "6"
  PIN_B "15"
  PIN_E ""
  PIN_6 ""
  XY_ID ""
  FUNC "LW Scale"
  STI "SA ref"
  WPE "WPE ref"
  COMMENT ""
  DIS_MEAS ""
  TypeTCI "10"
END_HEADER

BEGIN_DB
 ICCAP_VAR vg         -0.528         
 ICCAP_VAR vb         -0             
 ICCAP_VAR vs         -0             

 #vd                    id                    ig                    ib                    is                   
  -0                    3e-13                 1.4e-13               -2e-14                -5.4e-13             
  -0.1                  -2.6786e-10           7.4e-13               -1.2e-13              2.676e-10            
  -0.2                  -2.7566e-10           3.8e-13               0                     2.7556e-10           
  -0.3                  -2.7974e-10           1.6e-13               -1.4e-13              2.7982e-10           
  -0.4                  -2.8404e-10           2.6e-13               -1e-13                2.8396e-10           
  -0.5                  -2.8672e-10           3.2e-13               -1.4e-13              2.8682e-10           
  -0.6                  -2.8996e-10           3.2e-13               -1.8e-13              2.9e-10              
  -0.7                  -2.9296e-10           1.6e-13               2e-14                 2.9244e-10           
  -0.8                  -2.9556e-10           4.2e-13               -2e-13                2.953e-10            
  -0.9                  -2.9828e-10           2e-13                 -8e-14                2.9732e-10           
  -1                    -3.0048e-10           1.2e-13               -8e-14                2.9982e-10           
  -1.1                  -3.0314e-10           3e-13                 -1.2e-13              3.0268e-10           
  -1.2                  -3.0454e-10           4.2e-13               -1.2e-13              3.048e-10            
  -1.3                  -3.0716e-10           2e-13                 0                     3.0674e-10           
  -1.4                  -3.092e-10            4e-14                 -1e-13                3.0908e-10           
  -1.5                  -3.1146e-10           2.8e-13               -1.2e-13              3.1132e-10           
  -1.6                  -3.1384e-10           1.2e-13               -1.2e-13              3.1332e-10           
  -1.7                  -3.1584e-10           2.6e-13               -1.4e-13              3.1564e-10           
  -1.8                  -3.1722e-10           2.2e-13               -2e-14                3.174e-10            
  -1.9                  -3.1974e-10           4.6e-13               -8e-14                3.1934e-10           
  -2                    -3.2158e-10           -2e-14                -4e-14                3.214e-10            
  -2.1                  -3.2382e-10           2e-13                 -1e-13                3.2292e-10           
  -2.2                  -3.2564e-10           1e-13                 -6e-14                3.2434e-10           
  -2.3                  -3.2698e-10           4.4e-13               -8e-14                3.2628e-10           
  -2.4                  -3.2908e-10           6e-14                 -1e-13                3.2836e-10           
  -2.5                  -3.3082e-10           1.8e-13               -4e-14                3.3006e-10           
  -2.6                  -3.3302e-10           1e-13                 0                     3.3226e-10           
  -2.7                  -3.3506e-10           2.8e-13               1.2e-13               3.3426e-10           
  -2.8                  -3.3732e-10           -4e-14                -4e-14                3.3656e-10           
  -2.9                  -3.391e-10            4.4e-13               1.6e-13               3.3818e-10           
  -3                    -3.4098e-10           -2e-13                2.6e-13               3.403e-10            
  -3.1                  -3.4316e-10           2e-13                 5.8e-13               3.4178e-10           
  -3.2                  -3.4552e-10           -1e-13                8.4e-13               3.44e-10             
  -3.3                  -3.4782e-10           4.4e-13               1.14e-12              3.4522e-10           
  -3.4                  -3.5056e-10           6e-14                 1.8e-12               3.4728e-10           
  -3.5                  -3.53e-10             1.8e-13               2.66e-12              3.4944e-10           
  -3.6                  -3.5598e-10           1.6e-13               3.58e-12              3.5182e-10           
END_DB

BEGIN_DB
 ICCAP_VAR vg         -0.728         
 ICCAP_VAR vb         -0             
 ICCAP_VAR vs         -0             

 #vd                    id                    ig                    ib                    is                   
  -0                    1.4024e-10            -4.2e-13              -8e-14                -1.4252e-10          
  -0.1                  -1.0218e-07           -6e-14                0                     1.0228e-07           
  -0.2                  -1.0804e-07           4e-14                 -1e-13                1.0828e-07           
  -0.3                  -1.1038e-07           -3.2e-13              -4e-14                1.1046e-07           
  -0.4                  -1.1188e-07           1.2e-13               -6e-14                1.1214e-07           
  -0.5                  -1.1326e-07           -8e-14                -6e-14                1.133e-07            
  -0.6                  -1.1432e-07           1e-13                 -6e-14                1.1446e-07           
  -0.7                  -1.154e-07            1.6e-13               -1e-13                1.1558e-07           
  -0.8                  -1.1636e-07           3e-13                 -4e-14                1.1646e-07           
  -0.9                  -1.172e-07            -8e-14                0                     1.1742e-07           
  -1                    -1.1806e-07           1.4e-13               0                     1.1818e-07           
  -1.1                  -1.1882e-07           1.2e-13               -8e-14                1.1902e-07           
  -1.2                  -1.196e-07            1e-13                 4e-14                 1.1958e-07           
  -1.3                  -1.2036e-07           2.4e-13               -6e-14                1.2054e-07           
  -1.4                  -1.2102e-07           1.6e-13               2e-14                 1.2116e-07           
  -1.5                  -1.218e-07            1e-13                 2e-14                 1.2194e-07           
  -1.6                  -1.2242e-07           -1.2e-13              -1e-13                1.2256e-07           
  -1.7                  -1.2314e-07           6e-14                 -1e-13                1.2328e-07           
  -1.8                  -1.2382e-07           2.2e-13               -4e-14                1.2396e-07           
  -1.9                  -1.2432e-07           -4e-14                0                     1.2456e-07           
  -2                    -1.2506e-07           6e-14                 1.8e-13               1.253e-07            
  -2.1                  -1.2564e-07           -4e-14                4e-13                 1.2586e-07           
  -2.2                  -1.2626e-07           -1.6e-13              8.8e-13               1.2644e-07           
  -2.3                  -1.2688e-07           0                     1.82e-12              1.2708e-07           
  -2.4                  -1.2752e-07           6e-14                 3.4e-12               1.2766e-07           
  -2.5                  -1.2814e-07           -2e-13                6.34e-12              1.2808e-07           
  -2.6                  -1.285e-07            8e-14                 1.104e-11             1.2888e-07           
  -2.7                  -1.294e-07            -1e-13                1.884e-11             1.2948e-07           
  -2.8                  -1.299e-07            0                     3.14e-11              1.3006e-07           
  -2.9                  -1.3056e-07           2e-14                 5.094e-11             1.3066e-07           
  -3                    -1.3112e-07           2.2e-13               8.07e-11              1.3126e-07           
  -3.1                  -1.3172e-07           1.2e-13               1.2484e-10            1.3172e-07           
  -3.2                  -1.324e-07            4.2e-13               1.9004e-10            1.3234e-07           
  -3.3                  -1.3298e-07           1.6e-13               2.8336e-10            1.3294e-07           
  -3.4                  -1.3374e-07           2.8e-13               4.153e-10             1.335e-07            
  -3.5                  -1.3434e-07           -8e-14                5.9902e-10            1.3402e-07           
  -3.6                  -1.3524e-07           1.6e-13               8.423e-10             1.346e-07            
END_DB

BEGIN_DB
 ICCAP_VAR vg         -0.928         
 ICCAP_VAR vb         -0             
 ICCAP_VAR vs         -0             

 #vd                    id                    ig                    ib                    is                   
  -0                    6.4412e-10            -2.2e-13              -1.4e-13              -6.5786e-10          
  -0.1                  -1.3014e-06           1.4e-13               -4e-14                1.305e-06            
  -0.2                  -1.6816e-06           -1.2e-13              0                     1.6848e-06           
  -0.3                  -1.7672e-06           -4.2e-13              -1e-13                1.771e-06            
  -0.4                  -1.8026e-06           4.6e-13               -2.2e-13              1.8058e-06           
  -0.5                  -1.8252e-06           -1e-13                6e-14                 1.8286e-06           
  -0.6                  -1.8432e-06           -2.4e-13              -4e-14                1.8466e-06           
  -0.7                  -1.8584e-06           8e-14                 -8e-14                1.862e-06            
  -0.8                  -1.8716e-06           3.4e-13               -1e-13                1.8752e-06           
  -0.9                  -1.8836e-06           -8e-14                -1.2e-13              1.8878e-06           
  -1                    -1.8946e-06           -2.4e-13              -6e-14                1.8986e-06           
  -1.1                  -1.9052e-06           -1e-13                2e-14                 1.9086e-06           
  -1.2                  -1.9146e-06           1.8e-13               -6e-14                1.9184e-06           
  -1.3                  -1.924e-06            0                     -8e-14                1.928e-06            
  -1.4                  -1.9332e-06           6e-14                 0                     1.9366e-06           
  -1.5                  -1.9418e-06           2e-14                 0                     1.945e-06            
  -1.6                  -1.95e-06             -1e-13                -8e-14                1.9536e-06           
  -1.7                  -1.9578e-06           1.8e-13               2e-14                 1.9608e-06           
  -1.8                  -1.9654e-06           1.6e-13               4e-14                 1.9688e-06           
  -1.9                  -1.973e-06            6e-14                 2.8e-13               1.9764e-06           
  -2                    -1.9808e-06           0                     1e-12                 1.984e-06            
  -2.1                  -1.988e-06            5.6e-13               2.28e-12              1.9916e-06           
  -2.2                  -1.9948e-06           1.2e-13               5.16e-12              1.9988e-06           
  -2.3                  -2.0024e-06           2e-14                 1.074e-11             2.0054e-06           
  -2.4                  -2.009e-06            -2e-13                2.112e-11             2.013e-06            
  -2.5                  -2.0164e-06           8e-14                 3.996e-11             2.0202e-06           
  -2.6                  -2.023e-06            3e-13                 7.322e-11             2.0268e-06           
  -2.7                  -2.0292e-06           -1.4e-13              1.3006e-10            2.033e-06            
  -2.8                  -2.0364e-06           1e-13                 2.2428e-10            2.0404e-06           
  -2.9                  -2.0434e-06           -1e-13                3.7714e-10            2.0466e-06           
  -3                    -2.0494e-06           5.2e-13               6.189e-10             2.0512e-06           
  -3.1                  -2.0574e-06           5e-13                 9.9226e-10            2.0596e-06           
  -3.2                  -2.0642e-06           4e-14                 1.5586e-09            2.0662e-06           
  -3.3                  -2.0708e-06           2e-13                 2.3984e-09            2.072e-06            
  -3.4                  -2.0788e-06           3.6e-13               3.609e-09             2.0778e-06           
  -3.5                  -2.0866e-06           -8e-14                5.3278e-09            2.0848e-06           
  -3.6                  -2.0952e-06           2.2e-13               7.7412e-09            2.0914e-06           
END_DB

