! VERSION = 6.00
BEGIN_HEADER
 ICCAP_INPUTS
  vd         V  D GROUND SMU1 0.1 LIN        1    0          3.6        37   0.1       
  vg         V  G GROUND SMU2 0.001 LIST       2 3 0.47 0.67 0.87
  vb         V  B GROUND SMU4 0.1 CON        -3.6
  vs         V  S GROUND SMU3 0.1 CON        0
 ICCAP_OUTPUTS
  id         I  D GROUND SMU1 B
  ig         I  G GROUND SMU2 B
  ib         I  B GROUND SMU4 B
  is         I  S GROUND SMU3 B
 ICCAP_VALUES
  MASTER_SETUP_TYPE "~dc_idvd~"
  LINVT_VALUE ""
  LISTVT_VALUE "|idvg|100.0n|-200.0m|1.000m|3|200.0m|200.0m|"
  TYPE "1"
  TEMP " 27.0000 "
  IS_TNOM " 1.00000 "
  MAIN.W "300.0n"
  MAIN.L "330.0n"
  MAIN.AD "102.0f"
  MAIN.AS "102.0f"
  MAIN.PD "1.280u"
  MAIN.PS "1.280u"
  MAIN.NF "1.000"
  MAIN.M "1"
  MAIN.NRD "0.000"
  MAIN.NRS "0.000"
  MAIN.LDRIFT1 "1E-06"
  MAIN.LDRIFT2 "1E-06"
  MAIN.SA "0.000"
  MAIN.SB "0.000"
  MAIN.SD "0.000"
  MAIN.SCA "0.000"
  MAIN.SCB "0.000"
  MAIN.SCC "0.000"
  MAIN.SC "0.000"
  MODULE "S560"
  PIN_D "18"
  PIN_G "3"
  PIN_S "4"
  PIN_B "17"
  PIN_E ""
  PIN_6 ""
  XY_ID ""
  FUNC "Additional"
  STI "SA ref"
  WPE "WPE ref"
  COMMENT ""
  DIS_MEAS ""
  TypeTCI "10"
END_HEADER

BEGIN_DB
 ICCAP_VAR vg         0.47           
 ICCAP_VAR vb         -3.6           
 ICCAP_VAR vs         0              

 #vd                    id                    ig                    ib                    is                   
  0                     -2e-14                -3.4e-13              -2.02e-11             2.2e-13              
  0.1                   1.058e-11             -6e-14                -1.824e-11            -1.012e-11           
  0.2                   1.456e-11             -2.2e-13              -1.59e-11             -1.378e-11           
  0.3                   1.914e-11             -1.6e-13              -1.42e-11             -1.844e-11           
  0.4                   2.498e-11             -2.8e-13              -1.31e-11             -2.416e-11           
  0.5                   3.2e-11               -2.8e-13              -1.168e-11            -3.106e-11           
  0.6                   4.05e-11              -1.2e-13              -1.024e-11            -3.992e-11           
  0.7                   5.174e-11             -1.8e-13              -9.84e-12             -5.108e-11           
  0.8                   6.53e-11              -3.4e-13              -8.68e-12             -6.466e-11           
  0.9                   8.194e-11             -3e-13                -8.22e-12             -8.126e-11           
  1                     1.0248e-10            -1.8e-13              -8.1e-12              -1.016e-10           
  1.1                   1.2746e-10            -1.2e-13              -6.86e-12             -1.266e-10           
  1.2                   1.579e-10             -8e-14                -7.68e-12             -1.5684e-10          
  1.3                   1.946e-10             -1.6e-13              -5.94e-12             -1.9268e-10          
  1.4                   2.389e-10             -1.4e-13              -6.44e-12             -2.3788e-10          
  1.5                   2.9086e-10            -4e-14                -6.4e-12              -2.8984e-10          
  1.6                   3.549e-10             -2e-14                -4.96e-12             -3.5394e-10          
  1.7                   4.3136e-10            -1.2e-13              -6.68e-12             -4.306e-10           
  1.8                   5.2416e-10            -1.4e-13              -4.58e-12             -5.2382e-10          
  1.9                   6.3588e-10            -1e-13                -6.16e-12             -6.3496e-10          
  2                     7.676e-10             -8e-14                -5.3e-12              -7.6518e-10          
  2.1                   9.2186e-10            -1.2e-13              -6.86e-12             -9.129e-10           
  2.2                   1.0986e-09            -1.8e-13              -7.74e-12             -1.09406e-09         
  2.3                   1.31e-09              -8e-14                -9.66e-12             -1.3036e-09          
  2.4                   1.576e-09             -1.6e-13              -1.018e-11            -1.5628e-09          
  2.5                   1.8714e-09            -6e-14                -1.608e-11            -1.8588e-09          
  2.6                   2.2228e-09            -1.2e-13              -2.296e-11            -2.2028e-09          
  2.7                   2.6298e-09            -6e-14                -3.286e-11            -2.5898e-09          
  2.8                   3.0988e-09            -1.4e-13              -4.744e-11            -3.055e-09           
  2.9                   3.6938e-09            -2.2e-13              -6.986e-11            -3.6182e-09          
  3                     4.3524e-09            -2e-14                -1.046e-10            -4.2494e-09          
  3.1                   5.1396e-09            -8e-14                -1.5324e-10           -4.9854e-09          
  3.2                   6.052e-09             0                     -2.2172e-10           -5.8272e-09          
  3.3                   7.158e-09             2e-14                 -3.1774e-10           -6.8648e-09          
  3.4                   8.4386e-09            -1.6e-13              -4.504e-10            -7.9926e-09          
  3.5                   9.861e-09             -6e-14                -6.3116e-10           -9.2316e-09          
  3.6                   1.1682e-08            -1.2e-13              -8.708e-10            -1.08092e-08         
END_DB

BEGIN_DB
 ICCAP_VAR vg         0.67           
 ICCAP_VAR vb         -3.6           
 ICCAP_VAR vs         0              

 #vd                    id                    ig                    ib                    is                   
  0                     2.16e-12              1.6e-13               -1.66e-12             -2.84e-12            
  0.1                   3.9742e-09            0                     -3.6e-12              -3.9586e-09          
  0.2                   5.578e-09             1.2e-13               -4.14e-12             -5.5714e-09          
  0.3                   7.426e-09             -1.4e-13              -3.88e-12             -7.409e-09           
  0.4                   9.6986e-09            6e-14                 -2.8e-12              -9.701e-09           
  0.5                   1.2482e-08            4e-14                 -2.6e-12              -1.2452e-08          
  0.6                   1.5792e-08            -1e-13                -3.44e-12             -1.5758e-08          
  0.7                   1.9956e-08            -4e-14                -4.02e-12             -1.988e-08           
  0.8                   2.4746e-08            2e-14                 -3.62e-12             -2.4816e-08          
  0.9                   3.0698e-08            -4e-14                -3.4e-12              -3.0686e-08          
  1                     3.759e-08             8e-14                 -2.68e-12             -3.7398e-08          
  1.1                   4.5422e-08            4e-14                 -3.84e-12             -4.5398e-08          
  1.2                   5.4996e-08            2e-14                 -4.1e-12              -5.4992e-08          
  1.3                   6.5824e-08            8e-14                 -3.1e-12              -6.583e-08           
  1.4                   7.8214e-08            -4e-14                -3.08e-12             -7.82e-08            
  1.5                   9.1808e-08            2e-14                 -6.02e-12             -9.178e-08           
  1.6                   1.0832e-07            -6e-14                -7.52e-12             -1.08138e-07         
  1.7                   1.2612e-07            8e-14                 -1.608e-11            -1.2594e-07          
  1.8                   1.4588e-07            -2e-14                -2.872e-11            -1.4566e-07          
  1.9                   1.6754e-07            -8e-14                -5.464e-11            -1.68e-07            
  2                     1.9282e-07            -4e-14                -9.878e-11            -1.9206e-07          
  2.1                   2.1936e-07            -4e-14                -1.7738e-10           -2.1914e-07          
  2.2                   2.4884e-07            0                     -3.0186e-10           -2.4954e-07          
  2.3                   2.8124e-07            4e-14                 -4.95e-10             -2.805e-07           
  2.4                   3.1684e-07            -1e-13                -8.0014e-10           -3.1656e-07          
  2.5                   3.5552e-07            0                     -1.2598e-09           -3.55e-07            
  2.6                   3.9974e-07            0                     -1.942e-09            -3.9696e-07          
  2.7                   4.4494e-07            0                     -2.9312e-09           -4.4182e-07          
  2.8                   4.9392e-07            -2e-14                -4.3584e-09           -4.8938e-07          
  2.9                   5.4676e-07            2e-14                 -6.336e-09            -5.3756e-07          
  3                     6.0162e-07            0                     -9.1212e-09           -5.9226e-07          
  3.1                   6.6252e-07            -2e-14                -1.2936e-08           -6.4946e-07          
  3.2                   7.2748e-07            -8e-14                -1.8048e-08           -7.0896e-07          
  3.3                   8.0094e-07            -2e-14                -2.4888e-08           -7.7612e-07          
  3.4                   8.7714e-07            -4e-14                -3.3702e-08           -8.427e-07           
  3.5                   9.587e-07             2e-14                 -4.4976e-08           -9.1344e-07          
  3.6                   1.0467e-06            -4e-14                -5.9104e-08           -9.877e-07           
END_DB

BEGIN_DB
 ICCAP_VAR vg         0.87           
 ICCAP_VAR vb         -3.6           
 ICCAP_VAR vs         0              

 #vd                    id                    ig                    ib                    is                   
  0                     2.5254e-10            6e-14                 -2.14e-12             -2.6156e-10          
  0.1                   4.083e-07             0                     -2.64e-12             -4.0922e-07          
  0.2                   5.802e-07             1.6e-13               -3.64e-12             -5.8e-07             
  0.3                   7.1626e-07            1.6e-13               -2.94e-12             -7.1738e-07          
  0.4                   8.4926e-07            2e-14                 -2.02e-12             -8.4914e-07          
  0.5                   9.835e-07             6e-14                 -3.48e-12             -9.8338e-07          
  0.6                   1.12056e-06           2e-14                 -2.92e-12             -1.12046e-06         
  0.7                   1.267e-06             1.6e-13               -2.96e-12             -1.2624e-06          
  0.8                   1.4128e-06            2e-14                 -4.18e-12             -1.406e-06           
  0.9                   1.5596e-06            -2e-14                -3.32e-12             -1.5562e-06          
  1                     1.7132e-06            2e-14                 -2.26e-12             -1.7088e-06          
  1.1                   1.869e-06             4e-14                 -1.26e-12             -1.8654e-06          
  1.2                   2.0314e-06            -2e-14                -3.12e-12             -2.0274e-06          
  1.3                   2.1962e-06            6e-14                 -4.14e-12             -2.1906e-06          
  1.4                   2.3608e-06            -2e-14                -7.98e-12             -2.3568e-06          
  1.5                   2.531e-06             0                     -1.612e-11            -2.5266e-06          
  1.6                   2.7046e-06            -2e-14                -4.204e-11            -2.7004e-06          
  1.7                   2.876e-06             0                     -1.0184e-10           -2.8712e-06          
  1.8                   3.0592e-06            -4e-14                -2.2436e-10           -3.0504e-06          
  1.9                   3.2396e-06            4e-14                 -4.5498e-10           -3.239e-06           
  2                     3.423e-06             -8e-14                -8.5574e-10           -3.4274e-06          
  2.1                   3.6174e-06            6e-14                 -1.516e-09            -3.6124e-06          
  2.2                   3.8132e-06            4e-14                 -2.56e-09             -3.8106e-06          
  2.3                   4.01e-06              0                     -4.1362e-09           -4e-06               
  2.4                   4.2074e-06            2e-14                 -6.46e-09             -4.1982e-06          
  2.5                   4.4148e-06            -4e-14                -9.8166e-09           -4.4016e-06          
  2.6                   4.6322e-06            -2e-14                -1.459e-08            -4.6184e-06          
  2.7                   4.8472e-06            -4e-14                -2.1192e-08           -4.8208e-06          
  2.8                   5.0686e-06            -6e-14                -3.0268e-08           -5.0336e-06          
  2.9                   5.2932e-06            1.2e-13               -4.2542e-08           -5.2464e-06          
  3                     5.5302e-06            -8e-14                -5.9084e-08           -5.4684e-06          
  3.1                   5.7776e-06            -6e-14                -8.0822e-08           -5.6834e-06          
  3.2                   6.029e-06             1.2e-13               -1.09198e-07          -5.9172e-06          
  3.3                   6.2952e-06            1.6e-13               -1.4542e-07           -6.1478e-06          
  3.4                   6.576e-06             0                     -1.9122e-07           -6.3746e-06          
  3.5                   6.8706e-06            0                     -2.485e-07            -6.6198e-06          
  3.6                   7.182e-06             6e-14                 -3.1844e-07           -6.8602e-06          
END_DB

