! VERSION = 6.00
BEGIN_HEADER
 ICCAP_INPUTS
  vg         V  G GROUND SMU2 0.001 LIN        1    -0.5       3.6        83   0.05      
  vb         V  B GROUND SMU4 0.1 LIN        2    0          -3.6       5    -0.9      
  vd         V  D GROUND SMU1 0.1 LIN        3    0.1        3.3        3    1.6       
  vs         V  S GROUND SMU3 0.1 CON        0
 ICCAP_OUTPUTS
  id         I  D GROUND SMU1 B
  ig         I  G GROUND SMU2 B
  ib         I  B GROUND SMU4 B
  is         I  S GROUND SMU3 B
 ICCAP_VALUES
  MASTER_SETUP_TYPE "~dc_idvg~"
  LINVT_VALUE ""
  LISTVT_VALUE ""
  TYPE "1"
  TEMP " 27.0000 "
  IS_TNOM " 1.00000 "
  MAIN.W "300.0n"
  MAIN.L "300.0n"
  MAIN.AD "102.0f"
  MAIN.AS "102.0f"
  MAIN.PD "1.280u"
  MAIN.PS "1.280u"
  MAIN.NF "1.000"
  MAIN.M "1"
  MAIN.NRD "0.000"
  MAIN.NRS "0.000"
  MAIN.LDRIFT1 "1E-06"
  MAIN.LDRIFT2 "1E-06"
  MAIN.SA "0.000"
  MAIN.SB "0.000"
  MAIN.SD "0.000"
  MAIN.SCA "0.000"
  MAIN.SCB "0.000"
  MAIN.SCC "0.000"
  MAIN.SC "0.000"
  MODULE "S560"
  PIN_D "20"
  PIN_G "1"
  PIN_S "2"
  PIN_B "19"
  PIN_E ""
  PIN_6 ""
  XY_ID ""
  FUNC "Additional"
  STI "SA ref"
  WPE "WPE ref"
  COMMENT ""
  DIS_MEAS ""
  TypeTCI "10"
END_HEADER

BEGIN_DB
 ICCAP_VAR vb         0              
 ICCAP_VAR vd         0.1            
 ICCAP_VAR vs         0              

 #vg                    id                    ig                    ib                    is                   
  -0.5                  6e-14                 -4.546e-11            5.214e-11             -6e-14               
  -0.45                 -4e-14                -6.82e-12             1.372e-11             -8e-14               
  -0.4                  6e-14                 -1.02e-12             7.84e-12              1e-13                
  -0.35                 4e-14                 -8e-14                5.92e-12              0                    
  -0.3                  6e-14                 8e-14                 6.48e-12              2e-14                
  -0.25                 4e-14                 1.6e-13               7.32e-12              1e-13                
  -0.2                  8e-14                 2e-13                 7.06e-12              8e-14                
  -0.15                 0                     3e-13                 5.96e-12              8e-14                
  -0.1                  1e-13                 3e-13                 5.98e-12              2e-14                
  -0.05                 1.2e-13               3e-13                 6.44e-12              -4e-14               
  0                     3e-13                 3.4e-13               7.48e-12              -3e-13               
  0.05                  1.1e-12               4.6e-13               5.56e-12              -9.4e-13             
  0.1                   3.62e-12              3.8e-13               5.38e-12              -3.46e-12            
  0.15                  1.334e-11             5.2e-13               6.4e-12               -1.322e-11           
  0.2                   5.036e-11             4.4e-13               6.1e-12               -5.008e-11           
  0.25                  1.89e-10              3.8e-13               6.82e-12              -1.8834e-10          
  0.3                   6.9616e-10            5.4e-13               6.14e-12              -6.9608e-10          
  0.35                  2.5434e-09            3.8e-13               5.24e-12              -2.5414e-09          
  0.4                   8.856e-09             4.4e-13               4.84e-12              -8.8484e-09          
  0.45                  2.8998e-08            4.6e-13               5.58e-12              -2.8958e-08          
  0.5                   8.799e-08             4.6e-13               5.56e-12              -8.7888e-08          
  0.55                  2.3408e-07            5.6e-13               4.56e-12              -2.3384e-07          
  0.6                   5.1536e-07            5.6e-13               4.44e-12              -5.1518e-07          
  0.65                  9.57e-07              5.8e-13               5.18e-12              -9.5628e-07          
  0.7                   1.5474e-06            4.2e-13               5.44e-12              -1.5428e-06          
  0.75                  2.2582e-06            5.2e-13               4.8e-12               -2.253e-06           
  0.8                   3.0516e-06            5.8e-13               4.88e-12              -3.051e-06           
  0.85                  3.9066e-06            5.8e-13               5.86e-12              -3.9028e-06          
  0.9                   4.7824e-06            5.6e-13               5.42e-12              -4.7786e-06          
  0.95                  5.6682e-06            5.8e-13               3.96e-12              -5.6636e-06          
  1                     6.5518e-06            7.2e-13               4.82e-12              -6.5456e-06          
  1.05                  7.4292e-06            6.6e-13               5.3e-12               -7.4248e-06          
  1.1                   8.2948e-06            6e-13                 5.4e-12               -8.2902e-06          
  1.15                  9.1422e-06            7e-13                 4.1e-12               -9.1382e-06          
  1.2                   9.9716e-06            6.4e-13               4.3e-12               -9.9684e-06          
  1.25                  1.07848e-05           7.6e-13               5.2e-12               -1.07814e-05         
  1.3                   1.159e-05             5.8e-13               4.66e-12              -1.157e-05           
  1.35                  1.2364e-05            7.2e-13               5.4e-12               -1.2342e-05          
  1.4                   1.3118e-05            6.4e-13               4.66e-12              -1.3098e-05          
  1.45                  1.3852e-05            7e-13                 4.48e-12              -1.3832e-05          
  1.5                   1.457e-05             8e-13                 4e-12                 -1.4548e-05          
  1.55                  1.5266e-05            6.4e-13               5.18e-12              -1.5246e-05          
  1.6                   1.5942e-05            7.2e-13               4.98e-12              -1.5922e-05          
  1.65                  1.6602e-05            7.4e-13               4.94e-12              -1.6584e-05          
  1.7                   1.7246e-05            7.4e-13               3.84e-12              -1.7224e-05          
  1.75                  1.7868e-05            7.6e-13               4.8e-12               -1.785e-05           
  1.8                   1.8478e-05            7e-13                 5.88e-12              -1.8458e-05          
  1.85                  1.9066e-05            7e-13                 4.58e-12              -1.9048e-05          
  1.9                   1.9644e-05            7e-13                 4e-12                 -1.9626e-05          
  1.95                  2.0206e-05            7.6e-13               4.9e-12               -2.0186e-05          
  2                     2.0754e-05            7.6e-13               5.4e-12               -2.0734e-05          
  2.05                  2.1288e-05            7e-13                 4.72e-12              -2.1266e-05          
  2.1                   2.1806e-05            7.2e-13               3.92e-12              -2.1786e-05          
  2.15                  2.2314e-05            8.6e-13               4e-12                 -2.2292e-05          
  2.2                   2.2804e-05            7.2e-13               4.64e-12              -2.2784e-05          
  2.25                  2.3288e-05            7.4e-13               4.4e-12               -2.3266e-05          
  2.3                   2.3752e-05            7.4e-13               3.62e-12              -2.3732e-05          
  2.35                  2.4206e-05            7e-13                 3.98e-12              -2.4186e-05          
  2.4                   2.4644e-05            7.6e-13               3.94e-12              -2.4624e-05          
  2.45                  2.5076e-05            7.6e-13               4.9e-12               -2.5056e-05          
  2.5                   2.5496e-05            8.4e-13               3.88e-12              -2.5476e-05          
  2.55                  2.5904e-05            7e-13                 3.2e-12               -2.5884e-05          
  2.6                   2.63e-05              8e-13                 4.2e-12               -2.628e-05           
  2.65                  2.6688e-05            8e-13                 4.5e-12               -2.6666e-05          
  2.7                   2.7064e-05            7.8e-13               4.12e-12              -2.7044e-05          
  2.75                  2.743e-05             7.4e-13               3.44e-12              -2.7412e-05          
  2.8                   2.7788e-05            8e-13                 3.46e-12              -2.7768e-05          
  2.85                  2.8134e-05            7.8e-13               4.74e-12              -2.8114e-05          
  2.9                   2.8472e-05            7.6e-13               4.54e-12              -2.8452e-05          
  2.95                  2.8802e-05            7.4e-13               3.84e-12              -2.8784e-05          
  3                     2.9122e-05            7.6e-13               3.24e-12              -2.91e-05            
  3.05                  2.9434e-05            9e-13                 4.06e-12              -2.9414e-05          
  3.1                   2.9736e-05            8.2e-13               4.88e-12              -2.9718e-05          
  3.15                  3.0032e-05            8.4e-13               3.96e-12              -3.0006e-05          
  3.2                   3.032e-05             8.8e-13               3.38e-12              -3.03e-05            
  3.25                  3.06e-05              8.4e-13               3.98e-12              -3.058e-05           
  3.3                   3.0876e-05            8.2e-13               4.1e-12               -3.0854e-05          
  3.35                  3.114e-05             7.8e-13               3.54e-12              -3.1122e-05          
  3.4                   3.14e-05              8.6e-13               3.12e-12              -3.138e-05           
  3.45                  3.1638e-05            8e-13                 2.88e-12              -3.1618e-05          
  3.5                   3.1884e-05            8.6e-13               4.56e-12              -3.1862e-05          
  3.55                  3.2122e-05            9.2e-13               3.02e-12              -3.2102e-05          
  3.6                   3.2356e-05            8.8e-13               2.76e-12              -3.2334e-05          
END_DB

BEGIN_DB
 ICCAP_VAR vb         -0.9           
 ICCAP_VAR vd         0.1            
 ICCAP_VAR vs         0              

 #vg                    id                    ig                    ib                    is                   
  -0.5                  2e-14                 -7.2e-13              -1.076e-11            8e-14                
  -0.45                 2e-14                 -3e-13                -6.04e-12             6e-14                
  -0.4                  0                     -2.4e-13              -7.44e-12             8e-14                
  -0.35                 -4e-14                -1e-13                -6.58e-12             -2e-14               
  -0.3                  1.2e-13               0                     -6.46e-12             4e-14                
  -0.25                 2e-14                 0                     -6.22e-12             6e-14                
  -0.2                  6e-14                 2e-14                 -5.82e-12             2e-14                
  -0.15                 6e-14                 2e-14                 -4.76e-12             6e-14                
  -0.1                  0                     1.2e-13               -3.24e-12             6e-14                
  -0.05                 1e-13                 1.4e-13               -3.56e-12             1.4e-13              
  0                     1.2e-13               2.4e-13               -4.26e-12             8e-14                
  0.05                  1.2e-13               2e-13                 -3.36e-12             0                    
  0.1                   3.4e-13               1.8e-13               -2.92e-12             -4e-14               
  0.15                  1.04e-12              3.4e-13               -2.12e-12             -8.2e-13             
  0.2                   3.68e-12              3.6e-13               -2.86e-12             -3.5e-12             
  0.25                  1.47e-11              3.2e-13               -3.26e-12             -1.44e-11            
  0.3                   5.92e-11              3.2e-13               -2.92e-12             -5.884e-11           
  0.35                  2.3538e-10            3e-13                 -2.16e-12             -2.35e-10            
  0.4                   9.0966e-10            4e-13                 -1.66e-12             -9.0784e-10          
  0.45                  3.4224e-09            4e-13                 -1.92e-12             -3.4192e-09          
  0.5                   1.1964e-08            2.6e-13               -2.4e-12              -1.195e-08           
  0.55                  3.9644e-08            4.2e-13               -1.34e-12             -3.9648e-08          
  0.6                   1.1948e-07            4e-13                 -1.46e-12             -1.1926e-07          
  0.65                  3.078e-07             3.6e-13               -2.32e-12             -3.0772e-07          
  0.7                   6.4504e-07            5.8e-13               -1.6e-12              -6.4524e-07          
  0.75                  1.14482e-06           4.2e-13               -1.24e-12             -1.14528e-06         
  0.8                   1.7862e-06            4.2e-13               -1.74e-12             -1.7824e-06          
  0.85                  2.5316e-06            5e-13                 -1.02e-12             -2.5268e-06          
  0.9                   3.344e-06             4.8e-13               -5.4e-13              -3.3396e-06          
  0.95                  4.193e-06             5.8e-13               -8.6e-13              -4.189e-06           
  1                     5.0608e-06            5.8e-13               -8.6e-13              -5.0556e-06          
  1.05                  5.9316e-06            6.4e-13               -1.06e-12             -5.9286e-06          
  1.1                   6.7974e-06            5.4e-13               -8.4e-13              -6.793e-06           
  1.15                  7.6504e-06            6.4e-13               -5e-13                -7.647e-06           
  1.2                   8.491e-06             6e-13                 -3.4e-13              -8.4866e-06          
  1.25                  9.3138e-06            6.6e-13               -5.8e-13              -9.3074e-06          
  1.3                   1.0124e-05            6.4e-13               -8e-13                -1.01206e-05         
  1.35                  1.09126e-05           7.6e-13               6e-14                 -1.09074e-05         
  1.4                   1.169e-05             5.8e-13               -4e-14                -1.167e-05           
  1.45                  1.244e-05             6.4e-13               -9e-13                -1.2414e-05          
  1.5                   1.3172e-05            5.8e-13               -1.7e-12              -1.3152e-05          
  1.55                  1.3884e-05            6.6e-13               -6.8e-13              -1.3866e-05          
  1.6                   1.4576e-05            7e-13                 6.6e-13               -1.4556e-05          
  1.65                  1.5246e-05            6.8e-13               -4.2e-13              -1.523e-05           
  1.7                   1.5904e-05            6.2e-13               -7.8e-13              -1.5882e-05          
  1.75                  1.6542e-05            6.4e-13               -3.8e-13              -1.6526e-05          
  1.8                   1.7162e-05            6.2e-13               1.04e-12              -1.7148e-05          
  1.85                  1.777e-05             6.4e-13               -4.8e-13              -1.7746e-05          
  1.9                   1.8356e-05            6.6e-13               1.8e-13               -1.834e-05           
  1.95                  1.8928e-05            7.2e-13               -7e-13                -1.891e-05           
  2                     1.9488e-05            7.2e-13               4.6e-13               -1.9466e-05          
  2.05                  2.0036e-05            6.8e-13               -1e-13                -2.0014e-05          
  2.1                   2.0566e-05            8.2e-13               -6e-14                -2.054e-05           
  2.15                  2.1078e-05            6.6e-13               2.44e-12              -2.1058e-05          
  2.2                   2.158e-05             7.6e-13               0                     -2.1558e-05          
  2.25                  2.207e-05             6e-13                 1.04e-12              -2.2048e-05          
  2.3                   2.2546e-05            6.8e-13               -4e-13                -2.2524e-05          
  2.35                  2.3012e-05            8e-13                 1e-13                 -2.2988e-05          
  2.4                   2.346e-05             6.8e-13               -1e-13                -2.3444e-05          
  2.45                  2.39e-05              7e-13                 5e-13                 -2.3878e-05          
  2.5                   2.4328e-05            7.4e-13               -2.6e-13              -2.4308e-05          
  2.55                  2.4742e-05            6.6e-13               -2.2e-13              -2.4722e-05          
  2.6                   2.5144e-05            8e-13                 0                     -2.5124e-05          
  2.65                  2.5538e-05            7e-13                 5.6e-13               -2.5518e-05          
  2.7                   2.5918e-05            9e-13                 6.4e-13               -2.5898e-05          
  2.75                  2.6292e-05            8e-13                 -8e-14                -2.6272e-05          
  2.8                   2.6652e-05            7.8e-13               -1.8e-13              -2.6632e-05          
  2.85                  2.7002e-05            7.6e-13               -1.6e-13              -2.6984e-05          
  2.9                   2.7344e-05            7.4e-13               1.22e-12              -2.7326e-05          
  2.95                  2.768e-05             7.2e-13               -1e-13                -2.766e-05           
  3                     2.8004e-05            8.4e-13               -6e-14                -2.7984e-05          
  3.05                  2.8318e-05            7.6e-13               7.2e-13               -2.8298e-05          
  3.1                   2.8628e-05            8.4e-13               1.02e-12              -2.8606e-05          
  3.15                  2.8926e-05            8e-13                 9.6e-13               -2.8904e-05          
  3.2                   2.9218e-05            8.2e-13               -5.8e-13              -2.9196e-05          
  3.25                  2.95e-05              7.6e-13               6e-13                 -2.948e-05           
  3.3                   2.9776e-05            7.8e-13               1e-12                 -2.9758e-05          
  3.35                  3.0046e-05            8.8e-13               7e-13                 -3.0024e-05          
  3.4                   3.0308e-05            9e-13                 -5e-13                -3.0288e-05          
  3.45                  3.0562e-05            8.6e-13               -4e-14                -3.0542e-05          
