! VERSION = 6.00
BEGIN_HEADER
 ICCAP_INPUTS
  vd         V  D GROUND SMU1 0.1 LIN        1    0          3.6        37   0.1       
  vg         V  G GROUND SMU2 0.001 LIN        2    0.692      3.6        5    0.727     
  vb         V  B GROUND SMU4 0.1 CON        0
  vs         V  S GROUND SMU3 0.1 CON        0
 ICCAP_OUTPUTS
  id         I  D GROUND SMU1 B
  ig         I  G GROUND SMU2 B
  ib         I  B GROUND SMU4 B
  is         I  S GROUND SMU3 B
 ICCAP_VALUES
  MASTER_SETUP_TYPE "~dc_idvd~"
  LINVT_VALUE "|idvg|100.0n|100.0m|1.000m|5|3.600|"
  LISTVT_VALUE ""
  TYPE "1"
  TEMP " 27.0000 "
  IS_TNOM " 1.00000 "
  MAIN.W "600.0n"
  MAIN.L "10.00u"
  MAIN.AD "204.0f"
  MAIN.AS "204.0f"
  MAIN.PD "1.880u"
  MAIN.PS "1.880u"
  MAIN.NF "1.000"
  MAIN.M "1"
  MAIN.NRD "0.000"
  MAIN.NRS "0.000"
  MAIN.LDRIFT1 "1E-06"
  MAIN.LDRIFT2 "1E-06"
  MAIN.SA "0.000"
  MAIN.SB "0.000"
  MAIN.SD "0.000"
  MAIN.SCA "0.000"
  MAIN.SCB "0.000"
  MAIN.SCC "0.000"
  MAIN.SC "0.000"
  MODULE "S559"
  PIN_D "12"
  PIN_G "9"
  PIN_S "10"
  PIN_B "11"
  PIN_E ""
  PIN_6 ""
  XY_ID ""
  FUNC "W Scale"
  STI "SA ref"
  WPE "WPE ref"
  COMMENT ""
  DIS_MEAS ""
  TypeTCI "10"
END_HEADER

BEGIN_DB
 ICCAP_VAR vg         0.692          
 ICCAP_VAR vb         0              
 ICCAP_VAR vs         0              

 #vd                    id                    ig                    ib                    is                   
  0                     3.696e-11             -6e-14                2.616e-11             -2.932e-11           
  0.1                   2.8572e-08            -8e-14                2.276e-11             -2.8552e-08          
  0.2                   3.1418e-08            -1.8e-13              2.182e-11             -3.1388e-08          
  0.3                   3.1626e-08            -1.4e-13              2.124e-11             -3.1594e-08          
  0.4                   3.169e-08             -2.4e-13              1.972e-11             -3.1656e-08          
  0.5                   3.1754e-08            -4e-14                1.922e-11             -3.1732e-08          
  0.6                   3.1804e-08            -6e-14                1.826e-11             -3.1784e-08          
  0.7                   3.186e-08             -8e-14                1.884e-11             -3.1826e-08          
  0.8                   3.1892e-08            -2e-14                1.766e-11             -3.1874e-08          
  0.9                   3.1936e-08            -1.8e-13              1.666e-11             -3.1914e-08          
  1                     3.1962e-08            -1.2e-13              1.676e-11             -3.195e-08           
  1.1                   3.2016e-08            0                     1.624e-11             -3.1984e-08          
  1.2                   3.2034e-08            -6e-14                1.616e-11             -3.201e-08           
  1.3                   3.2064e-08            0                     1.58e-11              -3.205e-08           
  1.4                   3.209e-08             -1.8e-13              1.418e-11             -3.2064e-08          
  1.5                   3.2122e-08            -1.4e-13              1.402e-11             -3.209e-08           
  1.6                   3.2148e-08            -8e-14                1.458e-11             -3.2132e-08          
  1.7                   3.2178e-08            -6e-14                1.264e-11             -3.2154e-08          
  1.8                   3.22e-08              -1.6e-13              1.202e-11             -3.2182e-08          
  1.9                   3.2216e-08            -2e-13                1.072e-11             -3.2204e-08          
  2                     3.226e-08             -8e-14                1.07e-11              -3.2228e-08          
  2.1                   3.2278e-08            2e-13                 5.38e-12              -3.2242e-08          
  2.2                   3.2298e-08            -4e-14                -1.14e-12             -3.227e-08           
  2.3                   3.2336e-08            -1e-13                -9.14e-12             -3.2286e-08          
  2.4                   3.236e-08             8e-14                 -1.926e-11            -3.2322e-08          
  2.5                   3.2398e-08            -8e-14                -3.36e-11             -3.233e-08           
  2.6                   3.2438e-08            2e-14                 -5.416e-11            -3.2354e-08          
  2.7                   3.2486e-08            6e-14                 -8.194e-11            -3.2368e-08          
  2.8                   3.2554e-08            -6e-14                -1.1626e-10           -3.24e-08            
  2.9                   3.2592e-08            -2e-14                -1.6062e-10           -3.2426e-08          
  3                     3.2692e-08            8e-14                 -2.1914e-10           -3.2422e-08          
  3.1                   3.2778e-08            -1.2e-13              -2.9384e-10           -3.2444e-08          
  3.2                   3.2884e-08            -1.4e-13              -3.8676e-10           -3.2468e-08          
  3.3                   3.3024e-08            -6e-14                -5.006e-10            -3.2484e-08          
  3.4                   3.3186e-08            4e-14                 -6.3918e-10           -3.25e-08            
  3.5                   3.337e-08             -4e-14                -8.0822e-10           -3.2528e-08          
  3.6                   3.3588e-08            0                     -1.0058e-09           -3.2548e-08          
END_DB

BEGIN_DB
 ICCAP_VAR vg         1.419          
 ICCAP_VAR vb         0              
 ICCAP_VAR vs         0              

 #vd                    id                    ig                    ib                    is                   
  0                     3.7424e-10            3.6e-13               8.9e-12               -3.9524e-10          
  0.1                   5.9194e-07            3.2e-13               7.94e-12              -5.9184e-07          
  0.2                   1.06326e-06           1.2e-13               7.98e-12              -1.06328e-06         
  0.3                   1.4192e-06            1.8e-13               7.46e-12              -1.4152e-06          
  0.4                   1.6634e-06            1.4e-13               7.16e-12              -1.6596e-06          
  0.5                   1.8072e-06            1.8e-13               7.6e-12               -1.8034e-06          
  0.6                   1.8686e-06            2.6e-13               6.7e-12               -1.8648e-06          
  0.7                   1.8854e-06            2.4e-13               6.96e-12              -1.8818e-06          
  0.8                   1.8902e-06            2.2e-13               7e-12                 -1.8862e-06          
  0.9                   1.8924e-06            2.2e-13               7.72e-12              -1.8884e-06          
  1                     1.8938e-06            1.8e-13               6.88e-12              -1.89e-06            
  1.1                   1.8952e-06            1e-13                 6.92e-12              -1.8914e-06          
  1.2                   1.8962e-06            1.6e-13               6.04e-12              -1.8924e-06          
  1.3                   1.897e-06             1.2e-13               5.84e-12              -1.8932e-06          
  1.4                   1.898e-06             1.4e-13               6.84e-12              -1.894e-06           
  1.5                   1.8986e-06            1.4e-13               6e-12                 -1.8946e-06          
  1.6                   1.8992e-06            2e-13                 6.44e-12              -1.8954e-06          
  1.7                   1.9e-06               1.8e-13               7.2e-12               -1.8962e-06          
  1.8                   1.9006e-06            0                     5.52e-12              -1.8966e-06          
  1.9                   1.9012e-06            1.6e-13               5.78e-12              -1.8972e-06          
  2                     1.9018e-06            1.4e-13               5.26e-12              -1.898e-06           
  2.1                   1.9024e-06            6e-14                 5.8e-13               -1.8986e-06          
  2.2                   1.903e-06             1e-13                 -7.08e-12             -1.8992e-06          
  2.3                   1.9034e-06            2.4e-13               -2.588e-11            -1.8996e-06          
  2.4                   1.9042e-06            1.8e-13               -6.668e-11            -1.9004e-06          
  2.5                   1.9048e-06            4e-14                 -1.3776e-10           -1.9008e-06          
  2.6                   1.9054e-06            1e-13                 -2.6016e-10           -1.9014e-06          
  2.7                   1.9062e-06            4e-14                 -4.5692e-10           -1.902e-06           
  2.8                   1.9072e-06            6e-14                 -7.5466e-10           -1.9024e-06          
  2.9                   1.9078e-06            2.2e-13               -1.1916e-09           -1.9028e-06          
  3                     1.909e-06             8e-14                 -1.8084e-09           -1.9034e-06          
  3.1                   1.9104e-06            1.2e-13               -2.6692e-09           -1.904e-06           
  3.2                   1.912e-06             2e-13                 -3.8344e-09           -1.9044e-06          
  3.3                   1.9138e-06            1.2e-13               -5.3902e-09           -1.9048e-06          
  3.4                   1.9166e-06            6e-14                 -7.437e-09            -1.9052e-06          
  3.5                   1.9198e-06            1e-13                 -1.0109e-08           -1.9056e-06          
  3.6                   1.9236e-06            8e-14                 -1.3548e-08           -1.906e-06           
END_DB

BEGIN_DB
 ICCAP_VAR vg         2.146          
 ICCAP_VAR vb         0              
 ICCAP_VAR vs         0              

 #vd                    id                    ig                    ib                    is                   
  0                     7.371e-10             4.2e-13               5.56e-12              -7.3288e-10          
  0.1                   1.185e-06             3.2e-13               5.94e-12              -1.181e-06           
  0.2                   2.2592e-06            4.2e-13               4.72e-12              -2.2554e-06          
  0.3                   3.2222e-06            3e-13                 3.82e-12              -3.2182e-06          
  0.4                   4.0768e-06            2.2e-13               4.28e-12              -4.0728e-06          
  0.5                   4.8214e-06            3.6e-13               4.76e-12              -4.8176e-06          
  0.6                   5.455e-06             3.4e-13               3.88e-12              -5.451e-06           
  0.7                   5.98e-06              2.6e-13               4.46e-12              -5.9764e-06          
  0.8                   6.3974e-06            2.4e-13               4.4e-12               -6.3934e-06          
  0.9                   6.7086e-06            3.4e-13               3.6e-12               -6.7048e-06          
  1                     6.922e-06             2.4e-13               4.66e-12              -6.9182e-06          
  1.1                   7.047e-06             1.8e-13               3.54e-12              -7.0434e-06          
  1.2                   7.1066e-06            1.6e-13               3.44e-12              -7.1026e-06          
  1.3                   7.1304e-06            2e-13                 4.56e-12              -7.1272e-06          
  1.4                   7.1414e-06            2.6e-13               3.74e-12              -7.1374e-06          
  1.5                   7.1474e-06            2e-13                 3.24e-12              -7.1436e-06          
  1.6                   7.1518e-06            2.2e-13               3.96e-12              -7.148e-06           
  1.7                   7.155e-06             2.8e-13               3.64e-12              -7.1512e-06          
  1.8                   7.1578e-06            2.2e-13               3.42e-12              -7.1542e-06          
  1.9                   7.1608e-06            2.4e-13               4.26e-12              -7.157e-06           
  2                     7.1626e-06            8e-14                 3.6e-12               -7.1588e-06          
  2.1                   7.1652e-06            1.8e-13               2.64e-12              -7.161e-06           
  2.2                   7.1674e-06            8e-14                 4.16e-12              -7.1636e-06          
  2.3                   7.169e-06             6e-14                 3.16e-12              -7.1654e-06          
  2.4                   7.1708e-06            1.2e-13               2.74e-12              -7.1672e-06          
  2.5                   7.1726e-06            2.4e-13               3.1e-12               -7.1688e-06          
  2.6                   7.1742e-06            1.6e-13               -1.1e-12              -7.1702e-06          
  2.7                   7.1756e-06            1e-13                 -1.284e-11            -7.172e-06           
  2.8                   7.1774e-06            2.4e-13               -4.044e-11            -7.1738e-06          
  2.9                   7.1792e-06            1.6e-13               -1.062e-10            -7.1748e-06          
  3                     7.1806e-06            1.6e-13               -2.3844e-10           -7.1764e-06          
  3.1                   7.1822e-06            1.8e-13               -4.8358e-10           -7.1776e-06          
  3.2                   7.1838e-06            2.8e-13               -9.06e-10             -7.179e-06           
  3.3                   7.1858e-06            0                     -1.5862e-09           -7.1806e-06          
  3.4                   7.1886e-06            2e-13                 -2.6354e-09           -7.182e-06           
  3.5                   7.1914e-06            2e-13                 -4.1808e-09           -7.1834e-06          
  3.6                   7.195e-06             1e-13                 -6.3864e-09           -7.1848e-06          
END_DB

BEGIN_DB
 ICCAP_VAR vg         2.873          
 ICCAP_VAR vb         0              
 ICCAP_VAR vs         0              

 #vd                    id                    ig                    ib                    is                   
  0                     1.0132e-09            5e-13                 4e-12                 -9.7346e-10          
  0.1                   1.6404e-06            5.4e-13               3.68e-12              -1.6364e-06          
  0.2                   3.1914e-06            4.4e-13               3.22e-12              -3.1874e-06          
  0.3                   4.6508e-06            3.4e-13               3.74e-12              -4.6468e-06          
  0.4                   6.0224e-06            3.6e-13               3.32e-12              -6.0184e-06          
  0.5                   7.3014e-06            2.8e-13               2.44e-12              -7.2978e-06          
  0.6                   8.4852e-06            2.4e-13               3.46e-12              -8.4814e-06          
  0.7                   9.575e-06             3.4e-13               2.76e-12              -9.5712e-06          
  0.8                   1.05678e-05           3.4e-13               2.76e-12              -1.0564e-05          
  0.9                   1.147e-05             3.2e-13               3.28e-12              -1.14562e-05         
  1                     1.2262e-05            2.8e-13               2.96e-12              -1.2242e-05          
  1.1                   1.2956e-05            3e-13                 3.64e-12              -1.2936e-05          
  1.2                   1.3546e-05            2.2e-13               2.36e-12              -1.3526e-05          
  1.3                   1.4036e-05            2e-13                 3.04e-12              -1.4018e-05          
  1.4                   1.4428e-05            1.6e-13               3.56e-12              -1.4408e-05          
  1.5                   1.4722e-05            1.6e-13               2.3e-12               -1.4702e-05          
  1.6                   1.4928e-05            1.4e-13               2.6e-12               -1.4908e-05          
  1.7                   1.5054e-05            3.6e-13               3.8e-12               -1.5034e-05          
  1.8                   1.5124e-05            1.4e-13               1.94e-12              -1.5106e-05          
  1.9                   1.516e-05             2e-13                 2.64e-12              -1.5138e-05          
  2                     1.5178e-05            2.8e-13               3.38e-12              -1.5158e-05          
  2.1                   1.5188e-05            2.4e-13               1.8e-12               -1.5168e-05          
  2.2                   1.5196e-05            1.8e-13               3.18e-12              -1.5176e-05          
  2.3                   1.5202e-05            1.6e-13               3e-12                 -1.5182e-05          
  2.4                   1.5208e-05            2.6e-13               2.74e-12              -1.5188e-05          
  2.5                   1.5212e-05            3e-13                 3.16e-12              -1.5192e-05          
  2.6                   1.5216e-05            2.2e-13               3.2e-12               -1.5196e-05          
  2.7                   1.522e-05             2.2e-13               2.42e-12              -1.52e-05            
  2.8                   1.5224e-05            2.2e-13               2.78e-12              -1.5204e-05          
  2.9                   1.5228e-05            2.6e-13               2.36e-12              -1.5208e-05          
  3                     1.5232e-05            3e-13                 1.98e-12              -1.5212e-05          
  3.1                   1.5234e-05            1.4e-13               -2e-13                -1.5214e-05          
  3.2                   1.5238e-05            2.4e-13               -7.28e-12             -1.5218e-05          
  3.3                   1.5242e-05            3.2e-13               -2.878e-11            -1.522e-05           
  3.4                   1.5244e-05            2.4e-13               -8.196e-11            -1.5224e-05          
  3.5                   1.5246e-05            2.4e-13               -2.0552e-10           -1.5226e-05          
  3.6                   1.525e-05             1.8e-13               -4.5464e-10           -1.523e-05           
END_DB

BEGIN_DB
 ICCAP_VAR vg         3.6            
 ICCAP_VAR vb         0              
 ICCAP_VAR vs         0              

 #vd                    id                    ig                    ib                    is                   
  0                     1.1546e-09            5.4e-13               3.18e-12              -1.0684e-09          
  0.1                   1.9484e-06            3e-13                 4.52e-12              -1.9444e-06          
  0.2                   3.828e-06             4e-13                 2.24e-12              -3.8242e-06          
  0.3                   5.6364e-06            3.6e-13               2.24e-12              -5.6324e-06          
  0.4                   7.3786e-06            3.2e-13               3.18e-12              -7.3748e-06          
  0.5                   9.0504e-06            3.8e-13               1.94e-12              -9.0466e-06          
  0.6                   1.06468e-05           3.2e-13               1.94e-12              -1.06426e-05         
  0.7                   1.218e-05             3.2e-13               1.96e-12              -1.216e-05           
  0.8                   1.3628e-05            3.4e-13               2.96e-12              -1.3608e-05          
