! VERSION = 6.00
BEGIN_HEADER
 ICCAP_INPUTS
  vd         V  D GROUND SMU1 0.1 LIN        1    0          3.6        37   0.1       
  vg         V  G GROUND SMU2 0.001 LIN        2    1.38       3.6        5    0.555     
  vb         V  B GROUND SMU4 0.1 CON        -3.6
  vs         V  S GROUND SMU3 0.1 CON        0
 ICCAP_OUTPUTS
  id         I  D GROUND SMU1 B
  ig         I  G GROUND SMU2 B
  ib         I  B GROUND SMU4 B
  is         I  S GROUND SMU3 B
 ICCAP_VALUES
  MASTER_SETUP_TYPE "~dc_idvd~"
  LINVT_VALUE "|idvg|100.0n|100.0m|1.000m|5|3.600|"
  LISTVT_VALUE ""
  TYPE "1"
  TEMP " 125.000 "
  IS_TNOM " 0.00000 "
  MAIN.W "300.0n"
  MAIN.L "10.00u"
  MAIN.AD "102.0f"
  MAIN.AS "102.0f"
  MAIN.PD "1.280u"
  MAIN.PS "1.280u"
  MAIN.NF "1.000"
  MAIN.M "1"
  MAIN.NRD "0.000"
  MAIN.NRS "0.000"
  MAIN.LDRIFT1 "1E-06"
  MAIN.LDRIFT2 "1E-06"
  MAIN.SA "0.000"
  MAIN.SB "0.000"
  MAIN.SD "0.000"
  MAIN.SCA "0.000"
  MAIN.SCB "0.000"
  MAIN.SCC "0.000"
  MAIN.SC "0.000"
  MODULE "S547"
  PIN_D "14"
  PIN_G "7"
  PIN_S "8"
  PIN_B "13"
  PIN_E ""
  PIN_6 ""
  XY_ID ""
  FUNC "Narrow"
  STI "SA ref"
  WPE "WPE ref"
  COMMENT ""
  DIS_MEAS ""
  TypeTCI "10"
END_HEADER

BEGIN_DB
 ICCAP_VAR vg         1.38           
 ICCAP_VAR vb         -3.6           
 ICCAP_VAR vs         0              

 #vd                    id                    ig                    ib                    is                   
  0                     8.9e-12               1.24e-12              -1.2976e-10           -6.28e-12            
  0.1                   1.0968e-08            9.2e-13               -1.1166e-10           -1.0952e-08          
  0.2                   1.309e-08             1e-12                 -1.0604e-10           -1.307e-08           
  0.3                   1.3292e-08            9e-13                 -9.994e-11            -1.3268e-08          
  0.4                   1.3306e-08            8e-13                 -9.732e-11            -1.329e-08           
  0.5                   1.3312e-08            6.8e-13               -9.374e-11            -1.3298e-08          
  0.6                   1.3324e-08            6.8e-13               -8.95e-11             -1.3306e-08          
  0.7                   1.3328e-08            5.8e-13               -8.55e-11             -1.3308e-08          
  0.8                   1.3332e-08            5.2e-13               -8.294e-11            -1.3316e-08          
  0.9                   1.3338e-08            6.2e-13               -8.12e-11             -1.332e-08           
  1                     1.3342e-08            6.6e-13               -7.816e-11            -1.3322e-08          
  1.1                   1.3346e-08            7.6e-13               -7.47e-11             -1.3328e-08          
  1.2                   1.3354e-08            5.2e-13               -7.266e-11            -1.3332e-08          
  1.3                   1.3356e-08            5.8e-13               -7.17e-11             -1.3336e-08          
  1.4                   1.3362e-08            5.4e-13               -7.006e-11            -1.334e-08           
  1.5                   1.3362e-08            4e-13                 -6.652e-11            -1.3344e-08          
  1.6                   1.3364e-08            4e-13                 -6.692e-11            -1.335e-08           
  1.7                   1.337e-08             5.4e-13               -6.414e-11            -1.3346e-08          
  1.8                   1.3374e-08            4.8e-13               -6.292e-11            -1.335e-08           
  1.9                   1.3368e-08            5.4e-13               -6.09e-11             -1.3346e-08          
  2                     1.3372e-08            5.2e-13               -5.99e-11             -1.335e-08           
  2.1                   1.3376e-08            4.6e-13               -6.008e-11            -1.3352e-08          
  2.2                   1.338e-08             5e-13                 -5.952e-11            -1.336e-08           
  2.3                   1.3386e-08            4e-13                 -5.878e-11            -1.3366e-08          
  2.4                   1.3392e-08            3.8e-13               -5.846e-11            -1.3364e-08          
  2.5                   1.3388e-08            5e-13                 -6.012e-11            -1.3364e-08          
  2.6                   1.3398e-08            3.6e-13               -6.26e-11             -1.337e-08           
  2.7                   1.3406e-08            4e-13                 -6.52e-11             -1.3376e-08          
  2.8                   1.3418e-08            4.4e-13               -7.002e-11            -1.3376e-08          
  2.9                   1.3434e-08            4e-13                 -7.892e-11            -1.3384e-08          
  3                     1.3448e-08            2.6e-13               -8.872e-11            -1.339e-08           
  3.1                   1.3466e-08            3.8e-13               -1.0106e-10           -1.3382e-08          
  3.2                   1.348e-08             4e-13                 -1.1954e-10           -1.339e-08           
  3.3                   1.3512e-08            4.4e-13               -1.43e-10             -1.3396e-08          
  3.4                   1.3544e-08            3.8e-13               -1.735e-10            -1.3394e-08          
  3.5                   1.3592e-08            1.6e-13               -2.1124e-10           -1.3404e-08          
  3.6                   1.364e-08             3.8e-13               -2.5704e-10           -1.3404e-08          
END_DB

BEGIN_DB
 ICCAP_VAR vg         1.935          
 ICCAP_VAR vb         -3.6           
 ICCAP_VAR vs         0              

 #vd                    id                    ig                    ib                    is                   
  0                     4.628e-11             7.8e-13               -3.578e-11            -5.086e-11           
  0.1                   1.2532e-07            6.4e-13               -3.596e-11            -1.2528e-07          
  0.2                   2.2306e-07            7.4e-13               -3.538e-11            -2.2304e-07          
  0.3                   2.939e-07             7.6e-13               -3.554e-11            -2.939e-07           
  0.4                   3.399e-07             5.8e-13               -3.666e-11            -3.399e-07           
  0.5                   3.6428e-07            7.6e-13               -3.47e-11             -3.6426e-07          
  0.6                   3.7352e-07            5.4e-13               -3.44e-11             -3.736e-07           
  0.7                   3.7604e-07            6.2e-13               -3.508e-11            -3.7602e-07          
  0.8                   3.7662e-07            5.2e-13               -3.434e-11            -3.7662e-07          
  0.9                   3.7688e-07            4.8e-13               -3.342e-11            -3.7688e-07          
  1                     3.7708e-07            4.4e-13               -3.33e-11             -3.7708e-07          
  1.1                   3.7718e-07            6.2e-13               -3.34e-11             -3.7714e-07          
  1.2                   3.7732e-07            4e-13                 -3.316e-11            -3.7732e-07          
  1.3                   3.7742e-07            6e-13                 -3.196e-11            -3.774e-07           
  1.4                   3.7746e-07            5.4e-13               -3.23e-11             -3.7744e-07          
  1.5                   3.7752e-07            5e-13                 -3.224e-11            -3.7756e-07          
  1.6                   3.7768e-07            5.2e-13               -3.094e-11            -3.7764e-07          
  1.7                   3.7776e-07            5.8e-13               -3.07e-11             -3.7774e-07          
  1.8                   3.7782e-07            4e-13                 -3.174e-11            -3.7782e-07          
  1.9                   3.7788e-07            4.4e-13               -3.158e-11            -3.7794e-07          
  2                     3.7798e-07            4.8e-13               -3.08e-11             -3.7796e-07          
  2.1                   3.7806e-07            4e-13                 -3.058e-11            -3.7806e-07          
  2.2                   3.7816e-07            5.6e-13               -3.08e-11             -3.7816e-07          
  2.3                   3.7826e-07            4.6e-13               -3.198e-11            -3.783e-07           
  2.4                   3.7836e-07            2.6e-13               -3.2e-11              -3.7834e-07          
  2.5                   3.7842e-07            4.8e-13               -3.762e-11            -3.7838e-07          
  2.6                   3.7844e-07            3.6e-13               -4.566e-11            -3.7844e-07          
  2.7                   3.7858e-07            4.6e-13               -5.942e-11            -3.785e-07           
  2.8                   3.7866e-07            4e-13                 -8.18e-11             -3.7862e-07          
  2.9                   3.7874e-07            2.8e-13               -1.2086e-10           -3.7862e-07          
  3                     3.7888e-07            3.6e-13               -1.7834e-10           -3.7868e-07          
  3.1                   3.7894e-07            3.4e-13               -2.6178e-10           -3.7868e-07          
  3.2                   3.791e-07             4.8e-13               -3.8012e-10           -3.7878e-07          
  3.3                   3.7936e-07            4.2e-13               -5.4862e-10           -3.7884e-07          
  3.4                   3.7964e-07            3.6e-13               -7.7352e-10           -3.7888e-07          
  3.5                   3.7996e-07            4.8e-13               -1.075e-09            -3.7888e-07          
  3.6                   3.804e-07             4.4e-13               -1.4742e-09           -3.7896e-07          
END_DB

BEGIN_DB
 ICCAP_VAR vg         2.49           
 ICCAP_VAR vb         -3.6           
 ICCAP_VAR vs         0              

 #vd                    id                    ig                    ib                    is                   
  0                     8.818e-11             1e-12                 -2.37e-11             -9.672e-11           
  0.1                   2.4986e-07            8.4e-13               -2.468e-11            -2.4984e-07          
  0.2                   4.7376e-07            5.6e-13               -2.404e-11            -4.738e-07           
  0.3                   6.7102e-07            7e-13                 -2.328e-11            -6.711e-07           
  0.4                   8.4208e-07            6e-13                 -2.464e-11            -8.4208e-07          
  0.5                   9.8634e-07            7.6e-13               -2.506e-11            -9.865e-07           
  0.6                   1.10392e-06           8.4e-13               -2.312e-11            -1.10402e-06         
  0.7                   1.1968e-06            5.6e-13               -2.376e-11            -1.1934e-06          
  0.8                   1.263e-06             5e-13                 -2.348e-11            -1.2596e-06          
  0.9                   1.306e-06             5.6e-13               -2.358e-11            -1.3028e-06          
  1                     1.3298e-06            6.2e-13               -2.372e-11            -1.3266e-06          
  1.1                   1.3404e-06            4.4e-13               -2.348e-11            -1.3372e-06          
  1.2                   1.3446e-06            5.2e-13               -2.372e-11            -1.3414e-06          
  1.3                   1.3464e-06            4.8e-13               -2.368e-11            -1.3428e-06          
  1.4                   1.347e-06             4.2e-13               -2.284e-11            -1.3436e-06          
  1.5                   1.3474e-06            4.2e-13               -2.272e-11            -1.3442e-06          
  1.6                   1.348e-06             4.2e-13               -2.322e-11            -1.3446e-06          
  1.7                   1.3482e-06            3.8e-13               -2.194e-11            -1.3452e-06          
  1.8                   1.3486e-06            2.8e-13               -2.266e-11            -1.3454e-06          
  1.9                   1.349e-06             5.4e-13               -2.27e-11             -1.3458e-06          
  2                     1.3492e-06            5.6e-13               -2.194e-11            -1.346e-06           
  2.1                   1.3494e-06            5.6e-13               -2.26e-11             -1.3462e-06          
  2.2                   1.3496e-06            3.8e-13               -2.258e-11            -1.3462e-06          
  2.3                   1.3498e-06            4.2e-13               -2.244e-11            -1.3466e-06          
  2.4                   1.3502e-06            4.8e-13               -2.2e-11              -1.347e-06           
  2.5                   1.3504e-06            5e-13                 -2.258e-11            -1.3472e-06          
  2.6                   1.3506e-06            6.2e-13               -2.24e-11             -1.3474e-06          
  2.7                   1.351e-06             4.8e-13               -2.41e-11             -1.3476e-06          
  2.8                   1.351e-06             4.8e-13               -2.758e-11            -1.3478e-06          
  2.9                   1.3512e-06            4.2e-13               -3.304e-11            -1.348e-06           
  3                     1.3516e-06            4.2e-13               -4.93e-11             -1.3482e-06          
  3.1                   1.3516e-06            4.6e-13               -7.592e-11            -1.3486e-06          
  3.2                   1.352e-06             5e-13                 -1.2512e-10           -1.3488e-06          
  3.3                   1.3524e-06            4.2e-13               -2.0896e-10           -1.349e-06           
  3.4                   1.3528e-06            2.4e-13               -3.401e-10            -1.349e-06           
  3.5                   1.3532e-06            3.2e-13               -5.398e-10            -1.3494e-06          
  3.6                   1.3536e-06            4e-13                 -8.3524e-10           -1.3498e-06          
END_DB

BEGIN_DB
 ICCAP_VAR vg         3.045          
 ICCAP_VAR vb         -3.6           
 ICCAP_VAR vs         0              

 #vd                    id                    ig                    ib                    is                   
  0                     1.3086e-10            9.8e-13               -1.962e-11            -1.3054e-10          
  0.1                   3.582e-07             9.4e-13               -1.856e-11            -3.5822e-07          
  0.2                   6.9384e-07            7.6e-13               -2.008e-11            -6.9384e-07          
  0.3                   1.00566e-06           6.8e-13               -2.036e-11            -1.00576e-06         
  0.4                   1.2956e-06            6.2e-13               -1.898e-11            -1.2922e-06          
  0.5                   1.5602e-06            7e-13                 -2.008e-11            -1.557e-06           
  0.6                   1.7996e-06            6.8e-13               -1.944e-11            -1.7964e-06          
  0.7                   2.0144e-06            7.2e-13               -1.89e-11             -2.0114e-06          
  0.8                   2.204e-06             5.6e-13               -2.018e-11            -2.2008e-06          
  0.9                   2.3676e-06            5.8e-13               -1.896e-11            -2.3644e-06          
  1                     2.5058e-06            7.4e-13               -1.982e-11            -2.5028e-06          
  1.1                   2.6188e-06            7.6e-13               -1.942e-11            -2.6156e-06          
  1.2                   2.7062e-06            5e-13                 -1.844e-11            -2.703e-06           
  1.3                   2.7698e-06            5e-13                 -1.938e-11            -2.7666e-06          
  1.4                   2.812e-06             7.6e-13               -1.86e-11             -2.809e-06           
  1.5                   2.837e-06             5e-13                 -1.83e-11             -2.834e-06           
  1.6                   2.8496e-06            5.8e-13               -1.976e-11            -2.8468e-06          
  1.7                   2.856e-06             7e-13                 -1.888e-11            -2.8526e-06          
  1.8                   2.8588e-06            4.6e-13               -1.906e-11            -2.8556e-06          
  1.9                   2.8604e-06            4e-13                 -2.024e-11            -2.8576e-06          
  2                     2.862e-06             4.8e-13               -1.938e-11            -2.8586e-06          
  2.1                   2.8628e-06            6e-13                 -1.804e-11            -2.8596e-06          
  2.2                   2.864e-06             3.4e-13               -1.94e-11             -2.8608e-06          
  2.3                   2.8646e-06            3.4e-13               -1.902e-11            -2.8612e-06          
  2.4                   2.8652e-06            4.2e-13               -1.864e-11            -2.862e-06           
  2.5                   2.8656e-06            4.6e-13               -1.908e-11            -2.8626e-06          
  2.6                   2.8664e-06            4.2e-13               -1.796e-11            -2.8632e-06          
  2.7                   2.867e-06             4.2e-13               -1.874e-11            -2.8638e-06          
  2.8                   2.8674e-06            4.6e-13               -1.828e-11            -2.8642e-06          
  2.9                   2.8678e-06            5.6e-13               -1.774e-11            -2.8646e-06          
  3                     2.8684e-06            5.2e-13               -1.898e-11            -2.8654e-06          
  3.1                   2.869e-06             3.8e-13               -2.036e-11            -2.8656e-06          
  3.2                   2.8696e-06            3e-13                 -2.242e-11            -2.8662e-06          
  3.3                   2.8696e-06            5.2e-13               -3.022e-11            -2.8666e-06          
  3.4                   2.8702e-06            4.6e-13               -4.508e-11            -2.867e-06           
  3.5                   2.8708e-06            5.4e-13               -7.58e-11             -2.8674e-06          
  3.6                   2.8712e-06            5.8e-13               -1.3552e-10           -2.8682e-06          
END_DB

BEGIN_DB
 ICCAP_VAR vg         3.6            
 ICCAP_VAR vb         -3.6           
 ICCAP_VAR vs         0              

 #vd                    id                    ig                    ib                    is                   
  0                     1.6838e-10            9.6e-13               -1.72e-11             -1.7168e-10          
  0.1                   4.4758e-07            8.6e-13               -1.662e-11            -4.4758e-07          
  0.2                   8.7604e-07            7e-13                 -1.868e-11            -8.7608e-07          
  0.3                   1.2852e-06            6e-13                 -1.576e-11            -1.282e-06           
  0.4                   1.6738e-06            7.6e-13               -1.718e-11            -1.6706e-06          
  0.5                   2.0418e-06            6.8e-13               -1.708e-11            -2.0386e-06          
  0.6                   2.388e-06             6.8e-13               -1.704e-11            -2.3846e-06          
  0.7                   2.7126e-06            5.2e-13               -1.732e-11            -2.7092e-06          
  0.8                   3.0146e-06            7.8e-13               -1.71e-11             -3.0114e-06          
