! VERSION = 6.00
BEGIN_HEADER
 ICCAP_INPUTS
  vd         V  D GROUND SMU1 0.1 LIN        1    0          3.6        37   0.1       
  vg         V  G GROUND SMU2 0.001 LIN        2    0.58       3.6        5    0.755     
  vb         V  B GROUND SMU4 0.1 CON        0
  vs         V  S GROUND SMU3 0.1 CON        0
 ICCAP_OUTPUTS
  id         I  D GROUND SMU1 B
  ig         I  G GROUND SMU2 B
  ib         I  B GROUND SMU4 B
  is         I  S GROUND SMU3 B
 ICCAP_VALUES
  MASTER_SETUP_TYPE "~dc_idvd~"
  LINVT_VALUE "|idvg|100.0n|100.0m|1.000m|5|3.600|"
  LISTVT_VALUE ""
  TYPE "1"
  TEMP " 125.000 "
  IS_TNOM " 0.00000 "
  MAIN.W "10.00u"
  MAIN.L "10.00u"
  MAIN.AD "3.400p"
  MAIN.AS "3.400p"
  MAIN.PD "20.68u"
  MAIN.PS "20.68u"
  MAIN.NF "1.000"
  MAIN.M "1"
  MAIN.NRD "0.000"
  MAIN.NRS "0.000"
  MAIN.LDRIFT1 "1E-06"
  MAIN.LDRIFT2 "1E-06"
  MAIN.SA "0.000"
  MAIN.SB "0.000"
  MAIN.SD "0.000"
  MAIN.SCA "0.000"
  MAIN.SCB "0.000"
  MAIN.SCC "0.000"
  MAIN.SC "0.000"
  MODULE "S557"
  PIN_D "16"
  PIN_G "5"
  PIN_S "6"
  PIN_B "15"
  PIN_E ""
  PIN_6 ""
  XY_ID ""
  FUNC "Large"
  STI "SA ref"
  WPE "WPE ref"
  COMMENT ""
  DIS_MEAS ""
  TypeTCI "10"
END_HEADER

BEGIN_DB
 ICCAP_VAR vg         0.58           
 ICCAP_VAR vb         0              
 ICCAP_VAR vs         0              

 #vd                    id                    ig                    ib                    is                   
  0                     4.0928e-10            -1.8e-13              9.066e-11             -3.0316e-10          
  0.1                   3.6608e-07            -2.4e-13              8.05e-11              -3.6624e-07          
  0.2                   4.182e-07             -3e-13                7.392e-11             -4.1828e-07          
  0.3                   4.2296e-07            -3.2e-13              6.94e-11              -4.23e-07            
  0.4                   4.2408e-07            -3.6e-13              6.664e-11             -4.2412e-07          
  0.5                   4.2482e-07            -3e-13                6.376e-11             -4.2488e-07          
  0.6                   4.2552e-07            -2.6e-13              6.058e-11             -4.2554e-07          
  0.7                   4.2608e-07            -2.2e-13              5.77e-11              -4.2612e-07          
  0.8                   4.2662e-07            -1e-13                5.602e-11             -4.266e-07           
  0.9                   4.2708e-07            -2.2e-13              5.41e-11              -4.271e-07           
  1                     4.2752e-07            -1e-13                5.104e-11             -4.2758e-07          
  1.1                   4.2796e-07            -1.8e-13              4.97e-11              -4.2798e-07          
  1.2                   4.2836e-07            -2.6e-13              4.792e-11             -4.284e-07           
  1.3                   4.2874e-07            -2e-13                4.486e-11             -4.2876e-07          
  1.4                   4.291e-07             -1.6e-13              4.282e-11             -4.2912e-07          
  1.5                   4.2944e-07            -3.2e-13              3.996e-11             -4.2948e-07          
  1.6                   4.2976e-07            -2.6e-13              3.466e-11             -4.298e-07           
  1.7                   4.3014e-07            -1.2e-13              2.474e-11             -4.3016e-07          
  1.8                   4.3046e-07            -2.2e-13              7.72e-12              -4.3044e-07          
  1.9                   4.308e-07             -3e-13                -1.842e-11            -4.307e-07           
  2                     4.311e-07             -2e-13                -6.042e-11            -4.31e-07            
  2.1                   4.3142e-07            -2.6e-13              -1.2514e-10           -4.3132e-07          
  2.2                   4.318e-07             -1.4e-13              -2.1514e-10           -4.3158e-07          
  2.3                   4.3218e-07            -1.4e-13              -3.4318e-10           -4.317e-07           
  2.4                   4.3248e-07            -1e-13                -5.2086e-10           -4.3208e-07          
  2.5                   4.3318e-07            -2e-13                -7.584e-10            -4.3236e-07          
  2.6                   4.3366e-07            -1e-13                -1.0704e-09           -4.3256e-07          
  2.7                   4.3426e-07            -1.4e-13              -1.4786e-09           -4.3276e-07          
  2.8                   4.35e-07              -2.4e-13              -2.0052e-09           -4.3302e-07          
  2.9                   4.359e-07             -1.6e-13              -2.673e-09            -4.3322e-07          
  3                     4.3698e-07            -2.2e-13              -3.5184e-09           -4.3346e-07          
  3.1                   4.3826e-07            -1e-13                -4.5762e-09           -4.3366e-07          
  3.2                   4.3978e-07            -2e-13                -5.8806e-09           -4.339e-07           
  3.3                   4.4158e-07            -2e-13                -7.4674e-09           -4.3412e-07          
  3.4                   4.437e-07             -1e-13                -9.3866e-09           -4.3428e-07          
  3.5                   4.4622e-07            -2.4e-13              -1.1684e-08           -4.3452e-07          
  3.6                   4.491e-07             -1.8e-13              -1.4366e-08           -4.3472e-07          
END_DB

BEGIN_DB
 ICCAP_VAR vg         1.335          
 ICCAP_VAR vb         0              
 ICCAP_VAR vs         0              

 #vd                    id                    ig                    ib                    is                   
  0                     2.1428e-09            6.4e-13               2.778e-11             -2.3508e-09          
  0.1                   6.8936e-06            3.8e-13               2.544e-11             -6.8902e-06          
  0.2                   1.244e-05             3.2e-13               2.362e-11             -1.2434e-05          
  0.3                   1.666e-05             2.6e-13               2.168e-11             -1.6652e-05          
  0.4                   1.9616e-05            2e-13                 1.95e-11              -1.961e-05           
  0.5                   2.139e-05             1.8e-13               1.986e-11             -2.1384e-05          
  0.6                   2.2188e-05            2.2e-13               1.91e-11              -2.2182e-05          
  0.7                   2.2428e-05            1.6e-13               1.814e-11             -2.2422e-05          
  0.8                   2.2492e-05            3e-13                 1.842e-11             -2.2484e-05          
  0.9                   2.252e-05             3.2e-13               1.686e-11             -2.2514e-05          
  1                     2.2538e-05            2.4e-13               1.688e-11             -2.2532e-05          
  1.1                   2.2552e-05            2.2e-13               1.72e-11              -2.2546e-05          
  1.2                   2.2564e-05            1.8e-13               1.534e-11             -2.2558e-05          
  1.3                   2.2576e-05            2.8e-13               1.564e-11             -2.257e-05           
  1.4                   2.2586e-05            2.4e-13               1.484e-11             -2.258e-05           
  1.5                   2.2596e-05            1.2e-13               1.402e-11             -2.259e-05           
  1.6                   2.2606e-05            1.6e-13               1.416e-11             -2.26e-05            
  1.7                   2.2614e-05            1.4e-13               1.142e-11             -2.2608e-05          
  1.8                   2.2622e-05            1.4e-13               8.76e-12              -2.2616e-05          
  1.9                   2.263e-05             1.6e-13               -4.6e-13              -2.2624e-05          
  2                     2.2636e-05            1.6e-13               -2.926e-11            -2.263e-05           
  2.1                   2.2644e-05            1e-13                 -1.025e-10            -2.2638e-05          
  2.2                   2.2652e-05            8e-14                 -2.6744e-10           -2.2644e-05          
  2.3                   2.2658e-05            1e-13                 -6.0864e-10           -2.265e-05           
  2.4                   2.2664e-05            1.2e-13               -1.2476e-09           -2.2658e-05          
  2.5                   2.2672e-05            1.2e-13               -2.3656e-09           -2.2664e-05          
  2.6                   2.2682e-05            0                     -4.1952e-09           -2.267e-05           
  2.7                   2.269e-05             1e-13                 -7.0284e-09           -2.2676e-05          
  2.8                   2.27e-05              6e-14                 -1.12408e-08          -2.2682e-05          
  2.9                   2.271e-05             -4e-14                -1.7272e-08           -2.2686e-05          
  3                     2.2726e-05            0                     -2.567e-08            -2.2692e-05          
  3.1                   2.2742e-05            -8e-14                -3.7084e-08           -2.2696e-05          
  3.2                   2.2762e-05            -6e-14                -5.2312e-08           -2.2704e-05          
  3.3                   2.2788e-05            2e-14                 -7.228e-08            -2.2708e-05          
  3.4                   2.2818e-05            6e-14                 -9.8232e-08           -2.2714e-05          
  3.5                   2.2858e-05            1.6e-13               -1.3148e-07           -2.272e-05           
  3.6                   2.2904e-05            6e-14                 -1.7362e-07           -2.2724e-05          
END_DB

BEGIN_DB
 ICCAP_VAR vg         2.09           
 ICCAP_VAR vb         0              
 ICCAP_VAR vs         0              

 #vd                    id                    ig                    ib                    is                   
  0                     2.7422e-09            7.6e-13               1.526e-11             -3.836e-09           
  0.1                   1.378e-05             6.2e-13               1.202e-11             -1.3772e-05          
  0.2                   2.6334e-05            5.2e-13               1.102e-11             -2.6328e-05          
  0.3                   3.7644e-05            5.4e-13               1.07e-11              -3.7638e-05          
  0.4                   4.7744e-05            3.8e-13               9.94e-12              -4.7738e-05          
  0.5                   5.6614e-05            3.6e-13               1.02e-11              -5.6608e-05          
  0.6                   6.4234e-05            3.4e-13               8.92e-12              -6.4228e-05          
  0.7                   7.063e-05             4.4e-13               7.8e-12               -7.0626e-05          
  0.8                   7.58e-05              4.2e-13               9.12e-12              -7.5794e-05          
  0.9                   7.9744e-05            4.6e-13               7.88e-12              -7.9738e-05          
  1                     8.2528e-05            3.2e-13               6.72e-12              -8.2524e-05          
  1.1                   8.4238e-05            2.4e-13               7.7e-12               -8.4236e-05          
  1.2                   8.5102e-05            2e-13                 6.56e-12              -8.5098e-05          
  1.3                   8.546e-05             2.8e-13               6.48e-12              -8.5456e-05          
  1.4                   8.5608e-05            3.6e-13               7.12e-12              -8.5602e-05          
  1.5                   8.5684e-05            3.6e-13               5.62e-12              -8.568e-05           
  1.6                   8.5734e-05            2.4e-13               6.14e-12              -8.573e-05           
  1.7                   8.5774e-05            1.8e-13               5.7e-12               -8.577e-05           
  1.8                   8.5808e-05            3.4e-13               5e-12                 -8.5804e-05          
  1.9                   8.5838e-05            3.4e-13               6.02e-12              -8.5834e-05          
  2                     8.5866e-05            1.8e-13               4.84e-12              -8.5862e-05          
  2.1                   8.589e-05             2e-13                 4e-12                 -8.5884e-05          
  2.2                   8.5914e-05            1.2e-13               3.88e-12              -8.5906e-05          
  2.3                   8.5932e-05            2.2e-13               1.18e-12              -8.5928e-05          
  2.4                   8.5952e-05            2.6e-13               -6.42e-12             -8.595e-05           
  2.5                   8.5974e-05            2.6e-13               -3e-11                -8.597e-05           
  2.6                   8.5994e-05            2e-13                 -1.0544e-10           -8.599e-05           
  2.7                   8.6014e-05            1.8e-13               -2.967e-10            -8.6008e-05          
  2.8                   8.6032e-05            2.4e-13               -7.4736e-10           -8.6024e-05          
  2.9                   8.605e-05             1e-13                 -1.7018e-09           -8.6042e-05          
  3                     8.607e-05             1.8e-13               -3.5506e-09           -8.606e-05           
  3.1                   8.609e-05             1.6e-13               -6.8676e-09           -8.6076e-05          
  3.2                   8.6112e-05            2e-13                 -1.245e-08            -8.6092e-05          
  3.3                   8.6134e-05            1.4e-13               -2.1274e-08           -8.6108e-05          
  3.4                   8.6164e-05            2e-13                 -3.4682e-08           -8.6124e-05          
  3.5                   8.6198e-05            1.4e-13               -5.4224e-08           -8.614e-05           
  3.6                   8.624e-05             1.4e-13               -8.176e-08            -8.6152e-05          
END_DB

BEGIN_DB
 ICCAP_VAR vg         2.845          
 ICCAP_VAR vb         0              
 ICCAP_VAR vs         0              

 #vd                    id                    ig                    ib                    is                   
  0                     9.278e-09             9.4e-13               8.84e-12              -2.475e-09           
  0.1                   1.9332e-05            6e-13                 7.48e-12              -1.9324e-05          
  0.2                   3.7648e-05            6.6e-13               6.74e-12              -3.7642e-05          
  0.3                   5.4912e-05            7e-13                 4.64e-12              -5.4904e-05          
  0.4                   7.1172e-05            5.4e-13               5.32e-12              -7.1168e-05          
  0.5                   8.6388e-05            5.4e-13               4.68e-12              -8.6384e-05          
  0.6                   0.000100516           4.4e-13               3.42e-12              -0.000100512         
  0.7                   0.000113586           5.8e-13               4.74e-12              -0.000113582         
  0.8                   0.00012566            4.6e-13               3.32e-12              -0.00012532          
  0.9                   0.0001365             5.8e-13               3.8e-12               -0.00013616          
  1                     0.00014622            4.2e-13               3.3e-12               -0.00014588          
  1.1                   0.0001548             4.2e-13               3.2e-12               -0.00015446          
  1.2                   0.00016222            4.6e-13               3.12e-12              -0.00016188          
  1.3                   0.00016848            3.8e-13               2.06e-12              -0.00016816          
  1.4                   0.0001736             4e-13                 3.2e-12               -0.00017328          
  1.5                   0.0001776             3.8e-13               2.3e-12               -0.00017726          
  1.6                   0.0001805             4.4e-13               2.02e-12              -0.00018016          
  1.7                   0.0001824             4e-13                 2.68e-12              -0.00018208          
  1.8                   0.0001835             4.6e-13               1.46e-12              -0.00018318          
  1.9                   0.00018408            4.2e-13               1.28e-12              -0.00018374          
  2                     0.00018436            4.2e-13               2.16e-12              -0.00018402          
  2.1                   0.0001845             4.4e-13               5.6e-13               -0.00018418          
  2.2                   0.0001846             2.8e-13               9e-13                 -0.00018428          
  2.3                   0.00018468            3.4e-13               5.6e-13               -0.00018436          
  2.4                   0.00018474            2.4e-13               -3.4e-13              -0.00018442          
  2.5                   0.0001848             2.8e-13               1.8e-13               -0.00018448          
  2.6                   0.00018484            3.6e-13               -8e-13                -0.00018452          
  2.7                   0.00018488            4.2e-13               -1.16e-12             -0.00018456          
  2.8                   0.00018492            2.2e-13               -1.4e-12              -0.0001846           
  2.9                   0.00018496            3.6e-13               -4.96e-12             -0.00018464          
  3                     0.000185              2.6e-13               -1.536e-11            -0.00018468          
  3.1                   0.00018504            4e-13                 -5.1e-11              -0.0001847           
  3.2                   0.00018506            2.4e-13               -1.5856e-10           -0.00018474          
  3.3                   0.0001851             2.6e-13               -4.3918e-10           -0.00018476          
  3.4                   0.00018512            3e-13                 -1.1122e-09           -0.0001848           
  3.5                   0.00018516            3.8e-13               -2.5774e-09           -0.00018482          
  3.6                   0.00018518            1.8e-13               -5.4836e-09           -0.00018486          
END_DB

BEGIN_DB
 ICCAP_VAR vg         3.6            
 ICCAP_VAR vb         0              
 ICCAP_VAR vs         0              

 #vd                    id                    ig                    ib                    is                   
  0                     1.179e-08             9.8e-13               6.08e-12              -1.1356e-08          
  0.1                   2.3382e-05            8e-13                 5.12e-12              -2.3374e-05          
  0.2                   4.596e-05             6.2e-13               2.76e-12              -4.5954e-05          
  0.3                   6.769e-05             7.4e-13               3.08e-12              -6.7682e-05          
  0.4                   8.8638e-05            7.2e-13               2.78e-12              -8.8632e-05          
  0.5                   0.000108754           6.6e-13               1.7e-12               -0.00010875          
  0.6                   0.0001281             6.4e-13               1.94e-12              -0.00012776          
  0.7                   0.00014648            5.2e-13               1.62e-12              -0.00014616          
  0.8                   0.000164              4.2e-13               7.8e-13               -0.00016368          
