! VERSION = 6.00
BEGIN_HEADER
 ICCAP_INPUTS
  vd         V  D GROUND SMU1 0.1 LIN        1    0          3.6        37   0.1       
  vg         V  G GROUND SMU2 0.001 LIN        2    1.42       3.6        5    0.545     
  vb         V  B GROUND SMU4 0.1 CON        -3.6
  vs         V  S GROUND SMU3 0.1 CON        0
 ICCAP_OUTPUTS
  id         I  D GROUND SMU1 B
  ig         I  G GROUND SMU2 B
  ib         I  B GROUND SMU4 B
  is         I  S GROUND SMU3 B
 ICCAP_VALUES
  MASTER_SETUP_TYPE "~dc_idvd~"
  LINVT_VALUE "|idvg|100.0n|100.0m|1.000m|5|3.600|"
  LISTVT_VALUE ""
  TYPE "1"
  TEMP " 70.0000 "
  IS_TNOM " 0.00000 "
  MAIN.W "300.0n"
  MAIN.L "10.00u"
  MAIN.AD "102.0f"
  MAIN.AS "102.0f"
  MAIN.PD "1.280u"
  MAIN.PS "1.280u"
  MAIN.NF "1.000"
  MAIN.M "1"
  MAIN.NRD "0.000"
  MAIN.NRS "0.000"
  MAIN.LDRIFT1 "1E-06"
  MAIN.LDRIFT2 "1E-06"
  MAIN.SA "0.000"
  MAIN.SB "0.000"
  MAIN.SD "0.000"
  MAIN.SCA "0.000"
  MAIN.SCB "0.000"
  MAIN.SCC "0.000"
  MAIN.SC "0.000"
  MODULE "S547"
  PIN_D "14"
  PIN_G "7"
  PIN_S "8"
  PIN_B "13"
  PIN_E ""
  PIN_6 ""
  XY_ID ""
  FUNC "Narrow"
  STI "SA ref"
  WPE "WPE ref"
  COMMENT ""
  DIS_MEAS ""
  TypeTCI "10"
END_HEADER

BEGIN_DB
 ICCAP_VAR vg         1.42           
 ICCAP_VAR vb         -3.6           
 ICCAP_VAR vs         0              

 #vd                    id                    ig                    ib                    is                   
  0                     1.108e-11             1.1e-12               -7.614e-11            -8.9e-12             
  0.1                   1.2784e-08            5.6e-13               -6.414e-11            -1.2774e-08          
  0.2                   1.4956e-08            5.6e-13               -6.188e-11            -1.4944e-08          
  0.3                   1.5114e-08            5.4e-13               -5.91e-11             -1.5096e-08          
  0.4                   1.5136e-08            4.6e-13               -5.388e-11            -1.5118e-08          
  0.5                   1.5144e-08            5.4e-13               -5.288e-11            -1.5124e-08          
  0.6                   1.5152e-08            6.2e-13               -5.158e-11            -1.5122e-08          
  0.7                   1.5152e-08            6.6e-13               -4.92e-11             -1.5134e-08          
  0.8                   1.5154e-08            4.6e-13               -4.562e-11            -1.5146e-08          
  0.9                   1.5172e-08            5e-13                 -4.518e-11            -1.5152e-08          
  1                     1.5166e-08            3.6e-13               -4.452e-11            -1.5152e-08          
  1.1                   1.5178e-08            2.6e-13               -4.242e-11            -1.5152e-08          
  1.2                   1.5188e-08            3.2e-13               -4.004e-11            -1.5164e-08          
  1.3                   1.5188e-08            2.8e-13               -3.972e-11            -1.5172e-08          
  1.4                   1.5182e-08            2.2e-13               -3.884e-11            -1.5168e-08          
  1.5                   1.5196e-08            3.6e-13               -3.838e-11            -1.518e-08           
  1.6                   1.5202e-08            2.8e-13               -3.61e-11             -1.5186e-08          
  1.7                   1.521e-08             2e-13                 -3.51e-11             -1.5186e-08          
  1.8                   1.5206e-08            1.4e-13               -3.548e-11            -1.5186e-08          
  1.9                   1.5206e-08            1.2e-13               -3.5e-11              -1.5192e-08          
  2                     1.5222e-08            1e-13                 -3.232e-11            -1.5192e-08          
  2.1                   1.5214e-08            2.2e-13               -3.184e-11            -1.5202e-08          
  2.2                   1.5222e-08            2.2e-13               -3.17e-11             -1.5202e-08          
  2.3                   1.5214e-08            4.2e-13               -3.31e-11             -1.5202e-08          
  2.4                   1.523e-08             2e-13                 -3.298e-11            -1.5206e-08          
  2.5                   1.5242e-08            2.4e-13               -3.354e-11            -1.523e-08           
  2.6                   1.5248e-08            2.4e-13               -3.804e-11            -1.523e-08           
  2.7                   1.5262e-08            1.4e-13               -4.228e-11            -1.5228e-08          
  2.8                   1.527e-08             1.8e-13               -4.81e-11             -1.5236e-08          
  2.9                   1.5278e-08            4e-14                 -5.52e-11             -1.5226e-08          
  3                     1.5296e-08            1.4e-13               -6.79e-11             -1.5252e-08          
  3.1                   1.5322e-08            1.2e-13               -8.516e-11            -1.5242e-08          
  3.2                   1.5334e-08            1.4e-13               -1.0326e-10           -1.524e-08           
  3.3                   1.5366e-08            1.6e-13               -1.308e-10            -1.5244e-08          
  3.4                   1.5398e-08            1.2e-13               -1.6636e-10           -1.5246e-08          
  3.5                   1.5444e-08            1.4e-13               -2.1042e-10           -1.525e-08           
  3.6                   1.551e-08             2.4e-13               -2.6668e-10           -1.5252e-08          
END_DB

BEGIN_DB
 ICCAP_VAR vg         1.965          
 ICCAP_VAR vb         -3.6           
 ICCAP_VAR vs         0              

 #vd                    id                    ig                    ib                    is                   
  0                     7.08e-11              4.4e-13               -1.884e-11            -7.624e-11           
  0.1                   1.5174e-07            4.2e-13               -1.868e-11            -1.5172e-07          
  0.2                   2.6926e-07            2.8e-13               -1.938e-11            -2.6928e-07          
  0.3                   3.5358e-07            2.8e-13               -1.86e-11             -3.5364e-07          
  0.4                   4.074e-07             2e-13                 -1.808e-11            -4.0746e-07          
  0.5                   4.3514e-07            3.8e-13               -1.788e-11            -4.3508e-07          
  0.6                   4.4502e-07            2.4e-13               -1.932e-11            -4.4506e-07          
  0.7                   4.4748e-07            2.4e-13               -1.802e-11            -4.4754e-07          
  0.8                   4.482e-07             2.8e-13               -1.654e-11            -4.482e-07           
  0.9                   4.4846e-07            3e-13                 -1.798e-11            -4.4842e-07          
  1                     4.4866e-07            1.2e-13               -1.752e-11            -4.4854e-07          
  1.1                   4.4878e-07            3.8e-13               -1.686e-11            -4.4876e-07          
  1.2                   4.489e-07             2.2e-13               -1.686e-11            -4.488e-07           
  1.3                   4.4902e-07            1.8e-13               -1.69e-11             -4.49e-07            
  1.4                   4.4918e-07            2.6e-13               -1.686e-11            -4.492e-07           
  1.5                   4.4926e-07            1.4e-13               -1.592e-11            -4.493e-07           
  1.6                   4.4936e-07            2.4e-13               -1.61e-11             -4.494e-07           
  1.7                   4.4948e-07            2.8e-13               -1.62e-11             -4.4946e-07          
  1.8                   4.4956e-07            3e-13                 -1.56e-11             -4.4958e-07          
  1.9                   4.497e-07             3e-13                 -1.49e-11             -4.4968e-07          
  2                     4.4976e-07            3.4e-13               -1.534e-11            -4.4972e-07          
  2.1                   4.4986e-07            2.2e-13               -1.566e-11            -4.4986e-07          
  2.2                   4.4996e-07            1.8e-13               -1.49e-11             -4.4992e-07          
  2.3                   4.5004e-07            2e-13                 -1.588e-11            -4.5004e-07          
  2.4                   4.501e-07             1.8e-13               -1.862e-11            -4.501e-07           
  2.5                   4.5022e-07            2.4e-13               -2.35e-11             -4.5022e-07          
  2.6                   4.503e-07             2.2e-13               -2.864e-11            -4.5028e-07          
  2.7                   4.5038e-07            1e-13                 -4.58e-11             -4.5038e-07          
  2.8                   4.505e-07             1.8e-13               -7.128e-11            -4.5042e-07          
  2.9                   4.5056e-07            1.2e-13               -1.126e-10            -4.5048e-07          
  3                     4.507e-07             1e-13                 -1.7662e-10           -4.506e-07           
  3.1                   4.509e-07             2.6e-13               -2.7326e-10           -4.506e-07           
  3.2                   4.5108e-07            2.4e-13               -4.1272e-10           -4.5078e-07          
  3.3                   4.5138e-07            1.4e-13               -6.0568e-10           -4.5084e-07          
  3.4                   4.5172e-07            2.2e-13               -8.7064e-10           -4.5086e-07          
  3.5                   4.5214e-07            1e-13                 -1.2322e-09           -4.5098e-07          
  3.6                   4.5268e-07            2.2e-13               -1.7102e-09           -4.51e-07            
END_DB

BEGIN_DB
 ICCAP_VAR vg         2.51           
 ICCAP_VAR vb         -3.6           
 ICCAP_VAR vs         0              

 #vd                    id                    ig                    ib                    is                   
  0                     1.159e-10             6e-13                 -1.234e-11            -1.1958e-10          
  0.1                   3.0378e-07            4.6e-13               -1.182e-11            -3.0378e-07          
  0.2                   5.7542e-07            4e-13                 -1.212e-11            -5.7546e-07          
  0.3                   8.1402e-07            3.6e-13               -1.236e-11            -8.1406e-07          
  0.4                   1.01996e-06           2.8e-13               -1.182e-11            -1.0201e-06          
  0.5                   1.1942e-06            3.2e-13               -1.178e-11            -1.1906e-06          
  0.6                   1.3336e-06            3.8e-13               -1.152e-11            -1.3302e-06          
  0.7                   1.4408e-06            3.6e-13               -1.13e-11             -1.4376e-06          
  0.8                   1.5174e-06            2.4e-13               -1.178e-11            -1.514e-06           
  0.9                   1.5652e-06            2.2e-13               -1.094e-11            -1.562e-06           
  1                     1.5906e-06            4.4e-13               -1.13e-11             -1.5872e-06          
  1.1                   1.6016e-06            2.2e-13               -1.07e-11             -1.5984e-06          
  1.2                   1.6056e-06            3e-13                 -1.012e-11            -1.6022e-06          
  1.3                   1.6074e-06            2.6e-13               -1.16e-11             -1.6044e-06          
  1.4                   1.6086e-06            3.2e-13               -1.174e-11            -1.6052e-06          
  1.5                   1.6088e-06            1e-13                 -9.58e-12             -1.6056e-06          
  1.6                   1.6092e-06            2e-13                 -1.154e-11            -1.6062e-06          
  1.7                   1.61e-06              3.2e-13               -1.058e-11            -1.6068e-06          
  1.8                   1.6106e-06            3e-13                 -1.074e-11            -1.6074e-06          
  1.9                   1.6108e-06            2.4e-13               -1.024e-11            -1.6076e-06          
  2                     1.611e-06             1.6e-13               -1.112e-11            -1.608e-06           
  2.1                   1.6116e-06            1.6e-13               -1.018e-11            -1.6086e-06          
  2.2                   1.612e-06             1.8e-13               -1.068e-11            -1.6088e-06          
  2.3                   1.6122e-06            2e-13                 -1.068e-11            -1.609e-06           
  2.4                   1.6124e-06            2e-13                 -9.44e-12             -1.6094e-06          
  2.5                   1.613e-06             2.8e-13               -1.062e-11            -1.6094e-06          
  2.6                   1.6128e-06            2.2e-13               -1.114e-11            -1.6098e-06          
  2.7                   1.6136e-06            4e-14                 -1.068e-11            -1.6098e-06          
  2.8                   1.6136e-06            2e-14                 -1.556e-11            -1.6104e-06          
  2.9                   1.6138e-06            1.8e-13               -2.262e-11            -1.6106e-06          
  3                     1.6142e-06            1.4e-13               -3.842e-11            -1.611e-06           
  3.1                   1.6146e-06            1.8e-13               -6.918e-11            -1.611e-06           
  3.2                   1.6148e-06            2e-14                 -1.2542e-10           -1.6116e-06          
  3.3                   1.6152e-06            1e-13                 -2.2106e-10           -1.6116e-06          
  3.4                   1.6154e-06            2.2e-13               -3.7838e-10           -1.6118e-06          
  3.5                   1.616e-06             3.2e-13               -6.1656e-10           -1.6124e-06          
  3.6                   1.6166e-06            1e-13                 -9.696e-10            -1.612e-06           
END_DB

BEGIN_DB
 ICCAP_VAR vg         3.055          
 ICCAP_VAR vb         -3.6           
 ICCAP_VAR vs         0              

 #vd                    id                    ig                    ib                    is                   
  0                     1.6916e-10            7.4e-13               -8.62e-12             -1.689e-10           
  0.1                   4.342e-07             3.8e-13               -8.22e-12             -4.3422e-07          
  0.2                   8.4084e-07            2.6e-13               -9.44e-12             -8.4094e-07          
  0.3                   1.2196e-06            3.4e-13               -8.52e-12             -1.2164e-06          
  0.4                   1.5688e-06            2.4e-13               -8.72e-12             -1.5656e-06          
  0.5                   1.8884e-06            3.2e-13               -9.34e-12             -1.885e-06           
  0.6                   2.1768e-06            3.8e-13               -7.4e-12              -2.1736e-06          
  0.7                   2.435e-06             2e-13                 -9.64e-12             -2.4318e-06          
  0.8                   2.6614e-06            3.2e-13               -8.72e-12             -2.658e-06           
  0.9                   2.8554e-06            2.6e-13               -7.6e-12              -2.852e-06           
  1                     3.0178e-06            3.6e-13               -9.26e-12             -3.015e-06           
  1.1                   3.149e-06             2.2e-13               -9.22e-12             -3.1458e-06          
  1.2                   3.2492e-06            1.6e-13               -8.22e-12             -3.2458e-06          
  1.3                   3.32e-06              2.6e-13               -8.64e-12             -3.317e-06           
  1.4                   3.3658e-06            1e-13                 -8.84e-12             -3.3628e-06          
  1.5                   3.3914e-06            3.2e-13               -7.86e-12             -3.3884e-06          
  1.6                   3.404e-06             2e-13                 -8.62e-12             -3.4008e-06          
  1.7                   3.41e-06              2.6e-13               -9.2e-12              -3.407e-06           
  1.8                   3.4132e-06            3.2e-13               -7.58e-12             -3.4102e-06          
  1.9                   3.4152e-06            1.6e-13               -8.08e-12             -3.4122e-06          
  2                     3.417e-06             2.6e-13               -8.46e-12             -3.4138e-06          
  2.1                   3.418e-06             2.8e-13               -7.32e-12             -3.4148e-06          
  2.2                   3.419e-06             2.4e-13               -8.68e-12             -3.4156e-06          
  2.3                   3.4204e-06            3e-13                 -8.72e-12             -3.4168e-06          
  2.4                   3.421e-06             4e-13                 -8.1e-12              -3.4174e-06          
  2.5                   3.4212e-06            1.6e-13               -8.06e-12             -3.4182e-06          
  2.6                   3.4222e-06            2.4e-13               -8.42e-12             -3.419e-06           
  2.7                   3.4226e-06            2.6e-13               -7.7e-12              -3.4196e-06          
  2.8                   3.4236e-06            1.8e-13               -8.56e-12             -3.4206e-06          
  2.9                   3.424e-06             2.2e-13               -8e-12                -3.4208e-06          
  3                     3.4246e-06            2e-13                 -8.56e-12             -3.4214e-06          
  3.1                   3.425e-06             8e-14                 -1.054e-11            -3.422e-06           
  3.2                   3.4262e-06            2e-13                 -1.248e-11            -3.4224e-06          
  3.3                   3.426e-06             1.6e-13               -2.062e-11            -3.4228e-06          
  3.4                   3.4268e-06            2.2e-13               -3.872e-11            -3.4238e-06          
  3.5                   3.4276e-06            2.8e-13               -7.57e-11             -3.4244e-06          
  3.6                   3.4284e-06            1.6e-13               -1.4666e-10           -3.4248e-06          
END_DB

BEGIN_DB
 ICCAP_VAR vg         3.6            
 ICCAP_VAR vb         -3.6           
 ICCAP_VAR vs         0              

 #vd                    id                    ig                    ib                    is                   
  0                     1.9538e-10            4.6e-13               -6.4e-12              -2.0296e-10          
  0.1                   5.389e-07             5.2e-13               -7.32e-12             -5.3898e-07          
  0.2                   1.05512e-06           4.8e-13               -7.42e-12             -1.05516e-06         
  0.3                   1.5482e-06            3.8e-13               -8.08e-12             -1.5448e-06          
  0.4                   2.0166e-06            2.8e-13               -6.98e-12             -2.0134e-06          
  0.5                   2.46e-06              3.2e-13               -7.56e-12             -2.4568e-06          
  0.6                   2.877e-06             3e-13                 -8.86e-12             -2.8736e-06          
  0.7                   3.2678e-06            3.4e-13               -6.52e-12             -3.2642e-06          
  0.8                   3.6312e-06            3.8e-13               -6.34e-12             -3.628e-06           
