! VERSION = 6.00
BEGIN_HEADER
 ICCAP_INPUTS
  vg         V  G GROUND SMU2 0.001 LIN        1    -0.5       3.6        83   0.05      
  vb         V  B GROUND SMU4 0.1 LIN        2    0          -3.6       5    -0.9      
  vd         V  D GROUND SMU1 0.1 LIN        3    0.1        3.3        3    1.6       
  vs         V  S GROUND SMU3 0.1 CON        0
 ICCAP_OUTPUTS
  id         I  D GROUND SMU1 B
  ig         I  G GROUND SMU2 B
  ib         I  B GROUND SMU4 B
  is         I  S GROUND SMU3 B
 ICCAP_VALUES
  MASTER_SETUP_TYPE "~dc_idvg~"
  LINVT_VALUE ""
  LISTVT_VALUE ""
  TYPE "1"
  TEMP " 125.000 "
  IS_TNOM " 0.00000 "
  MAIN.W "10.00u"
  MAIN.L "10.00u"
  MAIN.AD "3.400p"
  MAIN.AS "3.400p"
  MAIN.PD "20.68u"
  MAIN.PS "20.68u"
  MAIN.NF "1.000"
  MAIN.M "1"
  MAIN.NRD "0.000"
  MAIN.NRS "0.000"
  MAIN.LDRIFT1 "1E-06"
  MAIN.LDRIFT2 "1E-06"
  MAIN.SA "0.000"
  MAIN.SB "0.000"
  MAIN.SD "0.000"
  MAIN.SCA "0.000"
  MAIN.SCB "0.000"
  MAIN.SCC "0.000"
  MAIN.SC "0.000"
  MODULE "S557"
  PIN_D "16"
  PIN_G "5"
  PIN_S "6"
  PIN_B "15"
  PIN_E ""
  PIN_6 ""
  XY_ID ""
  FUNC "Large"
  STI "SA ref"
  WPE "WPE ref"
  COMMENT ""
  DIS_MEAS ""
  TypeTCI "10"
END_HEADER

BEGIN_DB
 ICCAP_VAR vb         0              
 ICCAP_VAR vd         0.1            
 ICCAP_VAR vs         0              

 #vg                    id                    ig                    ib                    is                   
  -0.5                  3.28e-12              -5.5472e-08           5.5456e-08            2.98e-12             
  -0.45                 -1.6e-13              -1.3072e-08           1.31e-08              8e-13                
  -0.4                  -4.8e-13              -3.0772e-09           3.1064e-09            6e-14                
  -0.35                 6.8e-13               -7.2436e-10           7.519e-10             1.6e-13              
  -0.3                  9.2e-13               -1.6938e-10           1.9548e-10            1.8e-13              
  -0.25                 1.06e-12              -3.964e-11            6.636e-11             0                    
  -0.2                  1.26e-12              -9.32e-12             3.416e-11             0                    
  -0.15                 1.68e-12              -2.06e-12             2.468e-11             -2.6e-13             
  -0.1                  2.82e-12              -2.8e-13              2.162e-11             -9e-13               
  -0.05                 5.24e-12              1.6e-13               2.058e-11             -2.88e-12            
  0                     1.076e-11             3.6e-13               2.092e-11             -8.64e-12            
  0.05                  2.546e-11             3.8e-13               2.062e-11             -2.36e-11            
  0.1                   6.544e-11             4.6e-13               2.004e-11             -6.37e-11            
  0.15                  1.7474e-10            4.8e-13               1.8e-11               -1.7274e-10          
  0.2                   4.7396e-10            4.8e-13               1.794e-11             -4.7232e-10          
  0.25                  1.3046e-09            5.6e-13               1.786e-11             -1.3026e-09          
  0.3                   3.5826e-09            5.8e-13               1.778e-11             -3.5798e-09          
  0.35                  9.7336e-09            5.4e-13               1.676e-11             -9.73e-09            
  0.4                   2.5308e-08            4.8e-13               1.576e-11             -2.5292e-08          
  0.45                  6.1352e-08            5e-13                 1.556e-11             -6.1338e-08          
  0.5                   1.3386e-07            6.6e-13               1.526e-11             -1.3382e-07          
  0.55                  2.608e-07             6.8e-13               1.572e-11             -2.608e-07           
  0.6                   4.5294e-07            7.4e-13               1.398e-11             -4.529e-07           
  0.65                  7.1306e-07            7.4e-13               1.288e-11             -7.1304e-07          
  0.7                   1.03208e-06           6.6e-13               1.32e-11              -1.03208e-06         
  0.75                  1.4018e-06            6.6e-13               1.302e-11             -1.3984e-06          
  0.8                   1.8056e-06            7.2e-13               1.222e-11             -1.8022e-06          
  0.85                  2.2384e-06            9e-13                 1.15e-11              -2.235e-06           
  0.9                   2.6892e-06            7.6e-13               1.204e-11             -2.686e-06           
  0.95                  3.1538e-06            8.2e-13               1.24e-11              -3.1504e-06          
  1                     3.6284e-06            8e-13                 1.228e-11             -3.625e-06           
  1.05                  4.1114e-06            7.8e-13               1.016e-11             -4.108e-06           
  1.1                   4.5968e-06            9.4e-13               1.11e-11              -4.5934e-06          
  1.15                  5.0848e-06            8.2e-13               1.096e-11             -5.0814e-06          
  1.2                   5.5736e-06            8.4e-13               1.148e-11             -5.5702e-06          
  1.25                  6.0624e-06            9e-13                 9.74e-12              -6.059e-06           
  1.3                   6.552e-06             9.8e-13               9.32e-12              -6.5486e-06          
  1.35                  7.038e-06             7.6e-13               1.07e-11              -7.0346e-06          
  1.4                   7.5214e-06            9.8e-13               9.8e-12               -7.518e-06           
  1.45                  8.0022e-06            9.6e-13               9.34e-12              -7.9988e-06          
  1.5                   8.4814e-06            1.04e-12              8.68e-12              -8.478e-06           
  1.55                  8.955e-06             1.04e-12              9.04e-12              -8.9516e-06          
  1.6                   9.4242e-06            1.04e-12              8.52e-12              -9.4208e-06          
  1.65                  9.8906e-06            1.02e-12              8.96e-12              -9.887e-06           
  1.7                   1.03524e-05           1.1e-12               9.1e-12               -1.03492e-05         
  1.75                  1.08078e-05           1.06e-12              7.28e-12              -1.08044e-05         
  1.8                   1.12594e-05           1.06e-12              7.7e-12               -1.12564e-05         
  1.85                  1.1708e-05            9.2e-13               8.78e-12              -1.17e-05            
  1.9                   1.2148e-05            1.08e-12              9.14e-12              -1.2142e-05          
  1.95                  1.2584e-05            1.14e-12              7.86e-12              -1.2576e-05          
  2                     1.3014e-05            1.08e-12              7.72e-12              -1.3006e-05          
  2.05                  1.3438e-05            1.12e-12              7e-12                 -1.3432e-05          
  2.1                   1.3854e-05            1.06e-12              7.6e-12               -1.3848e-05          
  2.15                  1.4266e-05            1.08e-12              6.98e-12              -1.426e-05           
  2.2                   1.4672e-05            1.2e-12               6.86e-12              -1.4666e-05          
  2.25                  1.5072e-05            1.1e-12               6.36e-12              -1.5064e-05          
  2.3                   1.5462e-05            1.12e-12              6.72e-12              -1.5456e-05          
  2.35                  1.585e-05             1.24e-12              6.96e-12              -1.5844e-05          
  2.4                   1.623e-05             1.18e-12              6.44e-12              -1.6222e-05          
  2.45                  1.6602e-05            1.22e-12              5.78e-12              -1.6596e-05          
  2.5                   1.697e-05             1.22e-12              5.92e-12              -1.6964e-05          
  2.55                  1.733e-05             1.24e-12              5.64e-12              -1.7324e-05          
  2.6                   1.7682e-05            1.22e-12              6.42e-12              -1.7676e-05          
  2.65                  1.803e-05             1.2e-12               6.36e-12              -1.8022e-05          
  2.7                   1.837e-05             1.26e-12              4.76e-12              -1.8362e-05          
  2.75                  1.8702e-05            1.16e-12              5.94e-12              -1.8696e-05          
  2.8                   1.903e-05             1.22e-12              5.48e-12              -1.9022e-05          
  2.85                  1.935e-05             1.22e-12              6.28e-12              -1.9342e-05          
  2.9                   1.9662e-05            1.28e-12              4.94e-12              -1.9654e-05          
  2.95                  1.9968e-05            1.32e-12              4.94e-12              -1.9962e-05          
  3                     2.0268e-05            1.22e-12              5.46e-12              -2.0262e-05          
  3.05                  2.056e-05             1.16e-12              5.7e-12               -2.0554e-05          
  3.1                   2.0848e-05            1.28e-12              5.24e-12              -2.084e-05           
  3.15                  2.1128e-05            1.3e-12               4.34e-12              -2.1122e-05          
  3.2                   2.14e-05              1.28e-12              4.66e-12              -2.1394e-05          
  3.25                  2.1668e-05            1.38e-12              4.32e-12              -2.1662e-05          
  3.3                   2.193e-05             1.32e-12              4.38e-12              -2.1922e-05          
  3.35                  2.2184e-05            1.28e-12              4.44e-12              -2.2176e-05          
  3.4                   2.2432e-05            1.36e-12              3.82e-12              -2.2426e-05          
  3.45                  2.2674e-05            1.28e-12              3.98e-12              -2.2666e-05          
  3.5                   2.291e-05             1.36e-12              4.52e-12              -2.2904e-05          
  3.55                  2.314e-05             1.4e-12               4.86e-12              -2.3132e-05          
  3.6                   2.3364e-05            1.48e-12              3.48e-12              -2.3358e-05          
END_DB

BEGIN_DB
 ICCAP_VAR vb         -0.9           
 ICCAP_VAR vd         0.1            
 ICCAP_VAR vs         0              

 #vg                    id                    ig                    ib                    is                   
  -0.5                  3.42e-12              -8.8e-13              -4.566e-11            3.48e-12             
  -0.45                 3.2e-12               -4.4e-13              -4.314e-11            3.34e-12             
  -0.4                  3.12e-12              -3.2e-13              -4.062e-11            3.22e-12             
  -0.35                 3.1e-12               -2.2e-13              -3.756e-11            3.32e-12             
  -0.3                  3.18e-12              -1.6e-13              -3.59e-11             3.32e-12             
  -0.25                 3.14e-12              -1.2e-13              -3.356e-11            3.28e-12             
  -0.2                  3.26e-12              -1.2e-13              -3.222e-11            3.46e-12             
  -0.15                 3.28e-12              4e-14                 -3.138e-11            3.42e-12             
  -0.1                  3.26e-12              4e-14                 -3.106e-11            3.44e-12             
  -0.05                 3.08e-12              1.2e-13               -2.966e-11            3.5e-12              
  0                     3.1e-12               2e-13                 -2.788e-11            3.36e-12             
  0.05                  3.14e-12              1.8e-13               -2.734e-11            3.48e-12             
  0.1                   3.22e-12              2e-13                 -2.71e-11             3.28e-12             
  0.15                  3.28e-12              3e-13                 -2.674e-11            3.2e-12              
  0.2                   3.6e-12               4.2e-13               -2.58e-11             2.46e-12             
  0.25                  4.62e-12              3.6e-13               -2.462e-11            1.12e-12             
  0.3                   8.24e-12              4.4e-13               -2.254e-11            -3.08e-12            
  0.35                  2.006e-11             4.6e-13               -2.088e-11            -1.568e-11           
  0.4                   5.76e-11              5e-13                 -2.148e-11            -5.348e-11           
  0.45                  1.7668e-10            5.2e-13               -2.126e-11            -1.729e-10           
  0.5                   5.4898e-10            5.6e-13               -2.034e-11            -5.4542e-10          
  0.55                  1.7116e-09            4e-13                 -1.96e-11             -1.7072e-09          
  0.6                   5.225e-09             4.6e-13               -1.784e-11            -5.2204e-09          
  0.65                  1.5334e-08            5.2e-13               -1.824e-11            -1.5314e-08          
  0.7                   4.1306e-08            5.4e-13               -1.8e-11              -4.1284e-08          
  0.75                  9.9158e-08            5.4e-13               -1.936e-11            -9.915e-08           
  0.8                   2.0706e-07            7.8e-13               -1.708e-11            -2.07e-07            
  0.85                  3.7966e-07            7.2e-13               -1.724e-11            -3.7964e-07          
  0.9                   6.1836e-07            6.4e-13               -1.788e-11            -6.1848e-07          
  0.95                  9.1654e-07            7.4e-13               -1.808e-11            -9.1656e-07          
  1                     1.2638e-06            5.2e-13               -1.638e-11            -1.2602e-06          
  1.05                  1.6472e-06            5.8e-13               -1.738e-11            -1.6438e-06          
  1.1                   2.0562e-06            6e-13                 -1.712e-11            -2.053e-06           
  1.15                  2.4846e-06            9.2e-13               -1.596e-11            -2.4812e-06          
  1.2                   2.9264e-06            7e-13                 -1.564e-11            -2.9228e-06          
  1.25                  3.3782e-06            7e-13                 -1.56e-11             -3.3746e-06          
  1.3                   3.8384e-06            8e-13                 -1.576e-11            -3.8348e-06          
  1.35                  4.3008e-06            8.2e-13               -1.654e-11            -4.2974e-06          
  1.4                   4.766e-06             9e-13                 -1.636e-11            -4.7624e-06          
  1.45                  5.2322e-06            7.8e-13               -1.5e-11              -5.2288e-06          
  1.5                   5.7004e-06            8.8e-13               -1.496e-11            -5.6972e-06          
  1.55                  6.1656e-06            9.8e-13               -1.538e-11            -6.1622e-06          
  1.6                   6.6288e-06            9.2e-13               -1.594e-11            -6.6252e-06          
  1.65                  7.091e-06             1e-12                 -1.49e-11             -7.0874e-06          
  1.7                   7.5504e-06            8.6e-13               -1.458e-11            -7.547e-06           
  1.75                  8.0048e-06            9.4e-13               -1.594e-11            -8.0014e-06          
  1.8                   8.457e-06             9.8e-13               -1.526e-11            -8.4536e-06          
  1.85                  8.9036e-06            9.6e-13               -1.536e-11            -8.9e-06             
  1.9                   9.3472e-06            1.06e-12              -1.388e-11            -9.344e-06           
  1.95                  9.785e-06             9.8e-13               -1.468e-11            -9.7816e-06          
  2                     1.02194e-05           1.08e-12              -1.516e-11            -1.02158e-05         
  2.05                  1.06484e-05           1.12e-12              -1.502e-11            -1.0645e-05          
  2.1                   1.10704e-05           1.1e-12               -1.502e-11            -1.10672e-05         
  2.15                  1.14886e-05           1.04e-12              -1.372e-11            -1.14852e-05         
  2.2                   1.1902e-05            9.4e-13               -1.358e-11            -1.1896e-05          
  2.25                  1.2308e-05            1.04e-12              -1.41e-11             -1.2302e-05          
  2.3                   1.2708e-05            1.08e-12              -1.484e-11            -1.2702e-05          
  2.35                  1.3102e-05            1.18e-12              -1.404e-11            -1.3096e-05          
  2.4                   1.349e-05             1.2e-12               -1.334e-11            -1.3484e-05          
  2.45                  1.3872e-05            1.2e-12               -1.336e-11            -1.3864e-05          
  2.5                   1.4248e-05            1.2e-12               -1.418e-11            -1.424e-05           
  2.55                  1.4616e-05            1.12e-12              -1.418e-11            -1.461e-05           
  2.6                   1.4978e-05            1.18e-12              -1.334e-11            -1.497e-05           
  2.65                  1.5332e-05            1.18e-12              -1.296e-11            -1.5326e-05          
  2.7                   1.5682e-05            1.14e-12              -1.4e-11              -1.5676e-05          
  2.75                  1.6026e-05            1.2e-12               -1.424e-11            -1.6018e-05          
  2.8                   1.6362e-05            1.24e-12              -1.372e-11            -1.6354e-05          
  2.85                  1.669e-05             1.22e-12              -1.346e-11            -1.6684e-05          
  2.9                   1.7012e-05            1.38e-12              -1.304e-11            -1.7006e-05          
  2.95                  1.733e-05             1.3e-12               -1.362e-11            -1.7324e-05          
  3                     1.7638e-05            1.2e-12               -1.328e-11            -1.7632e-05          
  3.05                  1.7942e-05            1.34e-12              -1.41e-11             -1.7936e-05          
  3.1                   1.8238e-05            1.22e-12              -1.266e-11            -1.8232e-05          
  3.15                  1.8528e-05            1.3e-12               -1.216e-11            -1.8522e-05          
  3.2                   1.8812e-05            1.3e-12               -1.326e-11            -1.8804e-05          
  3.25                  1.9088e-05            1.22e-12              -1.398e-11            -1.9082e-05          
  3.3                   1.936e-05             1.44e-12              -1.3e-11              -1.9354e-05          
  3.35                  1.9624e-05            1.4e-12               -1.186e-11            -1.9616e-05          
  3.4                   1.9882e-05            1.32e-12              -1.258e-11            -1.9874e-05          
  3.45                  2.0134e-05            1.28e-12              -1.312e-11            -2.0126e-05          
