! VERSION = 6.00
BEGIN_HEADER
 ICCAP_INPUTS
  vd         V  D GROUND SMU1 0.1 LIN        1    0          3.6        37   0.1       
  vg         V  G GROUND SMU2 0.001 LIN        2    0.7        3.6        5    0.725     
  vb         V  B GROUND SMU4 0.1 CON        0
  vs         V  S GROUND SMU3 0.1 CON        0
 ICCAP_OUTPUTS
  id         I  D GROUND SMU1 B
  ig         I  G GROUND SMU2 B
  ib         I  B GROUND SMU4 B
  is         I  S GROUND SMU3 B
 ICCAP_VALUES
  MASTER_SETUP_TYPE "~dc_idvd~"
  LINVT_VALUE "|idvg|100.0n|100.0m|1.000m|5|3.600|"
  LISTVT_VALUE ""
  TYPE "1"
  TEMP " 27.0000 "
  IS_TNOM " 1.00000 "
  MAIN.W "2.000u"
  MAIN.L "10.00u"
  MAIN.AD "680.0f"
  MAIN.AS "680.0f"
  MAIN.PD "4.680u"
  MAIN.PS "4.680u"
  MAIN.NF "1.000"
  MAIN.M "1"
  MAIN.NRD "0.000"
  MAIN.NRS "0.000"
  MAIN.LDRIFT1 "1E-06"
  MAIN.LDRIFT2 "1E-06"
  MAIN.SA "0.000"
  MAIN.SB "0.000"
  MAIN.SD "0.000"
  MAIN.SCA "0.000"
  MAIN.SCB "0.000"
  MAIN.SCC "0.000"
  MAIN.SC "0.000"
  MODULE "S558"
  PIN_D "12"
  PIN_G "9"
  PIN_S "10"
  PIN_B "11"
  PIN_E ""
  PIN_6 ""
  XY_ID ""
  FUNC "W Scale"
  STI "SA ref"
  WPE "WPE ref"
  COMMENT ""
  DIS_MEAS ""
  TypeTCI "10"
END_HEADER

BEGIN_DB
 ICCAP_VAR vg         0.7            
 ICCAP_VAR vb         0              
 ICCAP_VAR vs         0              

 #vd                    id                    ig                    ib                    is                   
  0                     1.2894e-10            0                     2.538e-11             -1.0258e-10          
  0.1                   9.3192e-08            -1.2e-13              2.4e-11               -9.3178e-08          
  0.2                   1.0338e-07            -3.4e-13              2.106e-11             -1.03278e-07         
  0.3                   1.0422e-07            -2.2e-13              2.116e-11             -1.0414e-07          
  0.4                   1.0454e-07            -8e-14                2.09e-11              -1.04478e-07         
  0.5                   1.0482e-07            -1.8e-13              1.926e-11             -1.04714e-07         
  0.6                   1.0502e-07            -3.2e-13              1.698e-11             -1.04928e-07         
  0.7                   1.0526e-07            -1.2e-13              1.882e-11             -1.05134e-07         
  0.8                   1.0538e-07            -1.6e-13              1.694e-11             -1.05316e-07         
  0.9                   1.0558e-07            -1e-13                1.662e-11             -1.05466e-07         
  1                     1.0574e-07            -2.2e-13              1.63e-11              -1.05632e-07         
  1.1                   1.0586e-07            -1.6e-13              1.644e-11             -1.05774e-07         
  1.2                   1.0596e-07            0                     1.584e-11             -1.0587e-07          
  1.3                   1.0606e-07            6e-14                 1.486e-11             -1.06016e-07         
  1.4                   1.0622e-07            -1e-13                1.426e-11             -1.06122e-07         
  1.5                   1.0636e-07            -6e-14                1.496e-11             -1.06258e-07         
  1.6                   1.0646e-07            -1e-13                1.314e-11             -1.0636e-07          
  1.7                   1.0656e-07            -2e-14                1.158e-11             -1.06474e-07         
  1.8                   1.0666e-07            -1e-13                8.74e-12              -1.0656e-07          
  1.9                   1.0674e-07            -4e-14                4.68e-12              -1.0664e-07          
  2                     1.0686e-07            -1.4e-13              -4.18e-12             -1.0673e-07          
  2.1                   1.0696e-07            -8e-14                -1.782e-11            -1.06844e-07         
  2.2                   1.0706e-07            -6e-14                -3.644e-11            -1.0692e-07          
  2.3                   1.0718e-07            -1.8e-13              -6.286e-11            -1.07002e-07         
  2.4                   1.0728e-07            -6e-14                -1.0122e-10           -1.0704e-07          
  2.5                   1.0742e-07            -2e-14                -1.5472e-10           -1.07136e-07         
  2.6                   1.0756e-07            2e-14                 -2.255e-10            -1.07244e-07         
  2.7                   1.0776e-07            8e-14                 -3.1932e-10           -1.0732e-07          
  2.8                   1.0794e-07            -1e-13                -4.4528e-10           -1.07392e-07         
  2.9                   1.0818e-07            -1.2e-13              -6.0802e-10           -1.07482e-07         
  3                     1.085e-07             -1e-13                -8.151e-10            -1.07564e-07         
  3.1                   1.0882e-07            0                     -1.0798e-09           -1.07652e-07         
  3.2                   1.092e-07             -2e-14                -1.4134e-09           -1.07674e-07         
  3.3                   1.0968e-07            -1e-13                -1.8228e-09           -1.07756e-07         
  3.4                   1.1024e-07            0                     -2.3236e-09           -1.078e-07           
  3.5                   1.1088e-07            -1e-13                -2.9266e-09           -1.07864e-07         
  3.6                   1.1168e-07            -2e-14                -3.64e-09             -1.07944e-07         
END_DB

BEGIN_DB
 ICCAP_VAR vg         1.425          
 ICCAP_VAR vb         0              
 ICCAP_VAR vs         0              

 #vd                    id                    ig                    ib                    is                   
  0                     1.3088e-09            4.2e-13               8.16e-12              -1.1554e-09          
  0.1                   1.9858e-06            2.8e-13               8.94e-12              -1.9816e-06          
  0.2                   3.5624e-06            2e-13                 7.08e-12              -3.5582e-06          
  0.3                   4.7418e-06            2.2e-13               7.2e-12               -4.738e-06           
  0.4                   5.5478e-06            2.6e-13               7.46e-12              -5.5436e-06          
  0.5                   6.011e-06             2.6e-13               7.06e-12              -6.0068e-06          
  0.6                   6.2054e-06            2.2e-13               6.38e-12              -6.2014e-06          
  0.7                   6.2624e-06            1.2e-13               7.34e-12              -6.2588e-06          
  0.8                   6.2804e-06            1.8e-13               6.34e-12              -6.2768e-06          
  0.9                   6.29e-06              0                     6.1e-12               -6.2856e-06          
  1                     6.2964e-06            1.6e-13               6.74e-12              -6.2924e-06          
  1.1                   6.3018e-06            1.4e-13               6.34e-12              -6.298e-06           
  1.2                   6.3058e-06            6e-14                 6.1e-12               -6.302e-06           
  1.3                   6.3096e-06            1.4e-13               6.58e-12              -6.3062e-06          
  1.4                   6.3138e-06            2.4e-13               6.08e-12              -6.3094e-06          
  1.5                   6.317e-06             -2e-14                6.06e-12              -6.313e-06           
  1.6                   6.3198e-06            2e-14                 6.4e-12               -6.316e-06           
  1.7                   6.323e-06             2.2e-13               5.42e-12              -6.319e-06           
  1.8                   6.3254e-06            1.8e-13               4.94e-12              -6.3216e-06          
  1.9                   6.3284e-06            2e-14                 5.08e-12              -6.3244e-06          
  2                     6.3308e-06            1.2e-13               3.8e-13               -6.327e-06           
  2.1                   6.3332e-06            1.4e-13               -1.272e-11            -6.329e-06           
  2.2                   6.3356e-06            8e-14                 -4.388e-11            -6.3316e-06          
  2.3                   6.338e-06             1e-13                 -1.1822e-10           -6.3338e-06          
  2.4                   6.3402e-06            8e-14                 -2.6592e-10           -6.336e-06           
  2.5                   6.3422e-06            1e-13                 -5.3224e-10           -6.3378e-06          
  2.6                   6.3448e-06            6e-14                 -9.842e-10            -6.34e-06            
  2.7                   6.3478e-06            8e-14                 -1.702e-09            -6.3424e-06          
  2.8                   6.351e-06             1.6e-13               -2.7874e-09           -6.3438e-06          
  2.9                   6.354e-06             1e-13                 -4.3716e-09           -6.3456e-06          
  3                     6.3584e-06            0                     -6.6144e-09           -6.3478e-06          
  3.1                   6.3632e-06            1.4e-13               -9.7098e-09           -6.3494e-06          
  3.2                   6.3694e-06            -4e-14                -1.3912e-08           -6.3512e-06          
  3.3                   6.3762e-06            2.2e-13               -1.951e-08            -6.3532e-06          
  3.4                   6.3856e-06            2.2e-13               -2.6908e-08           -6.3546e-06          
  3.5                   6.3968e-06            1e-13                 -3.6552e-08           -6.3562e-06          
  3.6                   6.411e-06             1.8e-13               -4.8946e-08           -6.358e-06           
END_DB

BEGIN_DB
 ICCAP_VAR vg         2.15           
 ICCAP_VAR vb         0              
 ICCAP_VAR vs         0              

 #vd                    id                    ig                    ib                    is                   
  0                     2.1986e-09            4.6e-13               5.52e-12              -2.0254e-09          
  0.1                   4.0336e-06            3.8e-13               6.12e-12              -4.0294e-06          
  0.2                   7.6952e-06            2.8e-13               4.5e-12               -7.6914e-06          
  0.3                   1.09776e-05           3.2e-13               4.26e-12              -1.0974e-05          
  0.4                   1.39e-05              2.2e-13               4.06e-12              -1.3878e-05          
  0.5                   1.6434e-05            2.8e-13               2.24e-12              -1.6414e-05          
  0.6                   1.8586e-05            2e-13                 5.22e-12              -1.8566e-05          
  0.7                   2.0364e-05            2e-13                 4.02e-12              -2.0344e-05          
  0.8                   2.1772e-05            1.8e-13               4.54e-12              -2.1752e-05          
  0.9                   2.2812e-05            3e-13                 4.86e-12              -2.2792e-05          
  1                     2.3516e-05            1.8e-13               3.56e-12              -2.3496e-05          
  1.1                   2.392e-05             2.2e-13               3.08e-12              -2.39e-05            
  1.2                   2.411e-05             2e-13                 4.68e-12              -2.409e-05           
  1.3                   2.419e-05             2.8e-13               3.52e-12              -2.4172e-05          
  1.4                   2.423e-05             2.8e-13               4.12e-12              -2.421e-05           
  1.5                   2.4252e-05            2.2e-13               5.24e-12              -2.4232e-05          
  1.6                   2.4268e-05            1.6e-13               3.26e-12              -2.4248e-05          
  1.7                   2.4282e-05            1.8e-13               3.24e-12              -2.4262e-05          
  1.8                   2.4294e-05            2.4e-13               4.14e-12              -2.4276e-05          
  1.9                   2.4304e-05            6e-14                 3.76e-12              -2.4284e-05          
  2                     2.4314e-05            1.2e-13               3.14e-12              -2.4294e-05          
  2.1                   2.4322e-05            2.2e-13               3.9e-12               -2.4302e-05          
  2.2                   2.433e-05             3e-13                 3.8e-12               -2.431e-05           
  2.3                   2.4336e-05            2.8e-13               4e-12                 -2.4316e-05          
  2.4                   2.4344e-05            1.6e-13               3.28e-12              -2.4324e-05          
  2.5                   2.4352e-05            1.8e-13               -2.06e-12             -2.4332e-05          
  2.6                   2.4358e-05            2e-13                 -1.8e-11              -2.4338e-05          
  2.7                   2.4364e-05            2.8e-13               -6.308e-11            -2.4344e-05          
  2.8                   2.437e-05             3e-13                 -1.7996e-10           -2.435e-05           
  2.9                   2.4378e-05            4e-14                 -4.4282e-10           -2.4356e-05          
  3                     2.4384e-05            1.6e-13               -9.646e-10            -2.4362e-05          
  3.1                   2.439e-05             2e-13                 -1.9212e-09           -2.4368e-05          
  3.2                   2.4398e-05            8e-14                 -3.5418e-09           -2.4374e-05          
  3.3                   2.4404e-05            2e-13                 -6.1332e-09           -2.4378e-05          
  3.4                   2.4414e-05            1.8e-13               -1.00804e-08          -2.4384e-05          
  3.5                   2.4424e-05            8e-14                 -1.5872e-08           -2.4388e-05          
  3.6                   2.4438e-05            2.8e-13               -2.4078e-08           -2.4396e-05          
END_DB

BEGIN_DB
 ICCAP_VAR vg         2.875          
 ICCAP_VAR vb         0              
 ICCAP_VAR vs         0              

 #vd                    id                    ig                    ib                    is                   
  0                     2.5584e-09            5e-13                 2.86e-12              -2.5358e-09          
  0.1                   5.6106e-06            3.2e-13               4.08e-12              -5.6066e-06          
  0.2                   1.09282e-05           4e-13                 3.24e-12              -1.0924e-05          
  0.3                   1.5948e-05            4.2e-13               4.06e-12              -1.5928e-05          
  0.4                   2.0664e-05            3.2e-13               3.64e-12              -2.0644e-05          
  0.5                   2.5068e-05            5e-13                 2.92e-12              -2.5048e-05          
  0.6                   2.9144e-05            2.8e-13               2.22e-12              -2.9124e-05          
  0.7                   3.29e-05              2e-13                 3.44e-12              -3.288e-05           
  0.8                   3.632e-05             2.8e-13               2.46e-12              -3.63e-05            
  0.9                   3.9392e-05            3e-13                 2.72e-12              -3.9372e-05          
  1                     4.2122e-05            2.4e-13               3.78e-12              -4.2102e-05          
  1.1                   4.4502e-05            3.6e-13               3.48e-12              -4.4482e-05          
  1.2                   4.6524e-05            3.6e-13               2.6e-12               -4.6504e-05          
  1.3                   4.8196e-05            3.6e-13               3.14e-12              -4.8178e-05          
  1.4                   4.9522e-05            2.8e-13               3.26e-12              -4.9502e-05          
  1.5                   5.0514e-05            1.4e-13               3.04e-12              -5.0496e-05          
  1.6                   5.1194e-05            2e-13                 2.76e-12              -5.1176e-05          
  1.7                   5.161e-05             1.6e-13               2.44e-12              -5.1594e-05          
  1.8                   5.1836e-05            2.4e-13               2.64e-12              -5.1818e-05          
  1.9                   5.1952e-05            1.8e-13               2.7e-12               -5.1932e-05          
  2                     5.2016e-05            2.4e-13               2.58e-12              -5.1996e-05          
  2.1                   5.2056e-05            2.6e-13               2.86e-12              -5.2036e-05          
  2.2                   5.2084e-05            1e-13                 3.24e-12              -5.2064e-05          
  2.3                   5.2108e-05            2e-13                 2.54e-12              -5.209e-05           
  2.4                   5.213e-05             1.8e-13               2.4e-12               -5.211e-05           
  2.5                   5.2146e-05            2e-13                 3e-12                 -5.2128e-05          
  2.6                   5.2162e-05            1.8e-13               2.62e-12              -5.2142e-05          
  2.7                   5.2176e-05            1.4e-13               2.92e-12              -5.2156e-05          
  2.8                   5.219e-05             1.8e-13               2.3e-12               -5.217e-05           
  2.9                   5.2204e-05            1.2e-13               2.02e-12              -5.2182e-05          
  3                     5.2216e-05            2e-13                 -3.2e-13              -5.2196e-05          
  3.1                   5.2226e-05            1.6e-13               -1.062e-11            -5.2208e-05          
  3.2                   5.2238e-05            1.4e-13               -4.372e-11            -5.2218e-05          
  3.3                   5.225e-05             2.4e-13               -1.362e-10            -5.223e-05           
  3.4                   5.226e-05             2.2e-13               -3.683e-10            -5.224e-05           
  3.5                   5.227e-05             2.6e-13               -8.78e-10             -5.2248e-05          
  3.6                   5.2282e-05            3.2e-13               -1.896e-09            -5.226e-05           
END_DB

BEGIN_DB
 ICCAP_VAR vg         3.6            
 ICCAP_VAR vb         0              
 ICCAP_VAR vs         0              

 #vd                    id                    ig                    ib                    is                   
  0                     2.8734e-09            6e-13                 3.02e-12              -2.8558e-09          
  0.1                   6.6452e-06            4e-13                 2.72e-12              -6.641e-06           
  0.2                   1.3084e-05            3.6e-13               2.62e-12              -1.3064e-05          
  0.3                   1.9282e-05            2.6e-13               2.64e-12              -1.9262e-05          
  0.4                   2.5268e-05            3.8e-13               2.9e-12               -2.5248e-05          
  0.5                   3.1022e-05            3.4e-13               1.86e-12              -3.1002e-05          
  0.6                   3.6526e-05            2.6e-13               1.94e-12              -3.6506e-05          
  0.7                   4.1792e-05            3.8e-13               3.92e-12              -4.1772e-05          
  0.8                   4.6798e-05            2.2e-13               1.92e-12              -4.6778e-05          
