! VERSION = 6.00
BEGIN_HEADER
 ICCAP_INPUTS
  vd         V  D GROUND SMU1 0.1 LIN        1    0          3.6        37   0.1       
  vg         V  G GROUND SMU2 0.001 LIST       2 3 0.398 0.598 0.798
  vb         V  B GROUND SMU4 0.1 CON        0
  vs         V  S GROUND SMU3 0.1 CON        0
 ICCAP_OUTPUTS
  id         I  D GROUND SMU1 B
  ig         I  G GROUND SMU2 B
  ib         I  B GROUND SMU4 B
  is         I  S GROUND SMU3 B
 ICCAP_VALUES
  MASTER_SETUP_TYPE "~dc_idvd~"
  LINVT_VALUE ""
  LISTVT_VALUE "|idvg|100.0n|-200.0m|1.000m|3|200.0m|200.0m|"
  TYPE "1"
  TEMP " 70.0000 "
  IS_TNOM " 0.00000 "
  MAIN.W "300.0n"
  MAIN.L "500.0n"
  MAIN.AD "102.0f"
  MAIN.AS "102.0f"
  MAIN.PD "1.280u"
  MAIN.PS "1.280u"
  MAIN.NF "1.000"
  MAIN.M "1"
  MAIN.NRD "0.000"
  MAIN.NRS "0.000"
  MAIN.LDRIFT1 "1E-06"
  MAIN.LDRIFT2 "1E-06"
  MAIN.SA "0.000"
  MAIN.SB "0.000"
  MAIN.SD "0.000"
  MAIN.SCA "0.000"
  MAIN.SCB "0.000"
  MAIN.SCC "0.000"
  MAIN.SC "0.000"
  MODULE "S560"
  PIN_D "14"
  PIN_G "7"
  PIN_S "8"
  PIN_B "13"
  PIN_E ""
  PIN_6 ""
  XY_ID ""
  FUNC "Small"
  STI "SA ref"
  WPE "WPE ref"
  COMMENT ""
  DIS_MEAS ""
  TypeTCI "10"
END_HEADER

BEGIN_DB
 ICCAP_VAR vg         0.398          
 ICCAP_VAR vb         0              
 ICCAP_VAR vs         0              

 #vd                    id                    ig                    ib                    is                   
  0                     4.4e-13               -6.6e-13              5.84e-12              -4.8e-13             
  0.1                   3.7498e-10            -6.4e-13              3.7e-12               -3.7626e-10          
  0.2                   4.1034e-10            -5.6e-13              5.46e-12              -4.0966e-10          
  0.3                   4.3096e-10            -5.6e-13              2.56e-12              -4.2938e-10          
  0.4                   4.4944e-10            -4.4e-13              4.44e-12              -4.5038e-10          
  0.5                   4.6836e-10            -5.4e-13              3.02e-12              -4.6866e-10          
  0.6                   4.8656e-10            -5.6e-13              4.48e-12              -4.8642e-10          
  0.7                   5.0524e-10            -5.2e-13              2.86e-12              -5.0336e-10          
  0.8                   5.2286e-10            -3.4e-13              4.02e-12              -5.2174e-10          
  0.9                   5.4188e-10            -3.6e-13              3.42e-12              -5.4098e-10          
  1                     5.6128e-10            -4.6e-13              2.96e-12              -5.6024e-10          
  1.1                   5.8042e-10            -2.2e-13              4.42e-12              -5.8054e-10          
  1.2                   5.985e-10             -3.6e-13              3.88e-12              -5.9664e-10          
  1.3                   6.165e-10             -3.2e-13              4.7e-12               -6.169e-10           
  1.4                   6.3874e-10            -2e-13                3.2e-12               -6.3446e-10          
  1.5                   6.5686e-10            -2.2e-13              4.18e-12              -6.5546e-10          
  1.6                   6.7606e-10            -3.8e-13              3.36e-12              -6.7638e-10          
  1.7                   6.9808e-10            -2.8e-13              4.3e-12               -6.9668e-10          
  1.8                   7.168e-10             -3e-13                2.56e-12              -7.1696e-10          
  1.9                   7.381e-10             -2.2e-13              4.26e-12              -7.3712e-10          
  2                     7.6084e-10            -2.8e-13              1.92e-12              -7.592e-10           
  2.1                   7.817e-10             -2e-13                3.5e-12               -7.81e-10            
  2.2                   8.0566e-10            -3.2e-13              2e-12                 -8.0386e-10          
  2.3                   8.2986e-10            -1.8e-13              1.7e-12               -8.2522e-10          
  2.4                   8.5484e-10            -2.2e-13              1.52e-12              -8.4976e-10          
  2.5                   8.7844e-10            -3.4e-13              -5e-13                -8.7216e-10          
  2.6                   9.0358e-10            -1.4e-13              -1.6e-13              -9.0104e-10          
  2.7                   9.2958e-10            -1.4e-13              -3.36e-12             -9.2432e-10          
  2.8                   9.5864e-10            -3.4e-13              -4.78e-12             -9.4982e-10          
  2.9                   9.858e-10             -2e-13                -8.3e-12              -9.7482e-10          
  3                     1.0166e-09            -1.8e-13              -1.032e-11            -9.9832e-10          
  3.1                   1.0474e-09            -2.2e-13              -1.556e-11            -1.02762e-09         
  3.2                   1.0808e-09            -2e-13                -2.124e-11            -1.05584e-09         
  3.3                   1.1148e-09            -1e-13                -2.858e-11            -1.08388e-09         
  3.4                   1.152e-09             -2.8e-13              -3.608e-11            -1.106e-09           
  3.5                   1.1934e-09            -1.8e-13              -4.558e-11            -1.137e-09           
  3.6                   1.2296e-09            -2.4e-13              -5.818e-11            -1.1668e-09          
END_DB

BEGIN_DB
 ICCAP_VAR vg         0.598          
 ICCAP_VAR vb         0              
 ICCAP_VAR vs         0              

 #vd                    id                    ig                    ib                    is                   
  0                     3.956e-11             0                     3.46e-12              -3.798e-11           
  0.1                   3.388e-08             2e-14                 4.52e-12              -3.3896e-08          
  0.2                   3.8368e-08            -1.6e-13              2.94e-12              -3.8372e-08          
  0.3                   4.071e-08             0                     2.68e-12              -4.0722e-08          
  0.4                   4.2718e-08            -2e-14                2.6e-12               -4.2698e-08          
  0.5                   4.4632e-08            -3e-13                3.24e-12              -4.461e-08           
  0.6                   4.6444e-08            -6e-14                3.2e-12               -4.642e-08           
  0.7                   4.8166e-08            -1.6e-13              2.24e-12              -4.8176e-08          
  0.8                   4.9944e-08            -1.4e-13              2.58e-12              -4.9952e-08          
  0.9                   5.166e-08             -6e-14                3.22e-12              -5.1654e-08          
  1                     5.3348e-08            0                     3.18e-12              -5.333e-08           
  1.1                   5.5044e-08            -2e-14                2.02e-12              -5.5016e-08          
  1.2                   5.6736e-08            -4e-14                3.28e-12              -5.6722e-08          
  1.3                   5.8442e-08            -1e-13                3.32e-12              -5.8438e-08          
  1.4                   6.0156e-08            -8e-14                3.38e-12              -6.011e-08           
  1.5                   6.1852e-08            -2e-13                1.78e-12              -6.1814e-08          
  1.6                   6.3538e-08            -1.6e-13              5e-13                 -6.3554e-08          
  1.7                   6.5274e-08            6e-14                 2.8e-13               -6.5268e-08          
  1.8                   6.7088e-08            8e-14                 -3.16e-12             -6.7052e-08          
  1.9                   6.8842e-08            -2e-14                -1.008e-11            -6.8816e-08          
  2                     7.0604e-08            -1.2e-13              -1.872e-11            -7.059e-08           
  2.1                   7.2376e-08            -2.6e-13              -3.35e-11             -7.2308e-08          
  2.2                   7.4234e-08            -1.2e-13              -5.152e-11            -7.4144e-08          
  2.3                   7.609e-08             -1e-13                -8.092e-11            -7.6008e-08          
  2.4                   7.7984e-08            0                     -1.2318e-10           -7.7864e-08          
  2.5                   7.9904e-08            -1.6e-13              -1.7902e-10           -7.9712e-08          
  2.6                   8.1862e-08            -2.2e-13              -2.531e-10            -8.1596e-08          
  2.7                   8.3826e-08            -1.6e-13              -3.5636e-10           -8.3466e-08          
  2.8                   8.588e-08             -1.2e-13              -4.8898e-10           -8.5358e-08          
  2.9                   8.8034e-08            -1e-13                -6.6224e-10           -8.7366e-08          
  3                     9.0158e-08            -1.2e-13              -8.8702e-10           -8.9262e-08          
  3.1                   9.2482e-08            -6e-14                -1.174e-09            -9.1198e-08          
  3.2                   9.4792e-08            -6e-14                -1.5346e-09           -9.3244e-08          
  3.3                   9.7232e-08            -2.4e-13              -1.9814e-09           -9.5288e-08          
  3.4                   9.984e-08             -1e-13                -2.5338e-09           -9.7364e-08          
  3.5                   1.0302e-07            -2.4e-13              -3.2142e-09           -9.971e-08           
  3.6                   1.0588e-07            -2.6e-13              -4.011e-09            -1.0181e-07          
END_DB

BEGIN_DB
 ICCAP_VAR vg         0.798          
 ICCAP_VAR vb         0              
 ICCAP_VAR vs         0              

 #vd                    id                    ig                    ib                    is                   
  0                     3.7056e-10            2e-14                 3.78e-12              -3.7284e-10          
  0.1                   5.985e-07             0                     3.52e-12              -5.9854e-07          
  0.2                   7.6824e-07            2e-14                 2.88e-12              -7.684e-07           
  0.3                   8.2864e-07            4e-14                 1.74e-12              -8.2912e-07          
  0.4                   8.6492e-07            0                     2.76e-12              -8.6516e-07          
  0.5                   8.9356e-07            -4e-14                3.44e-12              -8.9374e-07          
  0.6                   9.188e-07             1.6e-13               2.24e-12              -9.191e-07           
  0.7                   9.4208e-07            -1.4e-13              2.52e-12              -9.4202e-07          
  0.8                   9.633e-07             6e-14                 2.54e-12              -9.6336e-07          
  0.9                   9.8388e-07            1.2e-13               3.26e-12              -9.8364e-07          
  1                     1.00328e-06           4e-14                 1.94e-12              -1.00336e-06         
  1.1                   1.02178e-06           1.4e-13               1.28e-12              -1.02228e-06         
  1.2                   1.0403e-06            2e-14                 4.02e-12              -1.0404e-06          
  1.3                   1.05818e-06           -1e-13                2.02e-12              -1.05848e-06         
  1.4                   1.0758e-06            -2e-14                1.46e-12              -1.07594e-06         
  1.5                   1.09294e-06           4e-14                 -4e-14                -1.09302e-06         
  1.6                   1.10964e-06           -1.6e-13              -5.52e-12             -1.10974e-06         
  1.7                   1.12614e-06           -8e-14                -1.714e-11            -1.12652e-06         
  1.8                   1.144e-06             -1e-13                -3.996e-11            -1.14284e-06         
  1.9                   1.16e-06              -2e-14                -8.502e-11            -1.15898e-06         
  2                     1.1766e-06            -1.6e-13              -1.5964e-10           -1.1726e-06          
  2.1                   1.1924e-06            6e-14                 -2.8088e-10           -1.189e-06           
  2.2                   1.2088e-06            2e-14                 -4.6706e-10           -1.2048e-06          
  2.3                   1.2248e-06            -2.6e-13              -7.4262e-10           -1.2208e-06          
  2.4                   1.2408e-06            -1.2e-13              -1.1356e-09           -1.2364e-06          
  2.5                   1.2568e-06            0                     -1.686e-09            -1.252e-06           
  2.6                   1.2734e-06            1e-13                 -2.436e-09            -1.2674e-06          
  2.7                   1.2898e-06            2e-14                 -3.448e-09            -1.2832e-06          
  2.8                   1.3068e-06            -6e-14                -4.7924e-09           -1.299e-06           
  2.9                   1.3244e-06            2e-14                 -6.5492e-09           -1.3144e-06          
  3                     1.3422e-06            6e-14                 -8.837e-09            -1.3296e-06          
  3.1                   1.3606e-06            2e-14                 -1.1784e-08           -1.3456e-06          
  3.2                   1.3808e-06            -1e-13                -1.5512e-08           -1.3618e-06          
  3.3                   1.4008e-06            -2e-13                -2.0162e-08           -1.3774e-06          
  3.4                   1.4224e-06            -4e-14                -2.5932e-08           -1.3926e-06          
  3.5                   1.4448e-06            -1e-13                -3.2978e-08           -1.4082e-06          
  3.6                   1.4688e-06            0                     -4.1446e-08           -1.4242e-06          
END_DB

