! VERSION = 6.00
BEGIN_HEADER
 ICCAP_INPUTS
  vg         V  G GROUND SMU2 0.001 LIN        1    -0.5       3.6        83   0.05      
  vb         V  B GROUND SMU4 0.1 LIN        2    0          -3.6       5    -0.9      
  vd         V  D GROUND SMU1 0.1 LIN        3    0.1        3.3        3    1.6       
  vs         V  S GROUND SMU3 0.1 CON        0
 ICCAP_OUTPUTS
  id         I  D GROUND SMU1 B
  ig         I  G GROUND SMU2 B
  ib         I  B GROUND SMU4 B
  is         I  S GROUND SMU3 B
 ICCAP_VALUES
  MASTER_SETUP_TYPE "~dc_idvg~"
  LINVT_VALUE ""
  LISTVT_VALUE ""
  TYPE "1"
  TEMP "-40.0000 "
  IS_TNOM " 0.00000 "
  MAIN.W "300.0n"
  MAIN.L "500.0n"
  MAIN.AD "102.0f"
  MAIN.AS "102.0f"
  MAIN.PD "1.280u"
  MAIN.PS "1.280u"
  MAIN.NF "1.000"
  MAIN.M "1"
  MAIN.NRD "0.000"
  MAIN.NRS "0.000"
  MAIN.LDRIFT1 "1E-06"
  MAIN.LDRIFT2 "1E-06"
  MAIN.SA "0.000"
  MAIN.SB "0.000"
  MAIN.SD "0.000"
  MAIN.SCA "0.000"
  MAIN.SCB "0.000"
  MAIN.SCC "0.000"
  MAIN.SC "0.000"
  MODULE "S560"
  PIN_D "14"
  PIN_G "7"
  PIN_S "8"
  PIN_B "13"
  PIN_E ""
  PIN_6 ""
  XY_ID ""
  FUNC "Small"
  STI "SA ref"
  WPE "WPE ref"
  COMMENT ""
  DIS_MEAS ""
  TypeTCI "10"
END_HEADER

BEGIN_DB
 ICCAP_VAR vb         0              
 ICCAP_VAR vd         0.1            
 ICCAP_VAR vs         0              

 #vg                    id                    ig                    ib                    is                   
  -0.5                  0                     -7.4e-13              4.48e-12              1.4e-13              
  -0.45                 4e-14                 -1e-13                5.06e-12              0                    
  -0.4                  6e-14                 -1e-13                4.42e-12              1.8e-13              
  -0.35                 8e-14                 -4e-14                4.48e-12              1.8e-13              
  -0.3                  4e-14                 1.2e-13               3.3e-12               2.6e-13              
  -0.25                 6e-14                 1.2e-13               3.78e-12              1.6e-13              
  -0.2                  8e-14                 1.4e-13               4.52e-12              2.2e-13              
  -0.15                 8e-14                 3.4e-13               3.82e-12              6e-14                
  -0.1                  1.2e-13               2.8e-13               3.06e-12              3.2e-13              
  -0.05                 2e-14                 4e-13                 3.62e-12              1.8e-13              
  0                     2e-14                 4e-13                 3.48e-12              1e-13                
  0.05                  2e-14                 3.8e-13               3.9e-12               1.6e-13              
  0.1                   8e-14                 5.2e-13               4.44e-12              4e-14                
  0.15                  0                     4.4e-13               2.84e-12              8e-14                
  0.2                   8e-14                 5e-13                 2.74e-12              0                    
  0.25                  1e-13                 7e-13                 3e-12                 8e-14                
  0.3                   6e-14                 5.2e-13               4.3e-12               2.2e-13              
  0.35                  1.4e-13               6.6e-13               3.9e-12               0                    
  0.4                   8e-13                 5.4e-13               3.3e-12               -5.8e-13             
  0.45                  4.48e-12              5.4e-13               3.18e-12              -4.18e-12            
  0.5                   2.632e-11             5.2e-13               2.78e-12              -2.604e-11           
  0.55                  1.5824e-10            6.4e-13               3.42e-12              -1.5814e-10          
  0.6                   9.2472e-10            7.4e-13               3.16e-12              -9.2478e-10          
  0.65                  5.2302e-09            5.4e-13               3.06e-12              -5.3126e-09          
  0.7                   2.5648e-08            6.4e-13               2.48e-12              -2.5632e-08          
  0.75                  9.6636e-08            3.6e-13               2.52e-12              -9.6606e-08          
  0.8                   2.6098e-07            5e-13                 4.2e-12               -2.6084e-07          
  0.85                  5.4074e-07            6e-13                 3.56e-12              -5.3962e-07          
  0.9                   9.2362e-07            6e-13                 1.9e-12               -9.2352e-07          
  0.95                  1.3784e-06            6e-13                 3.16e-12              -1.3742e-06          
  1                     1.891e-06             5.4e-13               3.48e-12              -1.887e-06           
  1.05                  2.437e-06             7.6e-13               2.8e-12               -2.4334e-06          
  1.1                   3.0068e-06            6.2e-13               2.58e-12              -3e-06               
  1.15                  3.5916e-06            5.6e-13               2.78e-12              -3.5886e-06          
  1.2                   4.1916e-06            6.6e-13               3.52e-12              -4.1882e-06          
  1.25                  4.7988e-06            6.2e-13               2.44e-12              -4.795e-06           
  1.3                   5.4118e-06            7.8e-13               2.26e-12              -5.4076e-06          
  1.35                  6.0226e-06            7e-13                 1.48e-12              -6.0192e-06          
  1.4                   6.6328e-06            6.8e-13               3.14e-12              -6.6298e-06          
  1.45                  7.2406e-06            7e-13                 2.84e-12              -7.2372e-06          
  1.5                   7.8436e-06            6.6e-13               1.96e-12              -7.8398e-06          
  1.55                  8.4356e-06            8.2e-13               2.74e-12              -8.4302e-06          
  1.6                   9.015e-06             8.4e-13               2.32e-12              -9.0116e-06          
  1.65                  9.5886e-06            7.4e-13               3.96e-12              -9.5852e-06          
  1.7                   1.015e-05             8.6e-13               1.84e-12              -1.01468e-05         
  1.75                  1.0699e-05            7e-13                 2.74e-12              -1.06946e-05         
  1.8                   1.12362e-05           7.4e-13               2.5e-12               -1.1233e-05          
  1.85                  1.177e-05             6.4e-13               3.54e-12              -1.1752e-05          
  1.9                   1.2282e-05            7.4e-13               1.94e-12              -1.2264e-05          
  1.95                  1.2782e-05            6.8e-13               2.6e-12               -1.2766e-05          
  2                     1.3272e-05            6.6e-13               2.24e-12              -1.3254e-05          
  2.05                  1.375e-05             7.6e-13               2.98e-12              -1.373e-05           
  2.1                   1.4214e-05            8.8e-13               2.58e-12              -1.4194e-05          
  2.15                  1.4666e-05            7.6e-13               1.26e-12              -1.4648e-05          
  2.2                   1.5104e-05            9.6e-13               2.86e-12              -1.5088e-05          
  2.25                  1.5536e-05            1.02e-12              -6.4e-13              -1.5516e-05          
  2.3                   1.5948e-05            8e-13                 2.8e-12               -1.593e-05           
  2.35                  1.6352e-05            9e-13                 2.38e-12              -1.6338e-05          
  2.4                   1.6754e-05            9.6e-13               2.06e-12              -1.6736e-05          
  2.45                  1.7134e-05            9e-13                 2.46e-12              -1.7116e-05          
  2.5                   1.7504e-05            8e-13                 3.22e-12              -1.7484e-05          
  2.55                  1.7862e-05            9e-13                 2.66e-12              -1.7846e-05          
  2.6                   1.8212e-05            7.6e-13               2.72e-12              -1.8194e-05          
  2.65                  1.855e-05             1e-12                 1.94e-12              -1.8534e-05          
  2.7                   1.8878e-05            8.2e-13               3e-12                 -1.8862e-05          
  2.75                  1.9198e-05            9.8e-13               2.38e-12              -1.9178e-05          
  2.8                   1.9502e-05            8.8e-13               1.64e-12              -1.9484e-05          
  2.85                  1.98e-05              9e-13                 2.44e-12              -1.978e-05           
  2.9                   2.0086e-05            8e-13                 2.58e-12              -2.0058e-05          
  2.95                  2.0354e-05            8.2e-13               3.66e-12              -2.0334e-05          
  3                     2.0622e-05            8.2e-13               1.64e-12              -2.0614e-05          
  3.05                  2.089e-05             8.2e-13               1.34e-12              -2.0874e-05          
  3.1                   2.1144e-05            9.8e-13               2.54e-12              -2.1126e-05          
  3.15                  2.1386e-05            8.6e-13               2.58e-12              -2.1356e-05          
  3.2                   2.162e-05             9.2e-13               1.88e-12              -2.1604e-05          
  3.25                  2.1836e-05            1.02e-12              1.32e-12              -2.1822e-05          
  3.3                   2.2066e-05            8.6e-13               2.3e-12               -2.2048e-05          
  3.35                  2.2278e-05            1e-12                 2.34e-12              -2.226e-05           
  3.4                   2.248e-05             8.2e-13               1.64e-12              -2.246e-05           
  3.45                  2.2668e-05            9e-13                 1.8e-12               -2.2652e-05          
  3.5                   2.2864e-05            1.02e-12              1.66e-12              -2.285e-05           
  3.55                  2.3048e-05            9.8e-13               1.98e-12              -2.3024e-05          
  3.6                   2.322e-05             9.4e-13               2.2e-12               -2.3212e-05          
END_DB

BEGIN_DB
 ICCAP_VAR vb         -0.9           
 ICCAP_VAR vd         0.1            
 ICCAP_VAR vs         0              

 #vg                    id                    ig                    ib                    is                   
  -0.5                  -4e-14                -6.6e-13              -5.86e-12             8e-14                
  -0.45                 -6e-14                -3.4e-13              -5.54e-12             1.2e-13              
  -0.4                  -4e-14                -2e-13                -4.3e-12              6e-14                
  -0.35                 -6e-14                -1.4e-13              -3.66e-12             2e-14                
  -0.3                  0                     -1e-13                -2.9e-12              4e-14                
  -0.25                 0                     -6e-14                -2.92e-12             6e-14                
  -0.2                  0                     6e-14                 -3.9e-12              8e-14                
  -0.15                 4e-14                 1.4e-13               -3.02e-12             1.6e-13              
  -0.1                  -8e-14                4e-14                 -2.16e-12             2.2e-13              
  -0.05                 -2e-14                6e-14                 -1.76e-12             1e-13                
  0                     0                     2.2e-13               -1.72e-12             4e-14                
  0.05                  6e-14                 2e-14                 -3.34e-12             3e-13                
  0.1                   -2e-14                3.4e-13               -1.7e-12              0                    
  0.15                  4e-14                 1.8e-13               -2.16e-12             1e-13                
  0.2                   -8e-14                1.6e-13               -5.4e-13              1.4e-13              
  0.25                  4e-14                 3.8e-13               -2.24e-12             2.4e-13              
  0.3                   -6e-14                2.6e-13               -1.66e-12             1.2e-13              
  0.35                  1.2e-13               3.8e-13               -1.76e-12             2.6e-13              
  0.4                   2e-14                 4.8e-13               -5.2e-13              2e-14                
  0.45                  -2e-14                3.8e-13               -1.8e-13              1e-13                
  0.5                   2e-14                 5.4e-13               -9.6e-13              6e-14                
  0.55                  8e-14                 4.2e-13               -1.42e-12             -1e-13               
  0.6                   2.2e-13               6.4e-13               -1.44e-12             2e-14                
  0.65                  9.2e-13               5.2e-13               -5.6e-13              -7.6e-13             
  0.7                   5.94e-12              5.4e-13               3.2e-13               -5.76e-12            
  0.75                  4.096e-11             5e-13                 -1.06e-12             -4.076e-11           
  0.8                   2.8012e-10            5.4e-13               -1.04e-12             -2.8164e-10          
  0.85                  1.8136e-09            3.4e-13               -1.02e-12             -1.811e-09           
  0.9                   1.05356e-08           4.4e-13               -9e-13                -1.05326e-08         
  0.95                  4.9482e-08            3.8e-13               1.2e-13               -4.944e-08           
  1                     1.6708e-07            5.2e-13               -4.4e-13              -1.6658e-07          
  1.05                  4.0236e-07            4.2e-13               -8.8e-13              -4.0226e-07          
  1.1                   7.5318e-07            4.8e-13               -7.4e-13              -7.5312e-07          
  1.15                  1.185e-06             3.6e-13               -7.8e-13              -1.1844e-06          
  1.2                   1.6792e-06            5.4e-13               -7.6e-13              -1.6726e-06          
  1.25                  2.2088e-06            5.8e-13               -6.6e-13              -2.2052e-06          
  1.3                   2.766e-06             7.2e-13               1.08e-12              -2.7622e-06          
  1.35                  3.3386e-06            7e-13                 -3e-13                -3.335e-06           
  1.4                   3.9234e-06            5.4e-13               -1.04e-12             -3.9206e-06          
  1.45                  4.5172e-06            8.4e-13               -7.4e-13              -4.5134e-06          
  1.5                   5.1162e-06            5.4e-13               -1.1e-12              -5.1136e-06          
  1.55                  5.7168e-06            7e-13                 0                     -5.713e-06           
  1.6                   6.3124e-06            5.6e-13               -2.8e-13              -6.3082e-06          
  1.65                  6.9064e-06            8.6e-13               -5e-13                -6.902e-06           
  1.7                   7.4916e-06            7e-13                 6e-14                 -7.4884e-06          
  1.75                  8.0672e-06            6.6e-13               4.6e-13               -8.0638e-06          
  1.8                   8.6344e-06            6.6e-13               4.2e-13               -8.6296e-06          
  1.85                  9.1886e-06            6.4e-13               -7.8e-13              -9.1846e-06          
  1.9                   9.7342e-06            7.6e-13               -4.2e-13              -9.7316e-06          
  1.95                  1.02672e-05           7e-13                 3.2e-13               -1.02614e-05         
  2                     1.07876e-05           7.6e-13               3.8e-13               -1.07836e-05         
  2.05                  1.12972e-05           6.6e-13               -6e-13                -1.1291e-05          
  2.1                   1.1794e-05            6.2e-13               -2.2e-13              -1.1776e-05          
  2.15                  1.2278e-05            6.6e-13               -2e-14                -1.2262e-05          
  2.2                   1.2748e-05            7.4e-13               -6e-14                -1.273e-05           
  2.25                  1.3206e-05            8.8e-13               -1.8e-13              -1.3188e-05          
  2.3                   1.3652e-05            7.4e-13               -6.4e-13              -1.363e-05           
  2.35                  1.4082e-05            7.2e-13               5.4e-13               -1.4062e-05          
  2.4                   1.4498e-05            9.4e-13               2.4e-13               -1.4478e-05          
  2.45                  1.4904e-05            7.8e-13               -3.8e-13              -1.489e-05           
  2.5                   1.5302e-05            7.8e-13               -3.6e-13              -1.5284e-05          
  2.55                  1.5682e-05            7.6e-13               -1.2e-13              -1.5666e-05          
  2.6                   1.6054e-05            8.2e-13               7e-13                 -1.6036e-05          
  2.65                  1.6412e-05            8.2e-13               2e-13                 -1.6394e-05          
  2.7                   1.6758e-05            7.4e-13               3e-13                 -1.674e-05           
  2.75                  1.7096e-05            8.4e-13               -6.2e-13              -1.7076e-05          
  2.8                   1.742e-05             8.6e-13               -1.6e-13              -1.7402e-05          
  2.85                  1.7734e-05            8.6e-13               1.3e-12               -1.771e-05           
  2.9                   1.804e-05             7.4e-13               2e-13                 -1.8022e-05          
  2.95                  1.8336e-05            1e-12                 -6e-14                -1.832e-05           
  3                     1.8622e-05            8e-13                 -2e-13                -1.8604e-05          
  3.05                  1.8896e-05            8.8e-13               9.8e-13               -1.8876e-05          
  3.1                   1.9162e-05            7e-13                 1.08e-12              -1.9144e-05          
  3.15                  1.942e-05             8.6e-13               -1.2e-13              -1.9402e-05          
  3.2                   1.9664e-05            8.6e-13               1.8e-13               -1.9646e-05          
  3.25                  1.9908e-05            9e-13                 8.4e-13               -1.989e-05           
  3.3                   2.014e-05             9e-13                 -1.4e-13              -2.0122e-05          
  3.35                  2.036e-05             8.4e-13               1e-13                 -2.0334e-05          
  3.4                   2.0578e-05            7.4e-13               -8.8e-13              -2.056e-05           
  3.45                  2.0788e-05            8.8e-13               3.4e-13               -2.077e-05           
