! VERSION = 6.00
BEGIN_HEADER
 ICCAP_INPUTS
  vg         V  G GROUND SMU2 0.001 LIN        1    -0.5       3.6        83   0.05      
  vb         V  B GROUND SMU4 0.1 LIN        2    0          -3.6       5    -0.9      
  vd         V  D GROUND SMU1 0.1 LIN        3    0.1        3.3        3    1.6       
  vs         V  S GROUND SMU3 0.1 CON        0
 ICCAP_OUTPUTS
  id         I  D GROUND SMU1 B
  ig         I  G GROUND SMU2 B
  ib         I  B GROUND SMU4 B
  is         I  S GROUND SMU3 B
 ICCAP_VALUES
  MASTER_SETUP_TYPE "~dc_idvg~"
  LINVT_VALUE ""
  LISTVT_VALUE ""
  TYPE "1"
  TEMP "-40.0000 "
  IS_TNOM " 0.00000 "
  MAIN.W "300.0n"
  MAIN.L "10.00u"
  MAIN.AD "102.0f"
  MAIN.AS "102.0f"
  MAIN.PD "1.280u"
  MAIN.PS "1.280u"
  MAIN.NF "1.000"
  MAIN.M "1"
  MAIN.NRD "0.000"
  MAIN.NRS "0.000"
  MAIN.LDRIFT1 "1E-06"
  MAIN.LDRIFT2 "1E-06"
  MAIN.SA "0.000"
  MAIN.SB "0.000"
  MAIN.SD "0.000"
  MAIN.SCA "0.000"
  MAIN.SCB "0.000"
  MAIN.SCC "0.000"
  MAIN.SC "0.000"
  MODULE "S547"
  PIN_D "14"
  PIN_G "7"
  PIN_S "8"
  PIN_B "13"
  PIN_E ""
  PIN_6 ""
  XY_ID ""
  FUNC "Narrow"
  STI "SA ref"
  WPE "WPE ref"
  COMMENT ""
  DIS_MEAS ""
  TypeTCI "10"
END_HEADER

BEGIN_DB
 ICCAP_VAR vb         0              
 ICCAP_VAR vd         0.1            
 ICCAP_VAR vs         0              

 #vg                    id                    ig                    ib                    is                   
  -0.5                  -2e-14                -6e-13                4.2e-13               1e-13                
  -0.45                 0                     4e-14                 -6.8e-13              6e-14                
  -0.4                  1e-13                 3.4e-13               -1.3e-12              2e-14                
  -0.35                 0                     3.6e-13               -1.18e-12             1e-13                
  -0.3                  8e-14                 4.2e-13               -1.54e-12             6e-14                
  -0.25                 4e-14                 5.2e-13               -7e-13                1.2e-13              
  -0.2                  0                     3.8e-13               -2.8e-13              1.2e-13              
  -0.15                 1e-13                 6.2e-13               0                     2e-14                
  -0.1                  2e-14                 2.6e-13               -1.18e-12             1.8e-13              
  -0.05                 8e-14                 7e-13                 -1.1e-12              1.2e-13              
  0                     6e-14                 6.4e-13               -5.6e-13              2.2e-13              
  0.05                  4e-14                 4.8e-13               -1e-13                2.6e-13              
  0.1                   -4e-14                7.4e-13               -1.24e-12             1.8e-13              
  0.15                  0                     6e-13                 -1.68e-12             2.2e-13              
  0.2                   2e-14                 6e-13                 -4.6e-13              1.4e-13              
  0.25                  -4e-14                7.6e-13               -3.6e-13              4e-14                
  0.3                   1.6e-13               6.6e-13               1.6e-13               1.6e-13              
  0.35                  2.2e-13               8.2e-13               -5.6e-13              2e-14                
  0.4                   1.28e-12              8e-13                 -3.4e-13              -1.04e-12            
  0.45                  7.38e-12              8.2e-13               -1.28e-12             -7.24e-12            
  0.5                   4.42e-11              8.8e-13               -5.2e-13              -4.4e-11             
  0.55                  2.4124e-10            8e-13                 6.4e-13               -2.4232e-10          
  0.6                   1.07526e-09           7.8e-13               -4e-14                -1.0742e-09          
  0.65                  3.655e-09             6.8e-13               -2.4e-13              -3.6518e-09          
  0.7                   9.507e-09             8.8e-13               -1.14e-12             -9.505e-09           
  0.75                  1.9788e-08            7e-13                 -5.6e-13              -1.9764e-08          
  0.8                   3.4602e-08            8.4e-13               -9.4e-13              -3.4578e-08          
  0.85                  5.3496e-08            8e-13                 -2.2e-13              -5.348e-08           
  0.9                   7.5542e-08            8.8e-13               0                     -7.5514e-08          
  0.95                  1.00126e-07           8.8e-13               -1.5e-12              -1.0012e-07          
  1                     1.2666e-07            9.6e-13               -2.4e-13              -1.265e-07           
  1.05                  1.5458e-07            8e-13                 4.8e-13               -1.5446e-07          
  1.1                   1.8338e-07            8e-13                 -7.2e-13              -1.8322e-07          
  1.15                  2.1284e-07            8e-13                 -1.54e-12             -2.127e-07           
  1.2                   2.4284e-07            7.8e-13               -1.06e-12             -2.4268e-07          
  1.25                  2.732e-07             9e-13                 -3.2e-13              -2.7308e-07          
  1.3                   3.0394e-07            8.4e-13               -4.6e-13              -3.038e-07           
  1.35                  3.3468e-07            8.2e-13               -1.12e-12             -3.3454e-07          
  1.4                   3.6544e-07            9e-13                 -1.42e-12             -3.6534e-07          
  1.45                  3.9614e-07            8.4e-13               0                     -3.96e-07            
  1.5                   4.269e-07             7.6e-13               -1.4e-13              -4.2678e-07          
  1.55                  4.573e-07             8.8e-13               -6.6e-13              -4.5722e-07          
  1.6                   4.875e-07             1.04e-12              -1e-12                -4.8742e-07          
  1.65                  5.1754e-07            9e-13                 -7e-13                -5.1746e-07          
  1.7                   5.4734e-07            8.6e-13               -1e-13                -5.472e-07           
  1.75                  5.7662e-07            8.6e-13               -6.4e-13              -5.7656e-07          
  1.8                   6.0564e-07            1.06e-12              -1.26e-12             -6.0558e-07          
  1.85                  6.3422e-07            8e-13                 -3.2e-13              -6.3412e-07          
  1.9                   6.6248e-07            1e-12                 2.4e-13               -6.6242e-07          
  1.95                  6.9018e-07            9.8e-13               -1.4e-13              -6.9008e-07          
  2                     7.1752e-07            8.2e-13               -9.8e-13              -7.1746e-07          
  2.05                  7.4438e-07            1.08e-12              -7.4e-13              -7.4432e-07          
  2.1                   7.7056e-07            9.6e-13               -3.4e-13              -7.7054e-07          
  2.15                  7.964e-07             1.08e-12              -6e-14                -7.9638e-07          
  2.2                   8.2162e-07            8.8e-13               -6.4e-13              -8.2158e-07          
  2.25                  8.464e-07             1.06e-12              -5.8e-13              -8.4632e-07          
  2.3                   8.705e-07             1.04e-12              -5.2e-13              -8.704e-07           
  2.35                  8.941e-07             9.4e-13               1.4e-13               -8.941e-07           
  2.4                   9.1706e-07            9.6e-13               -7.2e-13              -9.1702e-07          
  2.45                  9.3946e-07            1.04e-12              -1.38e-12             -9.3948e-07          
  2.5                   9.6136e-07            1e-12                 -8.4e-13              -9.6136e-07          
  2.55                  9.8256e-07            9.6e-13               3.2e-13               -9.825e-07           
  2.6                   1.00312e-06           9.2e-13               -2e-13                -1.0031e-06          
  2.65                  1.02316e-06           1.16e-12              -7.4e-13              -1.02312e-06         
  2.7                   1.0425e-06            1.06e-12              -1.56e-12             -1.04252e-06         
  2.75                  1.06144e-06           1.04e-12              -3.4e-13              -1.06146e-06         
  2.8                   1.0797e-06            1.16e-12              2.2e-13               -1.07966e-06         
  2.85                  1.09744e-06           8.2e-13               -1.1e-12              -1.09742e-06         
  2.9                   1.11452e-06           1.08e-12              -7.6e-13              -1.1145e-06          
  2.95                  1.13114e-06           9e-13                 -4.6e-13              -1.13118e-06         
  3                     1.14714e-06           1.08e-12              -2e-14                -1.14708e-06         
  3.05                  1.164e-06             8.4e-13               -1.04e-12             -1.16e-06            
  3.1                   1.179e-06             9.2e-13               -7.6e-13              -1.1748e-06          
  3.15                  1.1932e-06            1.08e-12              1.4e-13               -1.1892e-06          
  3.2                   1.2072e-06            1.04e-12              6e-13                 -1.203e-06           
  3.25                  1.2206e-06            1.18e-12              -7.2e-13              -1.2164e-06          
  3.3                   1.2334e-06            1.06e-12              -7.8e-13              -1.2294e-06          
  3.35                  1.2456e-06            1.16e-12              -3.6e-13              -1.2416e-06          
  3.4                   1.2576e-06            1.12e-12              4e-14                 -1.2536e-06          
  3.45                  1.269e-06             1e-12                 1.4e-13               -1.2648e-06          
  3.5                   1.2798e-06            9.4e-13               -1.2e-13              -1.2758e-06          
  3.55                  1.2902e-06            1.02e-12              -5e-13                -1.2864e-06          
  3.6                   1.3004e-06            1.02e-12              4e-14                 -1.2964e-06          
END_DB

BEGIN_DB
 ICCAP_VAR vb         -0.9           
 ICCAP_VAR vd         0.1            
 ICCAP_VAR vs         0              

 #vg                    id                    ig                    ib                    is                   
  -0.5                  -8e-14                -5.8e-13              -7.36e-12             6e-14                
  -0.45                 -8e-14                -3.2e-13              -8.28e-12             1e-13                
  -0.4                  -8e-14                -1.8e-13              -6.56e-12             2.8e-13              
  -0.35                 -4e-14                -1e-13                -6.66e-12             2.6e-13              
  -0.3                  -2e-14                -4e-14                -5.04e-12             6e-14                
  -0.25                 -6e-14                4e-14                 -5.58e-12             1.4e-13              
  -0.2                  -6e-14                1.2e-13               -5.54e-12             2.2e-13              
  -0.15                 6e-14                 2.4e-13               -5e-12                2.6e-13              
  -0.1                  -4e-14                2.6e-13               -4.9e-12              1.2e-13              
  -0.05                 4e-14                 1.2e-13               -4.72e-12             2e-14                
  0                     0                     2.4e-13               -4e-12                1e-13                
  0.05                  -6e-14                3.6e-13               -2.96e-12             -6e-14               
  0.1                   4e-14                 3e-13                 -4.62e-12             2.8e-13              
  0.15                  0                     4.4e-13               -4.32e-12             1.8e-13              
  0.2                   4e-14                 3.4e-13               -3.52e-12             2.4e-13              
  0.25                  6e-14                 4.2e-13               -2.46e-12             1e-13                
  0.3                   -6e-14                5.2e-13               -3.54e-12             1.6e-13              
  0.35                  0                     4.6e-13               -3.58e-12             1.6e-13              
  0.4                   4e-14                 5.8e-13               -3.32e-12             2e-13                
  0.45                  -2e-14                3.8e-13               -3.76e-12             1.2e-13              
  0.5                   4e-14                 6.2e-13               -2.48e-12             6e-14                
  0.55                  8e-14                 4.2e-13               -2.84e-12             1.8e-13              
  0.6                   1.4e-13               6.4e-13               -2.9e-12              6e-14                
  0.65                  8.8e-13               6.8e-13               -3.42e-12             -8e-13               
  0.7                   6.72e-12              6.2e-13               -3.64e-12             -6.46e-12            
  0.75                  4.462e-11             6.8e-13               -1.86e-12             -4.432e-11           
  0.8                   2.6212e-10            6.8e-13               -1.78e-12             -2.6054e-10          
  0.85                  1.2034e-09            5.4e-13               -2.68e-12             -1.2024e-09          
  0.9                   4.05e-09              4.8e-13               -2.02e-12             -4.0484e-09          
  0.95                  1.0286e-08            7.6e-13               -2.5e-12              -1.03192e-08         
  1                     2.0864e-08            6.8e-13               -1.78e-12             -2.0842e-08          
  1.05                  3.563e-08             8.2e-13               -3.12e-12             -3.5602e-08          
  1.1                   5.3852e-08            7e-13                 -2.48e-12             -5.3836e-08          
  1.15                  7.4816e-08            7.2e-13               -1.7e-12              -7.4796e-08          
  1.2                   9.7912e-08            7e-13                 -2.08e-12             -9.7878e-08          
  1.25                  1.226e-07             7.8e-13               -3.32e-12             -1.2246e-07          
  1.3                   1.485e-07             7e-13                 -2.4e-12              -1.4836e-07          
  1.35                  1.7512e-07            8.2e-13               -1.32e-12             -1.75e-07            
  1.4                   2.0234e-07            7.8e-13               -1.94e-12             -2.0222e-07          
  1.45                  2.3e-07               7.2e-13               -2.94e-12             -2.2986e-07          
  1.5                   2.581e-07             8.8e-13               -2.72e-12             -2.5796e-07          
  1.55                  2.8622e-07            7.2e-13               -2.3e-12              -2.8608e-07          
  1.6                   3.1438e-07            8.6e-13               -1.38e-12             -3.1424e-07          
  1.65                  3.4266e-07            7.8e-13               -1.58e-12             -3.4254e-07          
  1.7                   3.7086e-07            1.04e-12              -2.3e-12              -3.707e-07           
  1.75                  3.9886e-07            9.4e-13               -1.64e-12             -3.987e-07           
  1.8                   4.2672e-07            8e-13                 -2.04e-12             -4.2658e-07          
  1.85                  4.543e-07             9.8e-13               -1.56e-12             -4.542e-07           
  1.9                   4.8172e-07            8.4e-13               -2.06e-12             -4.8156e-07          
  1.95                  5.0868e-07            9.4e-13               -2.48e-12             -5.086e-07           
  2                     5.3546e-07            8.2e-13               -1.96e-12             -5.353e-07           
  2.05                  5.6182e-07            7.6e-13               -1.06e-12             -5.6176e-07          
  2.1                   5.877e-07             9.4e-13               -3.08e-12             -5.8762e-07          
  2.15                  6.1326e-07            8.2e-13               -2.18e-12             -6.1318e-07          
  2.2                   6.383e-07             7.8e-13               -1.58e-12             -6.3824e-07          
  2.25                  6.6292e-07            9e-13                 -7.6e-13              -6.6286e-07          
  2.3                   6.87e-07              8.2e-13               -2.7e-12              -6.8694e-07          
  2.35                  7.1068e-07            9.6e-13               -2.12e-12             -7.1064e-07          
  2.4                   7.338e-07             9.2e-13               -1.98e-12             -7.3372e-07          
  2.45                  7.5636e-07            1.08e-12              -1.14e-12             -7.5628e-07          
  2.5                   7.7848e-07            1.08e-12              -1.84e-12             -7.7846e-07          
  2.55                  7.9996e-07            1.1e-12               -1.9e-12              -7.9984e-07          
  2.6                   8.2086e-07            9.6e-13               -1.72e-12             -8.208e-07           
  2.65                  8.412e-07             1.04e-12              -1.66e-12             -8.4118e-07          
  2.7                   8.61e-07              9e-13                 -9.6e-13              -8.6092e-07          
  2.75                  8.803e-07             9.6e-13               -2.12e-12             -8.8028e-07          
  2.8                   8.99e-07              1.04e-12              -1.44e-12             -8.9892e-07          
  2.85                  9.1708e-07            9.2e-13               -1.16e-12             -9.1706e-07          
  2.9                   9.3468e-07            1e-12                 -1.56e-12             -9.3462e-07          
  2.95                  9.5174e-07            1.02e-12              -3.78e-12             -9.5172e-07          
  3                     9.6828e-07            8.2e-13               -2e-12                -9.6822e-07          
  3.05                  9.8424e-07            8.4e-13               -2.92e-12             -9.8416e-07          
  3.1                   9.996e-07             1e-12                 -1.26e-12             -9.9956e-07          
  3.15                  1.01456e-06           9.6e-13               -1.1e-12              -1.01456e-06         
  3.2                   1.02898e-06           9.2e-13               -1.72e-12             -1.02898e-06         
  3.25                  1.04284e-06           9.4e-13               -2.2e-12              -1.0428e-06          
  3.3                   1.0563e-06            9.4e-13               -1.9e-12              -1.05628e-06         
  3.35                  1.06918e-06           9.4e-13               -6.6e-13              -1.06916e-06         
  3.4                   1.08172e-06           1.08e-12              -2.04e-12             -1.08168e-06         
  3.45                  1.09364e-06           1.02e-12              -1.96e-12             -1.09366e-06         
