! VERSION = 6.00
BEGIN_HEADER
 ICCAP_INPUTS
  vd         V  D GROUND SMU1 0.1 LIN        1    0          3.6        37   0.1       
  vg         V  G GROUND SMU2 0.001 LIST       2 3 0.954 1.154 1.354
  vb         V  B GROUND SMU4 0.1 CON        -3.6
  vs         V  S GROUND SMU3 0.1 CON        0
 ICCAP_OUTPUTS
  id         I  D GROUND SMU1 B
  ig         I  G GROUND SMU2 B
  ib         I  B GROUND SMU4 B
  is         I  S GROUND SMU3 B
 ICCAP_VALUES
  MASTER_SETUP_TYPE "~dc_idvd~"
  LINVT_VALUE ""
  LISTVT_VALUE "|idvg|100.0n|-200.0m|1.000m|3|200.0m|200.0m|"
  TYPE "1"
  TEMP " 125.000 "
  IS_TNOM " 0.00000 "
  MAIN.W "300.0n"
  MAIN.L "500.0n"
  MAIN.AD "102.0f"
  MAIN.AS "102.0f"
  MAIN.PD "1.280u"
  MAIN.PS "1.280u"
  MAIN.NF "1.000"
  MAIN.M "1"
  MAIN.NRD "0.000"
  MAIN.NRS "0.000"
  MAIN.LDRIFT1 "1E-06"
  MAIN.LDRIFT2 "1E-06"
  MAIN.SA "0.000"
  MAIN.SB "0.000"
  MAIN.SD "0.000"
  MAIN.SCA "0.000"
  MAIN.SCB "0.000"
  MAIN.SCC "0.000"
  MAIN.SC "0.000"
  MODULE "S560"
  PIN_D "14"
  PIN_G "7"
  PIN_S "8"
  PIN_B "13"
  PIN_E ""
  PIN_6 ""
  XY_ID ""
  FUNC "Small"
  STI "SA ref"
  WPE "WPE ref"
  COMMENT ""
  DIS_MEAS ""
  TypeTCI "10"
END_HEADER

BEGIN_DB
 ICCAP_VAR vg         0.954          
 ICCAP_VAR vb         -3.6           
 ICCAP_VAR vs         0              

 #vd                    id                    ig                    ib                    is                   
  0                     -2.8e-13              -2.4e-13              -5.964e-11            2.6e-13              
  0.1                   1.6572e-10            -3e-13                -5.102e-11            -1.6526e-10          
  0.2                   2.0242e-10            -1.4e-13              -4.446e-11            -2.019e-10           
  0.3                   2.31e-10              -4.2e-13              -4.014e-11            -2.3004e-10          
  0.4                   2.6004e-10            -2.6e-13              -3.652e-11            -2.5908e-10          
  0.5                   2.9042e-10            -2.8e-13              -3.41e-11             -2.8976e-10          
  0.6                   3.2322e-10            -3.2e-13              -3.114e-11            -3.2202e-10          
  0.7                   3.5688e-10            -1.8e-13              -2.928e-11            -3.5588e-10          
  0.8                   3.928e-10             -6e-14                -2.718e-11            -3.9178e-10          
  0.9                   4.308e-10             -3.8e-13              -2.686e-11            -4.286e-10           
  1                     4.701e-10             -2e-13                -2.516e-11            -4.6938e-10          
  1.1                   5.1348e-10            0                     -2.45e-11             -5.1232e-10          
  1.2                   5.5966e-10            2e-14                 -2.14e-11             -5.5694e-10          
  1.3                   6.0766e-10            0                     -2.25e-11             -6.063e-10           
  1.4                   6.581e-10             -2e-13                -2.046e-11            -6.5688e-10          
  1.5                   7.1174e-10            -1.2e-13              -2.052e-11            -7.1022e-10          
  1.6                   7.682e-10             -1e-13                -1.942e-11            -7.669e-10           
  1.7                   8.2856e-10            -4e-14                -1.902e-11            -8.2692e-10          
  1.8                   8.918e-10             -1e-13                -1.938e-11            -8.9052e-10          
  1.9                   9.603e-10             -6e-14                -1.822e-11            -9.5864e-10          
  2                     1.0316e-09            -1e-13                -1.864e-11            -1.03072e-09         
  2.1                   1.1074e-09            -2.2e-13              -1.94e-11             -1.10402e-09         
  2.2                   1.188e-09             8e-14                 -1.758e-11            -1.1826e-09          
  2.3                   1.2712e-09            -1.4e-13              -1.844e-11            -1.2674e-09          
  2.4                   1.3614e-09            -4e-14                -2.044e-11            -1.3566e-09          
  2.5                   1.4566e-09            -6e-14                -2.098e-11            -1.4488e-09          
  2.6                   1.5542e-09            -8e-14                -2.2e-11              -1.5448e-09          
  2.7                   1.6596e-09            -8e-14                -2.398e-11            -1.647e-09           
  2.8                   1.7722e-09            0                     -2.778e-11            -1.7562e-09          
  2.9                   1.8898e-09            -2e-14                -3.294e-11            -1.8714e-09          
  3                     2.0174e-09            2e-14                 -3.978e-11            -1.9868e-09          
  3.1                   2.1502e-09            -1.4e-13              -4.916e-11            -2.114e-09           
  3.2                   2.2928e-09            1.4e-13               -5.896e-11            -2.244e-09           
  3.3                   2.442e-09             -1.8e-13              -7.352e-11            -2.381e-09           
  3.4                   2.6048e-09            -6e-14                -9.338e-11            -2.5252e-09          
  3.5                   2.7776e-09            -2e-14                -1.172e-10            -2.6724e-09          
  3.6                   2.9672e-09            -1.6e-13              -1.4816e-10           -2.829e-09           
END_DB

BEGIN_DB
 ICCAP_VAR vg         1.154          
 ICCAP_VAR vb         -3.6           
 ICCAP_VAR vs         0              

 #vd                    id                    ig                    ib                    is                   
  0                     1.028e-11             1.8e-13               -1.302e-11            -1.074e-11           
  0.1                   1.6758e-08            4e-13                 -1.348e-11            -1.6764e-08          
  0.2                   2.1004e-08            1e-13                 -1.372e-11            -2.0994e-08          
  0.3                   2.4112e-08            8e-14                 -1.2e-11              -2.4102e-08          
  0.4                   2.719e-08             1.4e-13               -1.386e-11            -2.7216e-08          
  0.5                   3.0232e-08            1.8e-13               -1.458e-11            -3.0226e-08          
  0.6                   3.3266e-08            1e-13                 -1.358e-11            -3.326e-08           
  0.7                   3.6388e-08            1.6e-13               -1.306e-11            -3.6424e-08          
  0.8                   3.9592e-08            2e-14                 -1.34e-11             -3.9586e-08          
  0.9                   4.2852e-08            1.4e-13               -1.35e-11             -4.2836e-08          
  1                     4.6202e-08            1.6e-13               -1.33e-11             -4.622e-08           
  1.1                   4.9702e-08            1.8e-13               -1.172e-11            -4.9656e-08          
  1.2                   5.319e-08             1.6e-13               -1.26e-11             -5.3166e-08          
  1.3                   5.6854e-08            2e-13                 -1.35e-11             -5.6802e-08          
  1.4                   6.0566e-08            -4e-14                -1.358e-11            -6.0582e-08          
  1.5                   6.4384e-08            6e-14                 -1.364e-11            -6.4422e-08          
  1.6                   6.8326e-08            1.8e-13               -1.38e-11             -6.8444e-08          
  1.7                   7.2418e-08            -1e-13                -1.586e-11            -7.2492e-08          
  1.8                   7.669e-08             2e-14                 -1.794e-11            -7.6698e-08          
  1.9                   8.105e-08             2e-14                 -1.854e-11            -8.102e-08           
  2                     8.5408e-08            1.8e-13               -2.572e-11            -8.546e-08           
  2.1                   9.002e-08             1.8e-13               -3.742e-11            -8.997e-08           
  2.2                   9.4602e-08            1.6e-13               -5.348e-11            -9.4692e-08          
  2.3                   9.9462e-08            2.2e-13               -7.826e-11            -9.9456e-08          
  2.4                   1.0448e-07            2e-13                 -1.1754e-10           -1.04374e-07         
  2.5                   1.096e-07             6e-14                 -1.7282e-10           -1.09492e-07         
  2.6                   1.1486e-07            4e-14                 -2.5284e-10           -1.14624e-07         
  2.7                   1.204e-07             2e-14                 -3.6604e-10           -1.1984e-07          
  2.8                   1.2604e-07            2.6e-13               -5.1644e-10           -1.254e-07           
  2.9                   1.3178e-07            6e-14                 -7.2546e-10           -1.3102e-07          
  3                     1.378e-07             1.8e-13               -1.0092e-09           -1.3682e-07          
  3.1                   1.4412e-07            2e-14                 -1.381e-09            -1.4274e-07          
  3.2                   1.505e-07             1e-13                 -1.8732e-09           -1.4866e-07          
  3.3                   1.5736e-07            2e-13                 -2.5056e-09           -1.5488e-07          
  3.4                   1.6452e-07            8e-14                 -3.3216e-09           -1.6122e-07          
  3.5                   1.7198e-07            0                     -4.351e-09            -1.676e-07           
  3.6                   1.7988e-07            1.4e-13               -5.6358e-09           -1.7414e-07          
END_DB

BEGIN_DB
 ICCAP_VAR vg         1.354          
 ICCAP_VAR vb         -3.6           
 ICCAP_VAR vs         0              

 #vd                    id                    ig                    ib                    is                   
  0                     1.7556e-10            2.6e-13               -1.118e-11            -1.7844e-10          
  0.1                   3.8518e-07            2e-13                 -1.188e-11            -3.8512e-07          
  0.2                   5.1908e-07            1.8e-13               -1.266e-11            -5.1924e-07          
  0.3                   5.8502e-07            2e-13                 -1.08e-11             -5.858e-07           
  0.4                   6.343e-07             2.6e-13               -1.152e-11            -6.3418e-07          
  0.5                   6.7588e-07            2.4e-13               -1.236e-11            -6.7588e-07          
  0.6                   7.1478e-07            1.8e-13               -1.146e-11            -7.1492e-07          
  0.7                   7.5086e-07            2.8e-13               -1.104e-11            -7.5118e-07          
  0.8                   7.8642e-07            1.8e-13               -1.166e-11            -7.8628e-07          
  0.9                   8.203e-07             2e-13                 -1.224e-11            -8.2048e-07          
  1                     8.5344e-07            1.8e-13               -1.108e-11            -8.534e-07           
  1.1                   8.8566e-07            -4e-14                -1.136e-11            -8.8548e-07          
  1.2                   9.1782e-07            2.2e-13               -1.202e-11            -9.1724e-07          
  1.3                   9.4888e-07            1e-13                 -1.214e-11            -9.4876e-07          
  1.4                   9.798e-07             1.6e-13               -1.142e-11            -9.8004e-07          
  1.5                   1.01068e-06           2e-13                 -1.24e-11             -1.01196e-06         
  1.6                   1.04268e-06           1.6e-13               -1.486e-11            -1.04278e-06         
  1.7                   1.07348e-06           4e-14                 -1.87e-11             -1.07346e-06         
  1.8                   1.10432e-06           4e-14                 -2.622e-11            -1.10424e-06         
  1.9                   1.13548e-06           0                     -4.534e-11            -1.13536e-06         
  2                     1.1676e-06            3.2e-13               -7.958e-11            -1.16624e-06         
  2.1                   1.1954e-06            2.2e-13               -1.3976e-10           -1.1918e-06          
  2.2                   1.2272e-06            2.6e-13               -2.3958e-10           -1.223e-06           
  2.3                   1.2576e-06            1.6e-13               -3.9958e-10           -1.2544e-06          
  2.4                   1.2894e-06            1.4e-13               -6.4378e-10           -1.2856e-06          
  2.5                   1.3212e-06            3.2e-13               -1.0068e-09           -1.3172e-06          
  2.6                   1.353e-06             2.6e-13               -1.5314e-09           -1.3486e-06          
  2.7                   1.3862e-06            3.6e-13               -2.2694e-09           -1.3806e-06          
  2.8                   1.4194e-06            8e-14                 -3.288e-09            -1.4126e-06          
  2.9                   1.453e-06             -2e-14                -4.672e-09            -1.4448e-06          
  3                     1.487e-06             -2e-14                -6.5312e-09           -1.477e-06           
  3.1                   1.5216e-06            1.4e-13               -8.9886e-09           -1.5098e-06          
  3.2                   1.5568e-06            1.6e-13               -1.2226e-08           -1.5418e-06          
  3.3                   1.5952e-06            2.4e-13               -1.639e-08            -1.5758e-06          
  3.4                   1.6346e-06            4e-14                 -2.1728e-08           -1.609e-06           
  3.5                   1.675e-06             0                     -2.848e-08            -1.642e-06           
  3.6                   1.7162e-06            1.8e-13               -3.6926e-08           -1.676e-06           
END_DB

