! VERSION = 6.00
BEGIN_HEADER
 ICCAP_INPUTS
  vd         V  D GROUND SMU1 0.1 LIN        1    0          3.6        37   0.1       
  vg         V  G GROUND SMU2 0.001 LIST       2 3 0.293 0.493 0.693
  vb         V  B GROUND SMU4 0.1 CON        0
  vs         V  S GROUND SMU3 0.1 CON        0
 ICCAP_OUTPUTS
  id         I  D GROUND SMU1 B
  ig         I  G GROUND SMU2 B
  ib         I  B GROUND SMU4 B
  is         I  S GROUND SMU3 B
 ICCAP_VALUES
  MASTER_SETUP_TYPE "~dc_idvd~"
  LINVT_VALUE ""
  LISTVT_VALUE "|idvg|100.0n|-200.0m|1.000m|3|200.0m|200.0m|"
  TYPE "1"
  TEMP " 125.000 "
  IS_TNOM " 0.00000 "
  MAIN.W "2.000u"
  MAIN.L "3.000u"
  MAIN.AD "680.0f"
  MAIN.AS "680.0f"
  MAIN.PD "4.680u"
  MAIN.PS "4.680u"
  MAIN.NF "1.000"
  MAIN.M "1"
  MAIN.NRD "0.000"
  MAIN.NRS "0.000"
  MAIN.LDRIFT1 "1E-06"
  MAIN.LDRIFT2 "1E-06"
  MAIN.SA "0.000"
  MAIN.SB "0.000"
  MAIN.SD "0.000"
  MAIN.SCA "0.000"
  MAIN.SCB "0.000"
  MAIN.SCC "0.000"
  MAIN.SC "0.000"
  MODULE "S558"
  PIN_D "14"
  PIN_G "7"
  PIN_S "8"
  PIN_B "13"
  PIN_E ""
  PIN_6 ""
  XY_ID ""
  FUNC "LW Scale"
  STI "SA ref"
  WPE "WPE ref"
  COMMENT ""
  DIS_MEAS ""
  TypeTCI "10"
END_HEADER

BEGIN_DB
 ICCAP_VAR vg         0.293          
 ICCAP_VAR vb         0              
 ICCAP_VAR vs         0              

 #vd                    id                    ig                    ib                    is                   
  0                     1.94e-12              -1.08e-12             1.526e-11             -1.56e-12            
  0.1                   1.4052e-09            -8.8e-13              1.326e-11             -1.4046e-09          
  0.2                   1.4912e-09            -8e-13                1.198e-11             -1.4896e-09          
  0.3                   1.502e-09             -8.4e-13              1.064e-11             -1.4998e-09          
  0.4                   1.508e-09             -7e-13                1.038e-11             -1.5058e-09          
  0.5                   1.5136e-09            -7e-13                1.002e-11             -1.5116e-09          
  0.6                   1.5182e-09            -7e-13                9.9e-12               -1.516e-09           
  0.7                   1.5228e-09            -4.8e-13              9.8e-12               -1.5208e-09          
  0.8                   1.5272e-09            -6e-13                8.5e-12               -1.5248e-09          
  0.9                   1.5314e-09            -5.4e-13              7.6e-12               -1.5286e-09          
  1                     1.535e-09             -3.8e-13              7.24e-12              -1.5322e-09          
  1.1                   1.5388e-09            -7.6e-13              7.44e-12              -1.536e-09           
  1.2                   1.5424e-09            -5e-13                7.82e-12              -1.5396e-09          
  1.3                   1.5462e-09            -4.2e-13              6.44e-12              -1.5434e-09          
  1.4                   1.5494e-09            -4.8e-13              5.74e-12              -1.5464e-09          
  1.5                   1.5528e-09            -5.4e-13              5.48e-12              -1.5494e-09          
  1.6                   1.5558e-09            -5e-13                4.82e-12              -1.5524e-09          
  1.7                   1.559e-09             -6.8e-13              5.94e-12              -1.5554e-09          
  1.8                   1.5622e-09            -6e-13                5.58e-12              -1.5582e-09          
  1.9                   1.5646e-09            -4.4e-13              5.18e-12              -1.561e-09           
  2                     1.5688e-09            -6.4e-13              2.78e-12              -1.5646e-09          
  2.1                   1.572e-09             -6.4e-13              2.72e-12              -1.5668e-09          
  2.2                   1.5754e-09            -4.4e-13              2.98e-12              -1.5696e-09          
  2.3                   1.5786e-09            -5.2e-13              2.26e-12              -1.5722e-09          
  2.4                   1.5824e-09            -2e-13                6e-14                 -1.5742e-09          
  2.5                   1.5856e-09            -4.2e-13              -2.24e-12             -1.5772e-09          
  2.6                   1.5912e-09            -1e-13                -3.78e-12             -1.5796e-09          
  2.7                   1.596e-09             -4.2e-13              -6.88e-12             -1.5818e-09          
  2.8                   1.601e-09             -4.2e-13              -9.1e-12              -1.5842e-09          
  2.9                   1.6074e-09            -3.6e-13              -1.382e-11            -1.5858e-09          
  3                     1.6144e-09            -4.2e-13              -1.942e-11            -1.588e-09           
  3.1                   1.6224e-09            -2.6e-13              -2.554e-11            -1.59e-09            
  3.2                   1.6316e-09            -4.6e-13              -3.266e-11            -1.592e-09           
  3.3                   1.6426e-09            -4e-13                -4.03e-11             -1.594e-09           
  3.4                   1.6544e-09            -3.2e-13              -5.062e-11            -1.5958e-09          
  3.5                   1.6678e-09            -3.8e-13              -6.44e-11             -1.5976e-09          
  3.6                   1.6832e-09            -2.8e-13              -7.68e-11             -1.5996e-09          
END_DB

BEGIN_DB
 ICCAP_VAR vg         0.493          
 ICCAP_VAR vb         0              
 ICCAP_VAR vs         0              

 #vd                    id                    ig                    ib                    is                   
  0                     4.914e-11             6e-14                 1.018e-11             -5.138e-11           
  0.1                   5.9722e-08            -2.2e-13              9.48e-12              -5.9696e-08          
  0.2                   6.5002e-08            -1e-13                8.16e-12              -6.501e-08           
  0.3                   6.563e-08             0                     7.08e-12              -6.5632e-08          
  0.4                   6.5944e-08            -1.4e-13              6.82e-12              -6.5932e-08          
  0.5                   6.6198e-08            -4e-14                7.24e-12              -6.6186e-08          
  0.6                   6.6412e-08            -2e-13                6.12e-12              -6.643e-08           
  0.7                   6.6614e-08            -4e-14                5.98e-12              -6.6634e-08          
  0.8                   6.682e-08             0                     5.68e-12              -6.6798e-08          
  0.9                   6.697e-08             -1e-13                5.36e-12              -6.6976e-08          
  1                     6.7134e-08            -2.4e-13              6.16e-12              -6.7144e-08          
  1.1                   6.731e-08             -1.8e-13              4.92e-12              -6.7312e-08          
  1.2                   6.746e-08             -6e-14                4.5e-12               -6.7452e-08          
  1.3                   6.7604e-08            -2.6e-13              4.94e-12              -6.7614e-08          
  1.4                   6.7752e-08            -1.8e-13              4.9e-12               -6.7752e-08          
  1.5                   6.7884e-08            -4e-14                3.36e-12              -6.788e-08           
  1.6                   6.802e-08             -3.4e-13              1.28e-12              -6.7996e-08          
  1.7                   6.8138e-08            -2.8e-13              -5.2e-13              -6.8136e-08          
  1.8                   6.8256e-08            -2e-13                -2.7e-12              -6.8252e-08          
  1.9                   6.838e-08             -2e-13                -9.96e-12             -6.8374e-08          
  2                     6.8514e-08            -1e-13                -1.762e-11            -6.8462e-08          
  2.1                   6.8624e-08            -8e-14                -2.96e-11             -6.8556e-08          
  2.2                   6.8738e-08            -8e-14                -4.708e-11            -6.8684e-08          
  2.3                   6.8882e-08            -4e-14                -7.194e-11            -6.8806e-08          
  2.4                   6.9026e-08            -4e-14                -1.0626e-10           -6.8914e-08          
  2.5                   6.9156e-08            -1.2e-13              -1.509e-10            -6.9e-08             
  2.6                   6.931e-08             6e-14                 -2.0758e-10           -6.9086e-08          
  2.7                   6.9458e-08            -1.2e-13              -2.8508e-10           -6.9164e-08          
  2.8                   6.9656e-08            0                     -3.8162e-10           -6.9284e-08          
  2.9                   6.987e-08             -1e-13                -5.0386e-10           -6.9356e-08          
  3                     7.0134e-08            -1.4e-13              -6.5752e-10           -6.9448e-08          
  3.1                   7.042e-08             -1.2e-13              -8.4996e-10           -6.9558e-08          
  3.2                   7.0736e-08            -2e-14                -1.0828e-09           -6.9628e-08          
  3.3                   7.1078e-08            -1.8e-13              -1.3678e-09           -6.9702e-08          
  3.4                   7.1514e-08            -1.2e-13              -1.709e-09            -6.9776e-08          
  3.5                   7.1984e-08            -1.8e-13              -2.111e-09            -6.9794e-08          
  3.6                   7.2508e-08            2e-14                 -2.5828e-09           -6.9928e-08          
END_DB

BEGIN_DB
 ICCAP_VAR vg         0.693          
 ICCAP_VAR vb         0              
 ICCAP_VAR vs         0              

 #vd                    id                    ig                    ib                    is                   
  0                     2.9766e-10            3e-13                 8.12e-12              -3.1086e-10          
  0.1                   5.7016e-07            1.2e-13               6.72e-12              -5.7022e-07          
  0.2                   7.1916e-07            -2.8e-13              6.18e-12              -7.1944e-07          
  0.3                   7.4186e-07            3e-13                 6.54e-12              -7.4146e-07          
  0.4                   7.467e-07             3e-13                 5.34e-12              -7.4692e-07          
  0.5                   7.4966e-07            2.6e-13               4.76e-12              -7.4958e-07          
  0.6                   7.518e-07             4e-14                 4.66e-12              -7.5184e-07          
  0.7                   7.5376e-07            -2e-14                5.12e-12              -7.538e-07           
  0.8                   7.5566e-07            -1.4e-13              4.2e-12               -7.5578e-07          
  0.9                   7.5766e-07            1e-13                 3.92e-12              -7.5766e-07          
  1                     7.5922e-07            4e-14                 4.84e-12              -7.594e-07           
  1.1                   7.6078e-07            4e-14                 4.58e-12              -7.6064e-07          
  1.2                   7.6162e-07            2.2e-13               2.9e-12               -7.6216e-07          
  1.3                   7.6336e-07            -1.4e-13              3.26e-12              -7.634e-07           
  1.4                   7.6464e-07            1.4e-13               3.66e-12              -7.6476e-07          
  1.5                   7.658e-07             4.4e-13               2.26e-12              -7.6588e-07          
  1.6                   7.6684e-07            0                     -2.64e-12             -7.6696e-07          
  1.7                   7.682e-07             0                     -9.12e-12             -7.6806e-07          
  1.8                   7.6902e-07            0                     -2.3e-11              -7.6922e-07          
  1.9                   7.7032e-07            -1e-13                -5.046e-11            -7.7022e-07          
  2                     7.7098e-07            2.2e-13               -9.456e-11            -7.7118e-07          
  2.1                   7.7236e-07            3.2e-13               -1.6706e-10           -7.7206e-07          
  2.2                   7.734e-07             0                     -2.7656e-10           -7.7306e-07          
  2.3                   7.7436e-07            0                     -4.378e-10            -7.7418e-07          
  2.4                   7.757e-07             0                     -6.6474e-10           -7.7518e-07          
  2.5                   7.7706e-07            -6e-14                -9.758e-10            -7.7618e-07          
  2.6                   7.782e-07             -1.2e-13              -1.4008e-09           -7.7696e-07          
  2.7                   7.7958e-07            4e-14                 -1.959e-09            -7.7766e-07          
  2.8                   7.8092e-07            -2e-13                -2.6874e-09           -7.7838e-07          
  2.9                   7.8288e-07            -8e-14                -3.63e-09             -7.7934e-07          
  3                     7.8472e-07            2e-14                 -4.8374e-09           -7.8012e-07          
  3.1                   7.874e-07             -4e-14                -6.3598e-09           -7.8116e-07          
  3.2                   7.898e-07             -4e-14                -8.2622e-09           -7.8176e-07          
  3.3                   7.9322e-07            4e-14                 -1.06076e-08          -7.8238e-07          
  3.4                   7.9662e-07            1e-13                 -1.3496e-08           -7.8326e-07          
  3.5                   8.0076e-07            -3.6e-13              -1.6976e-08           -7.8402e-07          
  3.6                   8.057e-07             1.6e-13               -2.11e-08             -7.848e-07           
END_DB

