! VERSION = 6.00
BEGIN_HEADER
 ICCAP_INPUTS
  vd         V  D GROUND SMU1 0.1 LIN        1    0          3.6        37   0.1       
  vg         V  G GROUND SMU2 0.001 LIN        2    1.464      3.6        5    0.534     
  vb         V  B GROUND SMU4 0.1 CON        -3.6
  vs         V  S GROUND SMU3 0.1 CON        0
 ICCAP_OUTPUTS
  id         I  D GROUND SMU1 B
  ig         I  G GROUND SMU2 B
  ib         I  B GROUND SMU4 B
  is         I  S GROUND SMU3 B
 ICCAP_VALUES
  MASTER_SETUP_TYPE "~dc_idvd~"
  LINVT_VALUE "|idvg|100.0n|100.0m|1.000m|5|3.600|"
  LISTVT_VALUE ""
  TYPE "1"
  TEMP " 27.0000 "
  IS_TNOM " 1.00000 "
  MAIN.W "10.00u"
  MAIN.L "3.000u"
  MAIN.AD "3.400p"
  MAIN.AS "3.400p"
  MAIN.PD "20.68u"
  MAIN.PS "20.68u"
  MAIN.NF "1.000"
  MAIN.M "1"
  MAIN.NRD "0.000"
  MAIN.NRS "0.000"
  MAIN.LDRIFT1 "1E-06"
  MAIN.LDRIFT2 "1E-06"
  MAIN.SA "0.000"
  MAIN.SB "0.000"
  MAIN.SD "0.000"
  MAIN.SCA "0.000"
  MAIN.SCB "0.000"
  MAIN.SCC "0.000"
  MAIN.SC "0.000"
  MODULE "S557"
  PIN_D "20"
  PIN_G "1"
  PIN_S "2"
  PIN_B "19"
  PIN_E ""
  PIN_6 ""
  XY_ID ""
  FUNC "L Scale"
  STI "SA ref"
  WPE "WPE ref"
  COMMENT ""
  DIS_MEAS ""
  TypeTCI "10"
END_HEADER

BEGIN_DB
 ICCAP_VAR vg         1.464          
 ICCAP_VAR vb         -3.6           
 ICCAP_VAR vs         0              

 #vd                    id                    ig                    ib                    is                   
  0                     1.9748e-09            5.8e-13               -4.334e-11            -1.353e-09           
  0.1                   1.6408e-06            3.6e-13               -3.518e-11            -1.6366e-06          
  0.2                   1.8956e-06            3.2e-13               -3.49e-11             -1.8916e-06          
  0.3                   1.9228e-06            5e-13                 -3.142e-11            -1.9196e-06          
  0.4                   1.9324e-06            4.6e-13               -3.116e-11            -1.9288e-06          
  0.5                   1.939e-06             4e-13                 -3.06e-11             -1.9356e-06          
  0.6                   1.9442e-06            3e-13                 -2.822e-11            -1.9402e-06          
  0.7                   1.9488e-06            4.8e-13               -2.774e-11            -1.9446e-06          
  0.8                   1.9526e-06            3.4e-13               -2.73e-11             -1.9486e-06          
  0.9                   1.9566e-06            3.8e-13               -2.494e-11            -1.9524e-06          
  1                     1.9598e-06            2.8e-13               -2.452e-11            -1.9562e-06          
  1.1                   1.9626e-06            3.4e-13               -2.406e-11            -1.9592e-06          
  1.2                   1.9662e-06            3.6e-13               -2.278e-11            -1.9624e-06          
  1.3                   1.9688e-06            3.6e-13               -2.172e-11            -1.9646e-06          
  1.4                   1.9708e-06            3.6e-13               -2.18e-11             -1.9674e-06          
  1.5                   1.9734e-06            3.4e-13               -2.106e-11            -1.9694e-06          
  1.6                   1.976e-06             3.6e-13               -2.1e-11              -1.9722e-06          
  1.7                   1.9786e-06            2.6e-13               -2.224e-11            -1.9756e-06          
  1.8                   1.982e-06             2.6e-13               -2.418e-11            -1.9774e-06          
  1.9                   1.9838e-06            3.4e-13               -3.242e-11            -1.9798e-06          
  2                     1.9854e-06            3.2e-13               -5.018e-11            -1.9822e-06          
  2.1                   1.9882e-06            3.4e-13               -8.646e-11            -1.9844e-06          
  2.2                   1.991e-06             3e-13                 -1.55e-10             -1.9864e-06          
  2.3                   1.9928e-06            3.8e-13               -2.7344e-10           -1.9886e-06          
  2.4                   1.9946e-06            3e-13                 -4.662e-10            -1.9898e-06          
  2.5                   1.997e-06             1.8e-13               -7.6554e-10           -1.9926e-06          
  2.6                   1.9998e-06            2.8e-13               -1.2142e-09           -1.9944e-06          
  2.7                   2.0016e-06            2.4e-13               -1.864e-09            -1.996e-06           
  2.8                   2.0048e-06            3.4e-13               -2.7804e-09           -1.9982e-06          
  2.9                   2.008e-06             2.8e-13               -4.0436e-09           -1.9998e-06          
  3                     2.0118e-06            2.6e-13               -5.7658e-09           -2.0016e-06          
  3.1                   2.0162e-06            2.2e-13               -8.0772e-09           -2.0042e-06          
  3.2                   2.0216e-06            3.6e-13               -1.11334e-08          -2.0058e-06          
  3.3                   2.0266e-06            2.6e-13               -1.5128e-08           -2.0076e-06          
  3.4                   2.0338e-06            3.2e-13               -2.0302e-08           -2.0098e-06          
  3.5                   2.0424e-06            3e-13                 -2.6908e-08           -2.0112e-06          
  3.6                   2.0522e-06            3.6e-13               -3.5214e-08           -2.0126e-06          
END_DB

BEGIN_DB
 ICCAP_VAR vg         1.998          
 ICCAP_VAR vb         -3.6           
 ICCAP_VAR vs         0              

 #vd                    id                    ig                    ib                    is                   
  0                     1.5662e-08            3.4e-13               -1.092e-11            -1.581e-08           
  0.1                   2.3168e-05            3.4e-13               -9.2e-12              -2.3146e-05          
  0.2                   4.08e-05              2.8e-13               -1.104e-11            -4.0782e-05          
  0.3                   5.3142e-05            2.2e-13               -9.44e-12             -5.3122e-05          
  0.4                   6.0734e-05            3e-13                 -9.68e-12             -6.0716e-05          
  0.5                   6.4532e-05            3e-13                 -1.056e-11            -6.4512e-05          
  0.6                   6.6032e-05            1.8e-13               -9.14e-12             -6.6016e-05          
  0.7                   6.6592e-05            3e-13                 -9.76e-12             -6.6574e-05          
  0.8                   6.6852e-05            3.8e-13               -1e-11                -6.6836e-05          
  0.9                   6.701e-05             3.2e-13               -6.04e-12             -6.6998e-05          
  1                     6.7134e-05            2.6e-13               -9.62e-12             -6.7116e-05          
  1.1                   6.7236e-05            4e-13                 -9.92e-12             -6.7214e-05          
  1.2                   6.7318e-05            2.4e-13               -8.34e-12             -6.7302e-05          
  1.3                   6.7396e-05            2.8e-13               -9.26e-12             -6.7378e-05          
  1.4                   6.7468e-05            3.2e-13               -1.018e-11            -6.7446e-05          
  1.5                   6.7528e-05            4.2e-13               -8.28e-12             -6.7512e-05          
  1.6                   6.759e-05             3e-13                 -9.18e-12             -6.7572e-05          
  1.7                   6.7646e-05            2.4e-13               -9.28e-12             -6.763e-05           
  1.8                   6.7696e-05            2.4e-13               -8.72e-12             -6.768e-05           
  1.9                   6.7754e-05            3.6e-13               -1.088e-11            -6.7734e-05          
  2                     6.7802e-05            3.4e-13               -1.682e-11            -6.7786e-05          
  2.1                   6.7856e-05            2.2e-13               -3.62e-11             -6.7838e-05          
  2.2                   6.7904e-05            2.6e-13               -9.948e-11            -6.7888e-05          
  2.3                   6.7954e-05            2.6e-13               -2.6174e-10           -6.7934e-05          
  2.4                   6.7998e-05            3.4e-13               -6.4216e-10           -6.7978e-05          
  2.5                   6.804e-05             3e-13                 -1.4482e-09           -6.8018e-05          
  2.6                   6.8082e-05            3.8e-13               -3.0168e-09           -6.8062e-05          
  2.7                   6.813e-05             2.6e-13               -5.8322e-09           -6.8104e-05          
  2.8                   6.818e-05             3.2e-13               -1.05766e-08          -6.8146e-05          
  2.9                   6.8226e-05            3e-13                 -1.8176e-08           -6.8192e-05          
  3                     6.828e-05             4e-13                 -2.9826e-08           -6.8228e-05          
  3.1                   6.8334e-05            4.6e-13               -4.705e-08            -6.827e-05           
  3.2                   6.8398e-05            5.2e-13               -7.1826e-08           -6.8304e-05          
  3.3                   6.847e-05             5e-13                 -1.06476e-07          -6.834e-05           
  3.4                   6.8546e-05            6.8e-13               -1.5426e-07           -6.8372e-05          
  3.5                   6.8644e-05            9.2e-13               -2.1896e-07           -6.8408e-05          
  3.6                   6.8764e-05            1.12e-12              -3.0572e-07           -6.8442e-05          
END_DB

BEGIN_DB
 ICCAP_VAR vg         2.532          
 ICCAP_VAR vb         -3.6           
 ICCAP_VAR vs         0              

 #vd                    id                    ig                    ib                    is                   
  0                     3.1184e-08            3.8e-13               -6.94e-12             -2.8932e-08          
  0.1                   4.7518e-05            3.4e-13               -5.38e-12             -4.7498e-05          
  0.2                   8.9878e-05            2e-13                 -7.28e-12             -8.986e-05           
  0.3                   0.00012702            3.6e-13               -6.64e-12             -0.00012662          
  0.4                   0.00015868            3.6e-13               -6.82e-12             -0.0001583           
  0.5                   0.00018494            3e-13                 -5.86e-12             -0.00018456          
  0.6                   0.00020578            4.2e-13               -6.06e-12             -0.0002054           
  0.7                   0.0002215             3.2e-13               -6.88e-12             -0.00022112          
  0.8                   0.00023244            4e-13                 -5.26e-12             -0.00023206          
  0.9                   0.00023932            3.2e-13               -6.7e-12              -0.00023892          
  1                     0.00024318            3.8e-13               -6.84e-12             -0.00024278          
  1.1                   0.00024518            3.8e-13               -5.28e-12             -0.00024478          
  1.2                   0.00024624            3.8e-13               -6.18e-12             -0.00024584          
  1.3                   0.00024686            3.6e-13               -6.38e-12             -0.00024648          
  1.4                   0.0002473             2.2e-13               -4.74e-12             -0.00024692          
  1.5                   0.00024764            3.6e-13               -7.02e-12             -0.00024724          
  1.6                   0.00024792            2.2e-13               -5.96e-12             -0.00024752          
  1.7                   0.00024814            3.4e-13               -4.14e-12             -0.00024776          
  1.8                   0.00024836            2.8e-13               -6.26e-12             -0.00024798          
  1.9                   0.00024856            2.8e-13               -5.86e-12             -0.00024816          
  2                     0.00024874            3.2e-13               -5.32e-12             -0.00024834          
  2.1                   0.00024888            2.4e-13               -6.54e-12             -0.00024852          
  2.2                   0.00024906            4.8e-13               -7.36e-12             -0.00024868          
  2.3                   0.00024922            2.6e-13               -1.098e-11            -0.00024884          
  2.4                   0.00024936            3e-13                 -2.79e-11             -0.00024896          
  2.5                   0.0002495             2.8e-13               -8.31e-11             -0.0002491           
  2.6                   0.00024964            3.8e-13               -2.4856e-10           -0.00024926          
  2.7                   0.00024976            3.4e-13               -6.8452e-10           -0.00024938          
  2.8                   0.0002499             2.8e-13               -1.711e-09            -0.0002495           
  2.9                   0.00025002            3.2e-13               -3.9162e-09           -0.00024962          
  3                     0.00025014            3.4e-13               -8.2696e-09           -0.00024974          
  3.1                   0.00025026            3e-13                 -1.6258e-08           -0.00024984          
  3.2                   0.00025038            4.4e-13               -3.0016e-08           -0.00024996          
  3.3                   0.00025052            5.6e-13               -5.2448e-08           -0.00025008          
  3.4                   0.00025066            8.6e-13               -8.7498e-08           -0.00025018          
  3.5                   0.00025082            1.02e-12              -1.4014e-07           -0.00025028          
  3.6                   0.00025096            1.64e-12              -2.17e-07             -0.00025036          
END_DB

BEGIN_DB
 ICCAP_VAR vg         3.066          
 ICCAP_VAR vb         -3.6           
 ICCAP_VAR vs         0              

 #vd                    id                    ig                    ib                    is                   
  0                     4.3166e-08            3.8e-13               -4.02e-12             -4.0528e-08          
  0.1                   6.7308e-05            3.4e-13               -4.04e-12             -6.7288e-05          
  0.2                   0.00013062            3.4e-13               -5e-12                -0.00013022          
  0.3                   0.0001893             3.2e-13               -4.4e-12              -0.00018892          
  0.4                   0.0002435             3.6e-13               -4.36e-12             -0.00024312          
  0.5                   0.00029292            3.4e-13               -5.76e-12             -0.00029254          
  0.6                   0.0003373             3.2e-13               -3.92e-12             -0.0003369           
  0.7                   0.00037664            3e-13                 -4.34e-12             -0.00037626          
  0.8                   0.00041076            2.6e-13               -5.04e-12             -0.00041038          
  0.9                   0.00043958            4.2e-13               -4.6e-12              -0.0004392           
  1                     0.00046328            3.4e-13               -5.02e-12             -0.0004629           
  1.1                   0.00048196            3.2e-13               -5.2e-12              -0.00048158          
  1.2                   0.00049588            2.2e-13               -4.16e-12             -0.00049552          
  1.3                   0.0005057             2.4e-13               -5.14e-12             -0.00050532          
  1.4                   0.0005121             3.2e-13               -4.78e-12             -0.00051172          
  1.5                   0.00051604            2.8e-13               -3.84e-12             -0.00051566          
  1.6                   0.00051838            4e-13                 -5.38e-12             -0.000518            
  1.7                   0.00051984            4.2e-13               -4.12e-12             -0.00051944          
  1.8                   0.0005208             2.8e-13               -4.22e-12             -0.00052042          
  1.9                   0.00052152            3.6e-13               -5.1e-12              -0.00052112          
  2                     0.00052206            3.6e-13               -3.82e-12             -0.00052168          
  2.1                   0.00052252            3e-13                 -4.48e-12             -0.00052214          
  2.2                   0.00052292            1.8e-13               -5.28e-12             -0.00052254          
  2.3                   0.00052328            2.6e-13               -4.56e-12             -0.0005229           
  2.4                   0.00052358            2.4e-13               -4.08e-12             -0.0005232           
  2.5                   0.00052388            3.2e-13               -6.04e-12             -0.0005235           
  2.6                   0.00052416            3.6e-13               -6.84e-12             -0.00052376          
  2.7                   0.0005244             3.6e-13               -1.67e-11             -0.00052402          
  2.8                   0.00052464            3.8e-13               -5.062e-11            -0.00052424          
  2.9                   0.00052486            3e-13                 -1.5784e-10           -0.00052448          
  3                     0.0005251             3e-13                 -4.6824e-10           -0.0005247           
  3.1                   0.0005253             3e-13                 -1.2602e-09           -0.00052492          
  3.2                   0.00052552            4e-13                 -3.1056e-09           -0.00052512          
  3.3                   0.00052572            4e-13                 -7.0216e-09           -0.0005253           
  3.4                   0.0005259             5.2e-13               -1.4766e-08           -0.00052548          
  3.5                   0.0005261             7.4e-13               -2.9046e-08           -0.00052568          
  3.6                   0.00052628            9.4e-13               -5.3756e-08           -0.00052584          
END_DB

BEGIN_DB
 ICCAP_VAR vg         3.6            
 ICCAP_VAR vb         -3.6           
 ICCAP_VAR vs         0              

 #vd                    id                    ig                    ib                    is                   
  0                     5.4618e-08            4e-13                 -2.86e-12             -5.071e-08           
  0.1                   8.177e-05             3.4e-13               -3.54e-12             -8.1746e-05          
  0.2                   0.00016054            3.2e-13               -4.04e-12             -0.00016016          
  0.3                   0.00023568            3.2e-13               -5.06e-12             -0.0002353           
  0.4                   0.00030738            2.6e-13               -2.86e-12             -0.000307            
  0.5                   0.00037526            2.8e-13               -4.5e-12              -0.00037488          
  0.6                   0.00043898            3.6e-13               -5.14e-12             -0.0004386           
  0.7                   0.00049856            3e-13                 -3.5e-12              -0.00049816          
  0.8                   0.00055366            3.2e-13               -3.8e-12              -0.00055326          
