! VERSION = 6.00
BEGIN_HEADER
 ICCAP_INPUTS
  vd         V  D GROUND SMU1 0.1 LIN        1    0          3.6        37   0.1       
  vg         V  G GROUND SMU2 0.001 LIN        2    1.468      3.6        5    0.533     
  vb         V  B GROUND SMU4 0.1 CON        -3.6
  vs         V  S GROUND SMU3 0.1 CON        0
 ICCAP_OUTPUTS
  id         I  D GROUND SMU1 B
  ig         I  G GROUND SMU2 B
  ib         I  B GROUND SMU4 B
  is         I  S GROUND SMU3 B
 ICCAP_VALUES
  MASTER_SETUP_TYPE "~dc_idvd~"
  LINVT_VALUE "|idvg|100.0n|100.0m|1.000m|5|3.600|"
  LISTVT_VALUE ""
  TYPE "1"
  TEMP " 27.0000 "
  IS_TNOM " 1.00000 "
  MAIN.W "600.0n"
  MAIN.L "1.200u"
  MAIN.AD "204.0f"
  MAIN.AS "204.0f"
  MAIN.PD "1.880u"
  MAIN.PS "1.880u"
  MAIN.NF "1.000"
  MAIN.M "1"
  MAIN.NRD "0.000"
  MAIN.NRS "0.000"
  MAIN.LDRIFT1 "1E-06"
  MAIN.LDRIFT2 "1E-06"
  MAIN.SA "0.000"
  MAIN.SB "0.000"
  MAIN.SD "0.000"
  MAIN.SCA "0.000"
  MAIN.SCB "0.000"
  MAIN.SCC "0.000"
  MAIN.SC "0.000"
  MODULE "S559"
  PIN_D "14"
  PIN_G "7"
  PIN_S "8"
  PIN_B "13"
  PIN_E ""
  PIN_6 ""
  XY_ID ""
  FUNC "LW Scale"
  STI "SA ref"
  WPE "WPE ref"
  COMMENT ""
  DIS_MEAS ""
  TypeTCI "10"
END_HEADER

BEGIN_DB
 ICCAP_VAR vg         1.468          
 ICCAP_VAR vb         -3.6           
 ICCAP_VAR vs         0              

 #vd                    id                    ig                    ib                    is                   
  0                     2.7406e-10            8.8e-13               -4.66e-11             -2.1428e-10          
  0.1                   2.4016e-07            4.8e-13               -3.83e-11             -2.4006e-07          
  0.2                   2.8336e-07            4.2e-13               -3.706e-11            -2.8338e-07          
  0.3                   2.9026e-07            2.8e-13               -3.546e-11            -2.9012e-07          
  0.4                   2.9274e-07            4.4e-13               -3.182e-11            -2.9264e-07          
  0.5                   2.9454e-07            4.2e-13               -3.156e-11            -2.9386e-07          
  0.6                   2.9542e-07            5e-13                 -3.012e-11            -2.953e-07           
  0.7                   2.9662e-07            4.6e-13               -2.892e-11            -2.965e-07           
  0.8                   2.9776e-07            4.6e-13               -2.728e-11            -2.9752e-07          
  0.9                   2.9868e-07            2.4e-13               -2.698e-11            -2.986e-07           
  1                     2.997e-07             1.2e-13               -2.544e-11            -2.9952e-07          
  1.1                   3.005e-07             1e-13                 -2.422e-11            -3.0032e-07          
  1.2                   3.013e-07             2.8e-13               -2.342e-11            -3.0118e-07          
  1.3                   3.0214e-07            3.4e-13               -2.34e-11             -3.0196e-07          
  1.4                   3.0292e-07            2.8e-13               -2.292e-11            -3.0278e-07          
  1.5                   3.036e-07             3.4e-13               -2.186e-11            -3.0342e-07          
  1.6                   3.0438e-07            3.6e-13               -2.002e-11            -3.0418e-07          
  1.7                   3.0508e-07            3.8e-13               -1.756e-11            -3.0502e-07          
  1.8                   3.058e-07             1.2e-13               -2.112e-11            -3.0572e-07          
  1.9                   3.064e-07             2e-14                 -2.112e-11            -3.0678e-07          
  2                     3.0758e-07            2e-13                 -2.336e-11            -3.0746e-07          
  2.1                   3.0824e-07            3.4e-13               -3.028e-11            -3.081e-07           
  2.2                   3.0884e-07            3.2e-13               -4.228e-11            -3.0878e-07          
  2.3                   3.0956e-07            2.8e-13               -6.006e-11            -3.095e-07           
  2.4                   3.1026e-07            1.6e-13               -9.166e-11            -3.099e-07           
  2.5                   3.1098e-07            1.4e-13               -1.4322e-10           -3.1068e-07          
  2.6                   3.1166e-07            3.8e-13               -2.1744e-10           -3.1074e-07          
  2.7                   3.1184e-07            2.2e-13               -3.2398e-10           -3.113e-07           
  2.8                   3.1256e-07            2.4e-13               -4.7484e-10           -3.1182e-07          
  2.9                   3.1398e-07            1e-13                 -6.8284e-10           -3.1314e-07          
  3                     3.1414e-07            0                     -9.626e-10            -3.131e-07           
  3.1                   3.1514e-07            5e-13                 -1.3414e-09           -3.1368e-07          
  3.2                   3.1636e-07            3.2e-13               -1.8434e-09           -3.1432e-07          
  3.3                   3.175e-07             3.8e-13               -2.4966e-09           -3.149e-07           
  3.4                   3.1882e-07            3e-13                 -3.3432e-09           -3.1546e-07          
  3.5                   3.2056e-07            4e-14                 -4.4228e-09           -3.1602e-07          
  3.6                   3.2228e-07            2.2e-13               -5.7712e-09           -3.1608e-07          
END_DB

BEGIN_DB
 ICCAP_VAR vg         2.001          
 ICCAP_VAR vb         -3.6           
 ICCAP_VAR vs         0              

 #vd                    id                    ig                    ib                    is                   
  0                     1.5796e-09            5e-13                 -1.022e-11            -1.4298e-09          
  0.1                   3.243e-06             3.2e-13               -9.16e-12             -3.238e-06           
  0.2                   5.7448e-06            4.2e-13               -1.058e-11            -5.7414e-06          
  0.3                   7.5406e-06            4.8e-13               -9.2e-12              -7.537e-06           
  0.4                   8.7126e-06            3e-13                 -1.004e-11            -8.707e-06           
  0.5                   9.3828e-06            1.6e-13               -9.82e-12             -9.381e-06           
  0.6                   9.727e-06             4.2e-13               -8.52e-12             -9.7242e-06          
  0.7                   9.901e-06             3.4e-13               -9.54e-12             -9.899e-06           
  0.8                   9.9966e-06            6e-14                 -1.018e-11            -9.9918e-06          
  0.9                   1.00588e-05           3.4e-13               -8.64e-12             -1.00536e-05         
  1                     1.01032e-05           2.2e-13               -9.48e-12             -1.01034e-05         
  1.1                   1.01442e-05           1.8e-13               -9.96e-12             -1.014e-05           
  1.2                   1.01732e-05           8e-14                 -8.08e-12             -1.01712e-05         
  1.3                   1.02024e-05           8e-14                 -8.86e-12             -1.01976e-05         
  1.4                   1.02296e-05           1e-13                 -9.8e-12              -1.02226e-05         
  1.5                   1.0255e-05            2.6e-13               -8.08e-12             -1.02484e-05         
  1.6                   1.02762e-05           3.2e-13               -9.34e-12             -1.02718e-05         
  1.7                   1.0297e-05            2.6e-13               -8.92e-12             -1.02926e-05         
  1.8                   1.03202e-05           1.2e-13               -7.74e-12             -1.0315e-05          
  1.9                   1.03382e-05           2.2e-13               -9.04e-12             -1.03352e-05         
  2                     1.036e-05             0                     -1.08e-11             -1.03548e-05         
  2.1                   1.03756e-05           3.6e-13               -1.446e-11            -1.03728e-05         
  2.2                   1.03922e-05           2.2e-13               -2.958e-11            -1.03902e-05         
  2.3                   1.0422e-05            2e-13                 -6.372e-11            -1.04098e-05         
  2.4                   1.0438e-05            4e-14                 -1.4238e-10           -1.04232e-05         
  2.5                   1.0452e-05            -2e-14                -3.0042e-10           -1.04414e-05         
  2.6                   1.047e-05             5e-13                 -6.0058e-10           -1.0452e-05          
  2.7                   1.0488e-05            2.2e-13               -1.1242e-09           -1.0462e-05          
  2.8                   1.0522e-05            2e-13                 -2.0004e-09           -1.0502e-05          
  2.9                   1.0542e-05            8e-14                 -3.3708e-09           -1.0518e-05          
  3                     1.056e-05             3.2e-13               -5.4516e-09           -1.0536e-05          
  3.1                   1.0576e-05            3e-13                 -8.496e-09            -1.055e-05           
  3.2                   1.0598e-05            0                     -1.284e-08            -1.0562e-05          
  3.3                   1.0618e-05            2.4e-13               -1.8864e-08           -1.0576e-05          
  3.4                   1.0638e-05            1.2e-13               -2.709e-08            -1.0588e-05          
  3.5                   1.0658e-05            1.4e-13               -3.8286e-08           -1.0598e-05          
  3.6                   1.069e-05             1.6e-13               -5.3076e-08           -1.0616e-05          
END_DB

BEGIN_DB
 ICCAP_VAR vg         2.534          
 ICCAP_VAR vb         -3.6           
 ICCAP_VAR vs         0              

 #vd                    id                    ig                    ib                    is                   
  0                     2.3738e-09            5.6e-13               -4.1e-12              -2.3718e-09          
  0.1                   6.43e-06              5.2e-13               -5.1e-12              -6.426e-06           
  0.2                   1.2198e-05            2.6e-13               -4.74e-12             -1.2176e-05          
  0.3                   1.7252e-05            4.4e-13               -6.44e-12             -1.7234e-05          
  0.4                   2.1604e-05            3e-13                 -5.98e-12             -2.1584e-05          
  0.5                   2.5244e-05            1e-13                 -5.06e-12             -2.5222e-05          
  0.6                   2.8168e-05            2.2e-13               -6.3e-12              -2.8156e-05          
  0.7                   3.0438e-05            4.2e-13               -5.88e-12             -3.0418e-05          
  0.8                   3.2102e-05            3.2e-13               -5.08e-12             -3.2086e-05          
  0.9                   3.3256e-05            4e-14                 -6e-12                -3.3232e-05          
  1                     3.4004e-05            2.2e-13               -6.4e-12              -3.3984e-05          
  1.1                   3.4484e-05            3.2e-13               -5.42e-12             -3.4468e-05          
  1.2                   3.4792e-05            2.2e-13               -6.14e-12             -3.4774e-05          
  1.3                   3.4994e-05            1.8e-13               -5.66e-12             -3.498e-05           
  1.4                   3.5138e-05            3e-13                 -4.96e-12             -3.5126e-05          
  1.5                   3.5262e-05            1e-13                 -6.38e-12             -3.5238e-05          
  1.6                   3.535e-05             2e-14                 -5.42e-12             -3.5334e-05          
  1.7                   3.5438e-05            1.2e-13               -4.88e-12             -3.5418e-05          
  1.8                   3.5518e-05            3.4e-13               -5.92e-12             -3.5504e-05          
  1.9                   3.5588e-05            3.6e-13               -4.96e-12             -3.5566e-05          
  2                     3.565e-05             2.2e-13               -4.68e-12             -3.5638e-05          
  2.1                   3.5714e-05            1.2e-13               -6.14e-12             -3.569e-05           
  2.2                   3.5742e-05            2e-13                 -5.84e-12             -3.5716e-05          
  2.3                   3.5796e-05            3.8e-13               -7.98e-12             -3.5768e-05          
  2.4                   3.587e-05             1.6e-13               -1.888e-11            -3.5858e-05          
  2.5                   3.5918e-05            1e-13                 -4.292e-11            -3.5906e-05          
  2.6                   3.5978e-05            1.6e-13               -1.0684e-10           -3.5952e-05          
  2.7                   3.602e-05             0                     -2.5318e-10           -3.6032e-05          
  2.8                   3.6082e-05            1.6e-13               -5.5874e-10           -3.607e-05           
  2.9                   3.6138e-05            4e-14                 -1.153e-09            -3.6106e-05          
  3                     3.6178e-05            1.8e-13               -2.246e-09            -3.6152e-05          
  3.1                   3.6216e-05            1.4e-13               -4.124e-09            -3.62e-05            
  3.2                   3.6266e-05            1.8e-13               -7.187e-09            -3.6248e-05          
  3.3                   3.6314e-05            2e-13                 -1.1984e-08           -3.628e-05           
  3.4                   3.6356e-05            3e-13                 -1.9168e-08           -3.6316e-05          
  3.5                   3.6406e-05            5.4e-13               -2.9726e-08           -3.6356e-05          
  3.6                   3.6466e-05            4.2e-13               -4.4908e-08           -3.6394e-05          
END_DB

BEGIN_DB
 ICCAP_VAR vg         3.067          
 ICCAP_VAR vb         -3.6           
 ICCAP_VAR vs         0              

 #vd                    id                    ig                    ib                    is                   
  0                     2.781e-09             3.4e-13               -4.62e-12             -2.9856e-09          
  0.1                   8.9928e-06            4.8e-13               -4.34e-12             -8.9894e-06          
  0.2                   1.7444e-05            3.8e-13               -3.34e-12             -1.7422e-05          
  0.3                   2.5276e-05            5.6e-13               -1.66e-12             -2.5256e-05          
  0.4                   3.2492e-05            3.2e-13               -5.08e-12             -3.2472e-05          
  0.5                   3.9044e-05            1.8e-13               -3.94e-12             -3.9024e-05          
  0.6                   4.4902e-05            4.4e-13               -4.6e-12              -4.4884e-05          
  0.7                   5.0072e-05            2.6e-13               -5.02e-12             -5.0052e-05          
  0.8                   5.4538e-05            1.8e-13               -4.22e-12             -5.4518e-05          
  0.9                   5.8304e-05            2.2e-13               -4.34e-12             -5.8282e-05          
  1                     6.141e-05             2e-13                 -4.7e-12              -6.1388e-05          
  1.1                   6.3882e-05            2.2e-13               -3.98e-12             -6.3864e-05          
  1.2                   6.5782e-05            2e-13                 -4.24e-12             -6.5766e-05          
  1.3                   6.7188e-05            3e-13                 -4.88e-12             -6.7176e-05          
  1.4                   6.8202e-05            1.4e-13               -3.58e-12             -6.8182e-05          
  1.5                   6.8916e-05            1e-13                 -4.62e-12             -6.8902e-05          
  1.6                   6.9416e-05            1e-13                 -4.72e-12             -6.9392e-05          
  1.7                   6.977e-05             2.8e-13               -4e-12                -6.9754e-05          
  1.8                   7.0036e-05            2.4e-13               -4.22e-12             -7.0022e-05          
  1.9                   7.0258e-05            2e-14                 -4.22e-12             -7.0234e-05          
  2                     7.0432e-05            2e-13                 -3.54e-12             -7.041e-05           
  2.1                   7.0582e-05            2.2e-13               -4.46e-12             -7.0558e-05          
  2.2                   7.0716e-05            1.4e-13               -3.42e-12             -7.0702e-05          
  2.3                   7.0838e-05            0                     -4.6e-12              -7.0824e-05          
  2.4                   7.0948e-05            2e-13                 -4.5e-12              -7.093e-05           
  2.5                   7.105e-05             2.8e-13               -5.24e-12             -7.1036e-05          
  2.6                   7.1154e-05            2e-13                 -1.044e-11            -7.1134e-05          
  2.7                   7.1244e-05            4e-14                 -2.686e-11            -7.1182e-05          
  2.8                   7.1294e-05            3.6e-13               -6.462e-11            -7.1306e-05          
  2.9                   7.1408e-05            2.6e-13               -1.6018e-10           -7.1392e-05          
  3                     7.1498e-05            8e-14                 -3.7686e-10           -7.148e-05           
  3.1                   7.1574e-05            2.8e-13               -8.199e-10            -7.1554e-05          
  3.2                   7.162e-05             6e-14                 -1.6904e-09           -7.1602e-05          
  3.3                   7.1694e-05            1e-13                 -3.2664e-09           -7.1678e-05          
  3.4                   7.1774e-05            3.2e-13               -6.0288e-09           -7.1748e-05          
  3.5                   7.1844e-05            4.2e-13               -1.06048e-08          -7.181e-05           
  3.6                   7.194e-05             3.6e-13               -1.786e-08            -7.1902e-05          
END_DB

BEGIN_DB
 ICCAP_VAR vg         3.6            
 ICCAP_VAR vb         -3.6           
 ICCAP_VAR vs         0              

 #vd                    id                    ig                    ib                    is                   
  0                     3.003e-09             6.6e-13               -3.94e-12             -3.6736e-09          
  0.1                   1.0928e-05            4.4e-13               -3.92e-12             -1.0908e-05          
  0.2                   2.1408e-05            3.8e-13               -1.7e-12              -2.1388e-05          
  0.3                   3.1386e-05            4e-13                 -3.62e-12             -3.1366e-05          
  0.4                   4.0852e-05            2.4e-13               -3.78e-12             -4.0836e-05          
  0.5                   4.976e-05             4e-13                 -2.3e-12              -4.9738e-05          
  0.6                   5.8044e-05            4.4e-13               -3.6e-12              -5.8026e-05          
  0.7                   6.5708e-05            4.4e-13               -3.74e-12             -6.5692e-05          
  0.8                   7.2718e-05            2.6e-13               -2.68e-12             -7.2694e-05          
