! VERSION = 6.00
BEGIN_HEADER
 ICCAP_INPUTS
  vd         V  D GROUND SMU1 0.1 LIN        1    0          3.6        37   0.1       
  vg         V  G GROUND SMU2 0.001 LIN        2    0.752      3.6        5    0.712     
  vb         V  B GROUND SMU4 0.1 CON        0
  vs         V  S GROUND SMU3 0.1 CON        0
 ICCAP_OUTPUTS
  id         I  D GROUND SMU1 B
  ig         I  G GROUND SMU2 B
  ib         I  B GROUND SMU4 B
  is         I  S GROUND SMU3 B
 ICCAP_VALUES
  MASTER_SETUP_TYPE "~dc_idvd~"
  LINVT_VALUE "|idvg|100.0n|100.0m|1.000m|5|3.600|"
  LISTVT_VALUE ""
  TYPE "1"
  TEMP "-40.0000 "
  IS_TNOM " 0.00000 "
  MAIN.W "10.00u"
  MAIN.L "10.00u"
  MAIN.AD "3.400p"
  MAIN.AS "3.400p"
  MAIN.PD "20.68u"
  MAIN.PS "20.68u"
  MAIN.NF "1.000"
  MAIN.M "1"
  MAIN.NRD "0.000"
  MAIN.NRS "0.000"
  MAIN.LDRIFT1 "1E-06"
  MAIN.LDRIFT2 "1E-06"
  MAIN.SA "0.000"
  MAIN.SB "0.000"
  MAIN.SD "0.000"
  MAIN.SCA "0.000"
  MAIN.SCB "0.000"
  MAIN.SCC "0.000"
  MAIN.SC "0.000"
  MODULE "S557"
  PIN_D "16"
  PIN_G "5"
  PIN_S "6"
  PIN_B "15"
  PIN_E ""
  PIN_6 ""
  XY_ID ""
  FUNC "Large"
  STI "SA ref"
  WPE "WPE ref"
  COMMENT ""
  DIS_MEAS ""
  TypeTCI "10"
END_HEADER

BEGIN_DB
 ICCAP_VAR vg         0.752          
 ICCAP_VAR vb         0              
 ICCAP_VAR vs         0              

 #vd                    id                    ig                    ib                    is                   
  0                     6.7064e-10            0                     1.48e-11              -4.546e-10           
  0.1                   5.7672e-07            -3.8e-13              1.398e-11             -5.7658e-07          
  0.2                   6.1824e-07            -2.8e-13              1.212e-11             -6.1824e-07          
  0.3                   6.2232e-07            3.4e-13               1.242e-11             -6.222e-07           
  0.4                   6.2462e-07            1e-13                 1.056e-11             -6.2446e-07          
  0.5                   6.2638e-07            -3.2e-13              1.06e-11              -6.2628e-07          
  0.6                   6.2794e-07            -4e-14                1.138e-11             -6.2782e-07          
  0.7                   6.2934e-07            -3e-13                1.036e-11             -6.2924e-07          
  0.8                   6.3064e-07            -1.4e-13              9.98e-12              -6.3056e-07          
  0.9                   6.3186e-07            1.2e-13               9.84e-12              -6.317e-07           
  1                     6.3286e-07            -2.4e-13              9.9e-12               -6.3282e-07          
  1.1                   6.3382e-07            4e-14                 9.34e-12              -6.3376e-07          
  1.2                   6.3474e-07            4e-14                 8.36e-12              -6.347e-07           
  1.3                   6.3568e-07            2e-14                 7.96e-12              -6.356e-07           
  1.4                   6.365e-07             -4.4e-13              9.62e-12              -6.3652e-07          
  1.5                   6.3742e-07            -2e-13                7.8e-12               -6.3742e-07          
  1.6                   6.3824e-07            -1.8e-13              5.14e-12              -6.3816e-07          
  1.7                   6.3902e-07            -2e-13                -1.22e-12             -6.3892e-07          
  1.8                   6.3972e-07            -4e-14                -1.21e-11             -6.3966e-07          
  1.9                   6.4046e-07            -1.6e-13              -3.47e-11             -6.4034e-07          
  2                     6.4118e-07            8e-14                 -7.584e-11            -6.4106e-07          
  2.1                   6.4192e-07            0                     -1.4186e-10           -6.4172e-07          
  2.2                   6.4256e-07            2.8e-13               -2.4404e-10           -6.423e-07           
  2.3                   6.4328e-07            -2.6e-13              -3.9862e-10           -6.429e-07           
  2.4                   6.4416e-07            -5.2e-13              -6.1778e-10           -6.435e-07           
  2.5                   6.451e-07             1.2e-13               -9.252e-10            -6.4396e-07          
  2.6                   6.4604e-07            2e-14                 -1.3524e-09           -6.4452e-07          
  2.7                   6.4708e-07            4e-14                 -1.928e-09            -6.4508e-07          
  2.8                   6.4844e-07            2.6e-13               -2.7004e-09           -6.4566e-07          
  2.9                   6.499e-07             -4.2e-13              -3.7146e-09           -6.4598e-07          
  3                     6.5162e-07            -5e-13                -5.0388e-09           -6.4652e-07          
  3.1                   6.5388e-07            1.2e-13               -6.7448e-09           -6.4702e-07          
  3.2                   6.5656e-07            -1.2e-13              -8.9048e-09           -6.4756e-07          
  3.3                   6.5972e-07            2.2e-13               -1.1594e-08           -6.4796e-07          
  3.4                   6.6338e-07            -2.8e-13              -1.49e-08             -6.4856e-07          
  3.5                   6.6784e-07            -1.4e-13              -1.888e-08            -6.4888e-07          
  3.6                   6.73e-07              -1e-13                -2.3602e-08           -6.4934e-07          
END_DB

BEGIN_DB
 ICCAP_VAR vg         1.464          
 ICCAP_VAR vb         0              
 ICCAP_VAR vs         0              

 #vd                    id                    ig                    ib                    is                   
  0                     2.0718e-09            4.2e-13               6.26e-12              -3.6192e-09          
  0.1                   1.4712e-05            5e-13                 5.44e-12              -1.4692e-05          
  0.2                   2.631e-05             2.2e-13               4.48e-12              -2.629e-05           
  0.3                   3.4884e-05            2.8e-13               4.34e-12              -3.4866e-05          
  0.4                   4.0626e-05            0                     3.54e-12              -4.0608e-05          
  0.5                   4.3806e-05            3.2e-13               4.26e-12              -4.3788e-05          
  0.6                   4.5048e-05            3e-13                 4.16e-12              -4.503e-05           
  0.7                   4.5386e-05            -1.4e-13              3.72e-12              -4.5368e-05          
  0.8                   4.5494e-05            -2e-14                4.2e-12               -4.5476e-05          
  0.9                   4.5548e-05            0                     3.98e-12              -4.5532e-05          
  1                     4.5588e-05            2.6e-13               3.32e-12              -4.557e-05           
  1.1                   4.5618e-05            3.8e-13               3.82e-12              -4.56e-05            
  1.2                   4.5644e-05            8e-14                 3.2e-12               -4.5628e-05          
  1.3                   4.567e-05             -3.4e-13              2.72e-12              -4.565e-05           
  1.4                   4.569e-05             2.8e-13               4.06e-12              -4.5672e-05          
  1.5                   4.5712e-05            3.6e-13               3.96e-12              -4.5694e-05          
  1.6                   4.5732e-05            2.4e-13               1.92e-12              -4.5714e-05          
  1.7                   4.575e-05             -2e-13                4e-12                 -4.5732e-05          
  1.8                   4.5768e-05            -1.2e-13              2.24e-12              -4.575e-05           
  1.9                   4.5784e-05            6e-14                 -8e-13                -4.5766e-05          
  2                     4.58e-05              4.6e-13               -1.46e-11             -4.5782e-05          
  2.1                   4.5814e-05            -2e-14                -6.988e-11            -4.5798e-05          
  2.2                   4.583e-05             1.6e-13               -2.3492e-10           -4.5812e-05          
  2.3                   4.5844e-05            -2.4e-13              -6.3732e-10           -4.5824e-05          
  2.4                   4.586e-05             2.4e-13               -1.5008e-09           -4.5838e-05          
  2.5                   4.5874e-05            3e-13                 -3.164e-09            -4.5852e-05          
  2.6                   4.589e-05             -3e-13                -6.0906e-09           -4.5866e-05          
  2.7                   4.5908e-05            2.6e-13               -1.08752e-08          -4.5878e-05          
  2.8                   4.5928e-05            -2.4e-13              -1.8314e-08           -4.589e-05           
  2.9                   4.5952e-05            2e-13                 -2.9352e-08           -4.5902e-05          
  3                     4.598e-05             -4.8e-13              -4.5266e-08           -4.5916e-05          
  3.1                   4.6012e-05            4e-13                 -6.762e-08            -4.5926e-05          
  3.2                   4.6056e-05            2.4e-13               -9.841e-08            -4.594e-05           
  3.3                   4.6108e-05            -3.4e-13              -1.3996e-07           -4.5948e-05          
  3.4                   4.6174e-05            1.6e-13               -1.9572e-07           -4.596e-05           
  3.5                   4.6258e-05            6e-14                 -2.6938e-07           -4.597e-05           
  3.6                   4.6364e-05            -3.4e-13              -3.652e-07            -4.598e-05           
END_DB

BEGIN_DB
 ICCAP_VAR vg         2.176          
 ICCAP_VAR vb         0              
 ICCAP_VAR vs         0              

 #vd                    id                    ig                    ib                    is                   
  0                     1.3706e-08            3.8e-13               3.08e-12              -1.3344e-08          
  0.1                   3.041e-05             1.6e-13               2.02e-12              -3.039e-05           
  0.2                   5.8072e-05            8e-14                 2.74e-12              -5.8052e-05          
  0.3                   8.287e-05             4.2e-13               3.66e-12              -8.2852e-05          
  0.4                   0.00010484            2e-13                 2.82e-12              -0.000104822         
  0.5                   0.00012402            4.8e-13               2.86e-12              -0.00012364          
  0.6                   0.00014008            -1.4e-13              1.7e-12               -0.0001397           
  0.7                   0.00015324            2e-13                 2.42e-12              -0.00015286          
  0.8                   0.00016348            4e-13                 2.16e-12              -0.0001631           
  0.9                   0.0001709             1e-13                 1.28e-12              -0.00017052          
  1                     0.00017574            6e-13                 3e-12                 -0.00017536          
  1.1                   0.0001784             -2e-14                1.24e-12              -0.00017802          
  1.2                   0.0001796             1e-13                 1.36e-12              -0.00017922          
  1.3                   0.0001801             1e-13                 2.64e-12              -0.00017972          
  1.4                   0.00018034            3.2e-13               2.08e-12              -0.00017994          
  1.5                   0.00018048            -1.2e-13              2.12e-12              -0.0001801           
  1.6                   0.00018056            6e-14                 2.2e-12               -0.00018018          
  1.7                   0.00018066            4e-14                 5.68e-12              -0.00018028          
  1.8                   0.00018072            8e-14                 2.88e-12              -0.00018034          
  1.9                   0.00018078            8e-14                 1.4e-12               -0.0001804           
  2                     0.00018084            3e-13                 8.6e-13               -0.00018046          
  2.1                   0.0001809             -1.2e-13              2.46e-12              -0.0001805           
  2.2                   0.00018094            -3e-13                1.62e-12              -0.00018056          
  2.3                   0.000181              2.4e-13               7.2e-13               -0.0001806           
  2.4                   0.00018104            3.4e-13               -2.28e-12             -0.00018066          
  2.5                   0.00018108            2.6e-13               -2.196e-11            -0.0001807           
  2.6                   0.00018112            2e-13                 -1.0224e-10           -0.00018074          
  2.7                   0.00018116            -8e-14                -3.665e-10            -0.00018078          
  2.8                   0.0001812             3.4e-13               -1.096e-09            -0.00018082          
  2.9                   0.00018122            3.6e-13               -2.8076e-09           -0.00018084          
  3                     0.00018126            0                     -6.3808e-09           -0.00018088          
  3.1                   0.0001813             1.6e-13               -1.3124e-08           -0.00018092          
  3.2                   0.00018136            2e-14                 -2.4846e-08           -0.00018096          
  3.3                   0.0001814             -1e-13                -4.388e-08            -0.00018098          
  3.4                   0.00018148            -1.8e-13              -7.3366e-08           -0.00018102          
  3.5                   0.00018154            4.4e-13               -1.171e-07            -0.00018104          
  3.6                   0.00018164            -2.6e-13              -1.8004e-07           -0.00018108          
END_DB

BEGIN_DB
 ICCAP_VAR vg         2.888          
 ICCAP_VAR vb         0              
 ICCAP_VAR vs         0              

 #vd                    id                    ig                    ib                    is                   
  0                     1.8406e-08            4.8e-13               3.54e-12              -1.6568e-08          
  0.1                   4.1436e-05            5.2e-13               2.56e-12              -4.1416e-05          
  0.2                   8.0942e-05            8e-14                 1.48e-12              -8.0922e-05          
  0.3                   0.00011848            6e-13                 1.66e-12              -0.0001181           
  0.4                   0.00015382            1.4e-13               2.3e-12               -0.00015344          
  0.5                   0.00018692            3.6e-13               1.6e-12               -0.00018654          
  0.6                   0.00021762            4.2e-13               1.46e-12              -0.00021724          
  0.7                   0.00024592            2e-14                 8.8e-13               -0.00024554          
  0.8                   0.00027166            2.8e-13               1.94e-12              -0.00027128          
  0.9                   0.00029474            0                     2.28e-12              -0.00029434          
  1                     0.00031514            1e-13                 1.54e-12              -0.00031474          
  1.1                   0.00033278            4e-13                 1.88e-12              -0.00033238          
  1.2                   0.00034758            2.6e-13               2.28e-12              -0.00034722          
  1.3                   0.00035966            4e-14                 5.2e-13               -0.00035928          
  1.4                   0.000369              4.8e-13               1.12e-12              -0.0003686           
  1.5                   0.00037576            1.8e-13               1.58e-12              -0.00037538          
  1.6                   0.0003802             1e-13                 5e-13                 -0.00037982          
  1.7                   0.00038276            -1.6e-13              8e-13                 -0.00038238          
  1.8                   0.0003841             1.2e-13               2.54e-12              -0.00038372          
  1.9                   0.00038476            4.2e-13               7.8e-13               -0.00038438          
  2                     0.00038512            1.6e-13               1.5e-12               -0.00038474          
  2.1                   0.00038536            3.4e-13               1.56e-12              -0.000385            
  2.2                   0.00038554            6e-14                 1.22e-12              -0.00038516          
  2.3                   0.00038568            1.2e-13               1.1e-12               -0.0003853           
  2.4                   0.00038578            3.8e-13               4.2e-13               -0.0003854           
  2.5                   0.00038588            -1.4e-13              1e-12                 -0.0003855           
  2.6                   0.00038598            -2.2e-13              1.38e-12              -0.0003856           
  2.7                   0.00038606            1.2e-13               7.8e-13               -0.00038568          
  2.8                   0.00038612            0                     4.8e-13               -0.00038574          
  2.9                   0.0003862             6.2e-13               2.04e-12              -0.00038582          
  3                     0.00038628            1.2e-13               -1.63e-11             -0.00038588          
  3.1                   0.00038634            -4.4e-13              -7.952e-11            -0.00038594          
  3.2                   0.0003864             2e-13                 -3.0794e-10           -0.00038602          
  3.3                   0.00038646            1.6e-13               -9.86e-10             -0.00038606          
  3.4                   0.00038652            3e-13                 -2.7368e-09           -0.00038612          
  3.5                   0.00038658            4.2e-13               -6.6818e-09           -0.00038618          
  3.6                   0.00038664            -1e-13                -1.4642e-08           -0.00038624          
END_DB

BEGIN_DB
 ICCAP_VAR vg         3.6            
 ICCAP_VAR vb         0              
 ICCAP_VAR vs         0              

 #vd                    id                    ig                    ib                    is                   
  0                     1.945e-08             3.4e-13               2.12e-12              -1.8498e-08          
  0.1                   4.735e-05             4.4e-13               3.14e-12              -4.733e-05           
  0.2                   9.3492e-05            4e-14                 1.12e-12              -9.3474e-05          
  0.3                   0.0001384             4.2e-13               1.32e-12              -0.00013802          
  0.4                   0.0001819             7.4e-13               9.4e-13               -0.00018152          
  0.5                   0.00022394            4.2e-13               1.52e-12              -0.00022356          
  0.6                   0.00026436            4.4e-13               9.8e-13               -0.00026398          
  0.7                   0.00030318            -2e-14                1.8e-12               -0.0003028           
  0.8                   0.00034024            1.8e-13               1.88e-12              -0.00033984          
