! VERSION = 6.00
BEGIN_HEADER
 ICCAP_INPUTS
  vd         V  D GROUND SMU1 0.1 LIN        1    0          3.6        37   0.1       
  vg         V  G GROUND SMU2 0.001 LIN        2    0.516      3.6        5    0.771     
  vb         V  B GROUND SMU4 0.1 CON        0
  vs         V  S GROUND SMU3 0.1 CON        0
 ICCAP_OUTPUTS
  id         I  D GROUND SMU1 B
  ig         I  G GROUND SMU2 B
  ib         I  B GROUND SMU4 B
  is         I  S GROUND SMU3 B
 ICCAP_VALUES
  MASTER_SETUP_TYPE "~dc_idvd~"
  LINVT_VALUE "|idvg|100.0n|100.0m|1.000m|5|3.600|"
  LISTVT_VALUE ""
  TYPE "1"
  TEMP " 27.0000 "
  IS_TNOM " 1.00000 "
  MAIN.W "300.0n"
  MAIN.L "330.0n"
  MAIN.AD "102.0f"
  MAIN.AS "102.0f"
  MAIN.PD "1.280u"
  MAIN.PS "1.280u"
  MAIN.NF "1.000"
  MAIN.M "1"
  MAIN.NRD "0.000"
  MAIN.NRS "0.000"
  MAIN.LDRIFT1 "1E-06"
  MAIN.LDRIFT2 "1E-06"
  MAIN.SA "0.000"
  MAIN.SB "0.000"
  MAIN.SD "0.000"
  MAIN.SCA "0.000"
  MAIN.SCB "0.000"
  MAIN.SCC "0.000"
  MAIN.SC "0.000"
  MODULE "S560"
  PIN_D "18"
  PIN_G "3"
  PIN_S "4"
  PIN_B "17"
  PIN_E ""
  PIN_6 ""
  XY_ID ""
  FUNC "Additional"
  STI "SA ref"
  WPE "WPE ref"
  COMMENT ""
  DIS_MEAS ""
  TypeTCI "10"
END_HEADER

BEGIN_DB
 ICCAP_VAR vg         0.516          
 ICCAP_VAR vb         0              
 ICCAP_VAR vs         0              

 #vd                    id                    ig                    ib                    is                   
  0                     1.5874e-10            -1e-13                2.582e-11             -8.484e-11           
  0.1                   1.2228e-07            -1e-13                2.334e-11             -1.2216e-07          
  0.2                   1.5684e-07            -1e-13                2.196e-11             -1.5664e-07          
  0.3                   1.8504e-07            -1.6e-13              2.138e-11             -1.8532e-07          
  0.4                   2.1236e-07            -2e-13                2.04e-11              -2.1456e-07          
  0.5                   2.4536e-07            -2.2e-13              1.906e-11             -2.454e-07           
  0.6                   2.7754e-07            -1.6e-13              1.9e-11               -2.7746e-07          
  0.7                   3.1156e-07            -2e-13                1.91e-11              -3.1122e-07          
  0.8                   3.4714e-07            -1.8e-13              1.776e-11             -3.4726e-07          
  0.9                   3.8494e-07            -6e-14                1.67e-11              -3.8502e-07          
  1                     4.2404e-07            -3e-13                1.626e-11             -4.2406e-07          
  1.1                   4.657e-07             -3e-13                1.66e-11              -4.6542e-07          
  1.2                   5.0986e-07            -1.8e-13              1.53e-11              -5.0954e-07          
  1.3                   5.542e-07             -1.2e-13              1.406e-11             -5.5472e-07          
  1.4                   6.024e-07             -8e-14                1.222e-11             -6.0228e-07          
  1.5                   6.5214e-07            -1.2e-13              7.12e-12              -6.5192e-07          
  1.6                   7.0368e-07            -3.2e-13              -7.02e-12             -7.0338e-07          
  1.7                   7.563e-07             -1.2e-13              -3.526e-11            -7.5604e-07          
  1.8                   8.1294e-07            -8e-14                -8.866e-11            -8.1288e-07          
  1.9                   8.714e-07             -1.8e-13              -1.7772e-10           -8.7102e-07          
  2                     9.3202e-07            -2.2e-13              -3.3554e-10           -9.3124e-07          
  2.1                   9.935e-07             -1e-13                -5.822e-10            -9.9214e-07          
  2.2                   1.06082e-06           -1.6e-13              -9.552e-10            -1.05968e-06         
  2.3                   1.12774e-06           -8e-14                -1.517e-09            -1.12658e-06         
  2.4                   1.2026e-06            -8e-14                -2.3318e-09           -1.1964e-06          
  2.5                   1.277e-06             -1.2e-13              -3.4948e-09           -1.2694e-06          
  2.6                   1.3518e-06            -1.2e-13              -5.1246e-09           -1.344e-06           
  2.7                   1.4338e-06            -2e-14                -7.3718e-09           -1.422e-06           
  2.8                   1.5164e-06            -6e-14                -1.04902e-08          -1.503e-06           
  2.9                   1.6062e-06            -1.2e-13              -1.4674e-08           -1.5864e-06          
  3                     1.698e-06             -1e-13                -2.0246e-08           -1.6752e-06          
  3.1                   1.797e-06             -1.6e-13              -2.7604e-08           -1.765e-06           
  3.2                   1.8992e-06            -1.4e-13              -3.7114e-08           -1.8586e-06          
  3.3                   2.0068e-06            -8e-14                -4.9176e-08           -1.9532e-06          
  3.4                   2.1224e-06            -1e-13                -6.4428e-08           -2.0542e-06          
  3.5                   2.2446e-06            -1.6e-13              -8.34e-08             -2.1586e-06          
  3.6                   2.3766e-06            -4e-14                -1.06534e-07          -2.2652e-06          
END_DB

BEGIN_DB
 ICCAP_VAR vg         1.287          
 ICCAP_VAR vb         0              
 ICCAP_VAR vs         0              

 #vd                    id                    ig                    ib                    is                   
  0                     2.1802e-09            3e-13                 1.018e-11             -2.527e-09           
  0.1                   1.0302e-05            2e-13                 7.74e-12              -1.0284e-05          
  0.2                   1.8498e-05            2e-13                 7.38e-12              -1.848e-05           
  0.3                   2.445e-05             1.4e-13               7.34e-12              -2.443e-05           
  0.4                   2.8442e-05            1.2e-13               6.34e-12              -2.8424e-05          
  0.5                   3.1052e-05            2.4e-13               7.24e-12              -3.104e-05           
  0.6                   3.2824e-05            1e-13                 6.62e-12              -3.2806e-05          
  0.7                   3.414e-05             6e-14                 6.02e-12              -3.4112e-05          
  0.8                   3.5198e-05            1.8e-13               6.96e-12              -3.5186e-05          
  0.9                   3.6128e-05            1.4e-13               6.16e-12              -3.6106e-05          
  1                     3.6942e-05            6e-14                 5.58e-12              -3.6928e-05          
  1.1                   3.7706e-05            1.4e-13               7.14e-12              -3.7684e-05          
  1.2                   3.8408e-05            8e-14                 6.9e-12               -3.839e-05           
  1.3                   3.915e-05             1e-13                 4.46e-12              -3.9056e-05          
  1.4                   3.9716e-05            2.2e-13               4.6e-13               -3.9692e-05          
  1.5                   4.0328e-05            1.2e-13               -1.6e-11              -4.0404e-05          
  1.6                   4.0914e-05            -2e-14                -6.798e-11            -4.0896e-05          
  1.7                   4.1482e-05            1e-13                 -2.0166e-10           -4.1474e-05          
  1.8                   4.2044e-05            1.2e-13               -5.207e-10            -4.2094e-05          
  1.9                   4.2696e-05            6e-14                 -1.191e-09            -4.2652e-05          
  2                     4.3214e-05            4e-14                 -2.4628e-09           -4.3186e-05          
  2.1                   4.3738e-05            -2e-14                -4.7206e-09           -4.3718e-05          
  2.2                   4.427e-05             -2e-14                -8.4612e-09           -4.4238e-05          
  2.3                   4.4792e-05            8e-14                 -1.4364e-08           -4.4754e-05          
  2.4                   4.5308e-05            0                     -2.3294e-08           -4.5276e-05          
  2.5                   4.583e-05             6e-14                 -3.6278e-08           -4.5806e-05          
  2.6                   4.6414e-05            0                     -5.4786e-08           -4.63e-05            
  2.7                   4.6984e-05            -2e-14                -8.0394e-08           -4.6886e-05          
  2.8                   4.7458e-05            0                     -1.15346e-07          -4.7398e-05          
  2.9                   4.8094e-05            0                     -1.619e-07            -4.7882e-05          
  3                     4.8662e-05            0                     -2.244e-07            -4.8392e-05          
  3.1                   4.9274e-05            4e-14                 -3.061e-07            -4.894e-05           
  3.2                   4.991e-05             0                     -4.12e-07             -4.9488e-05          
  3.3                   5.0592e-05            8e-14                 -5.4726e-07           -5.0044e-05          
  3.4                   5.135e-05             1e-13                 -7.183e-07            -5.06e-05            
  3.5                   5.215e-05             4e-14                 -9.3204e-07           -5.1192e-05          
  3.6                   5.3008e-05            1e-13                 -1.1932e-06           -5.1802e-05          
END_DB

BEGIN_DB
 ICCAP_VAR vg         2.058          
 ICCAP_VAR vb         0              
 ICCAP_VAR vs         0              

 #vd                    id                    ig                    ib                    is                   
  0                     2.214e-09             3.8e-13               5.44e-12              -3.854e-09           
  0.1                   1.9524e-05            4e-13                 4.74e-12              -1.9502e-05          
  0.2                   3.7082e-05            2.4e-13               4.8e-12               -3.706e-05           
  0.3                   5.2036e-05            2.4e-13               4.06e-12              -5.2016e-05          
  0.4                   6.4202e-05            3e-13                 3.7e-12               -6.4182e-05          
  0.5                   7.3644e-05            2.4e-13               4.16e-12              -7.363e-05           
  0.6                   8.0728e-05            2.2e-13               4.48e-12              -8.0712e-05          
  0.7                   8.5962e-05            2.8e-13               3.66e-12              -8.5938e-05          
  0.8                   8.9822e-05            1.4e-13               4.34e-12              -8.981e-05           
  0.9                   9.2734e-05            1.6e-13               3.84e-12              -9.2718e-05          
  1                     9.5008e-05            2.4e-13               3.42e-12              -9.4994e-05          
  1.1                   9.6868e-05            1.8e-13               4.76e-12              -9.6854e-05          
  1.2                   9.8426e-05            1.8e-13               3.64e-12              -9.8396e-05          
  1.3                   9.98e-05              2.8e-13               3.16e-12              -9.978e-05           
  1.4                   0.000101012           2e-13                 2.24e-12              -0.000100988         
  1.5                   0.000102116           1.2e-13               -5.06e-12             -0.000102104         
  1.6                   0.000103134           1.8e-13               -2.764e-11            -0.000103112         
  1.7                   0.000104084           1.6e-13               -9.062e-11            -0.000104066         
  1.8                   0.000104978           4e-14                 -2.5554e-10           -0.000104962         
  1.9                   0.00010583            4e-14                 -6.3382e-10           -0.000105812         
  2                     0.000106638           6e-14                 -1.4242e-09           -0.00010638          
  2.1                   0.000107526           1e-13                 -2.9658e-09           -0.00010716          
  2.2                   0.000108178           1.6e-13               -5.7606e-09           -0.00010792          
  2.3                   0.000108928           8e-14                 -1.05304e-08          -0.00010866          
  2.4                   0.000109676           4e-14                 -1.8262e-08           -0.00010944          
  2.5                   0.000110386           6e-14                 -3.0298e-08           -0.0001101           
  2.6                   0.000111188           1.6e-13               -4.8374e-08           -0.00011082          
  2.7                   0.000111886           2e-14                 -7.4496e-08           -0.00011156          
  2.8                   0.00011272            2e-14                 -1.11576e-07          -0.00011222          
  2.9                   0.00011352            0                     -1.6302e-07           -0.00011292          
  3                     0.00011424            1e-13                 -2.3322e-07           -0.0001136           
  3.1                   0.00011504            8e-14                 -3.2728e-07           -0.0001143           
  3.2                   0.00011588            4e-14                 -4.5202e-07           -0.00011504          
  3.3                   0.00011676            0                     -6.143e-07            -0.00011574          
  3.4                   0.00011768            4e-14                 -8.2496e-07           -0.00011644          
  3.5                   0.00011872            4e-14                 -1.0936e-06           -0.00011724          
  3.6                   0.00011986            -4e-14                -1.43e-06             -0.00011802          
END_DB

BEGIN_DB
 ICCAP_VAR vg         2.829          
 ICCAP_VAR vb         0              
 ICCAP_VAR vs         0              

 #vd                    id                    ig                    ib                    is                   
  0                     1.0094e-08            5.8e-13               4.54e-12              -9.734e-09           
  0.1                   2.5588e-05            3e-13                 3.32e-12              -2.557e-05           
  0.2                   4.9504e-05            3.2e-13               3.88e-12              -4.9488e-05          
  0.3                   7.1014e-05            2.8e-13               2.24e-12              -7.0976e-05          
  0.4                   8.9738e-05            2.4e-13               2.02e-12              -8.9712e-05          
  0.5                   0.00010554            1.2e-13               3.32e-12              -0.0001055           
  0.6                   0.00011864            2.2e-13               3.88e-12              -0.0001182           
  0.7                   0.00012908            1.6e-13               3.58e-12              -0.00012868          
  0.8                   0.00013736            2.8e-13               2.78e-12              -0.00013694          
  0.9                   0.00014386            2.2e-13               3.14e-12              -0.00014346          
  1                     0.000149              2e-13                 2.98e-12              -0.0001486           
  1.1                   0.0001531             1e-13                 2.26e-12              -0.0001527           
  1.2                   0.0001564             2.4e-13               3.6e-12               -0.000156            
  1.3                   0.00015914            2e-13                 2e-12                 -0.00015874          
  1.4                   0.00016144            1.2e-13               1.54e-12              -0.00016106          
  1.5                   0.00016344            2.2e-13               3.6e-13               -0.00016304          
  1.6                   0.00016518            1.4e-13               -9.62e-12             -0.00016478          
  1.7                   0.00016672            1.8e-13               -3.556e-11            -0.00016634          
  1.8                   0.00016814            6e-14                 -1.0652e-10           -0.00016774          
  1.9                   0.00016942            2e-13                 -2.8678e-10           -0.00016902          
  2                     0.0001706             1e-13                 -6.8608e-10           -0.0001702           
  2.1                   0.00017172            2.4e-13               -1.5128e-09           -0.00017132          
  2.2                   0.00017276            2.6e-13               -3.1024e-09           -0.00017236          
  2.3                   0.00017374            1e-13                 -5.9688e-09           -0.00017334          
  2.4                   0.00017468            1.8e-13               -1.08334e-08          -0.00017428          
  2.5                   0.0001756             8e-14                 -1.8774e-08           -0.00017518          
  2.6                   0.00017646            2e-13                 -3.1154e-08           -0.00017606          
  2.7                   0.00017732            6e-14                 -4.9748e-08           -0.00017688          
  2.8                   0.00017816            1.8e-13               -7.7084e-08           -0.00017764          
  2.9                   0.00017902            2.8e-13               -1.16058e-07          -0.0001785           
  3                     0.00017988            8e-14                 -1.7046e-07           -0.00017932          
  3.1                   0.00018078            2.4e-13               -2.4558e-07           -0.0001801           
  3.2                   0.00018166            2.2e-13               -3.4656e-07           -0.00018094          
  3.3                   0.00018258            1.6e-13               -4.8088e-07           -0.00018172          
  3.4                   0.00018358            2.6e-13               -6.586e-07            -0.00018248          
  3.5                   0.00018464            6e-14                 -8.8906e-07           -0.00018334          
  3.6                   0.00018574            2.2e-13               -1.184e-06            -0.00018418          
END_DB

BEGIN_DB
 ICCAP_VAR vg         3.6            
 ICCAP_VAR vb         0              
 ICCAP_VAR vs         0              

 #vd                    id                    ig                    ib                    is                   
  0                     1.2362e-08            5.2e-13               3.72e-12              -1.1412e-08          
  0.1                   2.9518e-05            4.6e-13               2.7e-12               -2.95e-05            
  0.2                   5.7642e-05            4e-13                 2.7e-12               -5.763e-05           
  0.3                   8.365e-05             3.2e-13               2.88e-12              -8.3618e-05          
  0.4                   0.000107124           3.6e-13               2.46e-12              -0.000107082         
  0.5                   0.0001279             4e-13                 2.68e-12              -0.00012754          
  0.6                   0.00014576            2.8e-13               2.22e-12              -0.00014536          
  0.7                   0.00016092            1.6e-13               2.92e-12              -0.00016054          
  0.8                   0.00017366            3.2e-13               2.24e-12              -0.00017326          
