! VERSION = 6.00
BEGIN_HEADER
 ICCAP_INPUTS
  vd         V  D GROUND SMU1 0.1 LIN        1    0          3.6        37   0.1       
  vg         V  G GROUND SMU2 0.001 LIN        2    0.716      3.6        5    0.721     
  vb         V  B GROUND SMU4 0.1 CON        0
  vs         V  S GROUND SMU3 0.1 CON        0
 ICCAP_OUTPUTS
  id         I  D GROUND SMU1 B
  ig         I  G GROUND SMU2 B
  ib         I  B GROUND SMU4 B
  is         I  S GROUND SMU3 B
 ICCAP_VALUES
  MASTER_SETUP_TYPE "~dc_idvd~"
  LINVT_VALUE "|idvg|100.0n|100.0m|1.000m|5|3.600|"
  LISTVT_VALUE ""
  TYPE "1"
  TEMP " 27.0000 "
  IS_TNOM " 1.00000 "
  MAIN.W "600.0n"
  MAIN.L "1.200u"
  MAIN.AD "204.0f"
  MAIN.AS "204.0f"
  MAIN.PD "1.880u"
  MAIN.PS "1.880u"
  MAIN.NF "1.000"
  MAIN.M "1"
  MAIN.NRD "0.000"
  MAIN.NRS "0.000"
  MAIN.LDRIFT1 "1E-06"
  MAIN.LDRIFT2 "1E-06"
  MAIN.SA "0.000"
  MAIN.SB "0.000"
  MAIN.SD "0.000"
  MAIN.SCA "0.000"
  MAIN.SCB "0.000"
  MAIN.SCC "0.000"
  MAIN.SC "0.000"
  MODULE "S559"
  PIN_D "14"
  PIN_G "7"
  PIN_S "8"
  PIN_B "13"
  PIN_E ""
  PIN_6 ""
  XY_ID ""
  FUNC "LW Scale"
  STI "SA ref"
  WPE "WPE ref"
  COMMENT ""
  DIS_MEAS ""
  TypeTCI "10"
END_HEADER

BEGIN_DB
 ICCAP_VAR vg         0.716          
 ICCAP_VAR vb         0              
 ICCAP_VAR vs         0              

 #vd                    id                    ig                    ib                    is                   
  0                     2.8896e-10            8e-14                 2.42e-11              -2.3054e-10          
  0.1                   2.136e-07             -2.2e-13              2.198e-11             -2.1342e-07          
  0.2                   2.4266e-07            -6e-14                2.092e-11             -2.4256e-07          
  0.3                   2.4948e-07            -6e-14                2.118e-11             -2.4932e-07          
  0.4                   2.5382e-07            -2.8e-13              2.038e-11             -2.5372e-07          
  0.5                   2.574e-07             -3.6e-13              1.914e-11             -2.5726e-07          
  0.6                   2.6056e-07            -2.8e-13              1.82e-11              -2.6034e-07          
  0.7                   2.6332e-07            -2.6e-13              1.832e-11             -2.6318e-07          
  0.8                   2.6576e-07            -2.8e-13              1.766e-11             -2.6572e-07          
  0.9                   2.6824e-07            -6e-14                1.712e-11             -2.6836e-07          
  1                     2.7076e-07            -1.6e-13              1.67e-11              -2.7058e-07          
  1.1                   2.7296e-07            -8e-14                1.646e-11             -2.728e-07           
  1.2                   2.7494e-07            -1.6e-13              1.652e-11             -2.7482e-07          
  1.3                   2.7682e-07            -3e-13                1.486e-11             -2.766e-07           
  1.4                   2.7868e-07            -1.2e-13              1.45e-11              -2.7848e-07          
  1.5                   2.8034e-07            -1.4e-13              1.412e-11             -2.802e-07           
  1.6                   2.8206e-07            -1.4e-13              1.262e-11             -2.8186e-07          
  1.7                   2.8392e-07            -2.6e-13              8.34e-12              -2.837e-07           
  1.8                   2.8542e-07            -3e-13                8.4e-13               -2.853e-07           
  1.9                   2.8694e-07            8e-14                 -1.168e-11            -2.868e-07           
  2                     2.8838e-07            8e-14                 -3.28e-11             -2.8824e-07          
  2.1                   2.8974e-07            -1.4e-13              -6.86e-11             -2.8952e-07          
  2.2                   2.9126e-07            -2e-13                -1.2064e-10           -2.9098e-07          
  2.3                   2.9262e-07            -8e-14                -1.9652e-10           -2.9224e-07          
  2.4                   2.9398e-07            -1.8e-13              -3.0322e-10           -2.9348e-07          
  2.5                   2.9546e-07            0                     -4.5298e-10           -2.9482e-07          
  2.6                   2.967e-07             4e-14                 -6.5444e-10           -2.9594e-07          
  2.7                   2.9822e-07            -1e-13                -9.2222e-10           -2.971e-07           
  2.8                   2.997e-07             -4e-13                -1.277e-09            -2.9824e-07          
  2.9                   3.0134e-07            -2e-13                -1.7412e-09           -2.9936e-07          
  3                     3.0286e-07            -1.2e-13              -2.34e-09             -3.0044e-07          
  3.1                   3.047e-07             -1.6e-13              -3.1018e-09           -3.0142e-07          
  3.2                   3.0682e-07            -1e-13                -4.0614e-09           -3.025e-07           
  3.3                   3.089e-07             -2e-14                -5.2522e-09           -3.0346e-07          
  3.4                   3.1126e-07            -1.8e-13              -6.7108e-09           -3.0438e-07          
  3.5                   3.1382e-07            0                     -8.4528e-09           -3.0492e-07          
  3.6                   3.165e-07             6e-14                 -1.05452e-08          -3.0608e-07          
END_DB

BEGIN_DB
 ICCAP_VAR vg         1.437          
 ICCAP_VAR vb         0              
 ICCAP_VAR vs         0              

 #vd                    id                    ig                    ib                    is                   
  0                     1.952e-09             4e-13                 8.18e-12              -1.7436e-09          
  0.1                   4.8904e-06            3.8e-13               7.82e-12              -4.8862e-06          
  0.2                   8.7922e-06            2.4e-13               7.82e-12              -8.7884e-06          
  0.3                   1.1738e-05            0                     7.9e-12               -1.1718e-05          
  0.4                   1.3784e-05            2.8e-13               7.5e-12               -1.3762e-05          
  0.5                   1.5056e-05            -4e-14                6.84e-12              -1.5036e-05          
  0.6                   1.5756e-05            1e-13                 7.56e-12              -1.5742e-05          
  0.7                   1.612e-05             3.4e-13               7.3e-12               -1.6098e-05          
  0.8                   1.6306e-05            1.4e-13               6.22e-12              -1.6286e-05          
  0.9                   1.643e-05             -2e-14                6.92e-12              -1.6408e-05          
  1                     1.6516e-05            3e-13                 6.9e-12               -1.6498e-05          
  1.1                   1.659e-05             1.6e-13               6.54e-12              -1.657e-05           
  1.2                   1.6652e-05            -2.6e-13              7.42e-12              -1.6632e-05          
  1.3                   1.6706e-05            1e-13                 5.96e-12              -1.6688e-05          
  1.4                   1.6738e-05            4e-13                 5.8e-12               -1.6718e-05          
  1.5                   1.6784e-05            0                     6.9e-12               -1.6766e-05          
  1.6                   1.6828e-05            0                     6.7e-12               -1.6808e-05          
  1.7                   1.6868e-05            0                     5.68e-12              -1.6848e-05          
  1.8                   1.6908e-05            4e-14                 4.58e-12              -1.6886e-05          
  1.9                   1.6964e-05            2.6e-13               -3.68e-12             -1.6942e-05          
  2                     1.6998e-05            1e-13                 -2.86e-11             -1.6978e-05          
  2.1                   1.7032e-05            1e-13                 -9.148e-11            -1.7014e-05          
  2.2                   1.7064e-05            0                     -2.3824e-10           -1.7046e-05          
  2.3                   1.7098e-05            8e-14                 -5.38e-10             -1.7078e-05          
  2.4                   1.7132e-05            1e-13                 -1.0974e-09           -1.7108e-05          
  2.5                   1.7164e-05            0                     -2.0684e-09           -1.714e-05           
  2.6                   1.7194e-05            6e-14                 -3.6478e-09           -1.717e-05           
  2.7                   1.7226e-05            1.2e-13               -6.0808e-09           -1.72e-05            
  2.8                   1.726e-05             2e-13                 -9.6886e-09           -1.7228e-05          
  2.9                   1.729e-05             4e-14                 -1.486e-08            -1.7258e-05          
  3                     1.7324e-05            -2e-14                -2.2094e-08           -1.7286e-05          
  3.1                   1.7366e-05            2.4e-13               -3.1982e-08           -1.7314e-05          
  3.2                   1.7406e-05            3.6e-13               -4.5298e-08           -1.734e-05           
  3.3                   1.745e-05             -6e-14                -6.2836e-08           -1.7368e-05          
  3.4                   1.7498e-05            -1.2e-13              -8.5994e-08           -1.7394e-05          
  3.5                   1.7556e-05            0                     -1.15984e-07          -1.742e-05           
  3.6                   1.762e-05             6e-14                 -1.5426e-07           -1.7446e-05          
END_DB

BEGIN_DB
 ICCAP_VAR vg         2.158          
 ICCAP_VAR vb         0              
 ICCAP_VAR vs         0              

 #vd                    id                    ig                    ib                    is                   
  0                     2.5116e-09            5.8e-13               4.9e-12               -2.9904e-09          
  0.1                   9.6406e-06            4.6e-13               5.1e-12               -9.6368e-06          
  0.2                   1.842e-05             2.4e-13               5.56e-12              -1.8398e-05          
  0.3                   2.6266e-05            4e-13                 4.56e-12              -2.624e-05           
  0.4                   3.3194e-05            3e-13                 4.42e-12              -3.3174e-05          
  0.5                   3.918e-05             2.8e-13               5.04e-12              -3.917e-05           
  0.6                   4.4222e-05            4e-13                 4.4e-12               -4.4204e-05          
  0.7                   4.8342e-05            1.4e-13               3.12e-12              -4.8322e-05          
  0.8                   5.1592e-05            4e-14                 4.98e-12              -5.1566e-05          
  0.9                   5.4014e-05            2.2e-13               4.44e-12              -5.3986e-05          
  1                     5.5726e-05            2.6e-13               3.96e-12              -5.5716e-05          
  1.1                   5.6872e-05            2.2e-13               4.78e-12              -5.6862e-05          
  1.2                   5.7626e-05            1.2e-13               3.66e-12              -5.7606e-05          
  1.3                   5.8122e-05            2e-14                 3.8e-12               -5.8092e-05          
  1.4                   5.8456e-05            2.4e-13               5.04e-12              -5.843e-05           
  1.5                   5.871e-05             2.6e-13               4.08e-12              -5.8692e-05          
  1.6                   5.8908e-05            1.6e-13               4.64e-12              -5.8896e-05          
  1.7                   5.9068e-05            4.4e-13               5.34e-12              -5.9058e-05          
  1.8                   5.9232e-05            3e-13                 4.14e-12              -5.921e-05           
  1.9                   5.9366e-05            2e-14                 4.14e-12              -5.9344e-05          
  2                     5.9478e-05            0                     4.2e-12               -5.9466e-05          
  2.1                   5.9568e-05            3.2e-13               2.62e-12              -5.9546e-05          
  2.2                   5.966e-05             2e-13                 -3.34e-12             -5.9652e-05          
  2.3                   5.9756e-05            1.6e-13               -1.956e-11            -5.9738e-05          
  2.4                   5.9856e-05            2e-13                 -7.03e-11             -5.9832e-05          
  2.5                   5.9934e-05            2.4e-13               -1.99e-10             -5.9918e-05          
  2.6                   6.002e-05             0                     -4.9998e-10           -6.0014e-05          
  2.7                   6.011e-05             8e-14                 -1.1282e-09           -6.008e-05           
  2.8                   6.0188e-05            1.4e-13               -2.3438e-09           -6.0172e-05          
  2.9                   6.0272e-05            -2e-14                -4.514e-09            -6.024e-05           
  3                     6.0354e-05            1e-13                 -8.1604e-09           -6.0322e-05          
  3.1                   6.0434e-05            2.2e-13               -1.3976e-08           -6.0398e-05          
  3.2                   6.0502e-05            1.4e-13               -2.2836e-08           -6.0468e-05          
  3.3                   6.0596e-05            3.4e-13               -3.5826e-08           -6.0536e-05          
  3.4                   6.0676e-05            1.2e-13               -5.438e-08            -6.06e-05            
  3.5                   6.0762e-05            1.8e-13               -8.0218e-08           -6.0684e-05          
  3.6                   6.0884e-05            -1.6e-13              -1.15388e-07          -6.075e-05           
END_DB

BEGIN_DB
 ICCAP_VAR vg         2.879          
 ICCAP_VAR vb         0              
 ICCAP_VAR vs         0              

 #vd                    id                    ig                    ib                    is                   
  0                     2.4014e-09            6.2e-13               4.98e-12              -3.781e-09           
  0.1                   1.3196e-05            3.6e-13               5.14e-12              -1.3176e-05          
  0.2                   2.5684e-05            4.6e-13               2.92e-12              -2.5664e-05          
  0.3                   3.7394e-05            3.4e-13               2.74e-12              -3.7376e-05          
  0.4                   4.8328e-05            2e-13                 4.88e-12              -4.8304e-05          
  0.5                   5.841e-05             4e-13                 2.56e-12              -5.839e-05           
  0.6                   6.7604e-05            3.8e-13               2.74e-12              -6.7586e-05          
  0.7                   7.5918e-05            2.4e-13               3.96e-12              -7.59e-05            
  0.8                   8.3328e-05            2.2e-13               2.98e-12              -8.3304e-05          
  0.9                   8.98e-05              2.6e-13               3.06e-12              -8.9782e-05          
  1                     9.5394e-05            2.4e-13               4.06e-12              -9.5376e-05          
  1.1                   0.000100106           4e-13                 2.78e-12              -0.00010009          
  1.2                   0.000103974           3.4e-13               3.48e-12              -0.00010396          
  1.3                   0.000107072           2.8e-13               3.7e-12               -0.000107048         
  1.4                   0.000109456           2.6e-13               1.88e-12              -0.000109438         
  1.5                   0.000111228           2e-14                 3.1e-12               -0.000111216         
  1.6                   0.00011268            1.8e-13               4.54e-12              -0.00011252          
  1.7                   0.0001136             1e-13                 3.04e-12              -0.000113448         
  1.8                   0.00011428            4e-13                 2.82e-12              -0.000114124         
  1.9                   0.00011478            4.8e-13               3.92e-12              -0.000114632         
  2                     0.00011518            1.8e-13               3.16e-12              -0.000115018         
  2.1                   0.0001155             8e-14                 3.5e-12               -0.000115324         
  2.2                   0.00011576            1.6e-13               2.9e-12               -0.000115596         
  2.3                   0.00011598            1.8e-13               2.2e-12               -0.000115822         
  2.4                   0.00011618            3.2e-13               1.62e-12              -0.000116024         
  2.5                   0.00011636            2.8e-13               -1.3e-12              -0.000116208         
  2.6                   0.00011652            8e-14                 -1.394e-11            -0.000116368         
  2.7                   0.00011668            1.4e-13               -4.822e-11            -0.000116532         
  2.8                   0.00011682            1.6e-13               -1.4014e-10           -0.000116676         
  2.9                   0.00011696            1.4e-13               -3.6098e-10           -0.000116812         
  3                     0.0001171             6e-14                 -8.4386e-10           -0.00011668          
  3.1                   0.00011722            2.2e-13               -1.8258e-09           -0.00011682          
  3.2                   0.00011734            1.8e-13               -3.6892e-09           -0.00011692          
  3.3                   0.00011746            0                     -6.99e-09             -0.00011704          
  3.4                   0.00011756            1.2e-13               -1.2558e-08           -0.00011714          
  3.5                   0.00011768            1.6e-13               -2.147e-08            -0.00011724          
  3.6                   0.00011778            1e-13                 -3.512e-08            -0.00011734          
END_DB

BEGIN_DB
 ICCAP_VAR vg         3.6            
 ICCAP_VAR vb         0              
 ICCAP_VAR vs         0              

 #vd                    id                    ig                    ib                    is                   
  0                     2.6048e-09            6.8e-13               3.16e-12              -4.217e-09           
  0.1                   1.5566e-05            3.6e-13               2.82e-12              -1.5546e-05          
  0.2                   3.0582e-05            1.8e-13               3.16e-12              -3.0562e-05          
  0.3                   4.498e-05             3.6e-13               2.26e-12              -4.496e-05           
  0.4                   5.8752e-05            5.2e-13               2.12e-12              -5.8726e-05          
  0.5                   7.1824e-05            3e-13                 3.06e-12              -7.1804e-05          
  0.6                   8.4134e-05            2.6e-13               2.24e-12              -8.4116e-05          
  0.7                   9.5686e-05            4.4e-13               2.52e-12              -9.5664e-05          
  0.8                   0.000106428           5.8e-13               2.96e-12              -0.000106408         
