! VERSION = 6.00
BEGIN_HEADER
 ICCAP_INPUTS
  vd         V  D GROUND SMU1 0.1 LIN        1    0          3.6        37   0.1       
  vg         V  G GROUND SMU2 0.001 LIN        2    0.724      3.6        5    0.719     
  vb         V  B GROUND SMU4 0.1 CON        0
  vs         V  S GROUND SMU3 0.1 CON        0
 ICCAP_OUTPUTS
  id         I  D GROUND SMU1 B
  ig         I  G GROUND SMU2 B
  ib         I  B GROUND SMU4 B
  is         I  S GROUND SMU3 B
 ICCAP_VALUES
  MASTER_SETUP_TYPE "~dc_idvd~"
  LINVT_VALUE "|idvg|100.0n|100.0m|1.000m|5|3.600|"
  LISTVT_VALUE ""
  TYPE "1"
  TEMP " 27.0000 "
  IS_TNOM " 1.00000 "
  MAIN.W "600.0n"
  MAIN.L "500.0n"
  MAIN.AD "204.0f"
  MAIN.AS "204.0f"
  MAIN.PD "1.880u"
  MAIN.PS "1.880u"
  MAIN.NF "1.000"
  MAIN.M "1"
  MAIN.NRD "0.000"
  MAIN.NRS "0.000"
  MAIN.LDRIFT1 "1E-06"
  MAIN.LDRIFT2 "1E-06"
  MAIN.SA "0.000"
  MAIN.SB "0.000"
  MAIN.SD "0.000"
  MAIN.SCA "0.000"
  MAIN.SCB "0.000"
  MAIN.SCC "0.000"
  MAIN.SC "0.000"
  MODULE "S559"
  PIN_D "16"
  PIN_G "5"
  PIN_S "6"
  PIN_B "15"
  PIN_E ""
  PIN_6 ""
  XY_ID ""
  FUNC "LW Scale"
  STI "SA ref"
  WPE "WPE ref"
  COMMENT ""
  DIS_MEAS ""
  TypeTCI "10"
END_HEADER

BEGIN_DB
 ICCAP_VAR vg         0.724          
 ICCAP_VAR vb         0              
 ICCAP_VAR vs         0              

 #vd                    id                    ig                    ib                    is                   
  0                     5.1012e-10            -1e-13                2.554e-11             -3.5968e-10          
  0.1                   4.1732e-07            -6e-14                2.308e-11             -4.1676e-07          
  0.2                   5.0122e-07            -4e-14                2.164e-11             -5.013e-07           
  0.3                   5.3854e-07            -6e-14                2.112e-11             -5.3914e-07          
  0.4                   5.6648e-07            0                     1.94e-11              -5.6666e-07          
  0.5                   5.8918e-07            -6e-14                1.76e-11              -5.8926e-07          
  0.6                   6.0932e-07            -1e-13                1.834e-11             -6.0916e-07          
  0.7                   6.2744e-07            -1.6e-13              1.836e-11             -6.273e-07           
  0.8                   6.4344e-07            -2.2e-13              1.704e-11             -6.4376e-07          
  0.9                   6.5894e-07            -2e-14                1.7e-11               -6.589e-07           
  1                     6.7418e-07            -4e-14                1.668e-11             -6.7444e-07          
  1.1                   6.884e-07             -1.4e-13              1.714e-11             -6.8878e-07          
  1.2                   7.0276e-07            -1e-13                1.5e-11               -7.0246e-07          
  1.3                   7.1598e-07            -1e-13                1.418e-11             -7.1578e-07          
  1.4                   7.287e-07             -1.4e-13              1.358e-11             -7.2854e-07          
  1.5                   7.4092e-07            -1.6e-13              1.138e-11             -7.4124e-07          
  1.6                   7.5374e-07            -2.4e-13              3.42e-12              -7.5344e-07          
  1.7                   7.6548e-07            -2e-13                -1.062e-11            -7.654e-07           
  1.8                   7.7746e-07            -6e-14                -3.68e-11             -7.7726e-07          
  1.9                   7.894e-07             4e-14                 -8.46e-11             -7.8902e-07          
  2                     8.0086e-07            -4e-14                -1.6514e-10           -8.0048e-07          
  2.1                   8.1222e-07            -6e-14                -2.9074e-10           -8.1174e-07          
  2.2                   8.2388e-07            -1.2e-13              -4.7652e-10           -8.231e-07           
  2.3                   8.3502e-07            -6e-14                -7.4674e-10           -8.3412e-07          
  2.4                   8.4606e-07            -2e-14                -1.1276e-09           -8.4492e-07          
  2.5                   8.5768e-07            -1.2e-13              -1.6538e-09           -8.5588e-07          
  2.6                   8.6928e-07            -1.6e-13              -2.3696e-09           -8.672e-07           
  2.7                   8.8118e-07            -1.6e-13              -3.3278e-09           -8.7766e-07          
  2.8                   8.9342e-07            -1e-13                -4.596e-09            -8.8854e-07          
  2.9                   9.059e-07             -1.4e-13              -6.2548e-09           -8.9934e-07          
  3                     9.1854e-07            -8e-14                -8.3972e-09           -9.1046e-07          
  3.1                   9.3228e-07            -1e-13                -1.11412e-08          -9.2114e-07          
  3.2                   9.4678e-07            0                     -1.46e-08             -9.3196e-07          
  3.3                   9.6204e-07            -1.6e-13              -1.8886e-08           -9.4298e-07          
  3.4                   9.7848e-07            -1.8e-13              -2.4134e-08           -9.5386e-07          
  3.5                   9.9512e-07            -1.4e-13              -3.047e-08            -9.6478e-07          
  3.6                   1.01362e-06           -4e-14                -3.802e-08            -9.754e-07           
END_DB

BEGIN_DB
 ICCAP_VAR vg         1.443          
 ICCAP_VAR vb         0              
 ICCAP_VAR vs         0              

 #vd                    id                    ig                    ib                    is                   
  0                     2.5586e-09            3.6e-13               8.78e-12              -3.9026e-09          
  0.1                   1.2244e-05            2e-13                 8.16e-12              -1.2222e-05          
  0.2                   2.1906e-05            1e-13                 8.34e-12              -2.1884e-05          
  0.3                   2.9022e-05            1.4e-13               7.16e-12              -2.9002e-05          
  0.4                   3.3922e-05            1.6e-13               6.76e-12              -3.39e-05            
  0.5                   3.7076e-05            2.2e-13               7.18e-12              -3.7054e-05          
  0.6                   3.9022e-05            1.6e-13               6.8e-12               -3.9014e-05          
  0.7                   4.0316e-05            1.6e-13               6.92e-12              -4.0296e-05          
  0.8                   4.1218e-05            1e-13                 6.98e-12              -4.1198e-05          
  0.9                   4.1894e-05            1e-13                 5.88e-12              -4.1888e-05          
  1                     4.2486e-05            6e-14                 6.84e-12              -4.2476e-05          
  1.1                   4.2954e-05            1.8e-13               6.96e-12              -4.2934e-05          
  1.2                   4.3378e-05            2e-13                 6.18e-12              -4.3364e-05          
  1.3                   4.3762e-05            1.6e-13               6.58e-12              -4.3742e-05          
  1.4                   4.4088e-05            4e-14                 5.74e-12              -4.4106e-05          
  1.5                   4.4452e-05            6e-14                 3.28e-12              -4.4428e-05          
  1.6                   4.4768e-05            4e-14                 -1.76e-12             -4.4756e-05          
  1.7                   4.5064e-05            2e-14                 -2.386e-11            -4.5058e-05          
  1.8                   4.5366e-05            4e-14                 -8.932e-11            -4.5348e-05          
  1.9                   4.5644e-05            6e-14                 -2.572e-10            -4.563e-05           
  2                     4.5886e-05            4e-14                 -6.4104e-10           -4.588e-05           
  2.1                   4.6166e-05            1.2e-13               -1.4256e-09           -4.6136e-05          
  2.2                   4.6426e-05            4e-14                 -2.899e-09            -4.641e-05           
  2.3                   4.6672e-05            0                     -5.4536e-09           -4.6658e-05          
  2.4                   4.6934e-05            0                     -9.613e-09            -4.6902e-05          
  2.5                   4.7172e-05            8e-14                 -1.6076e-08           -4.7134e-05          
  2.6                   4.7408e-05            8e-14                 -2.5694e-08           -4.7362e-05          
  2.7                   4.7648e-05            4e-14                 -3.9542e-08           -4.7602e-05          
  2.8                   4.7934e-05            2e-14                 -5.896e-08            -4.7876e-05          
  2.9                   4.8196e-05            1.4e-13               -8.5594e-08           -4.8082e-05          
  3                     4.8444e-05            0                     -1.2154e-07           -4.832e-05           
  3.1                   4.8718e-05            0                     -1.6954e-07           -4.851e-05           
  3.2                   4.9e-05               8e-14                 -2.3266e-07           -4.875e-05           
  3.3                   4.9296e-05            4e-14                 -3.1464e-07           -4.8972e-05          
  3.4                   4.9624e-05            4e-14                 -4.2018e-07           -4.9188e-05          
  3.5                   4.9978e-05            -4e-14                -5.5428e-07           -4.9406e-05          
  3.6                   5.0388e-05            1.2e-13               -7.2198e-07           -4.9616e-05          
END_DB

BEGIN_DB
 ICCAP_VAR vg         2.162          
 ICCAP_VAR vb         0              
 ICCAP_VAR vs         0              

 #vd                    id                    ig                    ib                    is                   
  0                     1.2614e-08            4.6e-13               6e-12                 -1.1948e-08          
  0.1                   2.3858e-05            4e-13                 5.08e-12              -2.3838e-05          
  0.2                   4.5376e-05            3.6e-13               4.14e-12              -4.5354e-05          
  0.3                   6.413e-05             2.4e-13               5.5e-12               -6.4108e-05          
  0.4                   7.9998e-05            1.8e-13               4.54e-12              -7.9976e-05          
  0.5                   9.2932e-05            2.6e-13               4.32e-12              -9.2908e-05          
  0.6                   0.000103078           2.6e-13               5.72e-12              -0.000103072         
  0.7                   0.00011081            3.6e-13               5.24e-12              -0.000110798         
  0.8                   0.00011666            1.6e-13               3.58e-12              -0.000116512         
  0.9                   0.00012078            2.2e-13               3.66e-12              -0.0001204           
  1                     0.00012376            2.2e-13               4.86e-12              -0.00012336          
  1.1                   0.00012588            2.8e-13               3.96e-12              -0.0001255           
  1.2                   0.00012754            1.4e-13               3.56e-12              -0.00012714          
  1.3                   0.00012884            1.4e-13               4.58e-12              -0.00012844          
  1.4                   0.00012986            2.2e-13               3.52e-12              -0.00012948          
  1.5                   0.00013078            8e-14                 3.8e-12               -0.00013038          
  1.6                   0.00013156            1.4e-13               3.08e-12              -0.00013116          
  1.7                   0.00013226            2.2e-13               -8.2e-13              -0.00013186          
  1.8                   0.0001329             8e-14                 -1.16e-11             -0.0001325           
  1.9                   0.0001335             1.4e-13               -4.702e-11            -0.0001331           
  2                     0.00013404            6e-14                 -1.464e-10            -0.00013364          
  2.1                   0.00013456            4e-14                 -3.9462e-10           -0.00013414          
  2.2                   0.00013504            1e-13                 -9.568e-10            -0.00013466          
  2.3                   0.0001355             4e-14                 -2.1238e-09           -0.0001351           
  2.4                   0.00013594            1.4e-13               -4.3556e-09           -0.00013556          
  2.5                   0.0001364             1e-13                 -8.355e-09            -0.00013598          
  2.6                   0.0001368             2e-14                 -1.5104e-08           -0.0001364           
  2.7                   0.00013722            -2e-14                -2.5888e-08           -0.0001368           
  2.8                   0.00013762            1.6e-13               -4.247e-08            -0.00013718          
  2.9                   0.00013802            2e-13                 -6.6942e-08           -0.00013756          
  3                     0.00013844            0                     -1.02176e-07          -0.00013794          
  3.1                   0.00013884            6e-14                 -1.5142e-07           -0.00013832          
  3.2                   0.00013928            1.4e-13               -2.1924e-07           -0.00013868          
  3.3                   0.00013974            1.8e-13               -3.1046e-07           -0.00013904          
  3.4                   0.00014024            6e-14                 -4.3216e-07           -0.0001394           
  3.5                   0.00014076            8e-14                 -5.9192e-07           -0.00013978          
  3.6                   0.00014134            2e-14                 -7.9892e-07           -0.00014016          
END_DB

BEGIN_DB
 ICCAP_VAR vg         2.881          
 ICCAP_VAR vb         0              
 ICCAP_VAR vs         0              

 #vd                    id                    ig                    ib                    is                   
  0                     1.6888e-08            5.6e-13               3.94e-12              -1.5972e-08          
  0.1                   3.1974e-05            3.2e-13               4.7e-12               -3.1954e-05          
  0.2                   6.2004e-05            3.4e-13               2.48e-12              -6.1986e-05          
  0.3                   8.9534e-05            3.4e-13               3.18e-12              -8.9514e-05          
  0.4                   0.00011429            3e-13                 3.3e-12               -0.000114274         
  0.5                   0.00013618            3e-13                 3.62e-12              -0.00013578          
  0.6                   0.00015482            3.2e-13               2.98e-12              -0.00015444          
  0.7                   0.00017056            3e-13                 3.86e-12              -0.00017016          
  0.8                   0.0001835             2.6e-13               2.52e-12              -0.00018312          
  0.9                   0.00019396            3e-13                 2.5e-12               -0.00019356          
  1                     0.00020228            1.8e-13               3.46e-12              -0.00020188          
  1.1                   0.00020878            1.8e-13               2.56e-12              -0.00020838          
  1.2                   0.0002138             2.6e-13               2.6e-12               -0.00021342          
  1.3                   0.0002177             2.6e-13               3.24e-12              -0.0002173           
  1.4                   0.00022072            2.2e-13               2.2e-12               -0.00022032          
  1.5                   0.0002231             8e-14                 2.26e-12              -0.0002227           
  1.6                   0.00022504            2.2e-13               3.6e-12               -0.00022464          
  1.7                   0.0002266             1e-13                 1.38e-12              -0.0002262           
  1.8                   0.00022794            1.2e-13               5.4e-13               -0.00022752          
  1.9                   0.00022906            1.2e-13               -4.44e-12             -0.00022868          
  2                     0.00023006            4e-14                 -2.408e-11            -0.00022968          
  2.1                   0.00023096            1.2e-13               -7.56e-11             -0.00023058          
  2.2                   0.00023176            2e-14                 -2.0926e-10           -0.00023138          
  2.3                   0.0002325             6e-14                 -5.2658e-10           -0.0002321           
  2.4                   0.00023318            8e-14                 -1.2116e-09           -0.00023278          
  2.5                   0.0002338             1e-13                 -2.5976e-09           -0.0002334           
  2.6                   0.0002344             1.6e-13               -5.2102e-09           -0.000234            
  2.7                   0.00023496            1e-13                 -9.8364e-09           -0.00023454          
  2.8                   0.0002355             1.2e-13               -1.7644e-08           -0.00023508          
  2.9                   0.000236              1.8e-13               -3.0158e-08           -0.00023558          
  3                     0.00023658            1e-13                 -4.957e-08            -0.00023614          
  3.1                   0.00023706            4e-14                 -7.8546e-08           -0.0002366           
  3.2                   0.00023756            8e-14                 -1.2046e-07           -0.00023708          
  3.3                   0.0002381             2.4e-13               -1.7976e-07           -0.00023752          
  3.4                   0.00023862            1.2e-13               -2.6194e-07           -0.00023796          
  3.5                   0.00023916            1.6e-13               -3.7382e-07           -0.0002384           
  3.6                   0.00023972            1.6e-13               -5.233e-07            -0.0002388           
END_DB

BEGIN_DB
 ICCAP_VAR vg         3.6            
 ICCAP_VAR vb         0              
 ICCAP_VAR vs         0              

 #vd                    id                    ig                    ib                    is                   
  0                     1.9996e-08            5.2e-13               4.4e-12               -1.8846e-08          
  0.1                   3.7282e-05            5.4e-13               3.14e-12              -3.7262e-05          
  0.2                   7.2998e-05            4.2e-13               2.82e-12              -7.2978e-05          
  0.3                   0.000106564           4.2e-13               1.74e-12              -0.000106544         
  0.4                   0.00013784            4.2e-13               2.12e-12              -0.00013744          
  0.5                   0.00016618            2e-13                 2.04e-12              -0.0001658           
  0.6                   0.00019154            3.6e-13               3.18e-12              -0.00019118          
  0.7                   0.0002141             4e-13                 2.12e-12              -0.0002137           
  0.8                   0.00023374            1.6e-13               1.86e-12              -0.00023334          
