! VERSION = 6.00
BEGIN_HEADER
 ICCAP_INPUTS
  vd         V  D GROUND SMU1 0.1 LIN        1    0          3.6        37   0.1       
  vg         V  G GROUND SMU2 0.001 LIN        2    1.472      3.6        5    0.532     
  vb         V  B GROUND SMU4 0.1 CON        -3.6
  vs         V  S GROUND SMU3 0.1 CON        0
 ICCAP_OUTPUTS
  id         I  D GROUND SMU1 B
  ig         I  G GROUND SMU2 B
  ib         I  B GROUND SMU4 B
  is         I  S GROUND SMU3 B
 ICCAP_VALUES
  MASTER_SETUP_TYPE "~dc_idvd~"
  LINVT_VALUE "|idvg|100.0n|100.0m|1.000m|5|3.600|"
  LISTVT_VALUE ""
  TYPE "1"
  TEMP " 27.0000 "
  IS_TNOM " 1.00000 "
  MAIN.W "300.0n"
  MAIN.L "1.200u"
  MAIN.AD "102.0f"
  MAIN.AS "102.0f"
  MAIN.PD "1.280u"
  MAIN.PS "1.280u"
  MAIN.NF "1.000"
  MAIN.M "1"
  MAIN.NRD "0.000"
  MAIN.NRS "0.000"
  MAIN.LDRIFT1 "1E-06"
  MAIN.LDRIFT2 "1E-06"
  MAIN.SA "0.000"
  MAIN.SB "0.000"
  MAIN.SD "0.000"
  MAIN.SCA "0.000"
  MAIN.SCB "0.000"
  MAIN.SCC "0.000"
  MAIN.SC "0.000"
  MODULE "S560"
  PIN_D "12"
  PIN_G "9"
  PIN_S "10"
  PIN_B "11"
  PIN_E ""
  PIN_6 ""
  XY_ID ""
  FUNC "LW Scale"
  STI "SA ref"
  WPE "WPE ref"
  COMMENT ""
  DIS_MEAS ""
  TypeTCI "10"
END_HEADER

BEGIN_DB
 ICCAP_VAR vg         1.472          
 ICCAP_VAR vb         -3.6           
 ICCAP_VAR vs         0              

 #vd                    id                    ig                    ib                    is                   
  0                     1.6846e-10            6.6e-13               -4.272e-11            -1.3932e-10          
  0.1                   1.3278e-07            5.4e-13               -3.49e-11             -1.3264e-07          
  0.2                   1.5784e-07            5.6e-13               -3.478e-11            -1.5768e-07          
  0.3                   1.6124e-07            3.2e-13               -3.352e-11            -1.611e-07           
  0.4                   1.6256e-07            4e-13                 -3.134e-11            -1.6234e-07          
  0.5                   1.6336e-07            4.2e-13               -3.082e-11            -1.632e-07           
  0.6                   1.6412e-07            3.2e-13               -2.958e-11            -1.6392e-07          
  0.7                   1.6464e-07            2.8e-13               -2.906e-11            -1.6446e-07          
  0.8                   1.6514e-07            8e-14                 -2.702e-11            -1.6504e-07          
  0.9                   1.657e-07             2.4e-13               -2.578e-11            -1.6554e-07          
  1                     1.6616e-07            2.8e-13               -2.564e-11            -1.6602e-07          
  1.1                   1.6658e-07            2.4e-13               -2.46e-11             -1.665e-07           
  1.2                   1.6694e-07            3.2e-13               -2.33e-11             -1.6688e-07          
  1.3                   1.674e-07             4e-13                 -2.222e-11            -1.672e-07           
  1.4                   1.679e-07             2.8e-13               -2.3e-11              -1.6766e-07          
  1.5                   1.682e-07             3.2e-13               -2.176e-11            -1.6804e-07          
  1.6                   1.6852e-07            2.6e-13               -2.04e-11             -1.6844e-07          
  1.7                   1.6892e-07            3e-13                 -1.99e-11             -1.6794e-07          
  1.8                   1.685e-07             4e-13                 -2.098e-11            -1.683e-07           
  1.9                   1.6878e-07            3.6e-13               -2.118e-11            -1.6858e-07          
  2                     1.6912e-07            1.2e-13               -2.2e-11              -1.6892e-07          
  2.1                   1.6936e-07            2.4e-13               -2.528e-11            -1.6928e-07          
  2.2                   1.6982e-07            1.2e-13               -3.146e-11            -1.696e-07           
  2.3                   1.6926e-07            1.6e-13               -4.296e-11            -1.6906e-07          
  2.4                   1.6962e-07            2.4e-13               -6.088e-11            -1.693e-07           
  2.5                   1.6984e-07            1e-13                 -8.958e-11            -1.699e-07           
  2.6                   1.7096e-07            4e-14                 -1.3278e-10           -1.7074e-07          
  2.7                   1.7134e-07            1.2e-13               -1.9278e-10           -1.7096e-07          
  2.8                   1.716e-07             1e-13                 -2.7756e-10           -1.7126e-07          
  2.9                   1.721e-07             8e-14                 -3.9472e-10           -1.715e-07           
  3                     1.7244e-07            2.8e-13               -5.4726e-10           -1.7044e-07          
  3.1                   1.7168e-07            2e-13                 -7.548e-10            -1.7062e-07          
  3.2                   1.7178e-07            2.4e-13               -1.0278e-09           -1.7056e-07          
  3.3                   1.7262e-07            2.6e-13               -1.386e-09            -1.7118e-07          
  3.4                   1.734e-07             2.2e-13               -1.8486e-09           -1.7156e-07          
  3.5                   1.744e-07             2.2e-13               -2.4292e-09           -1.7168e-07          
  3.6                   1.7522e-07            2e-13                 -3.1622e-09           -1.7194e-07          
END_DB

BEGIN_DB
 ICCAP_VAR vg         2.004          
 ICCAP_VAR vb         -3.6           
 ICCAP_VAR vs         0              

 #vd                    id                    ig                    ib                    is                   
  0                     1.1334e-09            4e-13                 -9.9e-12              -1.08e-09            
  0.1                   1.6842e-06            2.6e-13               -9.82e-12             -1.68e-06            
  0.2                   3.0018e-06            1.8e-13               -7.2e-12              -2.9976e-06          
  0.3                   3.9694e-06            2.4e-13               -1e-11                -3.9654e-06          
  0.4                   4.6232e-06            2e-13                 -9.92e-12             -4.6194e-06          
  0.5                   5.0148e-06            8e-14                 -1.042e-11            -5.0104e-06          
  0.6                   5.2182e-06            1.6e-13               -8.82e-12             -5.214e-06           
  0.7                   5.316e-06             2.8e-13               -1.004e-11            -5.3118e-06          
  0.8                   5.37e-06              1.8e-13               -1.02e-11             -5.365e-06           
  0.9                   5.4032e-06            2.2e-13               -8.76e-12             -5.3986e-06          
  1                     5.4282e-06            3.6e-13               -9.66e-12             -5.424e-06           
  1.1                   5.4492e-06            2e-13                 -1.006e-11            -5.445e-06           
  1.2                   5.4678e-06            1.2e-13               -8.68e-12             -5.4636e-06          
  1.3                   5.4844e-06            2.2e-13               -8.48e-12             -5.4796e-06          
  1.4                   5.499e-06             1.6e-13               -9.8e-12              -5.4956e-06          
  1.5                   5.5152e-06            2e-13                 -9.24e-12             -5.51e-06            
  1.6                   5.5272e-06            2.2e-13               -8.68e-12             -5.5236e-06          
  1.7                   5.541e-06             1.8e-13               -9.78e-12             -5.537e-06           
  1.8                   5.5532e-06            1e-13                 -8.66e-12             -5.5492e-06          
  1.9                   5.565e-06             2.6e-13               -8.26e-12             -5.5596e-06          
  2                     5.577e-06             2.2e-13               -1.018e-11            -5.5722e-06          
  2.1                   5.5872e-06            1e-13                 -1.208e-11            -5.5838e-06          
  2.2                   5.5986e-06            1.2e-13               -2.074e-11            -5.5942e-06          
  2.3                   5.6088e-06            1.4e-13               -4.09e-11             -5.605e-06           
  2.4                   5.6198e-06            1.2e-13               -8.494e-11            -5.6146e-06          
  2.5                   5.6292e-06            2e-13                 -1.7776e-10           -5.625e-06           
  2.6                   5.6386e-06            2.4e-13               -3.5308e-10           -5.6352e-06          
  2.7                   5.6496e-06            1.6e-13               -6.5272e-10           -5.6448e-06          
  2.8                   5.6592e-06            2.2e-13               -1.1554e-09           -5.6548e-06          
  2.9                   5.6696e-06            1.2e-13               -1.9374e-09           -5.6636e-06          
  3                     5.679e-06             1.8e-13               -3.1158e-09           -5.6728e-06          
  3.1                   5.6904e-06            1.6e-13               -4.8238e-09           -5.681e-06           
  3.2                   5.7018e-06            2e-13                 -7.2464e-09           -5.691e-06           
  3.3                   5.7144e-06            1.8e-13               -1.05862e-08          -5.6998e-06          
  3.4                   5.7266e-06            2.2e-13               -1.5158e-08           -5.7072e-06          
  3.5                   5.7394e-06            1.4e-13               -2.1294e-08           -5.714e-06           
  3.6                   5.756e-06             1.8e-13               -2.9378e-08           -5.7222e-06          
END_DB

BEGIN_DB
 ICCAP_VAR vg         2.536          
 ICCAP_VAR vb         -3.6           
 ICCAP_VAR vs         0              

 #vd                    id                    ig                    ib                    is                   
  0                     2.0596e-09            3.6e-13               -5.22e-12             -1.7414e-09          
  0.1                   3.2672e-06            4e-13                 -5.28e-12             -3.2634e-06          
  0.2                   6.1996e-06            2.8e-13               -6.48e-12             -6.1956e-06          
  0.3                   8.78e-06              1.6e-13               -5.98e-12             -8.7764e-06          
  0.4                   1.1017e-05            3.2e-13               -6.24e-12             -1.10136e-05         
  0.5                   1.2906e-05            3e-13                 -5.3e-12              -1.2886e-05          
  0.6                   1.4434e-05            3.6e-13               -6.92e-12             -1.4414e-05          
  0.7                   1.5634e-05            2.8e-13               -6.02e-12             -1.5612e-05          
  0.8                   1.6528e-05            2.6e-13               -5.22e-12             -1.6508e-05          
  0.9                   1.7156e-05            2e-13                 -6.4e-12              -1.7136e-05          
  1                     1.7572e-05            2e-13                 -6.28e-12             -1.7558e-05          
  1.1                   1.7838e-05            1.2e-13               -5.22e-12             -1.7814e-05          
  1.2                   1.8e-05               1.2e-13               -9.64e-12             -1.798e-05           
  1.3                   1.811e-05             2.8e-13               -6.52e-12             -1.8094e-05          
  1.4                   1.8196e-05            1e-13                 -5.9e-12              -1.8176e-05          
  1.5                   1.8256e-05            1.4e-13               -6.62e-12             -1.8238e-05          
  1.6                   1.8308e-05            1.8e-13               -6.12e-12             -1.8292e-05          
  1.7                   1.8358e-05            1.8e-13               -5.92e-12             -1.8338e-05          
  1.8                   1.84e-05              1e-13                 -6.48e-12             -1.8378e-05          
  1.9                   1.8442e-05            1.8e-13               -5.32e-12             -1.8414e-05          
  2                     1.8476e-05            1.8e-13               -5.84e-12             -1.8454e-05          
  2.1                   1.851e-05             1.6e-13               -6.5e-12              -1.849e-05           
  2.2                   1.8544e-05            2e-13                 -5.48e-12             -1.8524e-05          
  2.3                   1.858e-05             2.6e-13               -7.78e-12             -1.8558e-05          
  2.4                   1.8606e-05            2.8e-13               -1.344e-11            -1.8582e-05          
  2.5                   1.8636e-05            2e-13                 -2.586e-11            -1.8618e-05          
  2.6                   1.866e-05             2e-13                 -6.104e-11            -1.8642e-05          
  2.7                   1.869e-05             1.8e-13               -1.4292e-10           -1.8676e-05          
  2.8                   1.8724e-05            1.6e-13               -3.1508e-10           -1.8708e-05          
  2.9                   1.875e-05             2.6e-13               -6.5084e-10           -1.8732e-05          
  3                     1.8778e-05            1.4e-13               -1.2634e-09           -1.8754e-05          
  3.1                   1.8796e-05            2.2e-13               -2.3152e-09           -1.8782e-05          
  3.2                   1.883e-05             2e-13                 -4.0206e-09           -1.8804e-05          
  3.3                   1.8856e-05            4e-14                 -6.6746e-09           -1.8822e-05          
  3.4                   1.888e-05             1.8e-13               -1.06288e-08          -1.8846e-05          
  3.5                   1.891e-05             1.2e-13               -1.6352e-08           -1.8872e-05          
  3.6                   1.8944e-05            8e-14                 -2.449e-08            -1.8898e-05          
END_DB

BEGIN_DB
 ICCAP_VAR vg         3.068          
 ICCAP_VAR vb         -3.6           
 ICCAP_VAR vs         0              

 #vd                    id                    ig                    ib                    is                   
  0                     2.4158e-09            4.6e-13               -2.92e-12             -2.2026e-09          
  0.1                   4.5454e-06            3.2e-13               -3.8e-12              -4.5412e-06          
  0.2                   8.81e-06              2.6e-13               -4.92e-12             -8.8058e-06          
  0.3                   1.2786e-05            2.8e-13               -4.62e-12             -1.2762e-05          
  0.4                   1.6442e-05            2.8e-13               -4.34e-12             -1.6422e-05          
  0.5                   1.9772e-05            2.8e-13               -4.62e-12             -1.975e-05           
  0.6                   2.2754e-05            2.8e-13               -5.08e-12             -2.2734e-05          
  0.7                   2.5394e-05            3.2e-13               -3.46e-12             -2.5372e-05          
  0.8                   2.7686e-05            2e-13                 -4.54e-12             -2.7666e-05          
  0.9                   2.9628e-05            2.8e-13               -4.94e-12             -2.9608e-05          
  1                     3.1242e-05            3.8e-13               -3.14e-12             -3.1222e-05          
  1.1                   3.254e-05             3.2e-13               -4.76e-12             -3.2518e-05          
  1.2                   3.3546e-05            1e-13                 -4.52e-12             -3.3524e-05          
  1.3                   3.43e-05              2.8e-13               -4.06e-12             -3.428e-05           
  1.4                   3.4844e-05            2.6e-13               -5.02e-12             -3.4822e-05          
  1.5                   3.5226e-05            2e-13                 -4.92e-12             -3.521e-05           
  1.6                   3.5492e-05            1.4e-13               -3.24e-12             -3.5472e-05          
  1.7                   3.5686e-05            3e-13                 -5.04e-12             -3.5662e-05          
  1.8                   3.5826e-05            2.4e-13               -5.28e-12             -3.5804e-05          
  1.9                   3.5934e-05            8e-14                 -4.52e-12             -3.5914e-05          
  2                     3.603e-05             1.8e-13               -4.44e-12             -3.6006e-05          
  2.1                   3.6108e-05            2.6e-13               -4.86e-12             -3.6086e-05          
  2.2                   3.6178e-05            1.4e-13               -3.98e-12             -3.6162e-05          
  2.3                   3.6246e-05            1.6e-13               -5.14e-12             -3.6224e-05          
  2.4                   3.6312e-05            1.6e-13               -4.94e-12             -3.6292e-05          
  2.5                   3.6366e-05            2e-13                 -4.86e-12             -3.6348e-05          
  2.6                   3.642e-05             2e-13                 -8.2e-12              -3.6398e-05          
  2.7                   3.6474e-05            1.6e-13               -1.28e-11             -3.6454e-05          
  2.8                   3.6524e-05            2e-13                 -3.634e-11            -3.6504e-05          
  2.9                   3.657e-05             2.8e-13               -8.852e-11            -3.6554e-05          
  3                     3.6616e-05            1.4e-13               -2.0248e-10           -3.66e-05            
  3.1                   3.6662e-05            1.2e-13               -4.4502e-10           -3.6642e-05          
  3.2                   3.6706e-05            2.4e-13               -9.2054e-10           -3.6688e-05          
  3.3                   3.6748e-05            2.6e-13               -1.797e-09            -3.6726e-05          
  3.4                   3.6792e-05            1.8e-13               -3.3154e-09           -3.677e-05           
  3.5                   3.6836e-05            1.2e-13               -5.808e-09            -3.6806e-05          
  3.6                   3.6874e-05            2.8e-13               -9.748e-09            -3.6848e-05          
END_DB

BEGIN_DB
 ICCAP_VAR vg         3.6            
 ICCAP_VAR vb         -3.6           
 ICCAP_VAR vs         0              

 #vd                    id                    ig                    ib                    is                   
  0                     2.6296e-09            4.6e-13               -3.34e-12             -2.5374e-09          
  0.1                   5.5106e-06            2.8e-13               -2.7e-12              -5.5066e-06          
  0.2                   1.0798e-05            4e-13                 -2.6e-12              -1.07942e-05         
  0.3                   1.5842e-05            3.8e-13               -3.94e-12             -1.5816e-05          
  0.4                   2.0612e-05            3.4e-13               -3.46e-12             -2.0592e-05          
  0.5                   2.5116e-05            2.4e-13               -4.36e-12             -2.509e-05           
  0.6                   2.9302e-05            1.2e-13               -3.56e-12             -2.928e-05           
  0.7                   3.3182e-05            2.8e-13               -3.82e-12             -3.3168e-05          
  0.8                   3.6734e-05            3.4e-13               -4.36e-12             -3.6724e-05          
