! VERSION = 6.00
BEGIN_HEADER
 ICCAP_INPUTS
  vd         V  D GROUND SMU1 0.1 LIN        1    0          3.6        37   0.1       
  vg         V  G GROUND SMU2 0.001 LIST       2 3 0.399 0.599 0.799
  vb         V  B GROUND SMU4 0.1 CON        0
  vs         V  S GROUND SMU3 0.1 CON        0
 ICCAP_OUTPUTS
  id         I  D GROUND SMU1 B
  ig         I  G GROUND SMU2 B
  ib         I  B GROUND SMU4 B
  is         I  S GROUND SMU3 B
 ICCAP_VALUES
  MASTER_SETUP_TYPE "~dc_idvd~"
  LINVT_VALUE ""
  LISTVT_VALUE "|idvg|100.0n|-200.0m|1.000m|3|200.0m|200.0m|"
  TYPE "1"
  TEMP " 125.000 "
  IS_TNOM " 0.00000 "
  MAIN.W "10.00u"
  MAIN.L "500.0n"
  MAIN.AD "3.400p"
  MAIN.AS "3.400p"
  MAIN.PD "20.68u"
  MAIN.PS "20.68u"
  MAIN.NF "1.000"
  MAIN.M "1"
  MAIN.NRD "0.000"
  MAIN.NRS "0.000"
  MAIN.LDRIFT1 "1E-06"
  MAIN.LDRIFT2 "1E-06"
  MAIN.SA "0.000"
  MAIN.SB "0.000"
  MAIN.SD "0.000"
  MAIN.SCA "0.000"
  MAIN.SCB "0.000"
  MAIN.SCC "0.000"
  MAIN.SC "0.000"
  MODULE "S556"
  PIN_D "14"
  PIN_G "7"
  PIN_S "8"
  PIN_B "13"
  PIN_E ""
  PIN_6 ""
  XY_ID ""
  FUNC "Short"
  STI "SA ref"
  WPE "WPE ref"
  COMMENT ""
  DIS_MEAS ""
  TypeTCI "10"
END_HEADER

BEGIN_DB
 ICCAP_VAR vg         0.399          
 ICCAP_VAR vb         0              
 ICCAP_VAR vs         0              

 #vd                    id                    ig                    ib                    is                   
  0                     5.534e-11             -7.4e-13              1.4e-12               -2.966e-11           
  0.1                   2.9546e-08            -6.8e-13              1.76e-12              -2.9532e-08          
  0.2                   3.2466e-08            -6.4e-13              5.6e-13               -3.246e-08           
  0.3                   3.367e-08             -6.8e-13              1.18e-12              -3.3654e-08          
  0.4                   3.467e-08             -6.4e-13              7.4e-13               -3.4666e-08          
  0.5                   3.563e-08             -5.8e-13              -6.2e-13              -3.5626e-08          
  0.6                   3.6542e-08            -6.6e-13              -8e-14                -3.6522e-08          
  0.7                   3.741e-08             -5.8e-13              5.2e-13               -3.7402e-08          
  0.8                   3.8272e-08            -6e-13                0                     -3.8258e-08          
  0.9                   3.9086e-08            -6.4e-13              -7.2e-13              -3.9078e-08          
  1                     3.9906e-08            -6.4e-13              -1.12e-12             -3.989e-08           
  1.1                   4.0706e-08            -7.2e-13              -2e-13                -4.0682e-08          
  1.2                   4.1512e-08            -5.8e-13              -7.2e-13              -4.1514e-08          
  1.3                   4.232e-08             -4e-13                -1.64e-12             -4.2296e-08          
  1.4                   4.3092e-08            -3.8e-13              -2.02e-12             -4.3072e-08          
  1.5                   4.389e-08             -3.2e-13              -2.28e-12             -4.3862e-08          
  1.6                   4.4664e-08            -2.6e-13              -5.24e-12             -4.4644e-08          
  1.7                   4.5438e-08            -4.4e-13              -9.38e-12             -4.54e-08            
  1.8                   4.6234e-08            -4.6e-13              -1.514e-11            -4.6208e-08          
  1.9                   4.702e-08             -4.4e-13              -2.138e-11            -4.6988e-08          
  2                     4.7818e-08            -5.6e-13              -3.396e-11            -4.7766e-08          
  2.1                   4.8638e-08            -3.8e-13              -5.184e-11            -4.8558e-08          
  2.2                   4.9454e-08            -3.4e-13              -7.442e-11            -4.9378e-08          
  2.3                   5.0286e-08            -4.6e-13              -1.0664e-10           -5.017e-08           
  2.4                   5.1148e-08            -4.8e-13              -1.4804e-10           -5.0972e-08          
  2.5                   5.1996e-08            -4.2e-13              -2.0344e-10           -5.1804e-08          
  2.6                   5.2908e-08            -5.4e-13              -2.7622e-10           -5.2624e-08          
  2.7                   5.3828e-08            -4.2e-13              -3.6816e-10           -5.3462e-08          
  2.8                   5.4824e-08            -4e-13                -4.8708e-10           -5.4292e-08          
  2.9                   5.5824e-08            -2.6e-13              -6.369e-10            -5.5152e-08          
  3                     5.679e-08             -5.6e-13              -8.2414e-10           -5.5958e-08          
  3.1                   5.7902e-08            -3.4e-13              -1.0562e-09           -5.68e-08            
  3.2                   5.9006e-08            -3.4e-13              -1.3382e-09           -5.7666e-08          
  3.3                   6.0262e-08            -3.6e-13              -1.6788e-09           -5.8546e-08          
  3.4                   6.1524e-08            -3.6e-13              -2.084e-09            -5.9448e-08          
  3.5                   6.2912e-08            -4e-13                -2.5634e-09           -6.0328e-08          
  3.6                   6.4372e-08            -4.8e-13              -3.1202e-09           -6.1242e-08          
END_DB

BEGIN_DB
 ICCAP_VAR vg         0.599          
 ICCAP_VAR vb         0              
 ICCAP_VAR vs         0              

 #vd                    id                    ig                    ib                    is                   
  0                     1.062e-09             1.4e-13               1.94e-12              -1.05626e-09         
  0.1                   1.2942e-06            1.6e-13               1.5e-12               -1.2912e-06          
  0.2                   1.476e-06             -4e-14                -5e-13                -1.4734e-06          
  0.3                   1.546e-06             0                     1.06e-12              -1.5424e-06          
  0.4                   1.5982e-06            1.2e-13               -1.8e-13              -1.5964e-06          
  0.5                   1.645e-06             -6e-14                -9.2e-13              -1.6424e-06          
  0.6                   1.6888e-06            -8e-14                -2.2e-13              -1.6862e-06          
  0.7                   1.7312e-06            -1.2e-13              -7e-13                -1.7274e-06          
  0.8                   1.7718e-06            -1.6e-13              -1.38e-12             -1.7656e-06          
  0.9                   1.809e-06             -1.2e-13              -7.8e-13              -1.806e-06           
  1                     1.8456e-06            -1.4e-13              -1.4e-12              -1.8424e-06          
  1.1                   1.882e-06             -1.2e-13              -1e-12                -1.8806e-06          
  1.2                   1.9198e-06            -1.4e-13              -1.92e-12             -1.9164e-06          
  1.3                   1.9556e-06            -4e-14                -6.64e-12             -1.9514e-06          
  1.4                   1.987e-06             -1.2e-13              -1.398e-11            -1.9852e-06          
  1.5                   2.023e-06             -2.2e-13              -3.044e-11            -2.019e-06           
  1.6                   2.0576e-06            -1.6e-13              -6.702e-11            -2.0542e-06          
  1.7                   2.0914e-06            -6e-14                -1.3364e-10           -2.0872e-06          
  1.8                   2.1252e-06            -1.8e-13              -2.5048e-10           -2.1196e-06          
  1.9                   2.1584e-06            -6e-14                -4.441e-10            -2.1566e-06          
  2                     2.196e-06             -6e-14                -7.4004e-10           -2.1914e-06          
  2.1                   2.2286e-06            -2e-14                -1.1868e-09           -2.2252e-06          
  2.2                   2.2628e-06            -3.4e-13              -1.828e-09            -2.2568e-06          
  2.3                   2.2976e-06            -8e-14                -2.7296e-09           -2.2906e-06          
  2.4                   2.3316e-06            -2.8e-13              -3.9636e-09           -2.3236e-06          
  2.5                   2.3672e-06            -1.4e-13              -5.622e-09            -2.3572e-06          
  2.6                   2.4026e-06            -3e-13                -7.8352e-09           -2.3918e-06          
  2.7                   2.4394e-06            -1.6e-13              -1.07192e-08          -2.4246e-06          
  2.8                   2.4784e-06            -2e-14                -1.4486e-08           -2.4594e-06          
  2.9                   2.5146e-06            -1.8e-13              -1.9292e-08           -2.494e-06           
  3                     2.5568e-06            -1.6e-13              -2.538e-08            -2.5274e-06          
  3.1                   2.5988e-06            -1.2e-13              -3.3078e-08           -2.5632e-06          
  3.2                   2.6438e-06            -2.4e-13              -4.261e-08            -2.5996e-06          
  3.3                   2.6928e-06            -8e-14                -5.4298e-08           -2.6344e-06          
  3.4                   2.7412e-06            -2e-13                -6.8428e-08           -2.6708e-06          
  3.5                   2.7928e-06            -6e-14                -8.5456e-08           -2.7042e-06          
  3.6                   2.8504e-06            -6e-14                -1.05512e-07          -2.7408e-06          
END_DB

BEGIN_DB
 ICCAP_VAR vg         0.799          
 ICCAP_VAR vb         0              
 ICCAP_VAR vs         0              

 #vd                    id                    ig                    ib                    is                   
  0                     1.0584e-08            3e-13                 1.64e-12              -9.448e-09           
  0.1                   1.6242e-05            0                     1.16e-12              -1.6208e-05          
  0.2                   2.1034e-05            2.6e-13               -7.8e-13              -2.0998e-05          
  0.3                   2.2578e-05            0                     -1.1e-12              -2.2592e-05          
  0.4                   2.3426e-05            4e-14                 -6.6e-13              -2.3414e-05          
  0.5                   2.4038e-05            1.2e-13               -4e-13                -2.4046e-05          
  0.6                   2.4586e-05            2.2e-13               -1.2e-13              -2.459e-05           
  0.7                   2.5084e-05            1.6e-13               -1.2e-12              -2.5074e-05          
  0.8                   2.5536e-05            0                     -9.8e-13              -2.5524e-05          
  0.9                   2.5946e-05            8e-14                 -4.8e-13              -2.5944e-05          
  1                     2.6336e-05            1.8e-13               -2.14e-12             -2.6332e-05          
  1.1                   2.671e-05             0                     -2.24e-12             -2.6708e-05          
  1.2                   2.7088e-05            6e-14                 -3.9e-12              -2.7094e-05          
  1.3                   2.7464e-05            1.2e-13               -1.368e-11            -2.7462e-05          
  1.4                   2.7806e-05            -2e-14                -3.856e-11            -2.7828e-05          
  1.5                   2.814e-05             -8e-14                -1.0608e-10           -2.8134e-05          
  1.6                   2.8502e-05            -4e-14                -2.7214e-10           -2.8466e-05          
  1.7                   2.8812e-05            -1.8e-13              -6.2374e-10           -2.8796e-05          
  1.8                   2.9138e-05            6e-14                 -1.3102e-09           -2.9104e-05          
  1.9                   2.945e-05             -6e-14                -2.5468e-09           -2.947e-05           
  2                     2.98e-05              2e-14                 -4.611e-09            -2.9788e-05          
  2.1                   3.0088e-05            2e-14                 -7.8924e-09           -3.0072e-05          
  2.2                   3.0406e-05            -4e-14                -1.2888e-08           -3.0386e-05          
  2.3                   3.0732e-05            -4e-14                -2.0148e-08           -3.0682e-05          
  2.4                   3.1042e-05            4e-14                 -3.0416e-08           -3.0996e-05          
  2.5                   3.1372e-05            -1.2e-13              -4.4594e-08           -3.1308e-05          
  2.6                   3.1714e-05            8e-14                 -6.3882e-08           -3.1662e-05          
  2.7                   3.2044e-05            -2e-14                -8.9324e-08           -3.195e-05           
  2.8                   3.2416e-05            -2e-14                -1.2282e-07           -3.224e-05           
  2.9                   3.2728e-05            -8e-14                -1.6636e-07           -3.2586e-05          
  3                     3.3086e-05            -2e-14                -2.2228e-07           -3.2826e-05          
  3.1                   3.347e-05             0                     -2.9372e-07           -3.318e-05           
  3.2                   3.3898e-05            6e-14                 -3.827e-07            -3.3478e-05          
  3.3                   3.4316e-05            -8e-14                -4.9378e-07           -3.3786e-05          
  3.4                   3.4734e-05            -6e-14                -6.3032e-07           -3.41e-05            
  3.5                   3.5224e-05            -1.6e-13              -7.9702e-07           -3.4454e-05          
  3.6                   3.5778e-05            0                     -9.963e-07            -3.4788e-05          
END_DB

