! VERSION = 6.00
BEGIN_HEADER
 ICCAP_INPUTS
  vg         V  G GROUND SMU2 0.001 LIN        1    -0.5       3.6        83   0.05      
  vb         V  B GROUND SMU4 0.1 LIN        2    0          -3.6       5    -0.9      
  vd         V  D GROUND SMU1 0.1 LIN        3    0.1        3.3        3    1.6       
  vs         V  S GROUND SMU3 0.1 CON        0
 ICCAP_OUTPUTS
  id         I  D GROUND SMU1 B
  ig         I  G GROUND SMU2 B
  ib         I  B GROUND SMU4 B
  is         I  S GROUND SMU3 B
 ICCAP_VALUES
  MASTER_SETUP_TYPE "~dc_idvg~"
  LINVT_VALUE ""
  LISTVT_VALUE ""
  TYPE "1"
  TEMP " 27.0000 "
  IS_TNOM " 1.00000 "
  MAIN.W "2.000u"
  MAIN.L "3.000u"
  MAIN.AD "680.0f"
  MAIN.AS "680.0f"
  MAIN.PD "4.680u"
  MAIN.PS "4.680u"
  MAIN.NF "1.000"
  MAIN.M "1"
  MAIN.NRD "0.000"
  MAIN.NRS "0.000"
  MAIN.LDRIFT1 "1E-06"
  MAIN.LDRIFT2 "1E-06"
  MAIN.SA "0.000"
  MAIN.SB "0.000"
  MAIN.SD "0.000"
  MAIN.SCA "0.000"
  MAIN.SCB "0.000"
  MAIN.SCC "0.000"
  MAIN.SC "0.000"
  MODULE "S558"
  PIN_D "14"
  PIN_G "7"
  PIN_S "8"
  PIN_B "13"
  PIN_E ""
  PIN_6 ""
  XY_ID ""
  FUNC "LW Scale"
  STI "SA ref"
  WPE "WPE ref"
  COMMENT ""
  DIS_MEAS ""
  TypeTCI "10"
END_HEADER

BEGIN_DB
 ICCAP_VAR vb         0              
 ICCAP_VAR vd         0.1            
 ICCAP_VAR vs         0              

 #vg                    id                    ig                    ib                    is                   
  -0.5                  1.4e-13               -4.352e-11            4.992e-11             2.4e-13              
  -0.45                 6e-14                 -6.66e-12             1.278e-11             2e-13                
  -0.4                  4e-14                 -9.8e-13              8e-12                 1.2e-13              
  -0.35                 0                     -1.6e-13              7.04e-12              1.8e-13              
  -0.3                  0                     2.8e-13               6.66e-12              1.8e-13              
  -0.25                 -4e-14                1.8e-13               6.26e-12              1.8e-13              
  -0.2                  2e-14                 5.4e-13               5.86e-12              2.2e-13              
  -0.15                 4e-14                 2.6e-13               7.42e-12              2.4e-13              
  -0.1                  -4e-14                4.2e-13               6.56e-12              1e-13                
  -0.05                 1.6e-13               3e-13                 5.7e-12               2.8e-13              
  0                     6e-14                 6.8e-13               5.8e-12               -4e-14               
  0.05                  1e-13                 2.2e-13               6.22e-12              2e-13                
  0.1                   4e-14                 6.4e-13               6.86e-12              0                    
  0.15                  3.6e-13               4.2e-13               6.46e-12              -2.8e-13             
  0.2                   1.52e-12              3.8e-13               5.98e-12              -1.36e-12            
  0.25                  6.1e-12               7e-13                 4.86e-12              -5.82e-12            
  0.3                   2.462e-11             3.2e-13               4.74e-12              -2.442e-11           
  0.35                  1.005e-10             5.2e-13               6.1e-12               -1.0026e-10          
  0.4                   4.0714e-10            4.8e-13               6.32e-12              -4.0676e-10          
  0.45                  1.6352e-09            5.4e-13               5.18e-12              -1.6332e-09          
  0.5                   6.201e-09             4.2e-13               4.84e-12              -6.1952e-09          
  0.55                  2.1122e-08            4.2e-13               5.06e-12              -2.1104e-08          
  0.6                   6.096e-08             3.4e-13               5.16e-12              -6.0906e-08          
  0.65                  1.4704e-07            8e-13                 4.92e-12              -1.4686e-07          
  0.7                   2.9806e-07            5.2e-13               4.4e-12               -2.979e-07           
  0.75                  5.2436e-07            6.8e-13               4.8e-12               -5.2374e-07          
  0.8                   8.1804e-07            6.4e-13               5.86e-12              -8.18e-07            
  0.85                  1.1734e-06            5.8e-13               4.9e-12               -1.1692e-06          
  0.9                   1.5698e-06            7.2e-13               4.36e-12              -1.5656e-06          
  0.95                  2.0002e-06            7e-13                 5.82e-12              -1.9964e-06          
  1                     2.455e-06             7.6e-13               5.66e-12              -2.4514e-06          
  1.05                  2.9304e-06            6.8e-13               4.5e-12               -2.9262e-06          
  1.1                   3.4184e-06            7.4e-13               4.56e-12              -3.4142e-06          
  1.15                  3.9164e-06            6.4e-13               4.8e-12               -3.912e-06           
  1.2                   4.4206e-06            9.6e-13               6.02e-12              -4.4158e-06          
  1.25                  4.9296e-06            6.6e-13               4.08e-12              -4.9256e-06          
  1.3                   5.4426e-06            9e-13                 4.4e-12               -5.4388e-06          
  1.35                  5.9546e-06            7.8e-13               4.3e-12               -5.9504e-06          
  1.4                   6.4658e-06            7.6e-13               5.56e-12              -6.4622e-06          
  1.45                  6.9766e-06            8.4e-13               4.72e-12              -6.972e-06           
  1.5                   7.4852e-06            9.2e-13               1.54e-12              -7.4816e-06          
  1.55                  7.9904e-06            8e-13                 4.3e-12               -7.9864e-06          
  1.6                   8.491e-06             8.8e-13               4.82e-12              -8.4862e-06          
  1.65                  8.9888e-06            8.4e-13               5.12e-12              -8.984e-06           
  1.7                   9.481e-06             9e-13                 3.76e-12              -9.4768e-06          
  1.75                  9.9666e-06            8e-13                 3.88e-12              -9.9624e-06          
  1.8                   1.04474e-05           9.8e-13               3.92e-12              -1.04428e-05         
  1.85                  1.09196e-05           7.4e-13               5.06e-12              -1.09154e-05         
  1.9                   1.13866e-05           1.04e-12              3.7e-12               -1.13828e-05         
  1.95                  1.1854e-05            8.6e-13               3.44e-12              -1.1834e-05          
  2                     1.2306e-05            9.8e-13               4.2e-12               -1.2286e-05          
  2.05                  1.2752e-05            8.2e-13               5.02e-12              -1.2732e-05          
  2.1                   1.3186e-05            9.4e-13               4.5e-12               -1.3166e-05          
  2.15                  1.3614e-05            9.6e-13               3.46e-12              -1.3594e-05          
  2.2                   1.4032e-05            1e-12                 3.44e-12              -1.4012e-05          
  2.25                  1.4442e-05            7.6e-13               4.8e-12               -1.4422e-05          
  2.3                   1.4842e-05            1.1e-12               4.82e-12              -1.4822e-05          
  2.35                  1.5234e-05            8.2e-13               3.66e-12              -1.5214e-05          
  2.4                   1.5616e-05            8.8e-13               3.42e-12              -1.5596e-05          
  2.45                  1.5988e-05            9.4e-13               4.26e-12              -1.597e-05           
  2.5                   1.6354e-05            8.8e-13               4.56e-12              -1.6334e-05          
  2.55                  1.671e-05             7.8e-13               2.9e-12               -1.6688e-05          
  2.6                   1.7054e-05            1.12e-12              4.06e-12              -1.7034e-05          
  2.65                  1.7388e-05            1.08e-12              3.54e-12              -1.7368e-05          
  2.7                   1.7716e-05            9.2e-13               4.32e-12              -1.7694e-05          
  2.75                  1.8032e-05            8.6e-13               3.94e-12              -1.8012e-05          
  2.8                   1.834e-05             1.08e-12              3.52e-12              -1.832e-05           
  2.85                  1.8638e-05            9.6e-13               3.14e-12              -1.862e-05           
  2.9                   1.8928e-05            9e-13                 4.42e-12              -1.8908e-05          
  2.95                  1.921e-05             1.12e-12              3.86e-12              -1.919e-05           
  3                     1.9482e-05            1.06e-12              4.64e-12              -1.9462e-05          
  3.05                  1.9744e-05            1.04e-12              3.6e-12               -1.9724e-05          
  3.1                   2e-05                 9.6e-13               3.38e-12              -1.9978e-05          
  3.15                  2.0244e-05            9e-13                 7.58e-12              -2.0226e-05          
  3.2                   2.0482e-05            1.2e-12               2.82e-12              -2.0462e-05          
  3.25                  2.0712e-05            1e-12                 3.18e-12              -2.0692e-05          
  3.3                   2.0932e-05            1.04e-12              3.52e-12              -2.0912e-05          
  3.35                  2.1144e-05            1.14e-12              4.4e-12               -2.1124e-05          
  3.4                   2.135e-05             9.8e-13               4.02e-12              -2.133e-05           
  3.45                  2.1548e-05            8.8e-13               2.74e-12              -2.1528e-05          
  3.5                   2.1738e-05            9.6e-13               3.1e-12               -2.1718e-05          
  3.55                  2.192e-05             1e-12                 4.14e-12              -2.19e-05            
  3.6                   2.2096e-05            9e-13                 3.54e-12              -2.2078e-05          
END_DB

BEGIN_DB
 ICCAP_VAR vb         -0.9           
 ICCAP_VAR vd         0.1            
 ICCAP_VAR vs         0              

 #vg                    id                    ig                    ib                    is                   
  -0.5                  -8e-14                -6.2e-13              -9.14e-12             1.2e-13              
  -0.45                 -4e-14                -5e-13                -8.94e-12             1.8e-13              
  -0.4                  -8e-14                -6e-14                -8.38e-12             1.2e-13              
  -0.35                 -8e-14                -1.8e-13              -7.56e-12             4e-14                
  -0.3                  -2e-14                -6e-14                -6.38e-12             0                    
  -0.25                 8e-14                 8e-14                 -5.76e-12             1.2e-13              
  -0.2                  -4e-14                1.4e-13               -4.36e-12             2.2e-13              
  -0.15                 0                     -2e-14                -4.08e-12             1e-13                
  -0.1                  -4e-14                3.2e-13               -4.64e-12             0                    
  -0.05                 6e-14                 1e-13                 -4.72e-12             2.4e-13              
  0                     0                     1.8e-13               -3.68e-12             6e-14                
  0.05                  0                     1.6e-13               -3.04e-12             2.2e-13              
  0.1                   2e-14                 4e-13                 -2.74e-12             2.2e-13              
  0.15                  -2e-14                1.4e-13               -4.04e-12             2.6e-13              
  0.2                   -2e-14                4.2e-13               -3.04e-12             1.2e-13              
  0.25                  -2e-14                5.4e-13               -3.02e-12             2.2e-13              
  0.3                   4e-14                 3.4e-13               -2.36e-12             6e-14                
  0.35                  4e-14                 5.4e-13               -1.32e-12             6e-14                
  0.4                   1.2e-13               4.6e-13               -2.76e-12             1e-13                
  0.45                  8e-13                 5.4e-13               -2.06e-12             -7.6e-13             
  0.5                   3.54e-12              4.2e-13               -1.86e-12             -3.44e-12            
  0.55                  1.646e-11             5.6e-13               -1.2e-12              -1.63e-11            
  0.6                   7.54e-11              6.2e-13               -1.12e-12             -7.518e-11           
  0.65                  3.451e-10             7.4e-13               -1.82e-12             -3.4498e-10          
  0.7                   1.531e-09             4e-13                 -1.94e-12             -1.5286e-09          
  0.75                  6.3282e-09            7.2e-13               -1.6e-12              -6.3216e-09          
  0.8                   2.2576e-08            4.6e-13               -1.04e-12             -2.2548e-08          
  0.85                  6.6598e-08            5.2e-13               -1e-13                -6.6552e-08          
  0.9                   1.599e-07             5.4e-13               -1.48e-12             -1.5972e-07          
  0.95                  3.2042e-07            7.8e-13               -8.2e-13              -3.2038e-07          
  1                     5.5246e-07            4.4e-13               -3e-13                -5.5262e-07          
  1.05                  8.5026e-07            7.8e-13               5.8e-13               -8.5062e-07          
  1.1                   1.2008e-06            6e-13                 -7.4e-13              -1.1964e-06          
  1.15                  1.5906e-06            6.2e-13               1.2e-13               -1.5872e-06          
  1.2                   2.009e-06             7.4e-13               -1.2e-13              -2.0054e-06          
  1.25                  2.4514e-06            6.2e-13               -7.6e-13              -2.4468e-06          
  1.3                   2.9116e-06            8e-13                 -3.4e-13              -2.907e-06           
  1.35                  3.3818e-06            5.6e-13               -7.6e-13              -3.3776e-06          
  1.4                   3.8596e-06            9.2e-13               1e-13                 -3.8558e-06          
  1.45                  4.3442e-06            5.6e-13               -1.12e-12             -4.34e-06            
  1.5                   4.835e-06             8.4e-13               -1.06e-12             -4.8304e-06          
  1.55                  5.3242e-06            7.4e-13               -7.8e-13              -5.3202e-06          
  1.6                   5.8126e-06            8e-13                 3.2e-13               -5.8092e-06          
  1.65                  6.303e-06             7.2e-13               -5e-13                -6.2986e-06          
  1.7                   6.7902e-06            8.8e-13               -6.6e-13              -6.7856e-06          
  1.75                  7.2726e-06            6.6e-13               -8.6e-13              -7.269e-06           
  1.8                   7.7532e-06            8.2e-13               3.2e-13               -7.749e-06           
  1.85                  8.2274e-06            8.8e-13               2.2e-13               -8.2232e-06          
  1.9                   8.6978e-06            9.4e-13               -7.4e-13              -8.6942e-06          
  1.95                  9.161e-06             8.4e-13               -5e-13                -9.1568e-06          
  2                     9.6194e-06            8.8e-13               3e-13                 -9.6154e-06          
  2.05                  1.00708e-05           9.6e-13               4.8e-13               -1.00668e-05         
  2.1                   1.05132e-05           8.4e-13               -3.6e-13              -1.05092e-05         
  2.15                  1.09504e-05           8e-13                 -6e-13                -1.0946e-05          
  2.2                   1.13776e-05           1.04e-12              -3e-13                -1.13738e-05         
  2.25                  1.1808e-05            7.2e-13               9e-13                 -1.1788e-05          
  2.3                   1.2218e-05            7e-13                 -4.2e-13              -1.2198e-05          
  2.35                  1.2622e-05            9.2e-13               -5e-13                -1.2602e-05          
  2.4                   1.3016e-05            8.4e-13               -4.6e-13              -1.2996e-05          
  2.45                  1.3402e-05            1.04e-12              5.8e-13               -1.338e-05           
  2.5                   1.3778e-05            9.2e-13               4e-13                 -1.3758e-05          
  2.55                  1.4146e-05            8.4e-13               -4.2e-13              -1.4126e-05          
  2.6                   1.4504e-05            1.04e-12              -3.2e-13              -1.4484e-05          
  2.65                  1.4852e-05            8.8e-13               9.8e-13               -1.4834e-05          
  2.7                   1.5192e-05            1.12e-12              6.8e-13               -1.5172e-05          
  2.75                  1.5524e-05            9.6e-13               4e-14                 -1.5504e-05          
  2.8                   1.5846e-05            9.6e-13               6.4e-13               -1.5826e-05          
  2.85                  1.6158e-05            1.12e-12              3e-13                 -1.6138e-05          
  2.9                   1.6462e-05            1.02e-12              4.4e-13               -1.6442e-05          
  2.95                  1.6756e-05            9.2e-13               -3.6e-13              -1.6738e-05          
  3                     1.7044e-05            9.2e-13               3.2e-13               -1.7024e-05          
  3.05                  1.7318e-05            8.8e-13               -2e-14                -1.7298e-05          
  3.1                   1.7586e-05            1.2e-12               7.4e-13               -1.7568e-05          
  3.15                  1.7846e-05            8.4e-13               1.6e-13               -1.7826e-05          
  3.2                   1.8096e-05            1.04e-12              -7.6e-13              -1.8076e-05          
  3.25                  1.834e-05             9.2e-13               -3e-13                -1.832e-05           
  3.3                   1.8574e-05            8.4e-13               6.8e-13               -1.8554e-05          
  3.35                  1.88e-05              9.2e-13               1.02e-12              -1.878e-05           
  3.4                   1.9018e-05            9.2e-13               -4.4e-13              -1.8998e-05          
  3.45                  1.923e-05             8.8e-13               -1.4e-13              -1.921e-05           
