! VERSION = 6.00
BEGIN_HEADER
 ICCAP_INPUTS
  vd         V  D GROUND SMU1 0.1 LIN        1    0          3.6        37   0.1       
  vg         V  G GROUND SMU2 0.001 LIST       2 3 1.092 1.292 1.492
  vb         V  B GROUND SMU4 0.1 CON        -3.6
  vs         V  S GROUND SMU3 0.1 CON        0
 ICCAP_OUTPUTS
  id         I  D GROUND SMU1 B
  ig         I  G GROUND SMU2 B
  ib         I  B GROUND SMU4 B
  is         I  S GROUND SMU3 B
 ICCAP_VALUES
  MASTER_SETUP_TYPE "~dc_idvd~"
  LINVT_VALUE ""
  LISTVT_VALUE "|idvg|100.0n|-200.0m|1.000m|3|200.0m|200.0m|"
  TYPE "1"
  TEMP " 125.000 "
  IS_TNOM " 0.00000 "
  MAIN.W "600.0n"
  MAIN.L "1.200u"
  MAIN.AD "204.0f"
  MAIN.AS "204.0f"
  MAIN.PD "1.880u"
  MAIN.PS "1.880u"
  MAIN.NF "1.000"
  MAIN.M "1"
  MAIN.NRD "0.000"
  MAIN.NRS "0.000"
  MAIN.LDRIFT1 "1E-06"
  MAIN.LDRIFT2 "1E-06"
  MAIN.SA "0.000"
  MAIN.SB "0.000"
  MAIN.SD "0.000"
  MAIN.SCA "0.000"
  MAIN.SCB "0.000"
  MAIN.SCC "0.000"
  MAIN.SC "0.000"
  MODULE "S559"
  PIN_D "14"
  PIN_G "7"
  PIN_S "8"
  PIN_B "13"
  PIN_E ""
  PIN_6 ""
  XY_ID ""
  FUNC "LW Scale"
  STI "SA ref"
  WPE "WPE ref"
  COMMENT ""
  DIS_MEAS ""
  TypeTCI "10"
END_HEADER

BEGIN_DB
 ICCAP_VAR vg         1.092          
 ICCAP_VAR vb         -3.6           
 ICCAP_VAR vs         0              

 #vd                    id                    ig                    ib                    is                   
  0                     6.4e-13               -8e-14                -5.884e-11            -3.6e-13             
  0.1                   5.5134e-10            -2e-13                -5.032e-11            -5.5032e-10          
  0.2                   5.8638e-10            -2e-14                -4.552e-11            -5.857e-10           
  0.3                   5.906e-10             -1.6e-13              -3.956e-11            -5.904e-10           
  0.4                   5.9476e-10            -1.2e-13              -3.718e-11            -5.9376e-10          
  0.5                   5.9766e-10            -2.6e-13              -3.404e-11            -5.9626e-10          
  0.6                   5.9928e-10            -1e-13                -3.11e-11             -5.981e-10           
  0.7                   6.024e-10             -2.2e-13              -2.99e-11             -6.012e-10           
  0.8                   6.049e-10             -1.8e-13              -2.754e-11            -6.0246e-10          
  0.9                   6.0618e-10            -2.8e-13              -2.736e-11            -6.046e-10           
  1                     6.0928e-10            2e-14                 -2.51e-11             -6.0782e-10          
  1.1                   6.1206e-10            -2e-13                -2.412e-11            -6.0972e-10          
  1.2                   6.131e-10             -4e-14                -2.206e-11            -6.1144e-10          
  1.3                   6.1582e-10            -2.2e-13              -2.212e-11            -6.145e-10           
  1.4                   6.1798e-10            -4e-14                -2.036e-11            -6.1644e-10          
  1.5                   6.1984e-10            -6e-14                -2.156e-11            -6.1732e-10          
  1.6                   6.1988e-10            8e-14                 -1.91e-11             -6.1784e-10          
  1.7                   6.2154e-10            -1.2e-13              -1.964e-11            -6.1962e-10          
  1.8                   6.2334e-10            -8e-14                -1.912e-11            -6.2124e-10          
  1.9                   6.2648e-10            6e-14                 -1.894e-11            -6.2362e-10          
  2                     6.2864e-10            1e-13                 -1.804e-11            -6.2564e-10          
  2.1                   6.2986e-10            1.6e-13               -1.866e-11            -6.278e-10           
  2.2                   6.3168e-10            0                     -1.844e-11            -6.2932e-10          
  2.3                   6.3328e-10            -2e-14                -1.754e-11            -6.307e-10           
  2.4                   6.355e-10             -4e-14                -1.81e-11             -6.3268e-10          
  2.5                   6.3704e-10            1.4e-13               -1.698e-11            -6.3338e-10          
  2.6                   6.3934e-10            -4e-14                -1.844e-11            -6.3554e-10          
  2.7                   6.4212e-10            2e-14                 -1.674e-11            -6.3726e-10          
  2.8                   6.4344e-10            -6e-14                -1.94e-11             -6.386e-10           
  2.9                   6.4664e-10            8e-14                 -1.858e-11            -6.4078e-10          
  3                     6.4924e-10            8e-14                 -2.006e-11            -6.4242e-10          
  3.1                   6.5222e-10            -6e-14                -2.09e-11             -6.4372e-10          
  3.2                   6.5682e-10            8e-14                 -2.304e-11            -6.4598e-10          
  3.3                   6.5992e-10            -2e-14                -2.464e-11            -6.467e-10           
  3.4                   6.6278e-10            -2e-14                -2.874e-11            -6.4614e-10          
  3.5                   6.6996e-10            2e-14                 -3.166e-11            -6.503e-10           
  3.6                   6.7402e-10            1.2e-13               -3.602e-11            -6.4974e-10          
END_DB

BEGIN_DB
 ICCAP_VAR vg         1.292          
 ICCAP_VAR vb         -3.6           
 ICCAP_VAR vs         0              

 #vd                    id                    ig                    ib                    is                   
  0                     3.14e-11              2.8e-13               -1.184e-11            -3.28e-11            
  0.1                   4.439e-08             1.6e-13               -1.286e-11            -4.4378e-08          
  0.2                   4.934e-08             2.2e-13               -1.178e-11            -4.9374e-08          
  0.3                   5.0064e-08            3.8e-13               -1.328e-11            -5.0026e-08          
  0.4                   5.0368e-08            1.8e-13               -1.358e-11            -5.0336e-08          
  0.5                   5.0626e-08            2.8e-13               -1.234e-11            -5.0588e-08          
  0.6                   5.0836e-08            3e-13                 -1.21e-11             -5.081e-08           
  0.7                   5.1058e-08            2e-13                 -1.386e-11            -5.0994e-08          
  0.8                   5.1206e-08            3e-13                 -1.288e-11            -5.1198e-08          
  0.9                   5.1374e-08            2.2e-13               -1.36e-11             -5.138e-08           
  1                     5.1554e-08            1e-13                 -1.236e-11            -5.1546e-08          
  1.1                   5.1686e-08            1.8e-13               -1.224e-11            -5.1688e-08          
  1.2                   5.1842e-08            8e-14                 -1.34e-11             -5.1824e-08          
  1.3                   5.2e-08               8e-14                 -1.336e-11            -5.1968e-08          
  1.4                   5.2088e-08            8e-14                 -1.32e-11             -5.2154e-08          
  1.5                   5.2318e-08            2.4e-13               -1.318e-11            -5.2242e-08          
  1.6                   5.243e-08             1.2e-13               -1.338e-11            -5.2424e-08          
  1.7                   5.257e-08             1e-13                 -1.32e-11             -5.2568e-08          
  1.8                   5.269e-08             1.8e-13               -1.292e-11            -5.2644e-08          
  1.9                   5.282e-08             1.8e-13               -1.314e-11            -5.2804e-08          
  2                     5.2954e-08            6e-14                 -1.59e-11             -5.2954e-08          
  2.1                   5.3072e-08            6e-14                 -1.838e-11            -5.3014e-08          
  2.2                   5.3196e-08            8e-14                 -2.232e-11            -5.3166e-08          
  2.3                   5.3286e-08            1.2e-13               -2.724e-11            -5.325e-08           
  2.4                   5.345e-08             2.6e-13               -3.742e-11            -5.3384e-08          
  2.5                   5.359e-08             1.2e-13               -5.18e-11             -5.3518e-08          
  2.6                   5.3694e-08            1.4e-13               -7.088e-11            -5.3608e-08          
  2.7                   5.3846e-08            1.6e-13               -9.674e-11            -5.3754e-08          
  2.8                   5.399e-08             1.6e-13               -1.3378e-10           -5.388e-08           
  2.9                   5.417e-08             1.2e-13               -1.8346e-10           -5.4002e-08          
  3                     5.4352e-08            1.2e-13               -2.4678e-10           -5.4084e-08          
  3.1                   5.451e-08             1.8e-13               -3.2892e-10           -5.4164e-08          
  3.2                   5.4754e-08            2.4e-13               -4.3658e-10           -5.429e-08           
  3.3                   5.4982e-08            1.2e-13               -5.7046e-10           -5.438e-08           
  3.4                   5.5278e-08            1.2e-13               -7.3988e-10           -5.4534e-08          
  3.5                   5.5594e-08            1.4e-13               -9.552e-10            -5.4774e-08          
  3.6                   5.6124e-08            2.8e-13               -1.214e-09            -5.4894e-08          
END_DB

BEGIN_DB
 ICCAP_VAR vg         1.492          
 ICCAP_VAR vb         -3.6           
 ICCAP_VAR vs         0              

 #vd                    id                    ig                    ib                    is                   
  0                     1.8968e-10            3.4e-13               -1.07e-11             -2.0728e-10          
  0.1                   4.4498e-07            3e-13                 -1.08e-11             -4.4518e-07          
  0.2                   6.0646e-07            2.4e-13               -1.138e-11            -6.066e-07           
  0.3                   6.473e-07             2.4e-13               -1.12e-11             -6.4768e-07          
  0.4                   6.5886e-07            1.8e-13               -1.224e-11            -6.588e-07           
  0.5                   6.64e-07              3.8e-13               -1.306e-11            -6.641e-07           
  0.6                   6.6744e-07            2.4e-13               -1.126e-11            -6.672e-07           
  0.7                   6.6968e-07            2.8e-13               -1.09e-11             -6.699e-07           
  0.8                   6.7238e-07            3.6e-13               -1.176e-11            -6.7284e-07          
  0.9                   6.7496e-07            2e-13                 -1.216e-11            -6.7536e-07          
  1                     6.771e-07             1e-13                 -1.09e-11             -6.7708e-07          
  1.1                   6.7904e-07            1.6e-13               -1.194e-11            -6.7916e-07          
  1.2                   6.8092e-07            2.4e-13               -1.29e-11             -6.8108e-07          
  1.3                   6.8262e-07            2.4e-13               -1.274e-11            -6.8258e-07          
  1.4                   6.8376e-07            3.2e-13               -9.98e-12             -6.8464e-07          
  1.5                   6.8642e-07            2e-13                 -1.214e-11            -6.8652e-07          
  1.6                   6.88e-07              2e-13                 -1.228e-11            -6.8808e-07          
  1.7                   6.8942e-07            2.6e-13               -1.154e-11            -6.8914e-07          
  1.8                   6.9046e-07            2e-13                 -1.286e-11            -6.9046e-07          
  1.9                   6.9228e-07            3.2e-13               -1.584e-11            -6.9232e-07          
  2                     6.936e-07             2.8e-13               -2.102e-11            -6.9398e-07          
  2.1                   6.95e-07              3.4e-13               -3.254e-11            -6.95e-07            
  2.2                   6.9648e-07            2.4e-13               -5.238e-11            -6.9624e-07          
  2.3                   6.9758e-07            3.2e-13               -8.868e-11            -6.9754e-07          
  2.4                   6.9896e-07            1.4e-13               -1.4712e-10           -6.9878e-07          
  2.5                   7.0022e-07            1.4e-13               -2.3512e-10           -6.995e-07           
  2.6                   7.0108e-07            1.8e-13               -3.713e-10            -7.0102e-07          
  2.7                   7.0244e-07            3.8e-13               -5.638e-10            -7.0182e-07          
  2.8                   7.039e-07             1.6e-13               -8.3534e-10           -7.0276e-07          
  2.9                   7.0508e-07            1.2e-13               -1.2092e-09           -7.0432e-07          
  3                     7.0672e-07            2e-13                 -1.7166e-09           -7.0538e-07          
  3.1                   7.0876e-07            2e-13                 -2.3874e-09           -7.0668e-07          
  3.2                   7.1066e-07            1.8e-13               -3.2676e-09           -7.0752e-07          
  3.3                   7.1318e-07            2.2e-13               -4.4088e-09           -7.0884e-07          
  3.4                   7.162e-07             3.2e-13               -5.871e-09            -7.0992e-07          
  3.5                   7.186e-07             2.2e-13               -7.7242e-09           -7.1056e-07          
  3.6                   7.22e-07              2.2e-13               -1.00534e-08          -7.122e-07           
END_DB

