! VERSION = 6.00
BEGIN_HEADER
 ICCAP_INPUTS
  vd         V  D GROUND SMU1 0.1 LIN        1    0          3.6        37   0.1       
  vg         V  G GROUND SMU2 0.001 LIN        2    0.7        3.6        5    0.725     
  vb         V  B GROUND SMU4 0.1 CON        0
  vs         V  S GROUND SMU3 0.1 CON        0
 ICCAP_OUTPUTS
  id         I  D GROUND SMU1 B
  ig         I  G GROUND SMU2 B
  ib         I  B GROUND SMU4 B
  is         I  S GROUND SMU3 B
 ICCAP_VALUES
  MASTER_SETUP_TYPE "~dc_idvd~"
  LINVT_VALUE "|idvg|100.0n|100.0m|1.000m|5|3.600|"
  LISTVT_VALUE ""
  TYPE "1"
  TEMP " 27.0000 "
  IS_TNOM " 1.00000 "
  MAIN.W "10.00u"
  MAIN.L "5.000u"
  MAIN.AD "3.400p"
  MAIN.AS "3.400p"
  MAIN.PD "20.68u"
  MAIN.PS "20.68u"
  MAIN.NF "1.000"
  MAIN.M "1"
  MAIN.NRD "0.000"
  MAIN.NRS "0.000"
  MAIN.LDRIFT1 "1E-06"
  MAIN.LDRIFT2 "1E-06"
  MAIN.SA "0.000"
  MAIN.SB "0.000"
  MAIN.SD "0.000"
  MAIN.SCA "0.000"
  MAIN.SCB "0.000"
  MAIN.SCC "0.000"
  MAIN.SC "0.000"
  MODULE "S557"
  PIN_D "18"
  PIN_G "3"
  PIN_S "4"
  PIN_B "17"
  PIN_E ""
  PIN_6 ""
  XY_ID ""
  FUNC "L Scale"
  STI "SA ref"
  WPE "WPE ref"
  COMMENT ""
  DIS_MEAS ""
  TypeTCI "10"
END_HEADER

BEGIN_DB
 ICCAP_VAR vg         0.7            
 ICCAP_VAR vb         0              
 ICCAP_VAR vs         0              

 #vd                    id                    ig                    ib                    is                   
  0                     1.194e-09             4e-14                 2.456e-11             -8.5762e-10          
  0.1                   9.3362e-07            -4e-14                2.282e-11             -9.3366e-07          
  0.2                   1.02862e-06           0                     2.09e-11              -1.02864e-06         
  0.3                   1.03846e-06           -8e-14                1.982e-11             -1.03842e-06         
  0.4                   1.04334e-06           -4e-14                1.892e-11             -1.04346e-06         
  0.5                   1.04742e-06           0                     1.92e-11              -1.04728e-06         
  0.6                   1.0505e-06            -1.4e-13              1.864e-11             -1.0508e-06          
  0.7                   1.05368e-06           -1.2e-13              1.68e-11              -1.0537e-06          
  0.8                   1.05652e-06           -6e-14                1.648e-11             -1.05658e-06         
  0.9                   1.0589e-06            -1e-13                1.688e-11             -1.05876e-06         
  1                     1.06106e-06           -4e-14                1.616e-11             -1.06108e-06         
  1.1                   1.06328e-06           -6e-14                1.422e-11             -1.06322e-06         
  1.2                   1.06522e-06           -1.6e-13              1.482e-11             -1.0655e-06          
  1.3                   1.06732e-06           -2.4e-13              1.538e-11             -1.06748e-06         
  1.4                   1.06902e-06           -2e-13                1.34e-11              -1.06916e-06         
  1.5                   1.07092e-06           -8e-14                1.074e-11             -1.07096e-06         
  1.6                   1.07254e-06           -1.2e-13              6.26e-12              -1.07248e-06         
  1.7                   1.07404e-06           -8e-14                -4.44e-12             -1.07418e-06         
  1.8                   1.07564e-06           0                     -2.884e-11            -1.07596e-06         
  1.9                   1.0774e-06            0                     -7.284e-11            -1.07722e-06         
  2                     1.07886e-06           -4e-14                -1.4736e-10           -1.07876e-06         
  2.1                   1.08036e-06           -1e-13                -2.662e-10            -1.0801e-06          
  2.2                   1.08198e-06           -2.4e-13              -4.4902e-10           -1.08164e-06         
  2.3                   1.08362e-06           -8e-14                -7.1448e-10           -1.08282e-06         
  2.4                   1.08536e-06           -8e-14                -1.0882e-09           -1.08426e-06         
  2.5                   1.0869e-06            2e-14                 -1.6098e-09           -1.08526e-06         
  2.6                   1.08884e-06           -6e-14                -2.317e-09            -1.0864e-06          
  2.7                   1.09084e-06           -1.6e-13              -3.2598e-09           -1.08778e-06         
  2.8                   1.09336e-06           0                     -4.506e-09            -1.08892e-06         
  2.9                   1.09634e-06           6e-14                 -6.1294e-09           -1.09018e-06         
  3                     1.09942e-06           0                     -8.228e-09            -1.09122e-06         
  3.1                   1.10338e-06           -1.4e-13              -1.09e-08             -1.09236e-06         
  3.2                   1.1092e-06            -1.6e-13              -1.4258e-08           -1.09336e-06         
  3.3                   1.1144e-06            -6e-14                -1.8422e-08           -1.0945e-06          
  3.4                   1.1206e-06            0                     -2.3508e-08           -1.0955e-06          
  3.5                   1.1276e-06            0                     -2.9638e-08           -1.09636e-06         
  3.6                   1.1358e-06            -8e-14                -3.6892e-08           -1.09732e-06         
END_DB

BEGIN_DB
 ICCAP_VAR vg         1.425          
 ICCAP_VAR vb         0              
 ICCAP_VAR vs         0              

 #vd                    id                    ig                    ib                    is                   
  0                     1.2208e-08            3.2e-13               8e-12                 -1.2478e-08          
  0.1                   2.108e-05             2.2e-13               7.76e-12              -2.1058e-05          
  0.2                   3.786e-05             1.4e-13               6.8e-12               -3.784e-05           
  0.3                   5.0432e-05            1.4e-13               7.64e-12              -5.0414e-05          
  0.4                   5.9018e-05            8e-14                 4.92e-12              -5.8998e-05          
  0.5                   6.3968e-05            8e-14                 6.74e-12              -6.3948e-05          
  0.6                   6.614e-05             1.2e-13               7.78e-12              -6.6122e-05          
  0.7                   6.6876e-05            1.4e-13               6e-12                 -6.686e-05           
  0.8                   6.7138e-05            8e-14                 5.7e-12               -6.7116e-05          
  0.9                   6.7272e-05            8e-14                 6.94e-12              -6.7254e-05          
  1                     6.737e-05             1.4e-13               5.98e-12              -6.7352e-05          
  1.1                   6.745e-05             0                     6.04e-12              -6.7432e-05          
  1.2                   6.7512e-05            6e-14                 6.54e-12              -6.7496e-05          
  1.3                   6.757e-05             2e-14                 5.8e-12               -6.755e-05           
  1.4                   6.762e-05             -6e-14                5.72e-12              -6.7602e-05          
  1.5                   6.7668e-05            0                     6.54e-12              -6.7652e-05          
  1.6                   6.7718e-05            6e-14                 5.16e-12              -6.77e-05            
  1.7                   6.7762e-05            6e-14                 4.7e-12               -6.7744e-05          
  1.8                   6.7802e-05            0                     3.18e-12              -6.7788e-05          
  1.9                   6.7844e-05            6e-14                 -7.92e-12             -6.7824e-05          
  2                     6.7882e-05            8e-14                 -4.75e-11             -6.786e-05           
  2.1                   6.7916e-05            0                     -1.709e-10            -6.7898e-05          
  2.2                   6.7954e-05            1e-13                 -4.942e-10            -6.7936e-05          
  2.3                   6.799e-05             4e-14                 -1.229e-09            -6.797e-05           
  2.4                   6.802e-05             4e-14                 -2.7104e-09           -6.7998e-05          
  2.5                   6.8056e-05            0                     -5.4372e-09           -6.8032e-05          
  2.6                   6.8094e-05            1e-13                 -1.00998e-08          -6.8064e-05          
  2.7                   6.8136e-05            1.6e-13               -1.7552e-08           -6.8096e-05          
  2.8                   6.8176e-05            -1e-13                -2.892e-08            -6.8128e-05          
  2.9                   6.8224e-05            0                     -4.5522e-08           -6.8154e-05          
  3                     6.8276e-05            -4e-14                -6.9158e-08           -6.8186e-05          
  3.1                   6.8334e-05            -2e-14                -1.01924e-07          -6.8214e-05          
  3.2                   6.8408e-05            8e-14                 -1.4638e-07           -6.824e-05           
  3.3                   6.8496e-05            2e-14                 -2.0592e-07           -6.827e-05           
  3.4                   6.8602e-05            0                     -2.8472e-07           -6.8292e-05          
  3.5                   6.8728e-05            8e-14                 -3.8756e-07           -6.8322e-05          
  3.6                   6.8892e-05            1e-13                 -5.2008e-07           -6.835e-05           
END_DB

BEGIN_DB
 ICCAP_VAR vg         2.15           
 ICCAP_VAR vb         0              
 ICCAP_VAR vs         0              

 #vd                    id                    ig                    ib                    is                   
  0                     2.3518e-08            4.6e-13               4.72e-12              -2.2822e-08          
  0.1                   4.2812e-05            1.8e-13               6.28e-12              -4.279e-05           
  0.2                   8.1792e-05            3e-13                 3.8e-12               -8.1774e-05          
  0.3                   0.00011696            1.8e-13               4.58e-12              -0.00011656          
  0.4                   0.00014812            2.4e-13               3.86e-12              -0.0001477           
  0.5                   0.00017526            2.8e-13               4.78e-12              -0.00017486          
  0.6                   0.00019836            1e-13                 3.58e-12              -0.00019794          
  0.7                   0.00021746            8e-14                 3.94e-12              -0.00021706          
  0.8                   0.00023256            2.8e-13               4.8e-12               -0.00023216          
  0.9                   0.0002438             1.2e-13               3.2e-12               -0.0002434           
  1                     0.00025144            1.6e-13               3.58e-12              -0.00025104          
  1.1                   0.00025604            2e-13                 4.94e-12              -0.00025564          
  1.2                   0.00025844            2.8e-13               3.5e-12               -0.00025804          
  1.3                   0.0002596             1.4e-13               6.76e-12              -0.00025922          
  1.4                   0.00026022            1.6e-13               4.26e-12              -0.00025982          
  1.5                   0.00026058            2e-14                 3.18e-12              -0.00026018          
  1.6                   0.00026084            6e-14                 3.66e-12              -0.00026044          
  1.7                   0.00026104            1.8e-13               3.86e-12              -0.00026064          
  1.8                   0.00026122            6e-14                 3.18e-12              -0.00026082          
  1.9                   0.00026136            4e-14                 4e-12                 -0.00026096          
  2                     0.00026152            1.4e-13               3.24e-12              -0.00026112          
  2.1                   0.00026164            6e-14                 3.02e-12              -0.00026124          
  2.2                   0.00026176            1.4e-13               2.98e-12              -0.00026136          
  2.3                   0.00026186            8e-14                 -8.6e-13              -0.00026146          
  2.4                   0.00026198            1.4e-13               -1.702e-11            -0.00026158          
  2.5                   0.00026208            1.2e-13               -7.91e-11             -0.00026168          
  2.6                   0.00026218            8e-14                 -2.8834e-10           -0.00026176          
  2.7                   0.00026228            1e-13                 -8.73e-10             -0.00026186          
  2.8                   0.00026236            6e-14                 -2.3066e-09           -0.00026196          
  2.9                   0.00026246            1.8e-13               -5.4108e-09           -0.00026204          
  3                     0.00026254            1.8e-13               -1.151e-08            -0.00026214          
  3.1                   0.00026264            1e-13                 -2.252e-08            -0.00026222          
  3.2                   0.00026274            2.2e-13               -4.1064e-08           -0.0002623           
  3.3                   0.00026282            0                     -7.046e-08            -0.00026236          
  3.4                   0.00026296            6e-14                 -1.15106e-07          -0.00026244          
  3.5                   0.0002631             8e-14                 -1.8032e-07           -0.00026252          
  3.6                   0.00026326            1e-13                 -2.7274e-07           -0.0002626           
END_DB

BEGIN_DB
 ICCAP_VAR vg         2.875          
 ICCAP_VAR vb         0              
 ICCAP_VAR vs         0              

 #vd                    id                    ig                    ib                    is                   
  0                     3.1908e-08            4.6e-13               4.44e-12              -3.1588e-08          
  0.1                   5.9138e-05            3.8e-13               4.06e-12              -5.9118e-05          
  0.2                   0.0001155             2.8e-13               3.3e-12               -0.0001151           
  0.3                   0.00016862            3.2e-13               2.76e-12              -0.00016822          
  0.4                   0.0002187             3.6e-13               4.26e-12              -0.0002183           
  0.5                   0.00026554            2.6e-13               2.94e-12              -0.00026516          
  0.6                   0.00030898            3e-13                 3.12e-12              -0.00030858          
  0.7                   0.00034902            3.2e-13               4e-12                 -0.00034862          
  0.8                   0.0003855             2.6e-13               3.6e-12               -0.0003851           
  0.9                   0.00041826            3e-13                 2.2e-12               -0.00041786          
  1                     0.00044736            3e-13                 3.56e-12              -0.00044698          
  1.1                   0.0004727             2.4e-13               2.28e-12              -0.0004723           
  1.2                   0.00049418            1.6e-13               2.86e-12              -0.00049378          
  1.3                   0.00051192            1.8e-13               3.2e-12               -0.00051152          
  1.4                   0.00052592            3.4e-13               2.26e-12              -0.00052554          
  1.5                   0.00053644            8e-14                 2.54e-12              -0.00053604          
  1.6                   0.00054376            1.4e-13               3.36e-12              -0.00054336          
  1.7                   0.00054842            2.2e-13               2.02e-12              -0.00054802          
  1.8                   0.00055116            2.2e-13               3.34e-12              -0.00055078          
  1.9                   0.00055274            1.2e-13               3.4e-12               -0.00055236          
  2                     0.00055368            1e-13                 2.18e-12              -0.0005533           
  2.1                   0.00055428            1e-13                 2.36e-12              -0.0005539           
  2.2                   0.00055472            2e-13                 2.18e-12              -0.00055434          
  2.3                   0.00055506            1.4e-13               2.36e-12              -0.00055468          
  2.4                   0.00055534            1.2e-13               2.96e-12              -0.00055496          
  2.5                   0.0005556             2e-13                 2.56e-12              -0.0005552           
  2.6                   0.00055582            1.2e-13               1.68e-12              -0.00055542          
  2.7                   0.00055602            8e-14                 -1.2e-12              -0.0005556           
  2.8                   0.00055618            8e-14                 -2.06e-12             -0.00055578          
  2.9                   0.00055636            1.2e-13               -1.892e-11            -0.00055596          
  3                     0.0005565             1.4e-13               -8.304e-11            -0.00055612          
  3.1                   0.00055664            1.2e-13               -3.0062e-10           -0.00055626          
  3.2                   0.0005568             1e-13                 -9.309e-10            -0.0005564           
  3.3                   0.00055694            6e-14                 -2.5404e-09           -0.00055652          
  3.4                   0.00055706            4e-14                 -6.2152e-09           -0.00055666          
  3.5                   0.00055718            2.4e-13               -1.3798e-08           -0.00055678          
  3.6                   0.00055732            0                     -2.8124e-08           -0.0005569           
END_DB

BEGIN_DB
 ICCAP_VAR vg         3.6            
 ICCAP_VAR vb         0              
 ICCAP_VAR vs         0              

 #vd                    id                    ig                    ib                    is                   
  0                     3.9888e-08            4.2e-13               3.6e-12               -3.7714e-08          
  0.1                   6.943e-05             3e-13                 2.88e-12              -6.9406e-05          
  0.2                   0.00013694            2.2e-13               2.94e-12              -0.00013654          
  0.3                   0.00020204            3.8e-13               2.32e-12              -0.00020164          
  0.4                   0.00026502            3.4e-13               3.44e-12              -0.00026462          
  0.5                   0.00032566            3e-13                 2.3e-12               -0.00032528          
  0.6                   0.00038374            2.6e-13               1.88e-12              -0.00038336          
  0.7                   0.00043934            3e-13                 2.3e-12               -0.00043896          
  0.8                   0.00049224            2.8e-13               2.22e-12              -0.00049184          
