! VERSION = 6.00
BEGIN_HEADER
 ICCAP_INPUTS
  vd         V  D GROUND SMU1 0.1 LIN        1    0          3.6        37   0.1       
  vg         V  G GROUND SMU2 0.001 LIST       2 3 0.996 1.196 1.396
  vb         V  B GROUND SMU4 0.1 CON        -3.6
  vs         V  S GROUND SMU3 0.1 CON        0
 ICCAP_OUTPUTS
  id         I  D GROUND SMU1 B
  ig         I  G GROUND SMU2 B
  ib         I  B GROUND SMU4 B
  is         I  S GROUND SMU3 B
 ICCAP_VALUES
  MASTER_SETUP_TYPE "~dc_idvd~"
  LINVT_VALUE ""
  LISTVT_VALUE "|idvg|100.0n|-200.0m|1.000m|3|200.0m|200.0m|"
  TYPE "1"
  TEMP " 27.0000 "
  IS_TNOM " 1.00000 "
  MAIN.W "600.0n"
  MAIN.L "500.0n"
  MAIN.AD "204.0f"
  MAIN.AS "204.0f"
  MAIN.PD "1.880u"
  MAIN.PS "1.880u"
  MAIN.NF "1.000"
  MAIN.M "1"
  MAIN.NRD "0.000"
  MAIN.NRS "0.000"
  MAIN.LDRIFT1 "1E-06"
  MAIN.LDRIFT2 "1E-06"
  MAIN.SA "0.000"
  MAIN.SB "0.000"
  MAIN.SD "0.000"
  MAIN.SCA "0.000"
  MAIN.SCB "0.000"
  MAIN.SCC "0.000"
  MAIN.SC "0.000"
  MODULE "S559"
  PIN_D "16"
  PIN_G "5"
  PIN_S "6"
  PIN_B "15"
  PIN_E ""
  PIN_6 ""
  XY_ID ""
  FUNC "LW Scale"
  STI "SA ref"
  WPE "WPE ref"
  COMMENT ""
  DIS_MEAS ""
  TypeTCI "10"
END_HEADER

BEGIN_DB
 ICCAP_VAR vg         0.996          
 ICCAP_VAR vb         -3.6           
 ICCAP_VAR vs         0              

 #vd                    id                    ig                    ib                    is                   
  0                     3.2e-13               2e-14                 -2.06e-11             -1.2e-13             
  0.1                   9.226e-11             -8e-14                -1.618e-11            -9.212e-11           
  0.2                   1.0652e-10            -2e-13                -1.54e-11             -1.0602e-10          
  0.3                   1.1864e-10            -1.6e-13              -1.322e-11            -1.1824e-10          
  0.4                   1.3132e-10            -8e-14                -1.154e-11            -1.3076e-10          
  0.5                   1.4426e-10            -1.6e-13              -1.096e-11            -1.4354e-10          
  0.6                   1.5798e-10            -1.4e-13              -9.36e-12             -1.5714e-10          
  0.7                   1.7232e-10            -2e-14                -8.84e-12             -1.7122e-10          
  0.8                   1.8706e-10            -8e-14                -8.1e-12              -1.8622e-10          
  0.9                   2.0256e-10            -1.4e-13              -8.42e-12             -2.0176e-10          
  1                     2.1934e-10            -1.4e-13              -7.72e-12             -2.1836e-10          
  1.1                   2.3644e-10            -8e-14                -6.74e-12             -2.3574e-10          
  1.2                   2.546e-10             -8e-14                -6.92e-12             -2.541e-10           
  1.3                   2.7444e-10            -1.4e-13              -6.86e-12             -2.735e-10           
  1.4                   2.9502e-10            -1.8e-13              -7.14e-12             -2.941e-10           
  1.5                   3.1704e-10            -1.4e-13              -5.5e-12              -3.1532e-10          
  1.6                   3.3948e-10            -8e-14                -6.04e-12             -3.3878e-10          
  1.7                   3.6356e-10            -1e-13                -4.84e-12             -3.63e-10            
  1.8                   3.8944e-10            -1e-13                -5.78e-12             -3.8832e-10          
  1.9                   4.168e-10             -1.2e-13              -5.24e-12             -4.1588e-10          
  2                     4.462e-10             -1.6e-13              -5.14e-12             -4.4454e-10          
  2.1                   4.7638e-10            -1.8e-13              -6.26e-12             -4.7532e-10          
  2.2                   5.0826e-10            -4e-14                -4.86e-12             -5.0776e-10          
  2.3                   5.433e-10             -1e-13                -5.98e-12             -5.4198e-10          
  2.4                   5.8044e-10            -1.6e-13              -4.54e-12             -5.772e-10           
  2.5                   6.2256e-10            -4e-14                -7.22e-12             -6.1894e-10          
  2.6                   6.638e-10             -2e-14                -6.16e-12             -6.6014e-10          
  2.7                   7.0766e-10            -8e-14                -8.56e-12             -7.019e-10           
  2.8                   7.5418e-10            -8e-14                -1.064e-11            -7.4734e-10          
  2.9                   8.061e-10             0                     -1.168e-11            -7.9706e-10          
  3                     8.604e-10             1e-13                 -1.566e-11            -8.4756e-10          
  3.1                   9.1992e-10            -1.2e-13              -1.97e-11             -9.0298e-10          
  3.2                   9.8728e-10            -2e-14                -2.574e-11            -9.632e-10           
  3.3                   1.057e-09             -1e-13                -3.402e-11            -1.02496e-09         
  3.4                   1.1324e-09            -4e-14                -4.424e-11            -1.0892e-09          
  3.5                   1.212e-09             -4e-14                -5.51e-11             -1.158e-09           
  3.6                   1.3004e-09            -1.4e-13              -7.26e-11             -1.2286e-09          
END_DB

BEGIN_DB
 ICCAP_VAR vg         1.196          
 ICCAP_VAR vb         -3.6           
 ICCAP_VAR vs         0              

 #vd                    id                    ig                    ib                    is                   
  0                     3.556e-11             1.2e-13               -1.86e-12             -3.614e-11           
  0.1                   3.7584e-08            6e-14                 -2.6e-12              -3.7568e-08          
  0.2                   4.4344e-08            -6e-14                -4.54e-12             -4.434e-08           
  0.3                   4.9626e-08            1.2e-13               -3.12e-12             -4.957e-08           
  0.4                   5.459e-08             8e-14                 -2.74e-12             -5.4488e-08          
  0.5                   5.9516e-08            6e-14                 -3.54e-12             -5.9518e-08          
  0.6                   6.443e-08             2e-14                 -4.08e-12             -6.4374e-08          
  0.7                   6.9332e-08            0                     -3.7e-12              -6.9378e-08          
  0.8                   7.4512e-08            -8e-14                -3.02e-12             -7.4568e-08          
  0.9                   7.9706e-08            2e-14                 -3.6e-12              -7.9688e-08          
  1                     8.4966e-08            1.2e-13               -3.72e-12             -8.497e-08           
  1.1                   9.0542e-08            1e-13                 -3.72e-12             -9.0594e-08          
  1.2                   9.609e-08             2e-14                 -2.86e-12             -9.6086e-08          
  1.3                   1.01856e-07           1e-13                 -2.38e-12             -1.01828e-07         
  1.4                   1.079e-07             4e-14                 -4.82e-12             -1.07958e-07         
  1.5                   1.1412e-07            0                     -3.84e-12             -1.1399e-07          
  1.6                   1.2056e-07            0                     -3.86e-12             -1.2024e-07          
  1.7                   1.2712e-07            2e-14                 -5.42e-12             -1.269e-07           
  1.8                   1.3386e-07            -1.2e-13              -8.84e-12             -1.3348e-07          
  1.9                   1.4062e-07            2e-14                 -1.314e-11            -1.4058e-07          
  2                     1.4804e-07            -6e-14                -2.378e-11            -1.4776e-07          
  2.1                   1.5548e-07            -2e-14                -4.224e-11            -1.553e-07           
  2.2                   1.6328e-07            -1.2e-13              -7.118e-11            -1.6302e-07          
  2.3                   1.7118e-07            -2e-14                -1.1574e-10           -1.7092e-07          
  2.4                   1.794e-07             -1e-13                -1.8624e-10           -1.7912e-07          
  2.5                   1.8808e-07            0                     -2.8762e-10           -1.8744e-07          
  2.6                   1.97e-07              0                     -4.3404e-10           -1.9624e-07          
  2.7                   2.0606e-07            -4e-14                -6.411e-10            -2.0526e-07          
  2.8                   2.1546e-07            -6e-14                -9.339e-10            -2.1462e-07          
  2.9                   2.2534e-07            -6e-14                -1.3346e-09           -2.24e-07            
  3                     2.3552e-07            0                     -1.8862e-09           -2.3358e-07          
  3.1                   2.4662e-07            -2e-14                -2.631e-09            -2.4392e-07          
  3.2                   2.5792e-07            -6e-14                -3.617e-09            -2.543e-07           
  3.3                   2.7014e-07            0                     -4.9142e-09           -2.6506e-07          
  3.4                   2.8284e-07            -8e-14                -6.5926e-09           -2.7598e-07          
  3.5                   2.9648e-07            -4e-14                -8.7346e-09           -2.8742e-07          
  3.6                   3.1042e-07            -1e-13                -1.1429e-08           -2.9898e-07          
END_DB

BEGIN_DB
 ICCAP_VAR vg         1.396          
 ICCAP_VAR vb         -3.6           
 ICCAP_VAR vs         0              

 #vd                    id                    ig                    ib                    is                   
  0                     7.8416e-10            6e-14                 -9.2e-13              -7.7508e-10          
  0.1                   1.163e-06             1e-13                 -9.2e-13              -1.158e-06           
  0.2                   1.5834e-06            1.2e-13               -2.58e-12             -1.5794e-06          
  0.3                   1.772e-06             1e-13                 -2.96e-12             -1.7674e-06          
  0.4                   1.8982e-06            1e-13                 -4.84e-12             -1.8954e-06          
  0.5                   2.0034e-06            2e-14                 -1.98e-12             -2.0002e-06          
  0.6                   2.0968e-06            1e-13                 -2.56e-12             -2.09e-06            
  0.7                   2.1848e-06            1.2e-13               -1.38e-12             -2.1812e-06          
  0.8                   2.269e-06             1.2e-13               -3.06e-12             -2.263e-06           
  0.9                   2.3474e-06            1e-13                 -3.84e-12             -2.3432e-06          
  1                     2.4254e-06            -6e-14                -2.74e-12             -2.4224e-06          
  1.1                   2.5026e-06            6e-14                 -2.72e-12             -2.4978e-06          
  1.2                   2.5758e-06            4e-14                 -3.02e-12             -2.5736e-06          
  1.3                   2.652e-06             -4e-14                -2.14e-12             -2.6484e-06          
  1.4                   2.7274e-06            2e-14                 -2.52e-12             -2.7218e-06          
  1.5                   2.8002e-06            2e-14                 -4.8e-12              -2.7966e-06          
  1.6                   2.8742e-06            2e-14                 -5.96e-12             -2.8712e-06          
  1.7                   2.9434e-06            -6e-14                -1.358e-11            -2.9428e-06          
  1.8                   3.0186e-06            1.4e-13               -3.376e-11            -3.0168e-06          
  1.9                   3.0952e-06            1.2e-13               -7.618e-11            -3.091e-06           
  2                     3.1688e-06            2e-14                 -1.636e-10            -3.1642e-06          
  2.1                   3.2436e-06            0                     -3.2618e-10           -3.2402e-06          
  2.2                   3.3184e-06            -1.6e-13              -6.0408e-10           -3.314e-06           
  2.3                   3.3914e-06            2e-14                 -1.0572e-09           -3.3888e-06          
  2.4                   3.4698e-06            6e-14                 -1.7614e-09           -3.4662e-06          
  2.5                   3.5438e-06            8e-14                 -2.82e-09             -3.5374e-06          
  2.6                   3.6264e-06            0                     -4.3514e-09           -3.6176e-06          
  2.7                   3.7038e-06            -1.6e-13              -6.5362e-09           -3.6944e-06          
  2.8                   3.7864e-06            4e-14                 -9.5812e-09           -3.772e-06           
  2.9                   3.8628e-06            -2e-14                -1.3772e-08           -3.8486e-06          
  3                     3.9528e-06            -4e-14                -1.9454e-08           -3.9246e-06          
  3.1                   4.0398e-06            2e-14                 -2.7024e-08           -4.0074e-06          
  3.2                   4.1228e-06            8e-14                 -3.709e-08            -4.0822e-06          
  3.3                   4.2114e-06            6e-14                 -5.0356e-08           -4.1596e-06          
  3.4                   4.3154e-06            2e-14                 -6.7486e-08           -4.2456e-06          
  3.5                   4.4212e-06            0                     -8.903e-08            -4.3188e-06          
  3.6                   4.5148e-06            0                     -1.157e-07            -4.3894e-06          
END_DB

