! VERSION = 6.00
BEGIN_HEADER
 ICCAP_INPUTS
  vd         V  D GROUND SMU1 0.1 LIN        1    0          3.6        37   0.1       
  vg         V  G GROUND SMU2 0.001 LIST       2 3 1.014 1.214 1.414
  vb         V  B GROUND SMU4 0.1 CON        -3.6
  vs         V  S GROUND SMU3 0.1 CON        0
 ICCAP_OUTPUTS
  id         I  D GROUND SMU1 B
  ig         I  G GROUND SMU2 B
  ib         I  B GROUND SMU4 B
  is         I  S GROUND SMU3 B
 ICCAP_VALUES
  MASTER_SETUP_TYPE "~dc_idvd~"
  LINVT_VALUE ""
  LISTVT_VALUE "|idvg|100.0n|-200.0m|1.000m|3|200.0m|200.0m|"
  TYPE "1"
  TEMP " 125.000 "
  IS_TNOM " 0.00000 "
  MAIN.W "10.00u"
  MAIN.L "500.0n"
  MAIN.AD "3.400p"
  MAIN.AS "3.400p"
  MAIN.PD "20.68u"
  MAIN.PS "20.68u"
  MAIN.NF "1.000"
  MAIN.M "1"
  MAIN.NRD "0.000"
  MAIN.NRS "0.000"
  MAIN.LDRIFT1 "1E-06"
  MAIN.LDRIFT2 "1E-06"
  MAIN.SA "0.000"
  MAIN.SB "0.000"
  MAIN.SD "0.000"
  MAIN.SCA "0.000"
  MAIN.SCB "0.000"
  MAIN.SCC "0.000"
  MAIN.SC "0.000"
  MODULE "S556"
  PIN_D "14"
  PIN_G "7"
  PIN_S "8"
  PIN_B "13"
  PIN_E ""
  PIN_6 ""
  XY_ID ""
  FUNC "Short"
  STI "SA ref"
  WPE "WPE ref"
  COMMENT ""
  DIS_MEAS ""
  TypeTCI "10"
END_HEADER

BEGIN_DB
 ICCAP_VAR vg         1.014          
 ICCAP_VAR vb         -3.6           
 ICCAP_VAR vs         0              

 #vd                    id                    ig                    ib                    is                   
  0                     1.776e-11             -1.6e-13              -9.48e-11             -4e-14               
  0.1                   8.6442e-09            -2.6e-13              -7.966e-11            -8.6256e-09          
  0.2                   1.01346e-08           -2.6e-13              -7.562e-11            -1.01256e-08         
  0.3                   1.1134e-08            -2.4e-13              -7.172e-11            -1.1106e-08          
  0.4                   1.211e-08             -8e-14                -6.818e-11            -1.207e-08           
  0.5                   1.308e-08             -3.2e-13              -6.7e-11              -1.3046e-08          
  0.6                   1.4074e-08            -1.8e-13              -6.566e-11            -1.4026e-08          
  0.7                   1.5072e-08            -8e-14                -6.436e-11            -1.505e-08           
  0.8                   1.6128e-08            -2.4e-13              -6.25e-11             -1.6106e-08          
  0.9                   1.7206e-08            -2.8e-13              -6.07e-11             -1.7166e-08          
  1                     1.8346e-08            -1.6e-13              -6.13e-11             -1.8312e-08          
  1.1                   1.9492e-08            -3.6e-13              -6.108e-11            -1.9466e-08          
  1.2                   2.0704e-08            -2.6e-13              -5.792e-11            -2.069e-08           
  1.3                   2.1976e-08            6e-14                 -5.682e-11            -2.1936e-08          
  1.4                   2.3308e-08            -1e-13                -5.768e-11            -2.327e-08           
  1.5                   2.468e-08             -2.6e-13              -5.786e-11            -2.4668e-08          
  1.6                   2.6116e-08            -1e-13                -5.702e-11            -2.6092e-08          
  1.7                   2.7612e-08            -1.8e-13              -5.578e-11            -2.7592e-08          
  1.8                   2.9206e-08            -1.4e-13              -5.866e-11            -2.9206e-08          
  1.9                   3.089e-08             -2.4e-13              -6.066e-11            -3.0884e-08          
  2                     3.266e-08             -1.4e-13              -6.54e-11             -3.2646e-08          
  2.1                   3.4508e-08            -1.6e-13              -7.154e-11            -3.4436e-08          
  2.2                   3.6302e-08            -1.8e-13              -8.23e-11             -3.6246e-08          
  2.3                   3.8286e-08            -6e-14                -9.942e-11            -3.825e-08           
  2.4                   4.0414e-08            8e-14                 -1.235e-10            -4.0316e-08          
  2.5                   4.2566e-08            -8e-14                -1.564e-10            -4.2432e-08          
  2.6                   4.4866e-08            -8e-14                -2.0476e-10           -4.4698e-08          
  2.7                   4.7298e-08            -1.6e-13              -2.736e-10            -4.707e-08           
  2.8                   4.9878e-08            -1.8e-13              -3.646e-10            -4.9558e-08          
  2.9                   5.2512e-08            -4e-14                -4.8656e-10           -5.2074e-08          
  3                     5.537e-08             -2e-13                -6.5198e-10           -5.473e-08           
  3.1                   5.838e-08             1.2e-13               -8.7062e-10           -5.7538e-08          
  3.2                   6.1614e-08            -3e-13                -1.1562e-09           -6.0484e-08          
  3.3                   6.5058e-08            -1.6e-13              -1.526e-09            -6.35e-08            
  3.4                   6.8704e-08            -2e-14                -1.9984e-09           -6.673e-08           
  3.5                   7.2722e-08            -2e-14                -2.5946e-09           -7.0216e-08          
  3.6                   7.7016e-08            -1.4e-13              -3.3358e-09           -7.368e-08           
END_DB

BEGIN_DB
 ICCAP_VAR vg         1.214          
 ICCAP_VAR vb         -3.6           
 ICCAP_VAR vs         0              

 #vd                    id                    ig                    ib                    is                   
  0                     5.1618e-10            3.4e-13               -4.23e-11             -5.338e-10           
  0.1                   7.3288e-07            1e-13                 -4.352e-11            -7.3334e-07          
  0.2                   8.9728e-07            2.8e-13               -4.372e-11            -8.9628e-07          
  0.3                   9.9466e-07            2.4e-13               -4.34e-11             -9.9666e-07          
  0.4                   1.08142e-06           2e-13                 -4.386e-11            -1.08086e-06         
  0.5                   1.1682e-06            6e-14                 -4.186e-11            -1.16748e-06         
  0.6                   1.2506e-06            -6e-14                -4.192e-11            -1.2472e-06          
  0.7                   1.3314e-06            1.4e-13               -4.41e-11             -1.3284e-06          
  0.8                   1.4134e-06            -2e-14                -4.506e-11            -1.4124e-06          
  0.9                   1.4968e-06            1.8e-13               -4.27e-11             -1.4938e-06          
  1                     1.5796e-06            2e-14                 -4.37e-11             -1.5752e-06          
  1.1                   1.6628e-06            1e-13                 -4.458e-11            -1.6602e-06          
  1.2                   1.7506e-06            1.4e-13               -4.328e-11            -1.7448e-06          
  1.3                   1.8376e-06            1e-13                 -4.482e-11            -1.8378e-06          
  1.4                   1.9324e-06            -4e-14                -4.698e-11            -1.9276e-06          
  1.5                   2.0226e-06            6e-14                 -4.98e-11             -2.0202e-06          
  1.6                   2.1198e-06            6e-14                 -6.084e-11            -2.118e-06           
  1.7                   2.2186e-06            4e-14                 -8.32e-11             -2.2136e-06          
  1.8                   2.3176e-06            2e-13                 -1.2792e-10           -2.3154e-06          
  1.9                   2.4194e-06            6e-14                 -2.1604e-10           -2.4178e-06          
  2                     2.5246e-06            4e-14                 -3.7028e-10           -2.5234e-06          
  2.1                   2.6354e-06            1.6e-13               -6.3168e-10           -2.6326e-06          
  2.2                   2.744e-06             1.6e-13               -1.0514e-09           -2.74e-06            
  2.3                   2.8592e-06            -1.4e-13              -1.703e-09            -2.8566e-06          
  2.4                   2.972e-06             1.6e-13               -2.6704e-09           -2.9688e-06          
  2.5                   3.0948e-06            -4e-14                -4.0886e-09           -3.0898e-06          
  2.6                   3.2218e-06            -2e-14                -6.1108e-09           -3.2126e-06          
  2.7                   3.3508e-06            1.6e-13               -8.9434e-09           -3.344e-06           
  2.8                   3.492e-06             1.8e-13               -1.2798e-08           -3.4682e-06          
  2.9                   3.6134e-06            2.2e-13               -1.8116e-08           -3.6052e-06          
  3                     3.771e-06             4e-14                 -2.5198e-08           -3.7396e-06          
  3.1                   3.9228e-06            -4e-14                -3.4656e-08           -3.8856e-06          
  3.2                   4.0804e-06            1.2e-13               -4.7084e-08           -4.0362e-06          
  3.3                   4.2428e-06            2e-14                 -6.3182e-08           -4.1804e-06          
  3.4                   4.4232e-06            4e-14                 -8.3918e-08           -4.3326e-06          
  3.5                   4.6028e-06            4e-14                 -1.10174e-07          -4.4948e-06          
  3.6                   4.799e-06             1e-13                 -1.4274e-07           -4.648e-06           
END_DB

BEGIN_DB
 ICCAP_VAR vg         1.414          
 ICCAP_VAR vb         -3.6           
 ICCAP_VAR vs         0              

 #vd                    id                    ig                    ib                    is                   
  0                     2.0274e-09            3e-13                 -4.05e-11             -3.6968e-09          
  0.1                   1.341e-05             1e-13                 -3.988e-11            -1.3394e-05          
  0.2                   1.8336e-05            2.6e-13               -4.008e-11            -1.835e-05           
  0.3                   2.0706e-05            2.2e-13               -4.114e-11            -2.0684e-05          
  0.4                   2.2302e-05            1.2e-13               -4.132e-11            -2.2304e-05          
  0.5                   2.363e-05             -2e-14                -3.99e-11             -2.364e-05           
  0.6                   2.4766e-05            8e-14                 -4.174e-11            -2.475e-05           
  0.7                   2.587e-05             1.4e-13               -4.184e-11            -2.5854e-05          
  0.8                   2.6814e-05            2.4e-13               -4.03e-11             -2.6868e-05          
  0.9                   2.7874e-05            1.8e-13               -4.242e-11            -2.7844e-05          
  1                     2.8778e-05            4e-14                 -4.064e-11            -2.8788e-05          
  1.1                   2.9734e-05            1e-13                 -4.072e-11            -2.9762e-05          
  1.2                   3.0728e-05            2.4e-13               -4.228e-11            -3.069e-05           
  1.3                   3.162e-05             2.8e-13               -4.188e-11            -3.1562e-05          
  1.4                   3.2546e-05            3.4e-13               -4.792e-11            -3.2564e-05          
  1.5                   3.3482e-05            8e-14                 -6.464e-11            -3.3454e-05          
  1.6                   3.4378e-05            2e-14                 -1.0446e-10           -3.4298e-05          
  1.7                   3.5258e-05            2.4e-13               -2.085e-10            -3.5334e-05          
  1.8                   3.6182e-05            1.2e-13               -4.4442e-10           -3.6228e-05          
  1.9                   3.7102e-05            1.8e-13               -9.3266e-10           -3.7082e-05          
  2                     3.8032e-05            1.4e-13               -1.8728e-09           -3.8004e-05          
  2.1                   3.8896e-05            6e-14                 -3.5748e-09           -3.8906e-05          
  2.2                   3.9888e-05            6e-14                 -6.4658e-09           -3.9866e-05          
  2.3                   4.0806e-05            2e-13                 -1.11344e-08          -4.078e-05           
  2.4                   4.1798e-05            2e-13                 -1.8412e-08           -4.1788e-05          
  2.5                   4.2754e-05            2e-13                 -2.9236e-08           -4.2666e-05          
  2.6                   4.3664e-05            3e-13                 -4.4936e-08           -4.364e-05           
  2.7                   4.464e-05             2.6e-13               -6.7104e-08           -4.4538e-05          
  2.8                   4.5536e-05            2.2e-13               -9.7916e-08           -4.5494e-05          
  2.9                   4.6612e-05            2.2e-13               -1.4e-07              -4.6528e-05          
  3                     4.7608e-05            2.8e-13               -1.965e-07            -4.7424e-05          
  3.1                   4.8742e-05            2.4e-13               -2.7206e-07           -4.8466e-05          
  3.2                   4.9876e-05            1.6e-13               -3.7068e-07           -4.9468e-05          
  3.3                   5.0958e-05            1.6e-13               -4.9902e-07           -5.044e-05           
  3.4                   5.206e-05             1.6e-13               -6.6376e-07           -5.144e-05           
  3.5                   5.3266e-05            8e-14                 -8.7268e-07           -5.2438e-05          
  3.6                   5.4578e-05            1.2e-13               -1.13448e-06          -5.3428e-05          
END_DB

