! VERSION = 6.00
BEGIN_HEADER
 ICCAP_INPUTS
  vd         V  D GROUND SMU1 0.1 LIN        1    0          3.6        37   0.1       
  vg         V  G GROUND SMU2 0.001 LIN        2    0.7        3.6        5    0.725     
  vb         V  B GROUND SMU4 0.1 CON        0
  vs         V  S GROUND SMU3 0.1 CON        0
 ICCAP_OUTPUTS
  id         I  D GROUND SMU1 B
  ig         I  G GROUND SMU2 B
  ib         I  B GROUND SMU4 B
  is         I  S GROUND SMU3 B
 ICCAP_VALUES
  MASTER_SETUP_TYPE "~dc_idvd~"
  LINVT_VALUE "|idvg|100.0n|100.0m|1.000m|5|3.600|"
  LISTVT_VALUE ""
  TYPE "1"
  TEMP " 70.0000 "
  IS_TNOM " 0.00000 "
  MAIN.W "300.0n"
  MAIN.L "500.0n"
  MAIN.AD "102.0f"
  MAIN.AS "102.0f"
  MAIN.PD "1.280u"
  MAIN.PS "1.280u"
  MAIN.NF "1.000"
  MAIN.M "1"
  MAIN.NRD "0.000"
  MAIN.NRS "0.000"
  MAIN.LDRIFT1 "1E-06"
  MAIN.LDRIFT2 "1E-06"
  MAIN.SA "0.000"
  MAIN.SB "0.000"
  MAIN.SD "0.000"
  MAIN.SCA "0.000"
  MAIN.SCB "0.000"
  MAIN.SCC "0.000"
  MAIN.SC "0.000"
  MODULE "S560"
  PIN_D "14"
  PIN_G "7"
  PIN_S "8"
  PIN_B "13"
  PIN_E ""
  PIN_6 ""
  XY_ID ""
  FUNC "Small"
  STI "SA ref"
  WPE "WPE ref"
  COMMENT ""
  DIS_MEAS ""
  TypeTCI "10"
END_HEADER

BEGIN_DB
 ICCAP_VAR vg         0.7            
 ICCAP_VAR vb         0              
 ICCAP_VAR vs         0              

 #vd                    id                    ig                    ib                    is                   
  0                     2.3266e-10            -1e-13                4.192e-11             -1.6232e-10          
  0.1                   1.9002e-07            8e-14                 3.88e-11              -1.8998e-07          
  0.2                   2.2536e-07            2e-14                 3.584e-11             -2.254e-07           
  0.3                   2.3998e-07            -2e-14                3.53e-11              -2.4e-07             
  0.4                   2.5096e-07            -1.2e-13              3.358e-11             -2.5092e-07          
  0.5                   2.6048e-07            -1.4e-13              3.308e-11             -2.6048e-07          
  0.6                   2.6952e-07            -8e-14                3.168e-11             -2.694e-07           
  0.7                   2.779e-07             -2.8e-13              3.112e-11             -2.7804e-07          
  0.8                   2.8608e-07            -1.8e-13              3.058e-11             -2.861e-07           
  0.9                   2.936e-07             -1.6e-13              2.884e-11             -2.9396e-07          
  1                     3.0166e-07            -3.6e-13              2.764e-11             -3.017e-07           
  1.1                   3.092e-07             -3.4e-13              2.808e-11             -3.0922e-07          
  1.2                   3.1656e-07            -2.4e-13              2.758e-11             -3.1656e-07          
  1.3                   3.2396e-07            -1.2e-13              2.656e-11             -3.2398e-07          
  1.4                   3.3126e-07            -6e-14                2.57e-11              -3.3122e-07          
  1.5                   3.3834e-07            -3.4e-13              2.372e-11             -3.3824e-07          
  1.6                   3.4564e-07            -2.2e-13              2.036e-11             -3.4548e-07          
  1.7                   3.5256e-07            -1.4e-13              1.32e-11              -3.5272e-07          
  1.8                   3.599e-07             -1.8e-13              3.4e-13               -3.5986e-07          
  1.9                   3.669e-07             -2e-13                -1.86e-11             -3.6692e-07          
  2                     3.7388e-07            -3e-13                -5.402e-11            -3.74e-07            
  2.1                   3.8104e-07            -2.8e-13              -1.0838e-10           -3.8096e-07          
  2.2                   3.881e-07             -2.4e-13              -1.8796e-10           -3.8796e-07          
  2.3                   3.9532e-07            -2.2e-13              -3.0362e-10           -3.9498e-07          
  2.4                   4.0248e-07            -1.8e-13              -4.6708e-10           -4.0202e-07          
  2.5                   4.0974e-07            -8e-14                -6.9692e-10           -4.0902e-07          
  2.6                   4.182e-07             -2e-13                -1.0042e-09           -4.1678e-07          
  2.7                   4.2532e-07            -1.6e-13              -1.4168e-09           -4.2414e-07          
  2.8                   4.3346e-07            -2.4e-13              -1.9648e-09           -4.3156e-07          
  2.9                   4.4132e-07            -2.2e-13              -2.6754e-09           -4.3868e-07          
  3                     4.4914e-07            -1.2e-13              -3.5986e-09           -4.4572e-07          
  3.1                   4.5794e-07            -1.8e-13              -4.7836e-09           -4.528e-07           
  3.2                   4.6662e-07            -4e-14                -6.2726e-09           -4.6046e-07          
  3.3                   4.7578e-07            -1.4e-13              -8.1304e-09           -4.6756e-07          
  3.4                   4.8526e-07            -1.6e-13              -1.04168e-08          -4.7478e-07          
  3.5                   4.957e-07             -3.6e-13              -1.3212e-08           -4.8226e-07          
  3.6                   5.062e-07             -2.8e-13              -1.654e-08            -4.8968e-07          
END_DB

BEGIN_DB
 ICCAP_VAR vg         1.425          
 ICCAP_VAR vb         0              
 ICCAP_VAR vs         0              

 #vd                    id                    ig                    ib                    is                   
  0                     1.7858e-09            5.4e-13               1.404e-11             -1.5774e-09          
  0.1                   5.373e-06             1.6e-13               1.418e-11             -5.3668e-06          
  0.2                   9.6208e-06            3e-13                 1.374e-11             -9.6136e-06          
  0.3                   1.276e-05             1.4e-13               1.35e-11              -1.2758e-05          
  0.4                   1.4934e-05            4e-14                 1.252e-11             -1.4926e-05          
  0.5                   1.632e-05             2.4e-13               1.19e-11              -1.6314e-05          
  0.6                   1.7176e-05            2.6e-13               1.348e-11             -1.7176e-05          
  0.7                   1.7726e-05            1.8e-13               1.156e-11             -1.7718e-05          
  0.8                   1.8094e-05            2e-14                 1.22e-11              -1.8096e-05          
  0.9                   1.8384e-05            1.2e-13               1.312e-11             -1.8384e-05          
  1                     1.8612e-05            1.2e-13               1.232e-11             -1.8624e-05          
  1.1                   1.8834e-05            1.8e-13               1.2e-11               -1.882e-05           
  1.2                   1.9e-05               1.6e-13               1.23e-11              -1.9e-05             
  1.3                   1.9164e-05            2.2e-13               1.106e-11             -1.9158e-05          
  1.4                   1.9314e-05            0                     1.212e-11             -1.931e-05           
  1.5                   1.9454e-05            4e-14                 1.048e-11             -1.945e-05           
  1.6                   1.958e-05             -2e-14                6.88e-12              -1.958e-05           
  1.7                   1.9712e-05            -6e-14                -1.54e-12             -1.9634e-05          
  1.8                   1.9748e-05            1.2e-13               -2.714e-11            -1.9742e-05          
  1.9                   1.986e-05             1.8e-13               -9.25e-11             -1.9862e-05          
  2                     1.9966e-05            -1.4e-13              -2.3282e-10           -1.997e-05           
  2.1                   2.0082e-05            -2e-14                -5.0888e-10           -2.0072e-05          
  2.2                   2.0204e-05            1.2e-13               -1.0314e-09           -2.02e-05            
  2.3                   2.0302e-05            8e-14                 -1.9336e-09           -2.0298e-05          
  2.4                   2.0406e-05            1.2e-13               -3.4042e-09           -2.0392e-05          
  2.5                   2.0508e-05            4e-14                 -5.6954e-09           -2.0498e-05          
  2.6                   2.0608e-05            -2e-14                -9.1234e-09           -2.0594e-05          
  2.7                   2.071e-05             1.6e-13               -1.4136e-08           -2.0768e-05          
  2.8                   2.0886e-05            4e-14                 -2.111e-08            -2.0864e-05          
  2.9                   2.099e-05             -6e-14                -3.0686e-08           -2.0956e-05          
  3                     2.1096e-05            0                     -4.3644e-08           -2.1044e-05          
  3.1                   2.121e-05             -2e-14                -6.0626e-08           -2.1058e-05          
  3.2                   2.1242e-05            0                     -8.3158e-08           -2.1156e-05          
  3.3                   2.1378e-05            4e-14                 -1.12726e-07          -2.1326e-05          
  3.4                   2.1572e-05            -8e-14                -1.503e-07            -2.1418e-05          
  3.5                   2.1718e-05            2e-14                 -1.975e-07            -2.1478e-05          
  3.6                   2.1874e-05            -4e-14                -2.5778e-07           -2.1606e-05          
END_DB

BEGIN_DB
 ICCAP_VAR vg         2.15           
 ICCAP_VAR vb         0              
 ICCAP_VAR vs         0              

 #vd                    id                    ig                    ib                    is                   
  0                     2.2458e-09            5.6e-13               8.78e-12              -2.6508e-09          
  0.1                   1.0348e-05            4.2e-13               9.6e-12               -1.034e-05           
  0.2                   1.9688e-05            2.2e-13               7.62e-12              -1.9682e-05          
  0.3                   2.7872e-05            2.8e-13               8.38e-12              -2.7842e-05          
  0.4                   3.4824e-05            3.2e-13               7.56e-12              -3.484e-05           
  0.5                   4.0582e-05            2e-13                 7.18e-12              -4.0576e-05          
  0.6                   4.5126e-05            1.2e-13               8.8e-12               -4.5118e-05          
  0.7                   4.864e-05             2.4e-13               6.66e-12              -4.8616e-05          
  0.8                   5.1222e-05            1.2e-13               7.06e-12              -5.1214e-05          
  0.9                   5.3114e-05            2.8e-13               7.88e-12              -5.3114e-05          
  1                     5.4496e-05            2.2e-13               7.72e-12              -5.4494e-05          
  1.1                   5.5496e-05            1.8e-13               7.3e-12               -5.5488e-05          
  1.2                   5.6254e-05            2.8e-13               7.86e-12              -5.6242e-05          
  1.3                   5.6852e-05            2.6e-13               6.68e-12              -5.685e-05           
  1.4                   5.7348e-05            2.6e-13               7.34e-12              -5.7344e-05          
  1.5                   5.7766e-05            1.2e-13               7.42e-12              -5.777e-05           
  1.6                   5.8116e-05            8e-14                 6.42e-12              -5.8128e-05          
  1.7                   5.8486e-05            2.4e-13               5.76e-12              -5.8494e-05          
  1.8                   5.8782e-05            1.6e-13               3.6e-13               -5.8778e-05          
  1.9                   5.9054e-05            1.4e-13               -1.416e-11            -5.9036e-05          
  2                     5.9284e-05            2e-13                 -5.094e-11            -5.929e-05           
  2.1                   5.9518e-05            2.6e-13               -1.4158e-10           -5.9516e-05          
  2.2                   5.9754e-05            1.8e-13               -3.418e-10            -5.9746e-05          
  2.3                   5.9952e-05            2.6e-13               -7.4666e-10           -5.9944e-05          
  2.4                   6.0168e-05            1.8e-13               -1.4986e-09           -6.0162e-05          
  2.5                   6.0372e-05            4e-14                 -2.8514e-09           -6.034e-05           
  2.6                   6.0538e-05            1.2e-13               -5.1352e-09           -6.0548e-05          
  2.7                   6.074e-05             -4e-14                -8.817e-09            -6.0716e-05          
  2.8                   6.0916e-05            1.6e-13               -1.4502e-08           -6.09e-05            
  2.9                   6.111e-05             1.6e-13               -2.2942e-08           -6.1072e-05          
  3                     6.1278e-05            2e-13                 -3.5156e-08           -6.1244e-05          
  3.1                   6.1474e-05            2e-13                 -5.2356e-08           -6.142e-05           
  3.2                   6.1658e-05            1.6e-13               -7.6124e-08           -6.1584e-05          
  3.3                   6.1852e-05            8e-14                 -1.08198e-07          -6.1736e-05          
  3.4                   6.2066e-05            0                     -1.512e-07            -6.1906e-05          
  3.5                   6.2362e-05            -2e-14                -2.0778e-07           -6.214e-05           
  3.6                   6.26e-05              1.4e-13               -2.8102e-07           -6.2304e-05          
END_DB

BEGIN_DB
 ICCAP_VAR vg         2.875          
 ICCAP_VAR vb         0              
 ICCAP_VAR vs         0              

 #vd                    id                    ig                    ib                    is                   
  0                     2.3436e-09            6.6e-13               6.6e-12               -3.167e-09           
  0.1                   1.3982e-05            3.8e-13               6.06e-12              -1.3976e-05          
  0.2                   2.7116e-05            4e-13                 6.44e-12              -2.7116e-05          
  0.3                   3.9216e-05            5.4e-13               5.14e-12              -3.9212e-05          
  0.4                   5.016e-05             3.6e-13               5.9e-12               -5.0154e-05          
  0.5                   5.9852e-05            3.8e-13               5.2e-12               -5.9816e-05          
  0.6                   6.8216e-05            3e-13                 5.1e-12               -6.8212e-05          
  0.7                   7.5364e-05            2.4e-13               6.18e-12              -7.5362e-05          
  0.8                   8.1364e-05            2.2e-13               5.82e-12              -8.1364e-05          
  0.9                   8.6248e-05            3.4e-13               5.26e-12              -8.6238e-05          
  1                     9.0158e-05            3e-13                 6.48e-12              -9.0096e-05          
  1.1                   9.3188e-05            3.8e-13               5.58e-12              -9.3242e-05          
  1.2                   9.5652e-05            2.4e-13               5.34e-12              -9.5642e-05          
  1.3                   9.7522e-05            3.4e-13               6.28e-12              -9.7508e-05          
  1.4                   9.8984e-05            2.4e-13               4.94e-12              -9.8994e-05          
  1.5                   0.000100122           2.2e-13               5.62e-12              -0.000100094         
  1.6                   0.00010106            3.8e-13               6.28e-12              -0.000101062         
  1.7                   0.000101768           1.8e-13               4.94e-12              -0.000101756         
  1.8                   0.000102446           1.8e-13               4.7e-12               -0.000102484         
  1.9                   0.000103046           2.6e-13               1.48e-12              -0.000103032         
  2                     0.000103458           2.2e-13               -7.74e-12             -0.000103456         
  2.1                   0.000103904           2.4e-13               -2.894e-11            -0.000103916         
  2.2                   0.00010433            2.4e-13               -8.322e-11            -0.000104298         
  2.3                   0.000104714           8e-14                 -2.0582e-10           -0.000104628         
  2.4                   0.000104972           2e-14                 -4.5772e-10           -0.000105028         
  2.5                   0.000105324           2.2e-13               -9.5808e-10           -0.0001051           
  2.6                   0.000105624           2e-13                 -1.8748e-09           -0.00010532          
  2.7                   0.00010591            2e-13                 -3.4702e-09           -0.00010568          
  2.8                   0.000106208           4e-14                 -6.212e-09            -0.00010596          
  2.9                   0.000106456           1e-13                 -1.04818e-08          -0.00010624          
  3                     0.000106736           2e-13                 -1.7172e-08           -0.00010648          
  3.1                   0.000106978           1.2e-13               -2.714e-08            -0.00010672          
  3.2                   0.000107242           1e-13                 -4.175e-08            -0.00010698          
  3.3                   0.000107504           1.4e-13               -6.244e-08            -0.0001072           
  3.4                   0.000107752           6e-14                 -9.123e-08            -0.00010742          
  3.5                   0.000108              1.2e-13               -1.3062e-07           -0.00010764          
  3.6                   0.00010826            1e-13                 -1.8342e-07           -0.00010784          
END_DB

BEGIN_DB
 ICCAP_VAR vg         3.6            
 ICCAP_VAR vb         0              
 ICCAP_VAR vs         0              

 #vd                    id                    ig                    ib                    is                   
  0                     2.373e-09             6.2e-13               5.24e-12              -3.9034e-09          
  0.1                   1.6538e-05            5.8e-13               6.1e-12               -1.653e-05           
  0.2                   3.2364e-05            4.4e-13               4.52e-12              -3.2362e-05          
  0.3                   4.7268e-05            4.4e-13               4.96e-12              -4.7264e-05          
  0.4                   6.115e-05             2.8e-13               5e-12                 -6.1146e-05          
  0.5                   7.3866e-05            4.6e-13               3.68e-12              -7.3864e-05          
  0.6                   8.5334e-05            4.6e-13               5.1e-12               -8.5326e-05          
  0.7                   9.5572e-05            3.6e-13               5.06e-12              -9.5568e-05          
  0.8                   0.00010458            1.4e-13               3.2e-12               -0.000104576         
