! VERSION = 6.00
BEGIN_HEADER
 ICCAP_INPUTS
  vd         V  D GROUND SMU1 0.1 LIN        1    0          3.6        37   0.1       
  vg         V  G GROUND SMU2 0.001 LIN        2    0.624      3.6        5    0.744     
  vb         V  B GROUND SMU4 0.1 CON        0
  vs         V  S GROUND SMU3 0.1 CON        0
 ICCAP_OUTPUTS
  id         I  D GROUND SMU1 B
  ig         I  G GROUND SMU2 B
  ib         I  B GROUND SMU4 B
  is         I  S GROUND SMU3 B
 ICCAP_VALUES
  MASTER_SETUP_TYPE "~dc_idvd~"
  LINVT_VALUE "|idvg|100.0n|100.0m|1.000m|5|3.600|"
  LISTVT_VALUE ""
  TYPE "1"
  TEMP " 70.0000 "
  IS_TNOM " 0.00000 "
  MAIN.W "300.0n"
  MAIN.L "10.00u"
  MAIN.AD "102.0f"
  MAIN.AS "102.0f"
  MAIN.PD "1.280u"
  MAIN.PS "1.280u"
  MAIN.NF "1.000"
  MAIN.M "1"
  MAIN.NRD "0.000"
  MAIN.NRS "0.000"
  MAIN.LDRIFT1 "1E-06"
  MAIN.LDRIFT2 "1E-06"
  MAIN.SA "0.000"
  MAIN.SB "0.000"
  MAIN.SD "0.000"
  MAIN.SCA "0.000"
  MAIN.SCB "0.000"
  MAIN.SCC "0.000"
  MAIN.SC "0.000"
  MODULE "S547"
  PIN_D "14"
  PIN_G "7"
  PIN_S "8"
  PIN_B "13"
  PIN_E ""
  PIN_6 ""
  XY_ID ""
  FUNC "Narrow"
  STI "SA ref"
  WPE "WPE ref"
  COMMENT ""
  DIS_MEAS ""
  TypeTCI "10"
END_HEADER

BEGIN_DB
 ICCAP_VAR vg         0.624          
 ICCAP_VAR vb         0              
 ICCAP_VAR vs         0              

 #vd                    id                    ig                    ib                    is                   
  0                     1.388e-11             -1e-13                3.98e-11              -1.116e-11           
  0.1                   1.296e-08             -2.2e-13              3.688e-11             -1.2946e-08          
  0.2                   1.4534e-08            -4e-14                3.376e-11             -1.452e-08           
  0.3                   1.4632e-08            0                     3.314e-11             -1.4618e-08          
  0.4                   1.4648e-08            -1.8e-13              3.368e-11             -1.4626e-08          
  0.5                   1.4656e-08            -1.8e-13              3.1e-11               -1.4642e-08          
  0.6                   1.4668e-08            -1e-13                2.942e-11             -1.4644e-08          
  0.7                   1.4668e-08            -3e-13                2.912e-11             -1.4658e-08          
  0.8                   1.4672e-08            -1.2e-13              2.93e-11              -1.4662e-08          
  0.9                   1.468e-08             -1.6e-13              2.78e-11              -1.466e-08           
  1                     1.4688e-08            -2.6e-13              2.654e-11             -1.467e-08           
  1.1                   1.4692e-08            -1.2e-13              2.606e-11             -1.467e-08           
  1.2                   1.4696e-08            -1.2e-13              2.596e-11             -1.4674e-08          
  1.3                   1.4698e-08            -2.2e-13              2.632e-11             -1.4682e-08          
  1.4                   1.4704e-08            -6e-14                2.464e-11             -1.4684e-08          
  1.5                   1.4706e-08            -2.4e-13              2.362e-11             -1.4694e-08          
  1.6                   1.4712e-08            -1.6e-13              2.42e-11              -1.4698e-08          
  1.7                   1.472e-08             -1.2e-13              2.376e-11             -1.4702e-08          
  1.8                   1.4718e-08            -2.6e-13              2.124e-11             -1.4698e-08          
  1.9                   1.4722e-08            -1.2e-13              2.016e-11             -1.47e-08            
  2                     1.4726e-08            -1.2e-13              1.942e-11             -1.4706e-08          
  2.1                   1.4734e-08            -2.4e-13              1.706e-11             -1.4712e-08          
  2.2                   1.4738e-08            -2.2e-13              1.468e-11             -1.4712e-08          
  2.3                   1.4744e-08            -1.6e-13              9.72e-12              -1.4718e-08          
  2.4                   1.4752e-08            -2.8e-13              5.24e-12              -1.4722e-08          
  2.5                   1.4758e-08            -8e-14                -1.7e-12              -1.4722e-08          
  2.6                   1.477e-08             -1.6e-13              -1.214e-11            -1.472e-08           
  2.7                   1.4776e-08            -1.4e-13              -2.47e-11             -1.4724e-08          
  2.8                   1.4808e-08            0                     -4.104e-11            -1.4726e-08          
  2.9                   1.483e-08             -1.8e-13              -6.208e-11            -1.4728e-08          
  3                     1.4856e-08            -1.8e-13              -8.902e-11            -1.4732e-08          
  3.1                   1.4892e-08            -2e-13                -1.2316e-10           -1.4738e-08          
  3.2                   1.4936e-08            -2.2e-13              -1.6538e-10           -1.4734e-08          
  3.3                   1.4994e-08            -2.8e-13              -2.1472e-10           -1.4738e-08          
  3.4                   1.5056e-08            -2e-13                -2.7974e-10           -1.4742e-08          
  3.5                   1.5134e-08            -2.6e-13              -3.5476e-10           -1.4746e-08          
  3.6                   1.5222e-08            -1e-13                -4.4426e-10           -1.4746e-08          
END_DB

BEGIN_DB
 ICCAP_VAR vg         1.368          
 ICCAP_VAR vb         0              
 ICCAP_VAR vs         0              

 #vd                    id                    ig                    ib                    is                   
  0                     1.157e-10             5.2e-13               1.362e-11             -1.2392e-10          
  0.1                   2.5768e-07            3e-13                 1.242e-11             -2.577e-07           
  0.2                   4.6412e-07            2.4e-13               1.332e-11             -4.6414e-07          
  0.3                   6.2048e-07            2e-13                 1.212e-11             -6.2056e-07          
  0.4                   7.297e-07             2.4e-13               1.26e-11              -7.2974e-07          
  0.5                   7.9566e-07            1.4e-13               1.202e-11             -7.9594e-07          
  0.6                   8.2682e-07            2.4e-13               1.228e-11             -8.2694e-07          
  0.7                   8.3716e-07            1.2e-13               1.16e-11              -8.3708e-07          
  0.8                   8.4006e-07            8e-14                 1.122e-11             -8.401e-07           
  0.9                   8.4108e-07            8e-14                 1.108e-11             -8.4124e-07          
  1                     8.418e-07             8e-14                 1.226e-11             -8.4184e-07          
  1.1                   8.4226e-07            1e-13                 1.054e-11             -8.4234e-07          
  1.2                   8.427e-07             8e-14                 1.028e-11             -8.4278e-07          
  1.3                   8.431e-07             8e-14                 1.234e-11             -8.4316e-07          
  1.4                   8.4336e-07            2e-14                 1.072e-11             -8.4342e-07          
  1.5                   8.4364e-07            1e-13                 1.172e-11             -8.4362e-07          
  1.6                   8.4376e-07            1.4e-13               1.092e-11             -8.4394e-07          
  1.7                   8.44e-07              1.4e-13               1.186e-11             -8.442e-07           
  1.8                   8.4444e-07            1.8e-13               1.07e-11              -8.4446e-07          
  1.9                   8.446e-07             8e-14                 9.34e-12              -8.4486e-07          
  2                     8.4478e-07            1.2e-13               9.18e-12              -8.449e-07           
  2.1                   8.4504e-07            4e-14                 8.5e-12               -8.4524e-07          
  2.2                   8.4524e-07            -6e-14                2.54e-12              -8.4522e-07          
  2.3                   8.453e-07             -8e-14                -6.82e-12             -8.454e-07           
  2.4                   8.4554e-07            6e-14                 -2.416e-11            -8.4552e-07          
  2.5                   8.4578e-07            8e-14                 -5.856e-11            -8.4568e-07          
  2.6                   8.4586e-07            6e-14                 -1.1666e-10           -8.4588e-07          
  2.7                   8.4622e-07            2e-13                 -2.062e-10            -8.461e-07           
  2.8                   8.4644e-07            8e-14                 -3.4124e-10           -8.4612e-07          
  2.9                   8.4684e-07            -2e-14                -5.3998e-10           -8.464e-07           
  3                     8.4724e-07            -2e-14                -8.1858e-10           -8.4648e-07          
  3.1                   8.4788e-07            4e-14                 -1.1984e-09           -8.4672e-07          
  3.2                   8.4834e-07            6e-14                 -1.7144e-09           -8.4678e-07          
  3.3                   8.4922e-07            0                     -2.3964e-09           -8.4694e-07          
  3.4                   8.5022e-07            1e-13                 -3.2896e-09           -8.47e-07            
  3.5                   8.515e-07             -4e-14                -4.4452e-09           -8.4712e-07          
  3.6                   8.5314e-07            4e-14                 -5.9234e-09           -8.4716e-07          
END_DB

BEGIN_DB
 ICCAP_VAR vg         2.112          
 ICCAP_VAR vb         0              
 ICCAP_VAR vs         0              

 #vd                    id                    ig                    ib                    is                   
  0                     1.9616e-10            5.8e-13               8.06e-12              -2.0712e-10          
  0.1                   5.0502e-07            3.4e-13               8.7e-12               -5.0506e-07          
  0.2                   9.6446e-07            5.2e-13               7.48e-12              -9.6458e-07          
  0.3                   1.3788e-06            3e-13                 5.72e-12              -1.3752e-06          
  0.4                   1.7466e-06            3.6e-13               7.54e-12              -1.743e-06           
  0.5                   2.0684e-06            1.8e-13               6.5e-12               -2.0652e-06          
  0.6                   2.3444e-06            2.2e-13               7.06e-12              -2.341e-06           
  0.7                   2.5748e-06            1.8e-13               7.48e-12              -2.5714e-06          
  0.8                   2.76e-06              1.6e-13               6.78e-12              -2.7568e-06          
  0.9                   2.9012e-06            1.6e-13               6.3e-12               -2.898e-06           
  1                     3.001e-06             2.6e-13               6.88e-12              -2.9976e-06          
  1.1                   3.0632e-06            2.2e-13               6.44e-12              -3.0602e-06          
  1.2                   3.096e-06             1.8e-13               7.58e-12              -3.0926e-06          
  1.3                   3.1106e-06            2.4e-13               6.5e-12               -3.1076e-06          
  1.4                   3.1174e-06            1.6e-13               5.62e-12              -3.114e-06           
  1.5                   3.1208e-06            1.2e-13               7.36e-12              -3.1174e-06          
  1.6                   3.1234e-06            2.2e-13               6.42e-12              -3.1198e-06          
  1.7                   3.1246e-06            1.8e-13               4.94e-12              -3.1214e-06          
  1.8                   3.126e-06             1.4e-13               7.64e-12              -3.1226e-06          
  1.9                   3.127e-06             1.2e-13               6.24e-12              -3.1242e-06          
  2                     3.1286e-06            2.6e-13               5.48e-12              -3.1254e-06          
  2.1                   3.1292e-06            2.4e-13               8.24e-12              -3.1258e-06          
  2.2                   3.13e-06              3e-13                 6.8e-12               -3.127e-06           
  2.3                   3.1312e-06            2.8e-13               6.06e-12              -3.1278e-06          
  2.4                   3.1318e-06            2.6e-13               7.42e-12              -3.1284e-06          
  2.5                   3.1326e-06            2.6e-13               5.54e-12              -3.1296e-06          
  2.6                   3.1338e-06            2.4e-13               3.66e-12              -3.1302e-06          
  2.7                   3.134e-06             2e-13                 -1.02e-12             -3.1306e-06          
  2.8                   3.1342e-06            1.4e-13               -1.514e-11            -3.1312e-06          
  2.9                   3.135e-06             1e-13                 -4.372e-11            -3.1318e-06          
  3                     3.136e-06             2e-14                 -1.004e-10            -3.1326e-06          
  3.1                   3.1366e-06            2e-14                 -2.0824e-10           -3.1328e-06          
  3.2                   3.137e-06             1.4e-13               -3.905e-10            -3.1332e-06          
  3.3                   3.1382e-06            4e-14                 -6.8176e-10           -3.134e-06           
  3.4                   3.139e-06             8e-14                 -1.1286e-09           -3.1346e-06          
  3.5                   3.1402e-06            6e-14                 -1.785e-09            -3.135e-06           
  3.6                   3.1416e-06            2e-14                 -2.7168e-09           -3.1356e-06          
END_DB

BEGIN_DB
 ICCAP_VAR vg         2.856          
 ICCAP_VAR vb         0              
 ICCAP_VAR vs         0              

 #vd                    id                    ig                    ib                    is                   
  0                     3.0116e-10            5.8e-13               6.46e-12              -2.956e-10           
  0.1                   6.974e-07             5.4e-13               6.54e-12              -6.9748e-07          
  0.2                   1.3586e-06            3.4e-13               4.78e-12              -1.3552e-06          
  0.3                   1.9796e-06            3.8e-13               5.24e-12              -1.9764e-06          
  0.4                   2.5638e-06            3.8e-13               4.86e-12              -2.5604e-06          
  0.5                   3.109e-06             2.4e-13               4.54e-12              -3.1056e-06          
  0.6                   3.6142e-06            3e-13                 5.84e-12              -3.611e-06           
  0.7                   4.0804e-06            1.8e-13               4.46e-12              -4.077e-06           
  0.8                   4.5066e-06            3.6e-13               4.18e-12              -4.5034e-06          
  0.9                   4.891e-06             3.4e-13               5.76e-12              -4.8878e-06          
  1                     5.235e-06             2.8e-13               4.68e-12              -5.2318e-06          
  1.1                   5.537e-06             3e-13                 3.76e-12              -5.5342e-06          
  1.2                   5.7978e-06            2.8e-13               5.88e-12              -5.7946e-06          
  1.3                   6.0172e-06            1.8e-13               3.7e-12               -6.014e-06           
  1.4                   6.1952e-06            2.2e-13               4.4e-12               -6.192e-06           
  1.5                   6.3334e-06            4e-13                 5.68e-12              -6.3304e-06          
  1.6                   6.434e-06             2e-13                 4.28e-12              -6.4308e-06          
  1.7                   6.5004e-06            8e-14                 3.62e-12              -6.4968e-06          
  1.8                   6.5394e-06            1.6e-13               5.52e-12              -6.536e-06           
  1.9                   6.5606e-06            3e-13                 4.14e-12              -6.5574e-06          
  2                     6.5724e-06            2e-13                 4.8e-12               -6.5684e-06          
  2.1                   6.5786e-06            2.8e-13               4.84e-12              -6.5744e-06          
  2.2                   6.5826e-06            6e-14                 4.04e-12              -6.579e-06           
  2.3                   6.5858e-06            0                     5.66e-12              -6.583e-06           
  2.4                   6.5886e-06            1.4e-13               5.7e-12               -6.5854e-06          
  2.5                   6.5912e-06            2e-13                 3.7e-12               -6.5874e-06          
  2.6                   6.5928e-06            1.6e-13               4.8e-12               -6.5898e-06          
  2.7                   6.5948e-06            2e-13                 4.5e-12               -6.5916e-06          
  2.8                   6.5972e-06            1.6e-13               3.4e-12               -6.5942e-06          
  2.9                   6.5986e-06            1e-13                 5.42e-12              -6.5952e-06          
  3                     6.6e-06               6e-14                 3.64e-12              -6.5968e-06          
  3.1                   6.601e-06             1.4e-13               3.26e-12              -6.5978e-06          
  3.2                   6.6022e-06            1.6e-13               1.38e-12              -6.5992e-06          
  3.3                   6.6038e-06            2.6e-13               -7.82e-12             -6.6004e-06          
  3.4                   6.605e-06             3e-13                 -2.996e-11            -6.6024e-06          
  3.5                   6.6072e-06            2e-14                 -7.714e-11            -6.6038e-06          
  3.6                   6.6084e-06            8e-14                 -1.7516e-10           -6.6046e-06          
END_DB

BEGIN_DB
 ICCAP_VAR vg         3.6            
 ICCAP_VAR vb         0              
 ICCAP_VAR vs         0              

 #vd                    id                    ig                    ib                    is                   
  0                     3.708e-10             6.8e-13               4.74e-12              -3.7064e-10          
  0.1                   8.3484e-07            4.8e-13               4.38e-12              -8.3492e-07          
  0.2                   1.6412e-06            4.8e-13               4.08e-12              -1.6378e-06          
  0.3                   2.4146e-06            4.4e-13               4.54e-12              -2.4112e-06          
  0.4                   3.159e-06             4.6e-13               3.46e-12              -3.1556e-06          
  0.5                   3.8724e-06            4.6e-13               4.5e-12               -3.869e-06           
  0.6                   4.5534e-06            4.8e-13               3.9e-12               -4.5502e-06          
  0.7                   5.2036e-06            4.2e-13               3.88e-12              -5.2002e-06          
  0.8                   5.821e-06             3.6e-13               4.62e-12              -5.818e-06           
