! VERSION = 6.00
BEGIN_HEADER
 ICCAP_INPUTS
  vd         V  D GROUND SMU1 0.1 LIN        1    0          3.6        37   0.1       
  vg         V  G GROUND SMU2 0.001 LIST       2 3 1.144 1.344 1.544
  vb         V  B GROUND SMU4 0.1 CON        -3.6
  vs         V  S GROUND SMU3 0.1 CON        0
 ICCAP_OUTPUTS
  id         I  D GROUND SMU1 B
  ig         I  G GROUND SMU2 B
  ib         I  B GROUND SMU4 B
  is         I  S GROUND SMU3 B
 ICCAP_VALUES
  MASTER_SETUP_TYPE "~dc_idvd~"
  LINVT_VALUE ""
  LISTVT_VALUE "|idvg|100.0n|-200.0m|1.000m|3|200.0m|200.0m|"
  TYPE "1"
  TEMP " 27.0000 "
  IS_TNOM " 1.00000 "
  MAIN.W "2.000u"
  MAIN.L "1.200u"
  MAIN.AD "680.0f"
  MAIN.AS "680.0f"
  MAIN.PD "4.680u"
  MAIN.PS "4.680u"
  MAIN.NF "1.000"
  MAIN.M "1"
  MAIN.NRD "0.000"
  MAIN.NRS "0.000"
  MAIN.LDRIFT1 "1E-06"
  MAIN.LDRIFT2 "1E-06"
  MAIN.SA "0.000"
  MAIN.SB "0.000"
  MAIN.SD "0.000"
  MAIN.SCA "0.000"
  MAIN.SCB "0.000"
  MAIN.SCC "0.000"
  MAIN.SC "0.000"
  MODULE "S558"
  PIN_D "16"
  PIN_G "5"
  PIN_S "6"
  PIN_B "15"
  PIN_E ""
  PIN_6 ""
  XY_ID ""
  FUNC "LW Scale"
  STI "SA ref"
  WPE "WPE ref"
  COMMENT ""
  DIS_MEAS ""
  TypeTCI "10"
END_HEADER

BEGIN_DB
 ICCAP_VAR vg         1.144          
 ICCAP_VAR vb         -3.6           
 ICCAP_VAR vs         0              

 #vd                    id                    ig                    ib                    is                   
  0                     1.22e-12              4e-14                 -1.944e-11            -5e-13               
  0.1                   4.9974e-10            6e-14                 -1.708e-11            -5.0066e-10          
  0.2                   5.2274e-10            -2e-13                -1.138e-11            -5.2252e-10          
  0.3                   5.3082e-10            -1.6e-13              -1.382e-11            -5.3106e-10          
  0.4                   5.3858e-10            -2e-14                -1.078e-11            -5.3808e-10          
  0.5                   5.4556e-10            -1.2e-13              -1.036e-11            -5.4426e-10          
  0.6                   5.5214e-10            -1.8e-13              -9.82e-12             -5.5144e-10          
  0.7                   5.5672e-10            -6e-14                -8.26e-12             -5.565e-10           
  0.8                   5.6208e-10            -8e-14                -8.24e-12             -5.6074e-10          
  0.9                   5.6732e-10            -1.2e-13              -7.8e-12              -5.6666e-10          
  1                     5.723e-10             -1.6e-13              -8.34e-12             -5.7078e-10          
  1.1                   5.755e-10             -1e-13                -5.4e-12              -5.7566e-10          
  1.2                   5.8062e-10            -2e-14                -7.62e-12             -5.7956e-10          
  1.3                   5.8408e-10            -1.2e-13              -5.92e-12             -5.8354e-10          
  1.4                   5.8894e-10            -1.6e-13              -6.3e-12              -5.8724e-10          
  1.5                   5.9252e-10            -6e-14                -5.18e-12             -5.9106e-10          
  1.6                   5.9736e-10            -8e-14                -5.66e-12             -5.9548e-10          
  1.7                   5.9942e-10            -1e-13                -5.1e-12              -6.001e-10           
  1.8                   6.0296e-10            6e-14                 -4.24e-12             -6.017e-10           
  1.9                   6.0808e-10            -1.6e-13              -5.84e-12             -6.0536e-10          
  2                     6.1064e-10            -1e-13                -4.44e-12             -6.0972e-10          
  2.1                   6.1398e-10            -1.6e-13              -5.92e-12             -6.1154e-10          
  2.2                   6.1726e-10            -6e-14                -4.24e-12             -6.1526e-10          
  2.3                   6.2026e-10            -1.4e-13              -5.28e-12             -6.1784e-10          
  2.4                   6.2262e-10            -1.2e-13              -5.14e-12             -6.2094e-10          
  2.5                   6.2856e-10            -1e-13                -5.7e-12              -6.2506e-10          
  2.6                   6.3096e-10            -4e-14                -6.22e-12             -6.2728e-10          
  2.7                   6.3384e-10            0                     -5.42e-12             -6.3022e-10          
  2.8                   6.3702e-10            -2e-14                -7.38e-12             -6.339e-10           
  2.9                   6.408e-10             0                     -7.36e-12             -6.3556e-10          
  3                     6.4494e-10            2e-14                 -9.02e-12             -6.3972e-10          
  3.1                   6.493e-10             -4e-14                -1.026e-11            -6.4278e-10          
  3.2                   6.538e-10             2e-14                 -1.256e-11            -6.4552e-10          
  3.3                   6.592e-10             -1.8e-13              -1.59e-11             -6.4728e-10          
  3.4                   6.6558e-10            -1.4e-13              -1.886e-11            -6.4926e-10          
  3.5                   6.7158e-10            -4e-14                -2.364e-11            -6.524e-10           
  3.6                   6.8042e-10            0                     -2.614e-11            -6.5422e-10          
END_DB

BEGIN_DB
 ICCAP_VAR vg         1.344          
 ICCAP_VAR vb         -3.6           
 ICCAP_VAR vs         0              

 #vd                    id                    ig                    ib                    is                   
  0                     1.4588e-10            1e-13                 -1.12e-12             -1.5254e-10          
  0.1                   1.4138e-07            8e-14                 -2.94e-12             -1.4122e-07          
  0.2                   1.5352e-07            1e-13                 -2.2e-12              -1.5332e-07          
  0.3                   1.5724e-07            -2e-14                -3.94e-12             -1.5694e-07          
  0.4                   1.5962e-07            -8e-14                -3.68e-12             -1.5936e-07          
  0.5                   1.6142e-07            -1.2e-13              -2.68e-12             -1.6138e-07          
  0.6                   1.6318e-07            4e-14                 -2.92e-12             -1.6318e-07          
  0.7                   1.6488e-07            -6e-14                -1.48e-12             -1.6472e-07          
  0.8                   1.663e-07             -2e-14                -3.9e-12              -1.661e-07           
  0.9                   1.676e-07             0                     -3.02e-12             -1.6748e-07          
  1                     1.688e-07             1.2e-13               -1.92e-12             -1.6882e-07          
  1.1                   1.6994e-07            2e-14                 -4.54e-12             -1.701e-07           
  1.2                   1.7108e-07            0                     -3.26e-12             -1.7082e-07          
  1.3                   1.7198e-07            0                     -3.02e-12             -1.7192e-07          
  1.4                   1.7304e-07            -4e-14                -2.84e-12             -1.729e-07           
  1.5                   1.74e-07              -4e-14                -3.34e-12             -1.7392e-07          
  1.6                   1.7494e-07            2e-14                 -3.96e-12             -1.7486e-07          
  1.7                   1.7592e-07            -1.4e-13              -3.4e-12              -1.757e-07           
  1.8                   1.768e-07             8e-14                 -3.88e-12             -1.7664e-07          
  1.9                   1.7762e-07            -2e-14                -6.78e-12             -1.7752e-07          
  2                     1.7854e-07            -1.2e-13              -1.122e-11            -1.7838e-07          
  2.1                   1.7938e-07            -1e-13                -1.682e-11            -1.7916e-07          
  2.2                   1.8024e-07            -4e-14                -2.85e-11             -1.8002e-07          
  2.3                   1.8096e-07            2e-14                 -4.774e-11            -1.807e-07           
  2.4                   1.8172e-07            -8e-14                -7.712e-11            -1.8152e-07          
  2.5                   1.8252e-07            -4e-14                -1.2108e-10           -1.8228e-07          
  2.6                   1.8336e-07            -6e-14                -1.85e-10             -1.8296e-07          
  2.7                   1.8426e-07            6e-14                 -2.765e-10            -1.837e-07           
  2.8                   1.8514e-07            -6e-14                -4.0124e-10           -1.8438e-07          
  2.9                   1.8586e-07            -1e-13                -5.6888e-10           -1.8516e-07          
  3                     1.8676e-07            2e-14                 -7.9502e-10           -1.8582e-07          
  3.1                   1.8774e-07            -2e-14                -1.0964e-09           -1.8646e-07          
  3.2                   1.8876e-07            -1.2e-13              -1.4928e-09           -1.8714e-07          
  3.3                   1.8994e-07            2e-14                 -2.0008e-09           -1.8782e-07          
  3.4                   1.9126e-07            -4e-14                -2.6552e-09           -1.8838e-07          
  3.5                   1.9272e-07            -1e-13                -3.4794e-09           -1.8906e-07          
  3.6                   1.9432e-07            4e-14                 -4.4986e-09           -1.897e-07           
END_DB

BEGIN_DB
 ICCAP_VAR vg         1.544          
 ICCAP_VAR vb         -3.6           
 ICCAP_VAR vs         0              

 #vd                    id                    ig                    ib                    is                   
  0                     1.3778e-09            2e-13                 -1.5e-12              -1.239e-09           
  0.1                   2.1228e-06            1.2e-13               -1.64e-12             -2.1198e-06          
  0.2                   2.7926e-06            1.8e-13               -1.9e-12              -2.7894e-06          
  0.3                   2.96e-06              6e-14                 -3.08e-12             -2.9556e-06          
  0.4                   3.0206e-06            -2e-14                -2.54e-12             -3.0192e-06          
  0.5                   3.0596e-06            -4e-14                -2.42e-12             -3.0552e-06          
  0.6                   3.0858e-06            1e-13                 -3.24e-12             -3.0828e-06          
  0.7                   3.1082e-06            1e-13                 -2.82e-12             -3.105e-06           
  0.8                   3.1284e-06            1e-13                 -2.16e-12             -3.1236e-06          
  0.9                   3.1448e-06            0                     -3.24e-12             -3.141e-06           
  1                     3.1612e-06            0                     -3.2e-12              -3.1576e-06          
  1.1                   3.176e-06             -8e-14                -2.34e-12             -3.1732e-06          
  1.2                   3.1908e-06            0                     -3.4e-12              -3.1878e-06          
  1.3                   3.205e-06             6e-14                 -3.64e-12             -3.1994e-06          
  1.4                   3.2176e-06            4e-14                 -2.58e-12             -3.2126e-06          
  1.5                   3.2304e-06            2e-14                 -3.36e-12             -3.2264e-06          
  1.6                   3.2416e-06            4e-14                 -4.36e-12             -3.2366e-06          
  1.7                   3.2538e-06            0                     -2.98e-12             -3.2486e-06          
  1.8                   3.2646e-06            2e-14                 -6.94e-12             -3.26e-06            
  1.9                   3.2748e-06            -6e-14                -1.558e-11            -3.2704e-06          
  2                     3.2854e-06            0                     -3.348e-11            -3.2826e-06          
  2.1                   3.2964e-06            -8e-14                -7.518e-11            -3.2902e-06          
  2.2                   3.3054e-06            2e-14                 -1.5454e-10           -3.3018e-06          
  2.3                   3.3168e-06            -4e-14                -2.9956e-10           -3.312e-06           
  2.4                   3.3254e-06            6e-14                 -5.4548e-10           -3.3216e-06          
  2.5                   3.3374e-06            0                     -9.388e-10            -3.3304e-06          
  2.6                   3.3472e-06            2e-14                 -1.5438e-09           -3.3408e-06          
  2.7                   3.3572e-06            0                     -2.4344e-09           -3.3504e-06          
  2.8                   3.366e-06             -2e-14                -3.7134e-09           -3.3584e-06          
  2.9                   3.3784e-06            -8e-14                -5.5044e-09           -3.3678e-06          
  3                     3.3856e-06            6e-14                 -7.9702e-09           -3.3748e-06          
  3.1                   3.3988e-06            0                     -1.13162e-08          -3.3832e-06          
  3.2                   3.412e-06             -1e-13                -1.5782e-08           -3.3914e-06          
  3.3                   3.426e-06             -1.6e-13              -2.166e-08            -3.4e-06             
  3.4                   3.4414e-06            0                     -2.9352e-08           -3.4078e-06          
  3.5                   3.4588e-06            -2e-14                -3.9258e-08           -3.4158e-06          
  3.6                   3.4808e-06            -2e-14                -5.1878e-08           -3.4242e-06          
END_DB

