! VERSION = 6.00
BEGIN_HEADER
 ICCAP_INPUTS
  vd         V  D GROUND SMU1 0.1 LIN        1    0          3.6        37   0.1       
  vg         V  G GROUND SMU2 0.001 LIN        2    0.804      3.6        5    0.699     
  vb         V  B GROUND SMU4 0.1 CON        0
  vs         V  S GROUND SMU3 0.1 CON        0
 ICCAP_OUTPUTS
  id         I  D GROUND SMU1 B
  ig         I  G GROUND SMU2 B
  ib         I  B GROUND SMU4 B
  is         I  S GROUND SMU3 B
 ICCAP_VALUES
  MASTER_SETUP_TYPE "~dc_idvd~"
  LINVT_VALUE "|idvg|100.0n|100.0m|1.000m|5|3.600|"
  LISTVT_VALUE ""
  TYPE "1"
  TEMP "-40.0000 "
  IS_TNOM " 0.00000 "
  MAIN.W "300.0n"
  MAIN.L "500.0n"
  MAIN.AD "102.0f"
  MAIN.AS "102.0f"
  MAIN.PD "1.280u"
  MAIN.PS "1.280u"
  MAIN.NF "1.000"
  MAIN.M "1"
  MAIN.NRD "0.000"
  MAIN.NRS "0.000"
  MAIN.LDRIFT1 "1E-06"
  MAIN.LDRIFT2 "1E-06"
  MAIN.SA "0.000"
  MAIN.SB "0.000"
  MAIN.SD "0.000"
  MAIN.SCA "0.000"
  MAIN.SCB "0.000"
  MAIN.SCC "0.000"
  MAIN.SC "0.000"
  MODULE "S560"
  PIN_D "14"
  PIN_G "7"
  PIN_S "8"
  PIN_B "13"
  PIN_E ""
  PIN_6 ""
  XY_ID ""
  FUNC "Small"
  STI "SA ref"
  WPE "WPE ref"
  COMMENT ""
  DIS_MEAS ""
  TypeTCI "10"
END_HEADER

BEGIN_DB
 ICCAP_VAR vg         0.804          
 ICCAP_VAR vb         0              
 ICCAP_VAR vs         0              

 #vd                    id                    ig                    ib                    is                   
  0                     3.1734e-10            2e-13                 1.524e-11             -2.1778e-10          
  0.1                   1.8844e-07            4e-14                 1.318e-11             -1.8824e-07          
  0.2                   2.281e-07             -4e-14                1.218e-11             -2.2632e-07          
  0.3                   2.4848e-07            -8e-14                1.17e-11              -2.4816e-07          
  0.4                   2.6466e-07            -6e-14                1.3e-11               -2.6548e-07          
  0.5                   2.827e-07             -8e-14                1.15e-11              -2.826e-07           
  0.6                   2.9608e-07            -1e-13                1.034e-11             -2.9586e-07          
  0.7                   3.0728e-07            -8e-14                1.092e-11             -3.0714e-07          
  0.8                   3.1982e-07            6e-14                 1.078e-11             -3.2168e-07          
  0.9                   3.3198e-07            -4e-14                9.68e-12              -3.321e-07           
  1                     3.4392e-07            4e-14                 1.016e-11             -3.438e-07           
  1.1                   3.601e-07             -6e-14                9.48e-12              -3.603e-07           
  1.2                   3.7356e-07            -1.2e-13              1.066e-11             -3.74e-07            
  1.3                   3.8582e-07            -2.4e-13              9.14e-12              -3.86e-07            
  1.4                   3.9758e-07            -6e-14                7.5e-12               -3.975e-07           
  1.5                   4.0918e-07            0                     7.88e-12              -4.0884e-07          
  1.6                   4.1996e-07            8e-14                 5.98e-12              -4.2016e-07          
  1.7                   4.3006e-07            -1e-13                2.6e-13               -4.2452e-07          
  1.8                   4.41e-07              -1.8e-13              -1.066e-11            -4.41e-07            
  1.9                   4.5214e-07            -1.6e-13              -3.146e-11            -4.5196e-07          
  2                     4.6368e-07            -8e-14                -6.74e-11             -4.6342e-07          
  2.1                   4.7708e-07            6e-14                 -1.2876e-10           -4.7746e-07          
  2.2                   4.867e-07             0                     -2.2178e-10           -4.8648e-07          
  2.3                   4.9798e-07            0                     -3.5954e-10           -4.9986e-07          
  2.4                   5.1022e-07            -1.2e-13              -5.6102e-10           -5.09e-07            
  2.5                   5.2168e-07            0                     -8.5108e-10           -5.2008e-07          
  2.6                   5.342e-07             -1.4e-13              -1.252e-09            -5.3176e-07          
  2.7                   5.481e-07             -6e-14                -1.799e-09            -5.4376e-07          
  2.8                   5.5802e-07            0                     -2.5474e-09           -5.5544e-07          
  2.9                   5.7036e-07            -6e-14                -3.5576e-09           -5.6786e-07          
  3                     5.8498e-07            -1.2e-13              -4.8706e-09           -5.8038e-07          
  3.1                   5.9906e-07            -1.2e-13              -6.5934e-09           -5.9226e-07          
  3.2                   6.1052e-07            -8e-14                -8.8028e-09           -6.0166e-07          
  3.3                   6.2704e-07            -4e-14                -1.1594e-08           -6.125e-07           
  3.4                   6.3972e-07            -1.8e-13              -1.5068e-08           -6.2434e-07          
  3.5                   6.551e-07             -6e-14                -1.933e-08            -6.3594e-07          
  3.6                   6.7202e-07            -1.8e-13              -2.4474e-08           -6.4756e-07          
END_DB

BEGIN_DB
 ICCAP_VAR vg         1.503          
 ICCAP_VAR vb         0              
 ICCAP_VAR vs         0              

 #vd                    id                    ig                    ib                    is                   
  0                     2.4032e-09            3.4e-13               5.86e-12              -2.7142e-09          
  0.1                   7.393e-06             2.8e-13               6e-12                 -7.3894e-06          
  0.2                   1.3106e-05            1.8e-13               4.34e-12              -1.309e-05           
  0.3                   1.7194e-05            2.4e-13               4.38e-12              -1.7174e-05          
  0.4                   1.989e-05             1.4e-13               4.34e-12              -1.9868e-05          
  0.5                   2.1534e-05            1.6e-13               4.9e-12               -2.1524e-05          
  0.6                   2.2544e-05            8e-14                 4.1e-12               -2.2546e-05          
  0.7                   2.3234e-05            8e-14                 -7.2e-13              -2.322e-05           
  0.8                   2.3682e-05            1.6e-13               5.48e-12              -2.3664e-05          
  0.9                   2.403e-05             1.2e-13               3.86e-12              -2.4016e-05          
  1                     2.432e-05             4e-14                 3.7e-12               -2.4306e-05          
  1.1                   2.4576e-05            -8e-14                5.06e-12              -2.456e-05           
  1.2                   2.48e-05              6e-14                 2.94e-12              -2.4768e-05          
  1.3                   2.5006e-05            -2e-14                3.08e-12              -2.4988e-05          
  1.4                   2.5192e-05            0                     4.42e-12              -2.511e-05           
  1.5                   2.5308e-05            8e-14                 2.88e-12              -2.5296e-05          
  1.6                   2.5474e-05            1.2e-13               5.6e-13               -2.5454e-05          
  1.7                   2.5634e-05            1.4e-13               -8.08e-12             -2.5604e-05          
  1.8                   2.5786e-05            4e-14                 -3.76e-11             -2.5774e-05          
  1.9                   2.5942e-05            2.2e-13               -1.148e-10            -2.5926e-05          
  2                     2.6102e-05            1e-13                 -2.9814e-10           -2.6076e-05          
  2.1                   2.6296e-05            1.4e-13               -6.8026e-10           -2.6262e-05          
  2.2                   2.6414e-05            1.6e-13               -1.4034e-09           -2.6402e-05          
  2.3                   2.6546e-05            0                     -2.676e-09            -2.6534e-05          
  2.4                   2.6686e-05            4e-14                 -4.7662e-09           -2.6666e-05          
  2.5                   2.6816e-05            4e-14                 -8.0524e-09           -2.6796e-05          
  2.6                   2.6952e-05            1e-13                 -1.2982e-08           -2.6924e-05          
  2.7                   2.7088e-05            -2e-14                -2.0136e-08           -2.705e-05           
  2.8                   2.7224e-05            1e-13                 -3.032e-08            -2.7176e-05          
  2.9                   2.7348e-05            4e-14                 -4.4426e-08           -2.7284e-05          
  3                     2.7508e-05            0                     -6.383e-08            -2.7416e-05          
  3.1                   2.7652e-05            2e-14                 -8.9898e-08           -2.7538e-05          
  3.2                   2.7802e-05            4e-14                 -1.2446e-07           -2.7668e-05          
  3.3                   2.7966e-05            -2e-14                -1.6986e-07           -2.7786e-05          
  3.4                   2.8146e-05            4e-14                 -2.2874e-07           -2.7922e-05          
  3.5                   2.8344e-05            -1e-13                -3.0452e-07           -2.8068e-05          
  3.6                   2.8616e-05            0                     -3.9954e-07           -2.819e-05           
END_DB

BEGIN_DB
 ICCAP_VAR vg         2.202          
 ICCAP_VAR vb         0              
 ICCAP_VAR vs         0              

 #vd                    id                    ig                    ib                    is                   
  0                     2.7486e-09            2.4e-13               4.3e-12               -4.3384e-09          
  0.1                   1.4682e-05            2.8e-13               4.32e-12              -1.4664e-05          
  0.2                   2.7732e-05            4.6e-13               2.9e-12               -2.772e-05           
  0.3                   3.8822e-05            1e-13                 1.54e-12              -3.8794e-05          
  0.4                   4.784e-05             2.2e-13               3e-12                 -4.7822e-05          
  0.5                   5.4836e-05            2.8e-13               2.4e-12               -5.4834e-05          
  0.6                   6.0064e-05            2.4e-13               2.16e-12              -6.0054e-05          
  0.7                   6.3832e-05            2.8e-13               3.12e-12              -6.3808e-05          
  0.8                   6.6478e-05            2.2e-13               2.44e-12              -6.6466e-05          
  0.9                   6.8336e-05            1.6e-13               2.44e-12              -6.8302e-05          
  1                     6.9624e-05            1.8e-13               3.32e-12              -6.9588e-05          
  1.1                   7.059e-05             1.2e-13               3.14e-12              -7.058e-05           
  1.2                   7.1342e-05            1.4e-13               2.72e-12              -7.1348e-05          
  1.3                   7.1936e-05            1.4e-13               3.42e-12              -7.1918e-05          
  1.4                   7.246e-05             2.8e-13               2.74e-12              -7.2444e-05          
  1.5                   7.29e-05              1e-13                 1.56e-12              -7.2872e-05          
  1.6                   7.3278e-05            2e-14                 1.04e-12              -7.327e-05           
  1.7                   7.3634e-05            1.6e-13               -2.2e-13              -7.3614e-05          
  1.8                   7.3954e-05            6e-14                 -1.132e-11            -7.3926e-05          
  1.9                   7.4252e-05            2e-13                 -2.918e-11            -7.423e-05           
  2                     7.4542e-05            2.4e-13               -9.182e-11            -7.4502e-05          
  2.1                   7.4788e-05            2.8e-13               -2.4492e-10           -7.4778e-05          
  2.2                   7.505e-05             1.6e-13               -5.8362e-10           -7.5024e-05          
  2.3                   7.5308e-05            1.8e-13               -1.2772e-09           -7.5284e-05          
  2.4                   7.5536e-05            1.2e-13               -2.5804e-09           -7.5534e-05          
  2.5                   7.5758e-05            1.8e-13               -4.886e-09            -7.574e-05           
  2.6                   7.5982e-05            1.6e-13               -8.7254e-09           -7.5954e-05          
  2.7                   7.6198e-05            1.6e-13               -1.4826e-08           -7.6162e-05          
  2.8                   7.64e-05              1.4e-13               -2.4136e-08           -7.6366e-05          
  2.9                   7.6616e-05            1e-13                 -3.7848e-08           -7.6568e-05          
  3                     7.6842e-05            1.2e-13               -5.7642e-08           -7.6766e-05          
  3.1                   7.7074e-05            1.2e-13               -8.5468e-08           -7.6988e-05          
  3.2                   7.7336e-05            1.6e-13               -1.2384e-07           -7.7172e-05          
  3.3                   7.7586e-05            1.6e-13               -1.7592e-07           -7.7378e-05          
  3.4                   7.7838e-05            2.2e-13               -2.4558e-07           -7.7582e-05          
  3.5                   7.8132e-05            2.4e-13               -3.3762e-07           -7.7772e-05          
  3.6                   7.8474e-05            2e-13                 -4.5774e-07           -7.8e-05             
END_DB

BEGIN_DB
 ICCAP_VAR vg         2.901          
 ICCAP_VAR vb         0              
 ICCAP_VAR vs         0              

 #vd                    id                    ig                    ib                    is                   
  0                     1.0972e-08            5e-13                 2.18e-12              -1.0468e-08          
  0.1                   1.9772e-05            3.6e-13               1.9e-12               -1.9754e-05          
  0.2                   3.8124e-05            1.4e-13               2.24e-12              -3.8118e-05          
  0.3                   5.4638e-05            2.2e-13               1.32e-12              -5.4618e-05          
  0.4                   6.907e-05             2.4e-13               1.3e-12               -6.9048e-05          
  0.5                   8.1294e-05            3.4e-13               2.32e-12              -8.1228e-05          
  0.6                   9.1302e-05            3.2e-13               1.02e-12              -9.1304e-05          
  0.7                   9.9482e-05            2.8e-13               1.78e-12              -9.945e-05           
  0.8                   0.000105866           2.8e-13               6.36e-12              -0.000105848         
  0.9                   0.000110794           1.6e-13               9e-13                 -0.000110778         
  1                     0.00011468            2.6e-13               1.32e-12              -0.000114542         
  1.1                   0.00011752            6e-14                 1.98e-12              -0.00011712          
  1.2                   0.00011968            1.6e-13               1.14e-12              -0.0001193           
  1.3                   0.00012134            2.4e-13               8.8e-13               -0.00012094          
  1.4                   0.00012262            1.6e-13               2.92e-12              -0.0001222           
  1.5                   0.00012366            1.4e-13               1.54e-12              -0.00012328          
  1.6                   0.00012452            0                     1.98e-12              -0.00012412          
  1.7                   0.00012528            1.4e-13               1.7e-12               -0.00012492          
  1.8                   0.0001259             8e-14                 -4.2e-13              -0.00012552          
  1.9                   0.00012646            4e-14                 -4.96e-12             -0.00012608          
  2                     0.00012694            1.8e-13               -2.016e-11            -0.00012658          
  2.1                   0.00012738            2.6e-13               -6.646e-11            -0.00012702          
  2.2                   0.0001278             1.8e-13               -1.7742e-10           -0.00012742          
  2.3                   0.00012818            2.8e-13               -4.2962e-10           -0.00012782          
  2.4                   0.00012854            1.6e-13               -9.51e-10             -0.0001282           
  2.5                   0.0001289             1.2e-13               -1.9614e-09           -0.00012848          
  2.6                   0.00012916            8e-14                 -3.7956e-09           -0.0001288           
  2.7                   0.0001295             1e-13                 -6.949e-09            -0.00012914          
  2.8                   0.0001298             2.2e-13               -1.2096e-08           -0.00012944          
  2.9                   0.00013008            1.2e-13               -2.0216e-08           -0.00012968          
  3                     0.00013036            1.8e-13               -3.2508e-08           -0.00012996          
  3.1                   0.00013064            1.8e-13               -5.0632e-08           -0.00013022          
  3.2                   0.0001309             6e-14                 -7.667e-08            -0.00013044          
  3.3                   0.00013116            1.6e-13               -1.13276e-07          -0.00013068          
  3.4                   0.00013146            1.2e-13               -1.6372e-07           -0.00013092          
  3.5                   0.00013176            6e-14                 -2.3232e-07           -0.00013116          
  3.6                   0.00013208            2.2e-13               -3.2424e-07           -0.0001314           
END_DB

BEGIN_DB
 ICCAP_VAR vg         3.6            
 ICCAP_VAR vb         0              
 ICCAP_VAR vs         0              

 #vd                    id                    ig                    ib                    is                   
  0                     1.1914e-08            6.6e-13               4.58e-12              -1.2298e-08          
  0.1                   2.2982e-05            4e-13                 2.38e-12              -2.2966e-05          
  0.2                   4.4804e-05            4.2e-13               1.36e-12              -4.4786e-05          
  0.3                   6.4982e-05            3.2e-13               7.4e-13               -6.4984e-05          
  0.4                   8.3294e-05            2.2e-13               1.84e-12              -8.3236e-05          
  0.5                   9.9502e-05            2.2e-13               2.06e-12              -9.9454e-05          
  0.6                   0.000113564           2e-13                 7.8e-13               -0.00011358          
  0.7                   0.00012582            2.4e-13               1.44e-12              -0.00012544          
  0.8                   0.00013604            3e-13                 1.88e-12              -0.00013564          
