! VERSION = 6.00
BEGIN_HEADER
 ICCAP_INPUTS
  vd         V  D GROUND SMU1 0.1 LIN        1    0          3.6        37   0.1       
  vg         V  G GROUND SMU2 0.001 LIST       2 3 0.392 0.592 0.792
  vb         V  B GROUND SMU4 0.1 CON        0
  vs         V  S GROUND SMU3 0.1 CON        0
 ICCAP_OUTPUTS
  id         I  D GROUND SMU1 B
  ig         I  G GROUND SMU2 B
  ib         I  B GROUND SMU4 B
  is         I  S GROUND SMU3 B
 ICCAP_VALUES
  MASTER_SETUP_TYPE "~dc_idvd~"
  LINVT_VALUE ""
  LISTVT_VALUE "|idvg|100.0n|-200.0m|1.000m|3|200.0m|200.0m|"
  TYPE "1"
  TEMP " 27.0000 "
  IS_TNOM " 1.00000 "
  MAIN.W "5.000u"
  MAIN.L "10.00u"
  MAIN.AD "1.700p"
  MAIN.AS "1.700p"
  MAIN.PD "10.68u"
  MAIN.PS "10.68u"
  MAIN.NF "1.000"
  MAIN.M "1"
  MAIN.NRD "0.000"
  MAIN.NRS "0.000"
  MAIN.LDRIFT1 "1E-06"
  MAIN.LDRIFT2 "1E-06"
  MAIN.SA "0.000"
  MAIN.SB "0.000"
  MAIN.SD "0.000"
  MAIN.SCA "0.000"
  MAIN.SCB "0.000"
  MAIN.SCC "0.000"
  MAIN.SC "0.000"
  MODULE "S558"
  PIN_D "20"
  PIN_G "1"
  PIN_S "2"
  PIN_B "19"
  PIN_E ""
  PIN_6 ""
  XY_ID ""
  FUNC "W Scale"
  STI "SA ref"
  WPE "WPE ref"
  COMMENT ""
  DIS_MEAS ""
  TypeTCI "10"
END_HEADER

BEGIN_DB
 ICCAP_VAR vg         0.392          
 ICCAP_VAR vb         0              
 ICCAP_VAR vs         0              

 #vd                    id                    ig                    ib                    is                   
  0                     6.2e-13               -4.2e-13              3.48e-12              -5.8e-13             
  0.1                   3.1832e-10            -4e-13                2.6e-12               -3.177e-10           
  0.2                   3.2594e-10            -3.4e-13              2.2e-12               -3.2564e-10          
  0.3                   3.2716e-10            -4e-13                2.2e-12               -3.2668e-10          
  0.4                   3.2782e-10            -3.2e-13              3.16e-12              -3.273e-10           
  0.5                   3.2842e-10            -2.4e-13              1.98e-12              -3.2768e-10          
  0.6                   3.2908e-10            -1.6e-13              2.28e-12              -3.2842e-10          
  0.7                   3.2948e-10            -3.8e-13              2.02e-12              -3.2882e-10          
  0.8                   3.3004e-10            -3e-13                2.34e-12              -3.2912e-10          
  0.9                   3.3052e-10            -1.4e-13              2.38e-12              -3.2954e-10          
  1                     3.3094e-10            -2e-13                1.7e-12               -3.2994e-10          
  1.1                   3.3136e-10            -2e-13                2.34e-12              -3.3038e-10          
  1.2                   3.317e-10             -1.2e-13              1.76e-12              -3.3058e-10          
  1.3                   3.322e-10             -1.4e-13              2.66e-12              -3.3106e-10          
  1.4                   3.3254e-10            -1e-13                1.8e-12               -3.3138e-10          
  1.5                   3.3278e-10            -1.8e-13              2.7e-12               -3.316e-10           
  1.6                   3.3312e-10            -1.4e-13              1.96e-12              -3.3186e-10          
  1.7                   3.3334e-10            -1e-13                2.3e-12               -3.321e-10           
  1.8                   3.3364e-10            -1.4e-13              2.02e-12              -3.3232e-10          
  1.9                   3.3402e-10            -8e-14                1.34e-12              -3.3242e-10          
  2                     3.3434e-10            0                     2.42e-12              -3.3274e-10          
  2.1                   3.3462e-10            -1.6e-13              9.6e-13               -3.3294e-10          
  2.2                   3.3506e-10            -2e-14                2.6e-12               -3.3338e-10          
  2.3                   3.355e-10             -1e-13                7e-13                 -3.334e-10           
  2.4                   3.3594e-10            -8e-14                1.6e-12               -3.3376e-10          
  2.5                   3.364e-10             -4e-14                7.6e-13               -3.3396e-10          
  2.6                   3.3708e-10            -8e-14                9.6e-13               -3.342e-10           
  2.7                   3.3788e-10            4e-14                 -6.2e-13              -3.3434e-10          
  2.8                   3.3892e-10            -4e-14                -1.58e-12             -3.3432e-10          
  2.9                   3.3996e-10            -4e-14                -1.56e-12             -3.3466e-10          
  3                     3.4116e-10            -2e-14                -3.24e-12             -3.3496e-10          
  3.1                   3.4296e-10            0                     -3.88e-12             -3.3488e-10          
  3.2                   3.4476e-10            -2e-14                -6.18e-12             -3.3512e-10          
  3.3                   3.468e-10             -4e-14                -7.32e-12             -3.3532e-10          
  3.4                   3.4948e-10            -4e-14                -1.046e-11            -3.3536e-10          
  3.5                   3.5234e-10            -4e-14                -1.336e-11            -3.3562e-10          
  3.6                   3.5556e-10            0                     -1.574e-11            -3.3592e-10          
END_DB

BEGIN_DB
 ICCAP_VAR vg         0.592          
 ICCAP_VAR vb         0              
 ICCAP_VAR vs         0              

 #vd                    id                    ig                    ib                    is                   
  0                     7.058e-11             2e-14                 2.12e-12              -7.482e-11           
  0.1                   4.7852e-08            0                     2.9e-12               -4.7824e-08          
  0.2                   4.9962e-08            6e-14                 1.02e-12              -4.996e-08           
  0.3                   5.0154e-08            6e-14                 -1.22e-12             -5.015e-08           
  0.4                   5.0264e-08            8e-14                 2.62e-12              -5.0256e-08          
  0.5                   5.0362e-08            4e-14                 1.76e-12              -5.0354e-08          
  0.6                   5.045e-08             4e-14                 1.52e-12              -5.043e-08           
  0.7                   5.0512e-08            0                     1.38e-12              -5.049e-08           
  0.8                   5.058e-08             4e-14                 1.92e-12              -5.0554e-08          
  0.9                   5.063e-08             2e-14                 2.36e-12              -5.0618e-08          
  1                     5.0682e-08            0                     1.38e-12              -5.0664e-08          
  1.1                   5.0736e-08            1e-13                 6e-13                 -5.0716e-08          
  1.2                   5.0774e-08            1e-13                 1.48e-12              -5.0764e-08          
  1.3                   5.0822e-08            1.2e-13               1.96e-12              -5.0822e-08          
  1.4                   5.0874e-08            1.2e-13               2e-12                 -5.085e-08           
  1.5                   5.091e-08             2.4e-13               1.26e-12              -5.0894e-08          
  1.6                   5.0934e-08            1e-13                 4.6e-13               -5.0912e-08          
  1.7                   5.098e-08             8e-14                 4.8e-13               -5.0964e-08          
  1.8                   5.1022e-08            1.8e-13               -1.38e-12             -5.0994e-08          
  1.9                   5.1056e-08            1.8e-13               -5.44e-12             -5.1044e-08          
  2                     5.1094e-08            4e-14                 -1.064e-11            -5.1066e-08          
  2.1                   5.113e-08             1.2e-13               -1.81e-11             -5.1088e-08          
  2.2                   5.1186e-08            2e-13                 -3.004e-11            -5.113e-08           
  2.3                   5.122e-08             6e-14                 -4.714e-11            -5.116e-08           
  2.4                   5.1274e-08            0                     -7.042e-11            -5.12e-08            
  2.5                   5.1334e-08            1e-13                 -1.0228e-10           -5.1214e-08          
  2.6                   5.1404e-08            1.2e-13               -1.4384e-10           -5.1242e-08          
  2.7                   5.1496e-08            1e-13                 -1.9992e-10           -5.127e-08           
  2.8                   5.1586e-08            1.8e-13               -2.7392e-10           -5.1288e-08          
  2.9                   5.172e-08             6e-14                 -3.6566e-10           -5.134e-08           
  3                     5.1872e-08            1e-13                 -4.8772e-10           -5.136e-08           
  3.1                   5.2054e-08            8e-14                 -6.3904e-10           -5.1388e-08          
  3.2                   5.226e-08             8e-14                 -8.2676e-10           -5.1412e-08          
  3.3                   5.2508e-08            1.2e-13               -1.054e-09            -5.1434e-08          
  3.4                   5.2798e-08            1.2e-13               -1.333e-09            -5.1454e-08          
  3.5                   5.3162e-08            8e-14                 -1.6626e-09           -5.1492e-08          
  3.6                   5.3578e-08            1.2e-13               -2.048e-09            -5.149e-08           
END_DB

BEGIN_DB
 ICCAP_VAR vg         0.792          
 ICCAP_VAR vb         0              
 ICCAP_VAR vs         0              

 #vd                    id                    ig                    ib                    is                   
  0                     5.4466e-10            4e-14                 1.78e-12              -5.73e-10            
  0.1                   6.2588e-07            1.4e-13               2.18e-12              -6.2578e-07          
  0.2                   7.7062e-07            1e-13                 1.06e-12              -7.7062e-07          
  0.3                   7.8354e-07            2e-13                 1.62e-12              -7.8346e-07          
  0.4                   7.8558e-07            1.6e-13               2.56e-12              -7.856e-07           
  0.5                   7.8688e-07            1.4e-13               1.24e-12              -7.8692e-07          
  0.6                   7.8792e-07            8e-14                 6.4e-13               -7.879e-07           
  0.7                   7.8876e-07            6e-14                 1.38e-12              -7.887e-07           
  0.8                   7.8956e-07            8e-14                 2.18e-12              -7.8952e-07          
  0.9                   7.9036e-07            1.8e-13               8.2e-13               -7.902e-07           
  1                     7.909e-07             8e-14                 9.6e-13               -7.9094e-07          
  1.1                   7.916e-07             1.8e-13               2.28e-12              -7.9152e-07          
  1.2                   7.9206e-07            1e-13                 2.14e-12              -7.9198e-07          
  1.3                   7.9268e-07            2e-13                 1.26e-12              -7.9254e-07          
  1.4                   7.9314e-07            1.4e-13               1.26e-12              -7.9298e-07          
  1.5                   7.935e-07             2e-13                 7.4e-13               -7.9348e-07          
  1.6                   7.9398e-07            1.8e-13               -9.2e-13              -7.9392e-07          
  1.7                   7.9432e-07            1.6e-13               -4.82e-12             -7.9438e-07          
  1.8                   7.9484e-07            1.6e-13               -1.526e-11            -7.9492e-07          
  1.9                   7.9546e-07            8e-14                 -3.33e-11             -7.9532e-07          
  2                     7.9586e-07            1.2e-13               -6.798e-11            -7.957e-07           
  2.1                   7.963e-07             1.2e-13               -1.2846e-10           -7.9602e-07          
  2.2                   7.967e-07             1.6e-13               -2.2302e-10           -7.9632e-07          
  2.3                   7.9714e-07            2e-13                 -3.661e-10            -7.9686e-07          
  2.4                   7.9776e-07            1.4e-13               -5.7348e-10           -7.972e-07           
  2.5                   7.9846e-07            2e-14                 -8.6726e-10           -7.9752e-07          
  2.6                   7.9916e-07            2e-13                 -1.2698e-09           -7.9782e-07          
  2.7                   8e-07                 2e-13                 -1.8166e-09           -7.9812e-07          
  2.8                   8.01e-07              2.4e-13               -2.5474e-09           -7.984e-07           
  2.9                   8.023e-07             2.8e-13               -3.5062e-09           -7.9874e-07          
  3                     8.0386e-07            2.2e-13               -4.7554e-09           -7.9902e-07          
  3.1                   8.0578e-07            1.6e-13               -6.3648e-09           -7.9938e-07          
  3.2                   8.082e-07             1.6e-13               -8.4086e-09           -7.9978e-07          
  3.3                   8.1094e-07            2e-13                 -1.09662e-08          -7.9986e-07          
  3.4                   8.1442e-07            1.4e-13               -1.4132e-08           -8.0024e-07          
  3.5                   8.1866e-07            2e-13                 -1.7994e-08           -8.0052e-07          
  3.6                   8.2348e-07            1.4e-13               -2.2608e-08           -8.007e-07           
END_DB

