! VERSION = 6.00
BEGIN_HEADER
 ICCAP_INPUTS
  vd         V  D GROUND SMU1 0.1 LIN        1    0          3.6        37   0.1       
  vg         V  G GROUND SMU2 0.001 LIN        2    0.704      3.6        5    0.724     
  vb         V  B GROUND SMU4 0.1 CON        0
  vs         V  S GROUND SMU3 0.1 CON        0
 ICCAP_OUTPUTS
  id         I  D GROUND SMU1 B
  ig         I  G GROUND SMU2 B
  ib         I  B GROUND SMU4 B
  is         I  S GROUND SMU3 B
 ICCAP_VALUES
  MASTER_SETUP_TYPE "~dc_idvd~"
  LINVT_VALUE "|idvg|100.0n|100.0m|1.000m|5|3.600|"
  LISTVT_VALUE ""
  TYPE "1"
  TEMP " 27.0000 "
  IS_TNOM " 1.00000 "
  MAIN.W "2.000u"
  MAIN.L "1.200u"
  MAIN.AD "680.0f"
  MAIN.AS "680.0f"
  MAIN.PD "4.680u"
  MAIN.PS "4.680u"
  MAIN.NF "1.000"
  MAIN.M "1"
  MAIN.NRD "0.000"
  MAIN.NRS "0.000"
  MAIN.LDRIFT1 "1E-06"
  MAIN.LDRIFT2 "1E-06"
  MAIN.SA "0.000"
  MAIN.SB "0.000"
  MAIN.SD "0.000"
  MAIN.SCA "0.000"
  MAIN.SCB "0.000"
  MAIN.SCC "0.000"
  MAIN.SC "0.000"
  MODULE "S558"
  PIN_D "16"
  PIN_G "5"
  PIN_S "6"
  PIN_B "15"
  PIN_E ""
  PIN_6 ""
  XY_ID ""
  FUNC "LW Scale"
  STI "SA ref"
  WPE "WPE ref"
  COMMENT ""
  DIS_MEAS ""
  TypeTCI "10"
END_HEADER

BEGIN_DB
 ICCAP_VAR vg         0.704          
 ICCAP_VAR vb         0              
 ICCAP_VAR vs         0              

 #vd                    id                    ig                    ib                    is                   
  0                     9.236e-10             1e-13                 2.458e-11             -6.8382e-10          
  0.1                   7.1782e-07            -4e-14                2.3e-11               -7.1752e-07          
  0.2                   8.1176e-07            -4e-14                2.568e-11             -8.1158e-07          
  0.3                   8.286e-07             6e-14                 2.042e-11             -8.287e-07           
  0.4                   8.3872e-07            -2e-14                1.918e-11             -8.3878e-07          
  0.5                   8.47e-07              -1.8e-13              1.86e-11              -8.4694e-07          
  0.6                   8.543e-07             -1.6e-13              1.934e-11             -8.5404e-07          
  0.7                   8.6092e-07            0                     1.808e-11             -8.6086e-07          
  0.8                   8.6702e-07            -8e-14                1.618e-11             -8.6674e-07          
  0.9                   8.735e-07             -1e-13                1.61e-11              -8.7302e-07          
  1                     8.7856e-07            -1.8e-13              1.738e-11             -8.7842e-07          
  1.1                   8.8362e-07            -8e-14                1.576e-11             -8.8376e-07          
  1.2                   8.8866e-07            -1e-13                1.478e-11             -8.885e-07           
  1.3                   8.9352e-07            -1.2e-13              1.49e-11              -8.938e-07           
  1.4                   8.9842e-07            -8e-14                1.4e-11               -8.9836e-07          
  1.5                   9.0278e-07            -2.2e-13              1.212e-11             -9.028e-07           
  1.6                   9.0754e-07            -1.2e-13              6.78e-12              -9.0746e-07          
  1.7                   9.1158e-07            -8e-14                -2.12e-12             -9.117e-07           
  1.8                   9.1572e-07            4e-14                 -2.138e-11            -9.159e-07           
  1.9                   9.1998e-07            -1.4e-13              -6.07e-11             -9.1982e-07          
  2                     9.2444e-07            -2.2e-13              -1.253e-10            -9.2442e-07          
  2.1                   9.2852e-07            -1.8e-13              -2.2912e-10           -9.2838e-07          
  2.2                   9.3276e-07            -2e-13                -3.8832e-10           -9.3232e-07          
  2.3                   9.366e-07             -1.8e-13              -6.2252e-10           -9.3564e-07          
  2.4                   9.4098e-07            2e-14                 -9.532e-10            -9.3992e-07          
  2.5                   9.4514e-07            0                     -1.4148e-09           -9.4364e-07          
  2.6                   9.496e-07             -1e-13                -2.0442e-09           -9.4758e-07          
  2.7                   9.5454e-07            -1e-13                -2.8896e-09           -9.5118e-07          
  2.8                   9.5966e-07            -1.2e-13              -4.0042e-09           -9.5534e-07          
  2.9                   9.6416e-07            -1.8e-13              -5.4622e-09           -9.5866e-07          
  3                     9.7002e-07            -1e-13                -7.3528e-09           -9.6248e-07          
  3.1                   9.7586e-07            -1.4e-13              -9.7686e-09           -9.6584e-07          
  3.2                   9.8286e-07            -6e-14                -1.2818e-08           -9.6934e-07          
  3.3                   9.8906e-07            0                     -1.6598e-08           -9.7326e-07          
  3.4                   9.9702e-07            -2e-14                -2.1232e-08           -9.7606e-07          
  3.5                   1.00594e-06           -1e-13                -2.6852e-08           -9.7928e-07          
  3.6                   1.01782e-06           -2.4e-13              -3.3548e-08           -9.8426e-07          
END_DB

BEGIN_DB
 ICCAP_VAR vg         1.428          
 ICCAP_VAR vb         0              
 ICCAP_VAR vs         0              

 #vd                    id                    ig                    ib                    is                   
  0                     1.0242e-08            4e-13                 8.84e-12              -9.948e-09           
  0.1                   1.7444e-05            2.8e-13               7.78e-12              -1.7424e-05          
  0.2                   3.1384e-05            2.2e-13               8.22e-12              -3.1364e-05          
  0.3                   4.186e-05             3e-13                 7.44e-12              -4.1836e-05          
  0.4                   4.9102e-05            1.2e-13               6.58e-12              -4.908e-05           
  0.5                   5.355e-05             1.2e-13               7.18e-12              -5.3532e-05          
  0.6                   5.597e-05             1.6e-13               6.9e-12               -5.5948e-05          
  0.7                   5.7192e-05            2.6e-13               6.64e-12              -5.7174e-05          
  0.8                   5.784e-05             8e-14                 7.18e-12              -5.7818e-05          
  0.9                   5.823e-05             1.6e-13               6.72e-12              -5.8214e-05          
  1                     5.8524e-05            1e-13                 6.54e-12              -5.8504e-05          
  1.1                   5.875e-05             1.2e-13               6.4e-12               -5.8732e-05          
  1.2                   5.8948e-05            -8e-14                6.38e-12              -5.8932e-05          
  1.3                   5.9128e-05            1.4e-13               6.34e-12              -5.9106e-05          
  1.4                   5.928e-05             1.2e-13               7.22e-12              -5.9264e-05          
  1.5                   5.943e-05             6e-14                 5.2e-12               -5.9418e-05          
  1.6                   5.9572e-05            2e-14                 4.84e-12              -5.9548e-05          
  1.7                   5.9702e-05            0                     4.82e-12              -5.9678e-05          
  1.8                   5.9822e-05            6e-14                 -3.58e-12             -5.9808e-05          
  1.9                   5.9948e-05            6e-14                 -2.94e-11             -5.9928e-05          
  2                     6.0058e-05            8e-14                 -1.0882e-10           -6.0032e-05          
  2.1                   6.0168e-05            8e-14                 -3.277e-10            -6.0152e-05          
  2.2                   6.0274e-05            1.6e-13               -8.3006e-10           -6.0254e-05          
  2.3                   6.0382e-05            1e-13                 -1.8734e-09           -6.0362e-05          
  2.4                   6.0484e-05            1e-13                 -3.8392e-09           -6.046e-05           
  2.5                   6.0584e-05            2e-14                 -7.2694e-09           -6.0562e-05          
  2.6                   6.0688e-05            2e-14                 -1.288e-08            -6.066e-05           
  2.7                   6.0794e-05            -4e-14                -2.155e-08            -6.0756e-05          
  2.8                   6.0898e-05            6e-14                 -3.4448e-08           -6.0854e-05          
  2.9                   6.1012e-05            8e-14                 -5.292e-08            -6.0944e-05          
  3                     6.1134e-05            8e-14                 -7.8816e-08           -6.1034e-05          
  3.1                   6.1252e-05            2e-14                 -1.14284e-07          -6.1112e-05          
  3.2                   6.1378e-05            6e-14                 -1.6196e-07           -6.1198e-05          
  3.3                   6.1528e-05            4e-14                 -2.2534e-07           -6.1288e-05          
  3.4                   6.171e-05             -8e-14                -3.0864e-07           -6.1382e-05          
  3.5                   6.1894e-05            -2e-14                -4.1652e-07           -6.146e-05           
  3.6                   6.2128e-05            0                     -5.5468e-07           -6.155e-05           
END_DB

BEGIN_DB
 ICCAP_VAR vg         2.152          
 ICCAP_VAR vb         0              
 ICCAP_VAR vs         0              

 #vd                    id                    ig                    ib                    is                   
  0                     2.036e-08             4.2e-13               5.74e-12              -1.94e-08            
  0.1                   3.4466e-05            3.6e-13               5.68e-12              -3.4444e-05          
  0.2                   6.588e-05             3.6e-13               4.76e-12              -6.5862e-05          
  0.3                   9.4012e-05            3.2e-13               5.38e-12              -9.3998e-05          
  0.4                   0.000119              2.2e-13               4.94e-12              -0.0001186           
  0.5                   0.00014042            3.4e-13               4.86e-12              -0.00014002          
  0.6                   0.00015836            2.2e-13               3.16e-12              -0.00015798          
  0.7                   0.00017298            1e-13                 4.32e-12              -0.00017258          
  0.8                   0.00018436            2e-13                 3.74e-12              -0.00018398          
  0.9                   0.00019282            1.4e-13               3.68e-12              -0.0001924           
  1                     0.00019874            2.4e-13               5.38e-12              -0.00019834          
  1.1                   0.00020266            1.4e-13               3.96e-12              -0.00020226          
  1.2                   0.0002052             1.8e-13               3.74e-12              -0.00020478          
  1.3                   0.00020684            1e-13                 4.82e-12              -0.00020644          
  1.4                   0.00020796            1e-13                 3.76e-12              -0.00020758          
  1.5                   0.00020878            2.4e-13               3.88e-12              -0.00020838          
  1.6                   0.00020942            2e-13                 4.5e-12               -0.00020902          
  1.7                   0.00020994            2.2e-13               3.24e-12              -0.00020956          
  1.8                   0.0002104             4e-14                 4.18e-12              -0.00020998          
  1.9                   0.0002108             4e-14                 4.3e-12               -0.0002104           
  2                     0.00021116            4e-14                 2.08e-12              -0.00021076          
  2.1                   0.00021146            2e-13                 -2.26e-12             -0.00021108          
  2.2                   0.00021178            1.6e-13               -2.116e-11            -0.00021138          
  2.3                   0.00021204            4e-14                 -8.518e-11            -0.00021166          
  2.4                   0.00021236            1e-13                 -2.686e-10            -0.00021196          
  2.5                   0.0002126             2e-13                 -7.4682e-10           -0.00021222          
  2.6                   0.00021288            1e-13                 -1.8608e-09           -0.00021248          
  2.7                   0.00021312            8e-14                 -4.193e-09            -0.00021272          
  2.8                   0.00021334            2.2e-13               -8.6884e-09           -0.0002129           
  2.9                   0.00021356            2.8e-13               -1.6722e-08           -0.00021318          
  3                     0.00021382            2.2e-13               -3.0232e-08           -0.0002134           
  3.1                   0.00021404            1.6e-13               -5.1736e-08           -0.00021356          
  3.2                   0.00021424            -6e-14                -8.4486e-08           -0.00021382          
  3.3                   0.00021454            6e-14                 -1.3232e-07           -0.000214            
  3.4                   0.0002148             6e-14                 -2.007e-07            -0.00021418          
  3.5                   0.0002151             4e-14                 -2.958e-07            -0.0002144           
  3.6                   0.0002154             0                     -4.2524e-07           -0.00021462          
END_DB

BEGIN_DB
 ICCAP_VAR vg         2.876          
 ICCAP_VAR vb         0              
 ICCAP_VAR vs         0              

 #vd                    id                    ig                    ib                    is                   
  0                     2.8862e-08            3.8e-13               3.96e-12              -2.6284e-08          
  0.1                   4.6746e-05            4e-13                 4.28e-12              -4.6722e-05          
  0.2                   9.1124e-05            3.8e-13               3.1e-12               -9.1106e-05          
  0.3                   0.00013294            3.6e-13               2.54e-12              -0.00013254          
  0.4                   0.00017184            2.2e-13               4.42e-12              -0.00017146          
  0.5                   0.0002077             2.6e-13               2.48e-12              -0.0002073           
  0.6                   0.00024032            1.6e-13               3.44e-12              -0.00023994          
  0.7                   0.0002697             3.4e-13               3.54e-12              -0.00026932          
  0.8                   0.00029574            3.2e-13               2.88e-12              -0.00029534          
  0.9                   0.00031838            2.4e-13               2.56e-12              -0.000318            
  1                     0.0003378             1.2e-13               2.98e-12              -0.00033742          
  1.1                   0.00035402            2.4e-13               2.42e-12              -0.00035362          
  1.2                   0.00036722            2e-13                 3.04e-12              -0.00036684          
  1.3                   0.0003777             1.4e-13               2.66e-12              -0.0003773           
  1.4                   0.00038566            2e-13                 2.3e-12               -0.0003853           
  1.5                   0.00039162            2e-14                 4.96e-12              -0.00039124          
  1.6                   0.0003959             1.6e-13               2.68e-12              -0.0003955           
  1.7                   0.00039894            1.2e-13               1.54e-12              -0.00039856          
  1.8                   0.00040112            2.6e-13               3.56e-12              -0.0004007           
  1.9                   0.00040268            2.6e-13               3.06e-12              -0.0004023           
  2                     0.00040386            8e-14                 1.82e-12              -0.00040348          
  2.1                   0.00040482            8e-14                 3.68e-12              -0.00040442          
  2.2                   0.00040558            1e-13                 2.22e-12              -0.00040522          
  2.3                   0.00040626            1e-13                 1.1e-12               -0.00040586          
  2.4                   0.00040684            8e-14                 -9.6e-13              -0.00040644          
  2.5                   0.00040734            1.6e-13               -1.572e-11            -0.00040694          
  2.6                   0.0004078             8e-14                 -6.194e-11            -0.00040742          
  2.7                   0.00040826            1e-13                 -1.9418e-10           -0.0004078           
  2.8                   0.00040862            1.6e-13               -5.4858e-10           -0.00040822          
  2.9                   0.00040898            8e-14                 -1.3914e-09           -0.0004086           
  3                     0.00040932            1.4e-13               -3.2498e-09           -0.00040892          
  3.1                   0.00040962            2e-14                 -7.0094e-09           -0.00040926          
  3.2                   0.00041               0                     -1.4098e-08           -0.00040958          
  3.3                   0.00041028            8e-14                 -2.6594e-08           -0.00040986          
  3.4                   0.00041058            6e-14                 -4.7554e-08           -0.00041016          
  3.5                   0.0004109             1e-13                 -8.0962e-08           -0.00041042          
  3.6                   0.00041116            2e-14                 -1.319e-07            -0.00041066          
END_DB

BEGIN_DB
 ICCAP_VAR vg         3.6            
 ICCAP_VAR vb         0              
 ICCAP_VAR vs         0              

 #vd                    id                    ig                    ib                    is                   
  0                     3.207e-08             4.8e-13               4.26e-12              -2.939e-08           
  0.1                   5.4428e-05            5.4e-13               3.62e-12              -5.4404e-05          
  0.2                   0.000107112           2.8e-13               2.74e-12              -0.000107094         
  0.3                   0.00015784            4.2e-13               2.84e-12              -0.00015744          
  0.4                   0.00020626            3.4e-13               1.66e-12              -0.00020586          
  0.5                   0.00025222            2.6e-13               2.44e-12              -0.00025182          
  0.6                   0.00029542            3.2e-13               2.74e-12              -0.00029504          
  0.7                   0.00033586            3e-13                 1.94e-12              -0.00033548          
  0.8                   0.00037336            2.4e-13               2.74e-12              -0.00037296          
