! VERSION = 6.00
BEGIN_HEADER
 ICCAP_INPUTS
  vg         V  G GROUND SMU2 0.001 LIN        1    -0.5       3.6        83   0.05      
  vb         V  B GROUND SMU4 0.1 LIN        2    0          -3.6       5    -0.9      
  vd         V  D GROUND SMU1 0.1 LIN        3    0.1        3.3        3    1.6       
  vs         V  S GROUND SMU3 0.1 CON        0
 ICCAP_OUTPUTS
  id         I  D GROUND SMU1 B
  ig         I  G GROUND SMU2 B
  ib         I  B GROUND SMU4 B
  is         I  S GROUND SMU3 B
 ICCAP_VALUES
  MASTER_SETUP_TYPE "~dc_idvg~"
  LINVT_VALUE ""
  LISTVT_VALUE ""
  TYPE "1"
  TEMP " 27.0000 "
  IS_TNOM " 1.00000 "
  MAIN.W "10.00u"
  MAIN.L "1.200u"
  MAIN.AD "3.400p"
  MAIN.AS "3.400p"
  MAIN.PD "20.68u"
  MAIN.PS "20.68u"
  MAIN.NF "1.000"
  MAIN.M "1"
  MAIN.NRD "0.000"
  MAIN.NRS "0.000"
  MAIN.LDRIFT1 "1E-06"
  MAIN.LDRIFT2 "1E-06"
  MAIN.SA "0.000"
  MAIN.SB "0.000"
  MAIN.SD "0.000"
  MAIN.SCA "0.000"
  MAIN.SCB "0.000"
  MAIN.SCC "0.000"
  MAIN.SC "0.000"
  MODULE "S556"
  PIN_D "12"
  PIN_G "9"
  PIN_S "10"
  PIN_B "11"
  PIN_E ""
  PIN_6 ""
  XY_ID ""
  FUNC "L Scale"
  STI "SA ref"
  WPE "WPE ref"
  COMMENT ""
  DIS_MEAS ""
  TypeTCI "10"
END_HEADER

BEGIN_DB
 ICCAP_VAR vb         0              
 ICCAP_VAR vd         0.1            
 ICCAP_VAR vs         0              

 #vg                    id                    ig                    ib                    is                   
  -0.5                  0                     -4.558e-11            5.348e-11             6e-14                
  -0.45                 2e-13                 -7.16e-12             1.494e-11             2.4e-13              
  -0.4                  -2e-14                -1.16e-12             1.064e-11             -4e-14               
  -0.35                 1.2e-13               -2.6e-13              8.56e-12              6e-14                
  -0.3                  1.2e-13               4e-14                 7.54e-12              1.6e-13              
  -0.25                 -2e-14                2.2e-13               8.16e-12              -2e-14               
  -0.2                  6e-14                 1.8e-13               7.66e-12              0                    
  -0.15                 2e-14                 3.2e-13               8.08e-12              6e-14                
  -0.1                  8e-14                 3e-13                 7.7e-12               0                    
  -0.05                 8e-14                 2e-13                 7.54e-12              1.6e-13              
  0                     0                     3.6e-13               7e-12                 -8e-14               
  0.05                  1.6e-13               3.4e-13               7.52e-12              -6e-14               
  0.1                   7.2e-13               3.4e-13               7.82e-12              -4.8e-13             
  0.15                  2.12e-12              4.2e-13               6.34e-12              -1.94e-12            
  0.2                   8.28e-12              3.2e-13               6.54e-12              -8.1e-12             
  0.25                  3.248e-11             3.6e-13               6.8e-12               -3.244e-11           
  0.3                   1.3036e-10            3.8e-13               7.08e-12              -1.3004e-10          
  0.35                  5.2826e-10            4.4e-13               6.9e-12               -5.2812e-10          
  0.4                   2.1346e-09            3.6e-13               7.46e-12              -2.1306e-09          
  0.45                  8.5998e-09            4.2e-13               6.2e-12               -8.5962e-09          
  0.5                   3.3508e-08            3.4e-13               5.88e-12              -3.346e-08           
  0.55                  1.2296e-07            5e-13                 6.24e-12              -1.2272e-07          
  0.6                   3.9782e-07            3.2e-13               7.18e-12              -3.9738e-07          
  0.65                  1.09404e-06           4.4e-13               5.74e-12              -1.09352e-06         
  0.7                   2.5086e-06            3e-13                 6.4e-12               -2.504e-06           
  0.75                  4.886e-06             3.6e-13               6.9e-12               -4.8822e-06          
  0.8                   8.2932e-06            3.8e-13               5.3e-12               -8.2896e-06          
  0.85                  1.2676e-05            3.8e-13               5.8e-12               -1.2652e-05          
  0.9                   1.7804e-05            5.2e-13               5.48e-12              -1.7778e-05          
  0.95                  2.3518e-05            5.8e-13               6.52e-12              -2.3496e-05          
  1                     2.9666e-05            5.6e-13               5.7e-12               -2.9646e-05          
  1.05                  3.6144e-05            5.6e-13               5.12e-12              -3.6124e-05          
  1.1                   4.2808e-05            6.2e-13               5.5e-12               -4.279e-05           
  1.15                  4.962e-05             5.8e-13               5.86e-12              -4.9592e-05          
  1.2                   5.6502e-05            6.2e-13               5.96e-12              -5.6482e-05          
  1.25                  6.3436e-05            6e-13                 5.3e-12               -6.341e-05           
  1.3                   7.042e-05             6e-13                 4.72e-12              -7.0398e-05          
  1.35                  7.7372e-05            5.6e-13               5.5e-12               -7.735e-05           
  1.4                   8.4302e-05            6.2e-13               5.7e-12               -8.4276e-05          
  1.45                  9.1186e-05            4.2e-13               5.54e-12              -9.1168e-05          
  1.5                   9.8046e-05            6e-13                 4.82e-12              -9.8026e-05          
  1.55                  0.00010481            6e-13                 4.36e-12              -0.000104792         
  1.6                   0.000111494           6.4e-13               5.76e-12              -0.000111474         
  1.65                  0.00011826            5.4e-13               5.46e-12              -0.00011784          
  1.7                   0.00012478            5.2e-13               4e-12                 -0.00012438          
  1.75                  0.0001312             6.2e-13               4.92e-12              -0.00013078          
  1.8                   0.0001375             6.4e-13               4.86e-12              -0.0001371           
  1.85                  0.0001437             6.6e-13               5.48e-12              -0.0001433           
  1.9                   0.0001498             6.4e-13               4.44e-12              -0.0001494           
  1.95                  0.00015576            7.2e-13               4.7e-12               -0.00015536          
  2                     0.00016162            7.2e-13               4.34e-12              -0.00016122          
  2.05                  0.00016734            6.6e-13               5.26e-12              -0.00016694          
  2.1                   0.00017292            7.2e-13               4.46e-12              -0.00017254          
  2.15                  0.0001784             6.8e-13               3.58e-12              -0.000178            
  2.2                   0.00018374            7.4e-13               4.86e-12              -0.00018332          
  2.25                  0.00018894            8.8e-13               4.78e-12              -0.00018854          
  2.3                   0.000194              7.8e-13               4.98e-12              -0.0001936           
  2.35                  0.00019896            7.6e-13               4.36e-12              -0.00019856          
  2.4                   0.00020376            6.8e-13               3.5e-12               -0.00020336          
  2.45                  0.00020842            7.2e-13               5.1e-12               -0.00020802          
  2.5                   0.00021298            7.2e-13               5.18e-12              -0.00021258          
  2.55                  0.00021738            7.8e-13               4.32e-12              -0.00021698          
  2.6                   0.00022166            7.4e-13               1.86e-12              -0.00022126          
  2.65                  0.0002258             8.6e-13               4.34e-12              -0.0002254           
  2.7                   0.0002298             7e-13                 4.62e-12              -0.0002294           
  2.75                  0.0002337             8.4e-13               4.06e-12              -0.00023332          
  2.8                   0.00023748            8.2e-13               3.82e-12              -0.00023708          
  2.85                  0.0002411             6.4e-13               3.98e-12              -0.00024072          
  2.9                   0.00024462            8.6e-13               4e-12                 -0.00024422          
  2.95                  0.00024804            6.8e-13               4.28e-12              -0.00024764          
  3                     0.00025132            9.6e-13               3.14e-12              -0.0002509           
  3.05                  0.00025446            8e-13                 4.42e-12              -0.00025406          
  3.1                   0.00025752            8.4e-13               3.68e-12              -0.00025712          
  3.15                  0.00026046            7.8e-13               4.32e-12              -0.00026006          
  3.2                   0.00026328            9e-13                 4.4e-12               -0.00026288          
  3.25                  0.000266              8.6e-13               3.7e-12               -0.00026562          
  3.3                   0.00026864            8.8e-13               4.02e-12              -0.00026824          
  3.35                  0.00027116            8.2e-13               5.02e-12              -0.00027074          
  3.4                   0.00027358            8.8e-13               3.5e-12               -0.00027316          
  3.45                  0.00027588            7.8e-13               3.58e-12              -0.00027548          
  3.5                   0.00027812            7.8e-13               1.36e-12              -0.00027772          
  3.55                  0.00028024            8.4e-13               4.54e-12              -0.00027984          
  3.6                   0.00028228            9e-13                 4.4e-12               -0.00028188          
END_DB

BEGIN_DB
 ICCAP_VAR vb         -0.9           
 ICCAP_VAR vd         0.1            
 ICCAP_VAR vs         0              

 #vg                    id                    ig                    ib                    is                   
  -0.5                  6e-14                 -5.8e-13              -1.2e-11              4e-14                
  -0.45                 0                     -3.8e-13              -8.52e-12             2.6e-13              
  -0.4                  1.6e-13               -3.8e-13              -6.78e-12             2.6e-13              
  -0.35                 4e-14                 -2.2e-13              -7.14e-12             1.8e-13              
  -0.3                  1e-13                 -1.8e-13              -6.76e-12             3e-13                
  -0.25                 -6e-14                -4e-14                -6.84e-12             2.2e-13              
  -0.2                  4e-14                 6e-14                 -5.02e-12             1e-13                
  -0.15                 0                     2e-14                 -4.04e-12             2.2e-13              
  -0.1                  0                     8e-14                 -3.86e-12             4e-14                
  -0.05                 0                     1e-13                 -4.72e-12             1.6e-13              
  0                     -1e-13                1.8e-13               -3.86e-12             8e-14                
  0.05                  4e-14                 2.2e-13               -3.26e-12             6e-14                
  0.1                   6e-14                 3.2e-13               -2.74e-12             1.4e-13              
  0.15                  -8e-14                2.2e-13               -2.42e-12             -2e-14               
  0.2                   2e-14                 2.2e-13               -2.74e-12             3.2e-13              
  0.25                  4e-14                 1.4e-13               -2.08e-12             6e-14                
  0.3                   2e-14                 2.6e-13               -2.36e-12             1.6e-13              
  0.35                  2.6e-13               1.8e-13               -1.3e-12              -1e-13               
  0.4                   7e-13                 3e-13                 -1.74e-12             -8.4e-13             
  0.45                  4.1e-12               2.8e-13               -2.56e-12             -3.7e-12             
  0.5                   1.838e-11             3e-13                 -2.36e-12             -1.838e-11           
  0.55                  8.526e-11             3.2e-13               -1.96e-12             -8.498e-11           
  0.6                   3.9226e-10            3.4e-13               -1.2e-12              -3.9174e-10          
  0.65                  1.8034e-09            4.6e-13               -1.02e-12             -1.8016e-09          
  0.7                   8.0782e-09            3.6e-13               -1.86e-12             -8.0726e-09          
  0.75                  3.492e-08             3.6e-13               -1.46e-12             -3.4878e-08          
  0.8                   1.3768e-07            3.6e-13               -1.16e-12             -1.3752e-07          
  0.85                  4.6706e-07            3.4e-13               -1.06e-12             -4.6744e-07          
  0.9                   1.2992e-06            3.2e-13               -1.04e-12             -1.2938e-06          
  0.95                  2.9472e-06            3.6e-13               -7.2e-13              -2.9424e-06          
  1                     5.6258e-06            3.2e-13               -6.4e-13              -5.6192e-06          
  1.05                  9.356e-06             4.6e-13               -1.9e-12              -9.3514e-06          
  1.1                   1.3982e-05            3.6e-13               -1.24e-12             -1.3956e-05          
  1.15                  1.9304e-05            4.2e-13               2.4e-13               -1.9278e-05          
  1.2                   2.5138e-05            5e-13                 -9.8e-13              -2.5118e-05          
  1.25                  3.1344e-05            5.4e-13               -1.36e-12             -3.1324e-05          
  1.3                   3.7828e-05            6e-13                 -8.6e-13              -3.7806e-05          
  1.35                  4.4454e-05            4.8e-13               -5.6e-13              -4.443e-05           
  1.4                   5.1178e-05            5.2e-13               1.8e-13               -5.1156e-05          
  1.45                  5.7968e-05            4.4e-13               -7.2e-13              -5.7948e-05          
  1.5                   6.4812e-05            5.2e-13               -1.36e-12             -6.4792e-05          
  1.55                  7.162e-05             5.2e-13               -2.6e-13              -7.16e-05            
  1.6                   7.839e-05             4.8e-13               -2.2e-13              -7.8368e-05          
  1.65                  8.5132e-05            5.6e-13               -3.6e-13              -8.5112e-05          
  1.7                   9.1816e-05            5.4e-13               -1.18e-12             -9.1796e-05          
  1.75                  9.8402e-05            6.2e-13               -3.4e-13              -9.838e-05           
  1.8                   0.000104928           6e-13                 -5.4e-13              -0.0001049           
  1.85                  0.000111328           5e-13                 4e-14                 -0.000111312         
  1.9                   0.0001178             7e-13                 -2.2e-13              -0.0001174           
  1.95                  0.000124              6.2e-13               -1.24e-12             -0.0001236           
  2                     0.00013012            6e-13                 -3e-13                -0.0001297           
  2.05                  0.0001361             7.4e-13               1.04e-12              -0.0001357           
  2.1                   0.00014194            4.6e-13               -2.6e-13              -0.00014156          
  2.15                  0.00014768            6.6e-13               -1.8e-13              -0.0001473           
  2.2                   0.00015328            6.6e-13               -3.4e-13              -0.00015288          
  2.25                  0.00015878            6.8e-13               1.8e-13               -0.00015838          
  2.3                   0.0001641             7.4e-13               4.8e-13               -0.0001637           
  2.35                  0.00016934            7.6e-13               -6e-13                -0.00016894          
  2.4                   0.0001744             7.2e-13               1.8e-13               -0.000174            
  2.45                  0.00017934            7.2e-13               6.4e-13               -0.00017894          
  2.5                   0.00018416            7.6e-13               7.4e-13               -0.00018376          
  2.55                  0.00018882            7.4e-13               -2.4e-13              -0.00018842          
  2.6                   0.00019336            6.8e-13               2.4e-13               -0.00019296          
  2.65                  0.00019776            7e-13                 0                     -0.00019736          
  2.7                   0.00020202            6.6e-13               7.2e-13               -0.00020162          
  2.75                  0.00020618            5.8e-13               -1.4e-13              -0.00020578          
  2.8                   0.00021018            7.4e-13               1.4e-13               -0.00020978          
  2.85                  0.00021406            7e-13                 -2.6e-13              -0.00021366          
  2.9                   0.00021782            8.2e-13               1e-12                 -0.00021742          
  2.95                  0.00022146            7.6e-13               -4e-14                -0.00022106          
  3                     0.00022496            6.6e-13               -3.8e-13              -0.00022458          
  3.05                  0.00022836            8.4e-13               -6.4e-13              -0.00022796          
  3.1                   0.00023162            6.2e-13               1.8e-13               -0.00023124          
  3.15                  0.00023478            8.6e-13               9.8e-13               -0.00023438          
  3.2                   0.00023782            7.4e-13               -1.6e-13              -0.00023744          
  3.25                  0.00024076            7.4e-13               -6.4e-13              -0.00024036          
  3.3                   0.0002436             9.8e-13               5.2e-13               -0.0002432           
  3.35                  0.00024632            7.4e-13               1.12e-12              -0.00024592          
  3.4                   0.00024894            8e-13                 4.8e-13               -0.00024854          
  3.45                  0.00025146            8.6e-13               -3.8e-13              -0.00025106          
