! VERSION = 6.00
BEGIN_HEADER
 ICCAP_INPUTS
  vd         V  D GROUND SMU1 0.1 LIN        1    0          3.6        37   0.1       
  vg         V  G GROUND SMU2 0.001 LIST       2 3 0.379 0.579 0.779
  vb         V  B GROUND SMU4 0.1 CON        -3.6
  vs         V  S GROUND SMU3 0.1 CON        0
 ICCAP_OUTPUTS
  id         I  D GROUND SMU1 B
  ig         I  G GROUND SMU2 B
  ib         I  B GROUND SMU4 B
  is         I  S GROUND SMU3 B
 ICCAP_VALUES
  MASTER_SETUP_TYPE "~dc_idvd~"
  LINVT_VALUE ""
  LISTVT_VALUE "|idvg|100.0n|-200.0m|1.000m|3|200.0m|200.0m|"
  TYPE "1"
  TEMP " 27.0000 "
  IS_TNOM " 1.00000 "
  MAIN.W "150.0n"
  MAIN.L "330.0n"
  MAIN.AD "100.5f"
  MAIN.AS "100.5f"
  MAIN.PD "1.340u"
  MAIN.PS "1.340u"
  MAIN.NF "1.000"
  MAIN.M "1"
  MAIN.NRD "0.000"
  MAIN.NRS "0.000"
  MAIN.LDRIFT1 "1E-06"
  MAIN.LDRIFT2 "1E-06"
  MAIN.SA "0.000"
  MAIN.SB "0.000"
  MAIN.SD "0.000"
  MAIN.SCA "0.000"
  MAIN.SCB "0.000"
  MAIN.SCC "0.000"
  MAIN.SC "0.000"
  MODULE "S547"
  PIN_D "12"
  PIN_G "9"
  PIN_S "10"
  PIN_B "11"
  PIN_E ""
  PIN_6 ""
  XY_ID ""
  FUNC "Additional"
  STI "SA ref"
  WPE "WPE ref"
  COMMENT ""
  DIS_MEAS ""
  TypeTCI "10"
END_HEADER

BEGIN_DB
 ICCAP_VAR vg         0.379          
 ICCAP_VAR vb         -3.6           
 ICCAP_VAR vs         0              

 #vd                    id                    ig                    ib                    is                   
  0                     -2.6e-13              -3.4e-13              -1.868e-11            3.8e-13              
  0.1                   3.66e-12              -4e-13                -1.73e-11             -3.48e-12            
  0.2                   5.82e-12              -4.6e-13              -1.426e-11            -5.52e-12            
  0.3                   8.18e-12              -2.8e-13              -1.206e-11            -7.94e-12            
  0.4                   1.13e-11              -2e-13                -1.156e-11            -1.096e-11           
  0.5                   1.5e-11               -2.8e-13              -1.026e-11            -1.472e-11           
  0.6                   1.966e-11             -3e-13                -9.92e-12             -1.928e-11           
  0.7                   2.566e-11             -1.8e-13              -7.66e-12             -2.546e-11           
  0.8                   3.318e-11             -2.8e-13              -7.82e-12             -3.3e-11             
  0.9                   4.272e-11             -2.8e-13              -8.46e-12             -4.194e-11           
  1                     5.438e-11             -1.8e-13              -7.14e-12             -5.384e-11           
  1.1                   6.816e-11             -2e-13                -7.04e-12             -6.794e-11           
  1.2                   8.646e-11             -2.6e-13              -6.86e-12             -8.526e-11           
  1.3                   1.073e-10             -2e-13                -5.6e-12              -1.0672e-10          
  1.4                   1.3416e-10            -2.2e-13              -6.4e-12              -1.3362e-10          
  1.5                   1.654e-10             -2.8e-13              -5e-12                -1.647e-10           
  1.6                   2.0306e-10            -2.8e-13              -6.52e-12             -2.0404e-10          
  1.7                   2.5128e-10            -2.8e-13              -4.72e-12             -2.5082e-10          
  1.8                   3.0732e-10            -1e-13                -5.42e-12             -3.07e-10            
  1.9                   3.7572e-10            -1.2e-13              -5.98e-12             -3.735e-10           
  2                     4.5558e-10            -8e-14                -4.76e-12             -4.5538e-10          
  2.1                   5.5172e-10            -2e-14                -6.5e-12              -5.52e-10            
  2.2                   6.658e-10             -1e-13                -5.18e-12             -6.6722e-10          
  2.3                   8.0426e-10            -1e-13                -7.08e-12             -7.993e-10           
  2.4                   9.6586e-10            -1.8e-13              -8.82e-12             -9.596e-10           
  2.5                   1.159e-09             -2.6e-13              -1.062e-11            -1.1534e-09          
  2.6                   1.3854e-09            -1.6e-13              -1.496e-11            -1.376e-09           
  2.7                   1.6554e-09            -2e-13                -2.04e-11             -1.6304e-09          
  2.8                   1.9742e-09            -8e-14                -3.116e-11            -1.942e-09           
  2.9                   2.3572e-09            -1.4e-13              -4.422e-11            -2.3034e-09          
  3                     2.8116e-09            -6e-14                -6.462e-11            -2.7326e-09          
  3.1                   3.3088e-09            -6e-14                -9.334e-11            -3.2068e-09          
  3.2                   3.9428e-09            -1.2e-13              -1.3294e-10           -3.787e-09           
  3.3                   4.6444e-09            -6e-14                -1.9312e-10           -4.4402e-09          
  3.4                   5.5096e-09            -6e-14                -2.7604e-10           -5.227e-09           
  3.5                   6.5038e-09            -1.2e-13              -3.8632e-10           -6.1338e-09          
  3.6                   7.695e-09             -2e-14                -5.3474e-10           -7.1502e-09          
END_DB

BEGIN_DB
 ICCAP_VAR vg         0.579          
 ICCAP_VAR vb         -3.6           
 ICCAP_VAR vs         0              

 #vd                    id                    ig                    ib                    is                   
  0                     9.2e-13               2e-14                 -2.74e-12             -1.64e-12            
  0.1                   1.3456e-09            -2e-14                -2.7e-12              -1.3572e-09          
  0.2                   2.1184e-09            -2e-14                -3.28e-12             -2.1178e-09          
  0.3                   3.1004e-09            0                     -4.02e-12             -3.0934e-09          
  0.4                   4.2896e-09            0                     -4.2e-12              -4.3242e-09          
  0.5                   5.8222e-09            2e-14                 -3.54e-12             -5.781e-09           
  0.6                   7.6466e-09            -4e-14                -2.46e-12             -7.6378e-09          
  0.7                   9.811e-09             2e-14                 -3.7e-12              -9.8934e-09          
  0.8                   1.2514e-08            0                     -3.56e-12             -1.2578e-08          
  0.9                   1.576e-08             2e-14                 -2.06e-12             -1.572e-08           
  1                     1.946e-08             -2e-14                -3.54e-12             -1.9506e-08          
  1.1                   2.4098e-08            2e-14                 -3.14e-12             -2.3938e-08          
  1.2                   2.9426e-08            0                     -3.72e-12             -2.9294e-08          
  1.3                   3.552e-08             4e-14                 -3.44e-12             -3.5522e-08          
  1.4                   4.2492e-08            6e-14                 -3.28e-12             -4.2694e-08          
  1.5                   5.087e-08             -4e-14                -4.98e-12             -5.106e-08           
  1.6                   6.0034e-08            0                     -7.32e-12             -5.9938e-08          
  1.7                   7.068e-08             -2e-14                -1.07e-11             -7.0754e-08          
  1.8                   8.2618e-08            2e-14                 -1.84e-11             -8.2556e-08          
  1.9                   9.6328e-08            -1e-13                -3.388e-11            -9.6366e-08          
  2                     1.12e-07              -1e-13                -6.006e-11            -1.11424e-07         
  2.1                   1.292e-07             8e-14                 -1.0332e-10           -1.2826e-07          
  2.2                   1.4732e-07            -1.2e-13              -1.779e-10            -1.4768e-07          
  2.3                   1.6754e-07            -6e-14                -2.9276e-10           -1.6742e-07          
  2.4                   1.9108e-07            -1.8e-13              -4.7152e-10           -1.9042e-07          
  2.5                   2.1648e-07            4e-14                 -7.4106e-10           -2.154e-07           
  2.6                   2.4396e-07            -6e-14                -1.1438e-09           -2.4238e-07          
  2.7                   2.7312e-07            -4e-14                -1.7322e-09           -2.7124e-07          
  2.8                   3.0538e-07            4e-14                 -2.58e-09             -3.028e-07           
  2.9                   3.4096e-07            -1.8e-13              -3.7892e-09           -3.362e-07           
  3                     3.787e-07             0                     -5.4572e-09           -3.7194e-07          
  3.1                   4.1884e-07            -2e-14                -7.7578e-09           -4.1144e-07          
  3.2                   4.6392e-07            4e-14                 -1.08564e-08          -4.5254e-07          
  3.3                   5.1116e-07            -6e-14                -1.4942e-08           -4.9592e-07          
  3.4                   5.6196e-07            2e-14                 -2.0318e-08           -5.4124e-07          
  3.5                   6.1754e-07            0                     -2.715e-08            -5.9006e-07          
  3.6                   6.7664e-07            -1e-13                -3.5812e-08           -6.4028e-07          
END_DB

BEGIN_DB
 ICCAP_VAR vg         0.779          
 ICCAP_VAR vb         -3.6           
 ICCAP_VAR vs         0              

 #vd                    id                    ig                    ib                    is                   
  0                     1.668e-10             -8e-14                -1.9e-12              -1.6454e-10          
  0.1                   1.5574e-07            1.2e-13               -1.62e-12             -1.5684e-07          
  0.2                   2.3492e-07            -2e-14                -3.34e-12             -2.3428e-07          
  0.3                   3.098e-07             0                     -2.84e-12             -3.085e-07           
  0.4                   3.8518e-07            1e-13                 -1.38e-12             -3.8506e-07          
  0.5                   4.6276e-07            1e-13                 -3.22e-12             -4.63e-07            
  0.6                   5.4228e-07            0                     -3.04e-12             -5.419e-07           
  0.7                   6.2338e-07            2e-14                 -2.84e-12             -6.2414e-07          
  0.8                   7.0504e-07            0                     -2.26e-12             -7.0538e-07          
  0.9                   7.9148e-07            4e-14                 -2.98e-12             -7.9122e-07          
  1                     8.7932e-07            6e-14                 -4.4e-12              -8.8004e-07          
  1.1                   9.706e-07             1e-13                 -3.16e-12             -9.708e-07           
  1.2                   1.06356e-06           6e-14                 -2.66e-12             -1.0623e-06          
  1.3                   1.163e-06             4e-14                 -3.48e-12             -1.16188e-06         
  1.4                   1.2646e-06            -1e-13                -5.26e-12             -1.2594e-06          
  1.5                   1.3644e-06            8e-14                 -1.126e-11            -1.3622e-06          
  1.6                   1.4726e-06            1.2e-13               -2.706e-11            -1.4676e-06          
  1.7                   1.5804e-06            6e-14                 -6.22e-11             -1.5784e-06          
  1.8                   1.6964e-06            -4e-14                -1.3492e-10           -1.6898e-06          
  1.9                   1.8114e-06            6e-14                 -2.7e-10              -1.8074e-06          
  2                     1.9306e-06            0                     -5.0158e-10           -1.9246e-06          
  2.1                   2.0538e-06            0                     -8.8292e-10           -2.0474e-06          
  2.2                   2.1784e-06            -6e-14                -1.4816e-09           -2.1748e-06          
  2.3                   2.3058e-06            4e-14                 -2.3904e-09           -2.3e-06             
  2.4                   2.4368e-06            4e-14                 -3.7344e-09           -2.4306e-06          
  2.5                   2.5724e-06            -4e-14                -5.6692e-09           -2.5608e-06          
  2.6                   2.7086e-06            6e-14                 -8.4086e-09           -2.6944e-06          
  2.7                   2.8508e-06            4e-14                 -1.223e-08            -2.833e-06           
  2.8                   2.9934e-06            2e-14                 -1.7482e-08           -2.973e-06           
  2.9                   3.1416e-06            6e-14                 -2.4568e-08           -3.111e-06           
  3                     3.2918e-06            6e-14                 -3.41e-08             -3.2542e-06          
  3.1                   3.4498e-06            2e-14                 -4.6632e-08           -3.401e-06           
  3.2                   3.611e-06             1e-13                 -6.2968e-08           -3.546e-06           
  3.3                   3.783e-06             0                     -8.3844e-08           -3.6948e-06          
  3.4                   3.9596e-06            -4e-14                -1.1022e-07           -3.8446e-06          
  3.5                   4.1442e-06            0                     -1.4286e-07           -3.9982e-06          
  3.6                   4.3394e-06            -4e-14                -1.83e-07             -4.1526e-06          
END_DB

