! VERSION = 6.00
BEGIN_HEADER
 ICCAP_INPUTS
  vd         V  D GROUND SMU1 0.1 LIN        1    0          3.6        37   0.1       
  vg         V  G GROUND SMU2 0.001 LIN        2    1.296      3.6        5    0.576     
  vb         V  B GROUND SMU4 0.1 CON        -3.6
  vs         V  S GROUND SMU3 0.1 CON        0
 ICCAP_OUTPUTS
  id         I  D GROUND SMU1 B
  ig         I  G GROUND SMU2 B
  ib         I  B GROUND SMU4 B
  is         I  S GROUND SMU3 B
 ICCAP_VALUES
  MASTER_SETUP_TYPE "~dc_idvd~"
  LINVT_VALUE "|idvg|100.0n|100.0m|1.000m|5|3.600|"
  LISTVT_VALUE ""
  TYPE "1"
  TEMP " 27.0000 "
  IS_TNOM " 1.00000 "
  MAIN.W "600.0n"
  MAIN.L "500.0n"
  MAIN.AD "204.0f"
  MAIN.AS "204.0f"
  MAIN.PD "1.880u"
  MAIN.PS "1.880u"
  MAIN.NF "1.000"
  MAIN.M "1"
  MAIN.NRD "0.000"
  MAIN.NRS "0.000"
  MAIN.LDRIFT1 "1E-06"
  MAIN.LDRIFT2 "1E-06"
  MAIN.SA "0.000"
  MAIN.SB "0.000"
  MAIN.SD "0.000"
  MAIN.SCA "0.000"
  MAIN.SCB "0.000"
  MAIN.SCC "0.000"
  MAIN.SC "0.000"
  MODULE "S559"
  PIN_D "16"
  PIN_G "5"
  PIN_S "6"
  PIN_B "15"
  PIN_E ""
  PIN_6 ""
  XY_ID ""
  FUNC "LW Scale"
  STI "SA ref"
  WPE "WPE ref"
  COMMENT ""
  DIS_MEAS ""
  TypeTCI "10"
END_HEADER

BEGIN_DB
 ICCAP_VAR vg         1.296          
 ICCAP_VAR vb         -3.6           
 ICCAP_VAR vs         0              

 #vd                    id                    ig                    ib                    is                   
  0                     4.0108e-10            6.4e-13               -4.242e-11            -2.7304e-10          
  0.1                   3.2534e-07            5.4e-13               -3.484e-11            -3.2528e-07          
  0.2                   4.0324e-07            4.4e-13               -3.522e-11            -4.0332e-07          
  0.3                   4.451e-07             3.8e-13               -3.368e-11            -4.4468e-07          
  0.4                   4.7964e-07            2.6e-13               -3.14e-11             -4.794e-07           
  0.5                   5.12e-07              3e-13                 -2.932e-11            -5.1158e-07          
  0.6                   5.4298e-07            3.4e-13               -2.874e-11            -5.4318e-07          
  0.7                   5.7234e-07            2.4e-13               -2.764e-11            -5.724e-07           
  0.8                   6.0226e-07            2.4e-13               -2.738e-11            -6.0172e-07          
  0.9                   6.3038e-07            3.2e-13               -2.506e-11            -6.3036e-07          
  1                     6.5914e-07            3.4e-13               -2.506e-11            -6.5912e-07          
  1.1                   6.8854e-07            2e-13                 -2.488e-11            -6.882e-07           
  1.2                   7.177e-07             2e-13                 -2.416e-11            -7.1744e-07          
  1.3                   7.441e-07             1.2e-13               -2.244e-11            -7.4662e-07          
  1.4                   7.7534e-07            1.8e-13               -2.26e-11             -7.7546e-07          
  1.5                   8.0522e-07            8e-14                 -2.276e-11            -8.0498e-07          
  1.6                   8.3528e-07            2e-13                 -2.374e-11            -8.3488e-07          
  1.7                   8.652e-07             1e-13                 -2.646e-11            -8.6496e-07          
  1.8                   8.9506e-07            1.8e-13               -3.674e-11            -8.965e-07           
  1.9                   9.2734e-07            2.2e-13               -5.748e-11            -9.235e-07           
  2                     9.585e-07             1.2e-13               -9.812e-11            -9.583e-07           
  2.1                   9.9038e-07            1e-13                 -1.6946e-10           -9.8956e-07          
  2.2                   1.02212e-06           1.6e-13               -2.9242e-10           -1.02224e-06         
  2.3                   1.05452e-06           1.6e-13               -4.8704e-10           -1.05362e-06         
  2.4                   1.0891e-06            1.6e-13               -7.8286e-10           -1.08814e-06         
  2.5                   1.12388e-06           1.4e-13               -1.2206e-09           -1.12194e-06         
  2.6                   1.1602e-06            1e-13                 -1.8578e-09           -1.15698e-06         
  2.7                   1.1966e-06            2.2e-13               -2.7584e-09           -1.1896e-06          
  2.8                   1.2332e-06            1e-13                 -4.0158e-09           -1.2248e-06          
  2.9                   1.2706e-06            1.2e-13               -5.7442e-09           -1.261e-06           
  3                     1.309e-06             1e-13                 -8.0734e-09           -1.295e-06           
  3.1                   1.3478e-06            6e-14                 -1.12298e-08          -1.3334e-06          
  3.2                   1.391e-06             1.4e-13               -1.5276e-08           -1.359e-06           
  3.3                   1.4236e-06            1.2e-13               -2.0672e-08           -1.3982e-06          
  3.4                   1.469e-06             1.6e-13               -2.7622e-08           -1.435e-06           
  3.5                   1.5164e-06            8e-14                 -3.6564e-08           -1.4758e-06          
  3.6                   1.5676e-06            1e-13                 -4.767e-08            -1.5114e-06          
END_DB

BEGIN_DB
 ICCAP_VAR vg         1.872          
 ICCAP_VAR vb         -3.6           
 ICCAP_VAR vs         0              

 #vd                    id                    ig                    ib                    is                   
  0                     2.686e-09             4.2e-13               -8.74e-12             -3.1538e-09          
  0.1                   8.9886e-06            3.4e-13               -8.56e-12             -8.9858e-06          
  0.2                   1.5976e-05            2.6e-13               -8.96e-12             -1.5952e-05          
  0.3                   2.105e-05             2.2e-13               -1.048e-11            -2.1032e-05          
  0.4                   2.452e-05             2.8e-13               -1.034e-11            -2.4508e-05          
  0.5                   2.6818e-05            1.8e-13               -8.22e-12             -2.6794e-05          
  0.6                   2.8332e-05            1.6e-13               -9.56e-12             -2.8322e-05          
  0.7                   2.9424e-05            1e-13                 -9.78e-12             -2.9394e-05          
  0.8                   3.0248e-05            1e-13                 -8.48e-12             -3.0226e-05          
  0.9                   3.0922e-05            2.2e-13               -9.5e-12              -3.089e-05           
  1                     3.1494e-05            1.8e-13               -9.62e-12             -3.1474e-05          
  1.1                   3.2012e-05            1.8e-13               -8.56e-12             -3.1984e-05          
  1.2                   3.2478e-05            4e-14                 -9.88e-12             -3.245e-05           
  1.3                   3.2904e-05            1.6e-13               -1.024e-11            -3.2904e-05          
  1.4                   3.333e-05             1.8e-13               -8.7e-12              -3.3298e-05          
  1.5                   3.3718e-05            8e-14                 -1.048e-11            -3.37e-05            
  1.6                   3.4112e-05            1.2e-13               -1.142e-11            -3.4106e-05          
  1.7                   3.4484e-05            2e-13                 -1.626e-11            -3.4468e-05          
  1.8                   3.484e-05             8e-14                 -3.722e-11            -3.4814e-05          
  1.9                   3.5194e-05            6e-14                 -9.106e-11            -3.5182e-05          
  2                     3.553e-05             1.4e-13               -2.2414e-10           -3.5516e-05          
  2.1                   3.5876e-05            1.8e-13               -5.2262e-10           -3.5854e-05          
  2.2                   3.623e-05             8e-14                 -1.1274e-09           -3.6214e-05          
  2.3                   3.6558e-05            4e-14                 -2.2696e-09           -3.6542e-05          
  2.4                   3.686e-05             6e-14                 -4.2598e-09           -3.6854e-05          
  2.5                   3.7192e-05            2e-13                 -7.5406e-09           -3.7094e-05          
  2.6                   3.7452e-05            8e-14                 -1.2716e-08           -3.746e-05           
  2.7                   3.7798e-05            1.4e-13               -2.0526e-08           -3.7724e-05          
  2.8                   3.808e-05             8e-14                 -3.195e-08            -3.8008e-05          
  2.9                   3.8406e-05            2e-13                 -4.8238e-08           -3.8308e-05          
  3                     3.8746e-05            1.2e-13               -7.1052e-08           -3.8648e-05          
  3.1                   3.9062e-05            6e-14                 -1.02342e-07          -3.8944e-05          
  3.2                   3.9294e-05            2e-13                 -1.4422e-07           -3.9164e-05          
  3.3                   3.9612e-05            2.8e-13               -1.999e-07            -3.9356e-05          
  3.4                   4.0004e-05            3e-13                 -2.749e-07            -3.9648e-05          
  3.5                   4.0232e-05            4e-13                 -3.7026e-07           -3.9782e-05          
  3.6                   4.0654e-05            3.8e-13               -4.9468e-07           -4.01e-05            
END_DB

BEGIN_DB
 ICCAP_VAR vg         2.448          
 ICCAP_VAR vb         -3.6           
 ICCAP_VAR vs         0              

 #vd                    id                    ig                    ib                    is                   
  0                     9.456e-09             4.2e-13               -5.54e-12             -9.7e-09             
  0.1                   1.8176e-05            2.6e-13               -5.42e-12             -1.8154e-05          
  0.2                   3.4416e-05            3.2e-13               -5.64e-12             -3.4396e-05          
  0.3                   4.8422e-05            2.8e-13               -7.04e-12             -4.84e-05            
  0.4                   6.011e-05             1.2e-13               -6.24e-12             -6.0092e-05          
  0.5                   6.95e-05              3.2e-13               -6.06e-12             -6.9484e-05          
  0.6                   7.682e-05             2.4e-13               -7.56e-12             -7.6796e-05          
  0.7                   8.2324e-05            2.2e-13               -6.08e-12             -8.2304e-05          
  0.8                   8.6386e-05            1.8e-13               -6.02e-12             -8.6364e-05          
  0.9                   8.9388e-05            1.6e-13               -7.22e-12             -8.9354e-05          
  1                     9.161e-05             1.8e-13               -5.86e-12             -9.16e-05            
  1.1                   9.3352e-05            2e-13                 -6.48e-12             -9.333e-05           
  1.2                   9.4734e-05            2.4e-13               -6.72e-12             -9.4716e-05          
  1.3                   9.5906e-05            2.6e-13               -5.18e-12             -9.5878e-05          
  1.4                   9.6872e-05            1.6e-13               -6.48e-12             -9.6868e-05          
  1.5                   9.7762e-05            1.6e-13               -7.3e-12              -9.7742e-05          
  1.6                   9.8574e-05            2.2e-13               -6.06e-12             -9.8556e-05          
  1.7                   9.9302e-05            1e-13                 -8.24e-12             -9.928e-05           
  1.8                   9.9988e-05            8e-14                 -1.45e-11             -9.9966e-05          
  1.9                   0.000100612           8e-14                 -3.07e-11             -0.000100602         
  2                     0.000101238           2.2e-13               -8.054e-11            -0.000101226         
  2.1                   0.000101836           2.2e-13               -2.091e-10            -0.000101816         
  2.2                   0.000102418           2e-14                 -5.025e-10            -0.000102394         
  2.3                   0.000102982           1.8e-13               -1.1274e-09           -0.0001027           
  2.4                   0.000103504           8e-14                 -2.3646e-09           -0.0001032           
  2.5                   0.000104028           1.6e-13               -4.6518e-09           -0.00010374          
  2.6                   0.000104556           1.2e-13               -8.6336e-09           -0.00010428          
  2.7                   0.000105006           2.8e-13               -1.5216e-08           -0.00010472          
  2.8                   0.000105516           1.8e-13               -2.5598e-08           -0.00010518          
  2.9                   0.000105922           2.6e-13               -4.1416e-08           -0.00010562          
  3                     0.00010643            1.4e-13               -6.4912e-08           -0.0001061           
  3.1                   0.000106876           2.8e-13               -9.8482e-08           -0.00010648          
  3.2                   0.000107332           3e-13                 -1.4602e-07           -0.00010682          
  3.3                   0.000107614           4.8e-13               -2.1052e-07           -0.00010708          
  3.4                   0.000108092           6.4e-13               -2.9872e-07           -0.0001075           
  3.5                   0.000108524           8.6e-13               -4.19e-07             -0.00010778          
  3.6                   0.000109022           1.06e-12              -5.7392e-07           -0.0001081           
END_DB

BEGIN_DB
 ICCAP_VAR vg         3.024          
 ICCAP_VAR vb         -3.6           
 ICCAP_VAR vs         0              

 #vd                    id                    ig                    ib                    is                   
  0                     1.3322e-08            4.4e-13               -3.16e-12             -1.2766e-08          
  0.1                   2.494e-05             4.4e-13               -4e-12                -2.492e-05           
  0.2                   4.8278e-05            3.8e-13               -4.22e-12             -4.8256e-05          
  0.3                   6.9566e-05            3e-13                 -4.38e-12             -6.9544e-05          
  0.4                   8.8592e-05            3e-13                 -5.28e-12             -8.8576e-05          
  0.5                   0.000105172           3e-13                 -4.78e-12             -0.00010515          
  0.6                   0.00011942            2.2e-13               -5.64e-12             -0.00011902          
  0.7                   0.00013116            1e-13                 -4.24e-12             -0.00013076          
  0.8                   0.00014072            2.2e-13               -4.62e-12             -0.00014032          
  0.9                   0.00014836            2.2e-13               -4.96e-12             -0.00014796          
  1                     0.00015438            1.2e-13               -4.16e-12             -0.00015398          
  1.1                   0.00015906            2e-13                 -4.76e-12             -0.00015866          
  1.2                   0.0001627             2.4e-13               -5.12e-12             -0.0001623           
  1.3                   0.00016554            2.8e-13               -4.82e-12             -0.00016514          
  1.4                   0.00016782            1.2e-13               -4.78e-12             -0.00016742          
  1.5                   0.00016968            3e-13                 -4.62e-12             -0.00016928          
  1.6                   0.00017124            2.6e-13               -4.2e-12              -0.00017082          
  1.7                   0.00017258            2.4e-13               -5.38e-12             -0.00017218          
  1.8                   0.00017374            1.6e-13               -6.06e-12             -0.00017334          
  1.9                   0.0001748             1.2e-13               -1.102e-11            -0.0001744           
  2                     0.00017576            1.6e-13               -2.426e-11            -0.00017538          
  2.1                   0.00017666            2.6e-13               -6.158e-11            -0.00017628          
  2.2                   0.00017748            1.2e-13               -1.6018e-10           -0.00017712          
  2.3                   0.0001783             6e-14                 -3.9118e-10           -0.0001779           
  2.4                   0.00017908            1.6e-13               -8.8992e-10           -0.00017868          
  2.5                   0.00017972            2.8e-13               -1.907e-09            -0.00017938          
  2.6                   0.00018044            2e-13                 -3.8412e-09           -0.00017998          
  2.7                   0.00018102            4e-14                 -7.3072e-09           -0.00018062          
  2.8                   0.00018158            3.6e-13               -1.3216e-08           -0.00018114          
  2.9                   0.00018216            2.8e-13               -2.2834e-08           -0.00018174          
  3                     0.00018266            2.4e-13               -3.801e-08            -0.00018222          
  3.1                   0.00018316            3.8e-13               -6.1054e-08           -0.00018262          
  3.2                   0.00018358            5.2e-13               -9.4484e-08           -0.00018302          
  3.3                   0.0001838             5.8e-13               -1.4222e-07           -0.00018338          
  3.4                   0.00018442            7.6e-13               -2.092e-07            -0.00018372          
  3.5                   0.00018482            1.14e-12              -3.0286e-07           -0.00018402          
  3.6                   0.0001854             1.62e-12              -4.2902e-07           -0.00018454          
END_DB

BEGIN_DB
 ICCAP_VAR vg         3.6            
 ICCAP_VAR vb         -3.6           
 ICCAP_VAR vs         0              

 #vd                    id                    ig                    ib                    is                   
  0                     1.6114e-08            5e-13                 -2.2e-12              -1.5442e-08          
  0.1                   2.9646e-05            3.8e-13               -2.92e-12             -2.9626e-05          
  0.2                   5.7996e-05            2.6e-13               -4.18e-12             -5.7974e-05          
  0.3                   8.4564e-05            4e-13                 -3.96e-12             -8.4546e-05          
  0.4                   0.000109116           3e-13                 -3.42e-12             -0.000109094         
  0.5                   0.0001315             3.6e-13               -3.76e-12             -0.0001311           
  0.6                   0.00015132            2.6e-13               -3.4e-12              -0.00015092          
  0.7                   0.00016874            2.6e-13               -4.72e-12             -0.00016834          
  0.8                   0.0001838             1.6e-13               -2.98e-12             -0.0001834           
