! VERSION = 6.00
BEGIN_HEADER
 ICCAP_INPUTS
  vd         V  D GROUND SMU1 0.1 LIN        1    0          3.6        37   0.1       
  vg         V  G GROUND SMU2 0.001 LIST       2 3 0.389 0.589 0.789
  vb         V  B GROUND SMU4 0.1 CON        0
  vs         V  S GROUND SMU3 0.1 CON        0
 ICCAP_OUTPUTS
  id         I  D GROUND SMU1 B
  ig         I  G GROUND SMU2 B
  ib         I  B GROUND SMU4 B
  is         I  S GROUND SMU3 B
 ICCAP_VALUES
  MASTER_SETUP_TYPE "~dc_idvd~"
  LINVT_VALUE ""
  LISTVT_VALUE "|idvg|100.0n|-200.0m|1.000m|3|200.0m|200.0m|"
  TYPE "1"
  TEMP " 27.0000 "
  IS_TNOM " 1.00000 "
  MAIN.W "600.0n"
  MAIN.L "10.00u"
  MAIN.AD "204.0f"
  MAIN.AS "204.0f"
  MAIN.PD "1.880u"
  MAIN.PS "1.880u"
  MAIN.NF "1.000"
  MAIN.M "1"
  MAIN.NRD "0.000"
  MAIN.NRS "0.000"
  MAIN.LDRIFT1 "1E-06"
  MAIN.LDRIFT2 "1E-06"
  MAIN.SA "0.000"
  MAIN.SB "0.000"
  MAIN.SD "0.000"
  MAIN.SCA "0.000"
  MAIN.SCB "0.000"
  MAIN.SCC "0.000"
  MAIN.SC "0.000"
  MODULE "S559"
  PIN_D "12"
  PIN_G "9"
  PIN_S "10"
  PIN_B "11"
  PIN_E ""
  PIN_6 ""
  XY_ID ""
  FUNC "W Scale"
  STI "SA ref"
  WPE "WPE ref"
  COMMENT ""
  DIS_MEAS ""
  TypeTCI "10"
END_HEADER

BEGIN_DB
 ICCAP_VAR vg         0.389          
 ICCAP_VAR vb         0              
 ICCAP_VAR vs         0              

 #vd                    id                    ig                    ib                    is                   
  0                     -2.2e-13              -4.8e-13              2.66e-12              2e-13                
  0.1                   4e-11                 -4.2e-13              1.74e-12              -3.984e-11           
  0.2                   4.11e-11              -4.4e-13              2.28e-12              -4.086e-11           
  0.3                   4.14e-11              -2.8e-13              1.8e-12               -4.134e-11           
  0.4                   4.178e-11             -4.4e-13              1.66e-12              -4.118e-11           
  0.5                   4.186e-11             -2.8e-13              3.18e-12              -4.14e-11            
  0.6                   4.178e-11             -4.2e-13              1.98e-12              -4.144e-11           
  0.7                   4.19e-11              -3.4e-13              8.8e-13               -4.13e-11            
  0.8                   4.208e-11             -2.4e-13              2.1e-12               -4.158e-11           
  0.9                   4.22e-11              -3.8e-13              2.12e-12              -4.16e-11            
  1                     4.232e-11             -2.6e-13              1.84e-12              -4.166e-11           
  1.1                   4.228e-11             -1.8e-13              1.74e-12              -4.19e-11            
  1.2                   4.23e-11              -2.2e-13              2.36e-12              -4.176e-11           
  1.3                   4.244e-11             -1.8e-13              2.86e-12              -4.19e-11            
  1.4                   4.266e-11             -1.8e-13              1.76e-12              -4.188e-11           
  1.5                   4.268e-11             -3.6e-13              1.76e-12              -4.194e-11           
  1.6                   4.272e-11             -2.6e-13              2.92e-12              -4.212e-11           
  1.7                   4.286e-11             -1.8e-13              1.52e-12              -4.192e-11           
  1.8                   4.266e-11             -2.8e-13              1.36e-12              -4.196e-11           
  1.9                   4.288e-11             -1.2e-13              2.32e-12              -4.208e-11           
  2                     4.306e-11             -1.6e-13              2.24e-12              -4.21e-11            
  2.1                   4.314e-11             -2e-13                1.5e-12               -4.228e-11           
  2.2                   4.306e-11             -8e-14                1.58e-12              -4.216e-11           
  2.3                   4.318e-11             -2e-13                2.46e-12              -4.212e-11           
  2.4                   4.33e-11              -1.6e-13              3.54e-12              -4.222e-11           
  2.5                   4.342e-11             -2.4e-13              1.42e-12              -4.23e-11            
  2.6                   4.352e-11             -1.2e-13              2.06e-12              -4.24e-11            
  2.7                   4.352e-11             0                     2.58e-12              -4.256e-11           
  2.8                   4.368e-11             -1.8e-13              4.2e-13               -4.228e-11           
  2.9                   4.38e-11              -2.4e-13              1.62e-12              -4.236e-11           
  3                     4.404e-11             -1.6e-13              1.9e-12               -4.228e-11           
  3.1                   4.432e-11             -2.2e-13              1.18e-12              -4.244e-11           
  3.2                   4.442e-11             -6e-14                6.2e-13               -4.268e-11           
  3.3                   4.468e-11             -2e-13                6.4e-13               -4.242e-11           
  3.4                   4.496e-11             0                     1.02e-12              -4.268e-11           
  3.5                   4.536e-11             -1.2e-13              -1e-13                -4.26e-11            
  3.6                   4.58e-11              -1.6e-13              -7.4e-13              -4.24e-11            
END_DB

BEGIN_DB
 ICCAP_VAR vg         0.589          
 ICCAP_VAR vb         0              
 ICCAP_VAR vs         0              

 #vd                    id                    ig                    ib                    is                   
  0                     7.28e-12              -6e-14                2.48e-12              -7.72e-12            
  0.1                   5.7258e-09            -1.2e-13              2.8e-12               -5.7228e-09          
  0.2                   5.9806e-09            -4e-14                2.38e-12              -5.977e-09           
  0.3                   6.0102e-09            0                     9e-13                 -6.0042e-09          
  0.4                   6.0274e-09            -2e-14                1.54e-12              -6.0228e-09          
  0.5                   6.0398e-09            -1.2e-13              1.34e-12              -6.0354e-09          
  0.6                   6.0526e-09            -1e-13                2.1e-12               -6.0452e-09          
  0.7                   6.062e-09             0                     4.88e-12              -6.0586e-09          
  0.8                   6.0744e-09            -2e-13                5.8e-13               -6.0634e-09          
  0.9                   6.0768e-09            6e-14                 1.02e-12              -6.0754e-09          
  1                     6.0842e-09            0                     2.02e-12              -6.0828e-09          
  1.1                   6.0958e-09            -6e-14                2.46e-12              -6.0892e-09          
  1.2                   6.1034e-09            -6e-14                1.58e-12              -6.1014e-09          
  1.3                   6.115e-09             0                     1.14e-12              -6.109e-09           
  1.4                   6.1186e-09            6e-14                 1.64e-12              -6.1158e-09          
  1.5                   6.1242e-09            0                     1.44e-12              -6.1232e-09          
  1.6                   6.1302e-09            -2e-14                1.9e-12               -6.1262e-09          
  1.7                   6.137e-09             -4e-14                1.54e-12              -6.1344e-09          
  1.8                   6.144e-09             -4e-14                3.2e-13               -6.1356e-09          
  1.9                   6.1476e-09            -6e-14                4.8e-13               -6.1412e-09          
  2                     6.1514e-09            -6e-14                8e-14                 -6.1484e-09          
  2.1                   6.1592e-09            -4e-14                -1.8e-13              -6.1498e-09          
  2.2                   6.1636e-09            -6e-14                -3.08e-12             -6.1586e-09          
  2.3                   6.173e-09             -1e-13                -4.92e-12             -6.16e-09            
  2.4                   6.177e-09             -2e-14                -7.1e-12              -6.1644e-09          
  2.5                   6.194e-09             -4e-14                -9.6e-12              -6.1752e-09          
  2.6                   6.2018e-09            -6e-14                -1.522e-11            -6.1764e-09          
  2.7                   6.2098e-09            0                     -2.188e-11            -6.182e-09           
  2.8                   6.2224e-09            2e-14                 -2.97e-11             -6.1864e-09          
  2.9                   6.2352e-09            8e-14                 -4.068e-11            -6.1864e-09          
  3                     6.2492e-09            -1.4e-13              -5.306e-11            -6.1914e-09          
  3.1                   6.2738e-09            0                     -7.07e-11             -6.2e-09             
  3.2                   6.299e-09             6e-14                 -9.176e-11            -6.1994e-09          
  3.3                   6.3282e-09            4e-14                 -1.1778e-10           -6.2088e-09          
  3.4                   6.371e-09             4e-14                 -1.4894e-10           -6.214e-09           
  3.5                   6.4098e-09            2e-14                 -1.8414e-10           -6.2198e-09          
  3.6                   6.4572e-09            6e-14                 -2.2802e-10           -6.2206e-09          
END_DB

BEGIN_DB
 ICCAP_VAR vg         0.789          
 ICCAP_VAR vb         0              
 ICCAP_VAR vs         0              

 #vd                    id                    ig                    ib                    is                   
  0                     6.994e-11             -2e-14                2.38e-12              -6.766e-11           
  0.1                   7.4572e-08            0                     2.56e-12              -7.4554e-08          
  0.2                   9.1348e-08            2e-14                 2.1e-12               -9.1348e-08          
  0.3                   9.2768e-08            2e-14                 1.18e-12              -9.2732e-08          
  0.4                   9.2996e-08            0                     1.22e-12              -9.2988e-08          
  0.5                   9.3168e-08            2e-14                 5.8e-13               -9.315e-08           
  0.6                   9.3304e-08            -6e-14                2.04e-12              -9.3296e-08          
  0.7                   9.34e-08              1.6e-13               1.24e-12              -9.342e-08           
  0.8                   9.3518e-08            1e-13                 6e-14                 -9.3518e-08          
  0.9                   9.3602e-08            -2e-14                2.8e-13               -9.3586e-08          
  1                     9.3726e-08            1e-13                 1.82e-12              -9.3718e-08          
  1.1                   9.3798e-08            1.8e-13               1.98e-12              -9.3794e-08          
  1.2                   9.3864e-08            6e-14                 1.06e-12              -9.3854e-08          
  1.3                   9.395e-08             0                     7.2e-13               -9.3918e-08          
  1.4                   9.4022e-08            8e-14                 9e-13                 -9.3968e-08          
  1.5                   9.406e-08             0                     1.86e-12              -9.4042e-08          
  1.6                   9.4126e-08            4e-14                 4.8e-13               -9.4132e-08          
  1.7                   9.4236e-08            -4e-14                2e-14                 -9.4194e-08          
  1.8                   9.4278e-08            -6e-14                -1.76e-12             -9.426e-08           
  1.9                   9.436e-08             4e-14                 -2.96e-12             -9.4316e-08          
  2                     9.4392e-08            0                     -7.38e-12             -9.4386e-08          
  2.1                   9.4478e-08            4e-14                 -1.524e-11            -9.4454e-08          
  2.2                   9.4494e-08            -1e-13                -2.612e-11            -9.4444e-08          
  2.3                   9.4552e-08            -8e-14                -4.18e-11             -9.4512e-08          
  2.4                   9.4652e-08            4e-14                 -6.466e-11            -9.454e-08           
  2.5                   9.4714e-08            -2e-14                -9.912e-11            -9.4602e-08          
  2.6                   9.4774e-08            2e-14                 -1.451e-10            -9.4652e-08          
  2.7                   9.493e-08             1e-13                 -2.0672e-10           -9.4716e-08          
  2.8                   9.5054e-08            0                     -2.884e-10            -9.4734e-08          
  2.9                   9.5198e-08            2e-14                 -3.9592e-10           -9.4812e-08          
  3                     9.5396e-08            1.2e-13               -5.355e-10            -9.481e-08           
  3.1                   9.56e-08              1.6e-13               -7.1474e-10           -9.4872e-08          
  3.2                   9.5894e-08            4e-14                 -9.38e-10             -9.4912e-08          
  3.3                   9.6244e-08            -8e-14                -1.2222e-09           -9.4974e-08          
  3.4                   9.6646e-08            1.4e-13               -1.573e-09            -9.504e-08           
  3.5                   9.7112e-08            8e-14                 -2.0024e-09           -9.5058e-08          
  3.6                   9.7612e-08            4e-14                 -2.5114e-09           -9.5116e-08          
END_DB

