! VERSION = 6.00
BEGIN_HEADER
 ICCAP_INPUTS
  vg         V  G GROUND SMU2 0.001 LIN        1    -0.5       3.6        83   0.05      
  vb         V  B GROUND SMU4 0.1 LIN        2    0          -3.6       5    -0.9      
  vd         V  D GROUND SMU1 0.1 LIN        3    0.1        3.3        3    1.6       
  vs         V  S GROUND SMU3 0.1 CON        0
 ICCAP_OUTPUTS
  id         I  D GROUND SMU1 B
  ig         I  G GROUND SMU2 B
  ib         I  B GROUND SMU4 B
  is         I  S GROUND SMU3 B
 ICCAP_VALUES
  MASTER_SETUP_TYPE "~dc_idvg~"
  LINVT_VALUE ""
  LISTVT_VALUE ""
  TYPE "1"
  TEMP " 125.000 "
  IS_TNOM " 0.00000 "
  MAIN.W "2.000u"
  MAIN.L "3.000u"
  MAIN.AD "680.0f"
  MAIN.AS "680.0f"
  MAIN.PD "4.680u"
  MAIN.PS "4.680u"
  MAIN.NF "1.000"
  MAIN.M "1"
  MAIN.NRD "0.000"
  MAIN.NRS "0.000"
  MAIN.LDRIFT1 "1E-06"
  MAIN.LDRIFT2 "1E-06"
  MAIN.SA "0.000"
  MAIN.SB "0.000"
  MAIN.SD "0.000"
  MAIN.SCA "0.000"
  MAIN.SCB "0.000"
  MAIN.SCC "0.000"
  MAIN.SC "0.000"
  MODULE "S558"
  PIN_D "14"
  PIN_G "7"
  PIN_S "8"
  PIN_B "13"
  PIN_E ""
  PIN_6 ""
  XY_ID ""
  FUNC "LW Scale"
  STI "SA ref"
  WPE "WPE ref"
  COMMENT ""
  DIS_MEAS ""
  TypeTCI "10"
END_HEADER

BEGIN_DB
 ICCAP_VAR vb         0              
 ICCAP_VAR vd         0.1            
 ICCAP_VAR vs         0              

 #vg                    id                    ig                    ib                    is                   
  -0.5                  1.12e-12              -5.498e-08            5.497e-08             9.6e-13              
  -0.45                 -1.02e-12             -1.2944e-08           1.2968e-08            3.8e-13              
  -0.4                  -1.02e-12             -3.0404e-09           3.0686e-09            1.2e-13              
  -0.35                 2e-13                 -7.1332e-10           7.401e-10             3e-13                
  -0.3                  2.8e-13               -1.6644e-10           1.9232e-10            3.2e-13              
  -0.25                 2.6e-13               -3.892e-11            6.334e-11             2e-13                
  -0.2                  4.4e-13               -8.76e-12             3.254e-11             2e-14                
  -0.15                 6.4e-13               -1.62e-12             2.58e-11              -1e-13               
  -0.1                  9.4e-13               -1e-13                2.372e-11             -4e-13               
  -0.05                 2.08e-12              4.2e-13               2.25e-11              -1.6e-12             
  0                     4.54e-12              3e-13                 2.212e-11             -4.06e-12            
  0.05                  1.148e-11             4e-13                 2.17e-11              -1.1e-11             
  0.1                   2.998e-11             5.4e-13               2.002e-11             -2.948e-11           
  0.15                  7.998e-11             5.8e-13               2.028e-11             -7.962e-11           
  0.2                   2.1668e-10            6e-13                 2.002e-11             -2.1628e-10          
  0.25                  5.951e-10             8.2e-13               1.958e-11             -5.9448e-10          
  0.3                   1.635e-09             5.2e-13               1.956e-11             -1.634e-09           
  0.35                  4.4688e-09            8.2e-13               1.872e-11             -4.467e-09           
  0.4                   1.1814e-08            5.4e-13               1.894e-11             -1.1796e-08          
  0.45                  2.9512e-08            7.2e-13               1.854e-11             -2.9494e-08          
  0.5                   6.7076e-08            7.4e-13               1.702e-11             -6.7048e-08          
  0.55                  1.3664e-07            8.8e-13               1.702e-11             -1.3662e-07          
  0.6                   2.476e-07             7.8e-13               1.66e-11              -2.4748e-07          
  0.65                  4.043e-07             8e-13                 1.704e-11             -4.042e-07           
  0.7                   6.0214e-07            9.4e-13               1.666e-11             -6.0236e-07          
  0.75                  8.3618e-07            8.2e-13               1.546e-11             -8.3616e-07          
  0.8                   1.09644e-06           1.1e-12               1.554e-11             -1.0966e-06          
  0.85                  1.3802e-06            6.6e-13               1.624e-11             -1.3766e-06          
  0.9                   1.6762e-06            6.4e-13               1.49e-11              -1.6728e-06          
  0.95                  1.9828e-06            1e-12                 1.396e-11             -1.9794e-06          
  1                     2.2966e-06            1.04e-12              1.482e-11             -2.2934e-06          
  1.05                  2.6172e-06            9.4e-13               1.522e-11             -2.6136e-06          
  1.1                   2.9392e-06            1.08e-12              1.418e-11             -2.9358e-06          
  1.15                  3.2626e-06            1.14e-12              1.354e-11             -3.2594e-06          
  1.2                   3.5866e-06            1.02e-12              1.392e-11             -3.5832e-06          
  1.25                  3.9106e-06            1.14e-12              1.332e-11             -3.9072e-06          
  1.3                   4.2348e-06            1.1e-12               1.43e-11              -4.2312e-06          
  1.35                  4.556e-06             9.6e-13               1.294e-11             -4.5528e-06          
  1.4                   4.8756e-06            1.06e-12              1.276e-11             -4.8724e-06          
  1.45                  5.1926e-06            1.18e-12              1.234e-11             -5.1892e-06          
  1.5                   5.5086e-06            1.14e-12              1.258e-11             -5.5054e-06          
  1.55                  5.8208e-06            1.06e-12              1.338e-11             -5.8172e-06          
  1.6                   6.1286e-06            1.34e-12              1.216e-11             -6.1258e-06          
  1.65                  6.4352e-06            1.18e-12              1.148e-11             -6.432e-06           
  1.7                   6.7376e-06            1.08e-12              1.15e-11              -6.735e-06           
  1.75                  7.0362e-06            1.3e-12               1.236e-11             -7.033e-06           
  1.8                   7.3318e-06            1.04e-12              1.186e-11             -7.3284e-06          
  1.85                  7.6226e-06            1.32e-12              1.054e-11             -7.6194e-06          
  1.9                   7.9112e-06            1.22e-12              1.076e-11             -7.9076e-06          
  1.95                  8.1942e-06            1.24e-12              1.154e-11             -8.191e-06           
  2                     8.474e-06             1.26e-12              1.18e-11              -8.4706e-06          
  2.05                  8.75e-06              1.22e-12              1.144e-11             -8.7468e-06          
  2.1                   9.0212e-06            1.14e-12              1.018e-11             -9.018e-06           
  2.15                  9.29e-06              1.26e-12              1.062e-11             -9.2862e-06          
  2.2                   9.552e-06             1.26e-12              1.05e-11              -9.5482e-06          
  2.25                  9.8112e-06            1.28e-12              1.106e-11             -9.8076e-06          
  2.3                   1.00654e-05           1.36e-12              1.082e-11             -1.00626e-05         
  2.35                  1.03166e-05           1.36e-12              9.42e-12              -1.03132e-05         
  2.4                   1.0562e-05            1.56e-12              9.82e-12              -1.05586e-05         
  2.45                  1.0804e-05            1.3e-12               1.03e-11              -1.08e-05            
  2.5                   1.10418e-05           1.42e-12              1.05e-11              -1.10384e-05         
  2.55                  1.12742e-05           1.42e-12              8.98e-12              -1.1271e-05          
  2.6                   1.1506e-05            1.16e-12              1.02e-11              -1.1498e-05          
  2.65                  1.173e-05             1.28e-12              1.012e-11             -1.1722e-05          
  2.7                   1.1948e-05            1.34e-12              9.12e-12              -1.1942e-05          
  2.75                  1.2164e-05            1.28e-12              8.78e-12              -1.2158e-05          
  2.8                   1.2374e-05            1.38e-12              8.04e-12              -1.2368e-05          
  2.85                  1.2582e-05            1.58e-12              9.9e-12               -1.2574e-05          
  2.9                   1.2784e-05            1.4e-12               9.6e-12               -1.2776e-05          
  2.95                  1.2982e-05            1.34e-12              8.42e-12              -1.2976e-05          
  3                     1.3176e-05            1.54e-12              8.34e-12              -1.3168e-05          
  3.05                  1.3364e-05            1.34e-12              8.26e-12              -1.3358e-05          
  3.1                   1.355e-05             1.54e-12              9.08e-12              -1.3542e-05          
  3.15                  1.373e-05             1.3e-12               8.12e-12              -1.3724e-05          
  3.2                   1.3906e-05            1.5e-12               8e-12                 -1.39e-05            
  3.25                  1.408e-05             1.54e-12              7.72e-12              -1.4072e-05          
  3.3                   1.4248e-05            1.46e-12              8.3e-12               -1.424e-05           
  3.35                  1.4412e-05            1.66e-12              8.34e-12              -1.4406e-05          
  3.4                   1.4572e-05            1.42e-12              7.74e-12              -1.4566e-05          
  3.45                  1.473e-05             1.5e-12               7.18e-12              -1.4722e-05          
  3.5                   1.4882e-05            1.44e-12              7.88e-12              -1.4876e-05          
  3.55                  1.503e-05             1.42e-12              7.64e-12              -1.5024e-05          
  3.6                   1.5176e-05            1.56e-12              8.14e-12              -1.5168e-05          
END_DB

BEGIN_DB
 ICCAP_VAR vb         -0.9           
 ICCAP_VAR vd         0.1            
 ICCAP_VAR vs         0              

 #vg                    id                    ig                    ib                    is                   
  -0.5                  4e-13                 -1.1e-12              -3.602e-11            9.8e-13              
  -0.45                 4.8e-13               -6.8e-13              -3.428e-11            1.04e-12             
  -0.4                  3.2e-13               -4.6e-13              -3.13e-11             1.06e-12             
  -0.35                 4.2e-13               -1.8e-13              -2.774e-11            1.08e-12             
  -0.3                  4.4e-13               -3.2e-13              -2.566e-11            1.12e-12             
  -0.25                 4.2e-13               -1.6e-13              -2.346e-11            1.08e-12             
  -0.2                  4e-13                 8e-14                 -2.27e-11             1.16e-12             
  -0.15                 4.4e-13               -8e-14                -2.264e-11            1.14e-12             
  -0.1                  4.4e-13               8e-14                 -2.048e-11            1.06e-12             
  -0.05                 4.8e-13               2.6e-13               -1.974e-11            1.12e-12             
  0                     4e-13                 1.6e-13               -1.754e-11            1.08e-12             
  0.05                  5e-13                 2.8e-13               -1.7e-11              1.18e-12             
  0.1                   5.2e-13               3.8e-13               -1.754e-11            1e-12                
  0.15                  6e-13                 4.4e-13               -1.664e-11            9.6e-13              
  0.2                   6.4e-13               5.4e-13               -1.534e-11            6.4e-13              
  0.25                  1.32e-12              5e-13                 -1.374e-11            8e-14                
  0.3                   3.08e-12              6.6e-13               -1.308e-11            -1.78e-12            
  0.35                  8.92e-12              5.4e-13               -1.352e-11            -7.64e-12            
  0.4                   2.706e-11             6e-13                 -1.27e-11             -2.592e-11           
  0.45                  8.422e-11             6.2e-13               -1.312e-11            -8.298e-11           
  0.5                   2.6278e-10            6.8e-13               -1.21e-11             -2.6162e-10          
  0.55                  8.2004e-10            6.2e-13               -1.112e-11            -8.188e-10           
  0.6                   2.514e-09             3.6e-13               -1.07e-11             -2.5114e-09          
  0.65                  7.4672e-09            7.4e-13               -1.058e-11            -7.4618e-09          
  0.7                   2.0594e-08            5.2e-13               -1.048e-11            -2.0582e-08          
  0.75                  5.123e-08             7.2e-13               -1.062e-11            -5.1214e-08          
  0.8                   1.11292e-07           9.2e-13               -1.12e-11             -1.11254e-07         
  0.85                  2.117e-07             8e-13                 -9.72e-12             -2.1168e-07          
  0.9                   3.563e-07             8e-13                 -1.064e-11            -3.5622e-07          
  0.95                  5.4206e-07            7.6e-13               -1.06e-11             -5.4198e-07          
  1                     7.6208e-07            8.4e-13               -1.024e-11            -7.6178e-07          
  1.05                  1.00932e-06           9.4e-13               -9.02e-12             -1.00932e-06         
  1.1                   1.2774e-06            8e-13                 -9.24e-12             -1.2742e-06          
  1.15                  1.5584e-06            7.2e-13               -9.1e-12              -1.555e-06           
  1.2                   1.8496e-06            9.8e-13               -8.04e-12             -1.8464e-06          
  1.25                  2.148e-06             9.8e-13               -7.92e-12             -2.1444e-06          
  1.3                   2.4524e-06            1e-12                 -8.88e-12             -2.4492e-06          
  1.35                  2.7586e-06            1.12e-12              -8.9e-12              -2.7554e-06          
  1.4                   3.0666e-06            1e-12                 -8.94e-12             -3.063e-06           
  1.45                  3.3748e-06            9e-13                 -7.12e-12             -3.3716e-06          
  1.5                   3.6842e-06            1.06e-12              -7.18e-12             -3.681e-06           
  1.55                  3.9918e-06            1.24e-12              -8.06e-12             -3.9882e-06          
  1.6                   4.2972e-06            1.1e-12               -8.5e-12              -4.2936e-06          
  1.65                  4.6014e-06            1.06e-12              -8.28e-12             -4.5984e-06          
  1.7                   4.9036e-06            1.22e-12              -6.26e-12             -4.9008e-06          
  1.75                  5.2024e-06            1.04e-12              -8.16e-12             -5.1992e-06          
  1.8                   5.4996e-06            1.12e-12              -7.76e-12             -5.4958e-06          
  1.85                  5.792e-06             1.16e-12              -7.84e-12             -5.7886e-06          
  1.9                   6.0828e-06            1.08e-12              -6.64e-12             -6.0794e-06          
  1.95                  6.369e-06             1.1e-12               -7.32e-12             -6.3658e-06          
  2                     6.6528e-06            1.2e-12               -7.28e-12             -6.6496e-06          
  2.05                  6.933e-06             1.22e-12              -7.74e-12             -6.9298e-06          
  2.1                   7.2082e-06            1.28e-12              -7.02e-12             -7.205e-06           
  2.15                  7.4808e-06            1.22e-12              -6.94e-12             -7.4774e-06          
  2.2                   7.7484e-06            1.02e-12              -7.04e-12             -7.745e-06           
  2.25                  8.013e-06             1.42e-12              -6.72e-12             -8.0094e-06          
  2.3                   8.2724e-06            1.22e-12              -7.64e-12             -8.269e-06           
  2.35                  8.5292e-06            1.24e-12              -7.38e-12             -8.5254e-06          
  2.4                   8.7808e-06            1.3e-12               -5.74e-12             -8.7768e-06          
  2.45                  9.0282e-06            1.28e-12              -5.92e-12             -9.0242e-06          
  2.5                   9.2714e-06            1.28e-12              -8e-12                -9.2686e-06          
  2.55                  9.5108e-06            1.62e-12              -7e-12                -9.5076e-06          
  2.6                   9.7452e-06            1.12e-12              -6.12e-12             -9.7416e-06          
  2.65                  9.975e-06             1.56e-12              -5.48e-12             -9.9716e-06          
  2.7                   1.02006e-05           1.32e-12              -6.5e-12              -1.01974e-05         
  2.75                  1.04234e-05           1.4e-12               -6.74e-12             -1.04198e-05         
  2.8                   1.064e-05             1.34e-12              -6e-12                -1.06364e-05         
  2.85                  1.08528e-05           1.4e-12               -6.2e-12              -1.08494e-05         
  2.9                   1.1061e-05            1.46e-12              -6.36e-12             -1.10578e-05         
  2.95                  1.12662e-05           1.44e-12              -6.36e-12             -1.12628e-05         
  3                     1.14662e-05           1.46e-12              -6.28e-12             -1.1463e-05          
  3.05                  1.1664e-05            1.4e-12               -6.1e-12              -1.1658e-05          
  3.1                   1.1856e-05            1.34e-12              -4.96e-12             -1.1848e-05          
  3.15                  1.2044e-05            1.34e-12              -6.38e-12             -1.2036e-05          
  3.2                   1.2226e-05            1.52e-12              -6.22e-12             -1.222e-05           
  3.25                  1.2406e-05            1.52e-12              -6.14e-12             -1.2398e-05          
  3.3                   1.258e-05             1.58e-12              -5.64e-12             -1.2574e-05          
  3.35                  1.275e-05             1.4e-12               -5.24e-12             -1.2744e-05          
  3.4                   1.2918e-05            1.5e-12               -5.86e-12             -1.291e-05           
  3.45                  1.308e-05             1.54e-12              -6.4e-12              -1.3074e-05          
