! VERSION = 6.00
BEGIN_HEADER
 ICCAP_INPUTS
  vd         V  D GROUND SMU1 0.1 LIN        1    0          3.6        37   0.1       
  vg         V  G GROUND SMU2 0.001 LIN        2    0.604      3.6        5    0.749     
  vb         V  B GROUND SMU4 0.1 CON        0
  vs         V  S GROUND SMU3 0.1 CON        0
 ICCAP_OUTPUTS
  id         I  D GROUND SMU1 B
  ig         I  G GROUND SMU2 B
  ib         I  B GROUND SMU4 B
  is         I  S GROUND SMU3 B
 ICCAP_VALUES
  MASTER_SETUP_TYPE "~dc_idvd~"
  LINVT_VALUE "|idvg|100.0n|100.0m|1.000m|5|3.600|"
  LISTVT_VALUE ""
  TYPE "1"
  TEMP " 125.000 "
  IS_TNOM " 0.00000 "
  MAIN.W "600.0n"
  MAIN.L "1.200u"
  MAIN.AD "204.0f"
  MAIN.AS "204.0f"
  MAIN.PD "1.880u"
  MAIN.PS "1.880u"
  MAIN.NF "1.000"
  MAIN.M "1"
  MAIN.NRD "0.000"
  MAIN.NRS "0.000"
  MAIN.LDRIFT1 "1E-06"
  MAIN.LDRIFT2 "1E-06"
  MAIN.SA "0.000"
  MAIN.SB "0.000"
  MAIN.SD "0.000"
  MAIN.SCA "0.000"
  MAIN.SCB "0.000"
  MAIN.SCC "0.000"
  MAIN.SC "0.000"
  MODULE "S559"
  PIN_D "14"
  PIN_G "7"
  PIN_S "8"
  PIN_B "13"
  PIN_E ""
  PIN_6 ""
  XY_ID ""
  FUNC "LW Scale"
  STI "SA ref"
  WPE "WPE ref"
  COMMENT ""
  DIS_MEAS ""
  TypeTCI "10"
END_HEADER

BEGIN_DB
 ICCAP_VAR vg         0.604          
 ICCAP_VAR vb         0              
 ICCAP_VAR vs         0              

 #vd                    id                    ig                    ib                    is                   
  0                     1.5192e-10            -1.8e-13              8.474e-11             -1.1574e-10          
  0.1                   1.6492e-07            -2.4e-13              7.688e-11             -1.6492e-07          
  0.2                   1.9134e-07            -3e-13                7.164e-11             -1.9128e-07          
  0.3                   1.9654e-07            -3e-13                6.862e-11             -1.965e-07           
  0.4                   1.997e-07             -3.6e-13              6.65e-11              -1.994e-07           
  0.5                   2.0168e-07            -3e-13                6.518e-11             -2.0166e-07          
  0.6                   2.0364e-07            -3.4e-13              6.182e-11             -2.0358e-07          
  0.7                   2.054e-07             -1.8e-13              5.958e-11             -2.054e-07           
  0.8                   2.0702e-07            -1.8e-13              5.844e-11             -2.0698e-07          
  0.9                   2.085e-07             -1.4e-13              5.564e-11             -2.0848e-07          
  1                     2.0996e-07            -1e-13                5.33e-11              -2.099e-07           
  1.1                   2.1126e-07            -2.8e-13              5.288e-11             -2.1124e-07          
  1.2                   2.1254e-07            -2.2e-13              5.19e-11              -2.1252e-07          
  1.3                   2.1376e-07            -2.8e-13              4.96e-11              -2.1374e-07          
  1.4                   2.1492e-07            -1.8e-13              4.75e-11              -2.1492e-07          
  1.5                   2.1602e-07            -1.8e-13              4.488e-11             -2.16e-07            
  1.6                   2.1708e-07            -2.4e-13              4.248e-11             -2.1696e-07          
  1.7                   2.1806e-07            -2.6e-13              3.594e-11             -2.1804e-07          
  1.8                   2.1918e-07            -3e-13                2.68e-11              -2.1916e-07          
  1.9                   2.2014e-07            -4e-13                1.344e-11             -2.2006e-07          
  2                     2.2108e-07            -8e-14                -8.76e-12             -2.2102e-07          
  2.1                   2.2198e-07            -1.2e-13              -4.392e-11            -2.219e-07           
  2.2                   2.2296e-07            -2e-13                -9.188e-11            -2.2276e-07          
  2.3                   2.2382e-07            -1.8e-13              -1.5912e-10           -2.2368e-07          
  2.4                   2.2484e-07            -4e-14                -2.5094e-10           -2.2444e-07          
  2.5                   2.2566e-07            -1.8e-13              -3.785e-10            -2.2548e-07          
  2.6                   2.2686e-07            2e-14                 -5.416e-10            -2.2618e-07          
  2.7                   2.2774e-07            -1.6e-13              -7.5966e-10           -2.2694e-07          
  2.8                   2.2876e-07            -8e-14                -1.037e-09            -2.277e-07           
  2.9                   2.3004e-07            -1.2e-13              -1.391e-09            -2.284e-07           
  3                     2.3106e-07            -4e-14                -1.8456e-09           -2.2934e-07          
  3.1                   2.3286e-07            -2e-13                -2.4102e-09           -2.3038e-07          
  3.2                   2.3428e-07            -2.4e-13              -3.101e-09            -2.306e-07           
  3.3                   2.3576e-07            -1.8e-13              -3.9544e-09           -2.3122e-07          
  3.4                   2.3692e-07            -1.6e-13              -4.9774e-09           -2.3188e-07          
  3.5                   2.3878e-07            -1.8e-13              -6.2086e-09           -2.3258e-07          
  3.6                   2.409e-07             -1.6e-13              -7.658e-09            -2.332e-07           
END_DB

BEGIN_DB
 ICCAP_VAR vg         1.353          
 ICCAP_VAR vb         0              
 ICCAP_VAR vs         0              

 #vd                    id                    ig                    ib                    is                   
  0                     1.2128e-09            6.6e-13               2.708e-11             -1.1024e-09          
  0.1                   3.4474e-06            3.6e-13               2.634e-11             -3.4444e-06          
  0.2                   6.2196e-06            3.8e-13               2.49e-11              -6.2158e-06          
  0.3                   8.3326e-06            3.4e-13               2.424e-11             -8.3298e-06          
  0.4                   9.8276e-06            3.2e-13               2.416e-11             -9.8246e-06          
  0.5                   1.0773e-05            4e-13                 2.358e-11             -1.07736e-05         
  0.6                   1.1306e-05            2.8e-13               2.28e-11              -1.12978e-05         
  0.7                   1.1568e-05            2.8e-13               2.244e-11             -1.15624e-05         
  0.8                   1.1708e-05            2.2e-13               2.244e-11             -1.16998e-05         
  0.9                   1.1794e-05            1.8e-13               2.122e-11             -1.179e-05           
  1                     1.186e-05             2e-13                 2.258e-11             -1.185e-05           
  1.1                   1.1912e-05            3.2e-13               2.108e-11             -1.1902e-05          
  1.2                   1.1952e-05            1e-13                 2.048e-11             -1.1948e-05          
  1.3                   1.1992e-05            1.2e-13               2.19e-11              -1.1986e-05          
  1.4                   1.203e-05             3.4e-13               2e-11                 -1.2026e-05          
  1.5                   1.2064e-05            2.4e-13               2.026e-11             -1.2056e-05          
  1.6                   1.2096e-05            2.6e-13               1.998e-11             -1.2088e-05          
  1.7                   1.2124e-05            3.6e-13               1.792e-11             -1.2118e-05          
  1.8                   1.2148e-05            1.8e-13               1.408e-11             -1.2144e-05          
  1.9                   1.2178e-05            4e-14                 2.66e-12              -1.2174e-05          
  2                     1.2202e-05            1.8e-13               -2.924e-11            -1.2196e-05          
  2.1                   1.2232e-05            2e-13                 -9.676e-11            -1.2222e-05          
  2.2                   1.225e-05             1.4e-13               -2.42e-10             -1.2242e-05          
  2.3                   1.2274e-05            1.4e-13               -5.1694e-10           -1.2268e-05          
  2.4                   1.2296e-05            1e-13                 -9.988e-10            -1.2292e-05          
  2.5                   1.2322e-05            6e-14                 -1.8052e-09           -1.2312e-05          
  2.6                   1.2344e-05            1.8e-13               -3.0742e-09           -1.2334e-05          
  2.7                   1.2364e-05            2.4e-13               -4.977e-09            -1.2354e-05          
  2.8                   1.239e-05             1.2e-13               -7.7458e-09           -1.2378e-05          
  2.9                   1.2414e-05            1.4e-13               -1.1634e-08           -1.2398e-05          
  3                     1.2442e-05            6e-14                 -1.697e-08            -1.2414e-05          
  3.1                   1.2466e-05            1.4e-13               -2.4156e-08           -1.2438e-05          
  3.2                   1.2494e-05            4e-14                 -3.3632e-08           -1.2454e-05          
  3.3                   1.2522e-05            2.6e-13               -4.5994e-08           -1.247e-05           
  3.4                   1.2558e-05            1e-13                 -6.1962e-08           -1.249e-05           
  3.5                   1.26e-05              2e-14                 -8.2346e-08           -1.2514e-05          
  3.6                   1.2644e-05            6e-14                 -1.07992e-07          -1.2528e-05          
END_DB

BEGIN_DB
 ICCAP_VAR vg         2.102          
 ICCAP_VAR vb         0              
 ICCAP_VAR vs         0              

 #vd                    id                    ig                    ib                    is                   
  0                     1.794e-09             7.8e-13               1.66e-11              -1.6844e-09          
  0.1                   6.738e-06             4.6e-13               1.584e-11             -6.7338e-06          
  0.2                   1.2888e-05            5.8e-13               1.446e-11             -1.2882e-05          
  0.3                   1.8424e-05            4.8e-13               1.59e-11              -1.8418e-05          
  0.4                   2.336e-05             6.6e-13               1.388e-11             -2.3352e-05          
  0.5                   2.768e-05             4e-13                 1.324e-11             -2.766e-05           
  0.6                   3.1362e-05            4e-13                 1.488e-11             -3.1362e-05          
  0.7                   3.4466e-05            5.4e-13               1.318e-11             -3.446e-05           
  0.8                   3.6962e-05            3.4e-13               1.296e-11             -3.6964e-05          
  0.9                   3.8914e-05            3.6e-13               1.518e-11             -3.8906e-05          
  1                     4.0346e-05            5e-13                 1.276e-11             -4.0338e-05          
  1.1                   4.1342e-05            3.8e-13               1.232e-11             -4.1336e-05          
  1.2                   4.2008e-05            3.2e-13               1.386e-11             -4.2e-05             
  1.3                   4.244e-05             3.8e-13               1.242e-11             -4.2428e-05          
  1.4                   4.2732e-05            3e-13                 1.252e-11             -4.2724e-05          
  1.5                   4.2944e-05            3.4e-13               1.324e-11             -4.2936e-05          
  1.6                   4.3118e-05            3.2e-13               1.198e-11             -4.3112e-05          
  1.7                   4.3254e-05            2.4e-13               1.278e-11             -4.324e-05           
  1.8                   4.336e-05             3.4e-13               1.22e-11              -4.3356e-05          
  1.9                   4.3472e-05            2.8e-13               1.124e-11             -4.3466e-05          
  2                     4.3572e-05            4.2e-13               1.246e-11             -4.3562e-05          
  2.1                   4.3658e-05            3.8e-13               9.66e-12              -4.3646e-05          
  2.2                   4.3728e-05            3.8e-13               4.04e-12              -4.3728e-05          
  2.3                   4.3804e-05            4.8e-13               -1.042e-11            -4.3802e-05          
  2.4                   4.3876e-05            3.2e-13               -5.38e-11             -4.3878e-05          
  2.5                   4.395e-05             2e-13                 -1.5372e-10           -4.3944e-05          
  2.6                   4.402e-05             1.2e-13               -3.7298e-10           -4.401e-05           
  2.7                   4.4086e-05            2.8e-13               -8.1976e-10           -4.4084e-05          
  2.8                   4.4138e-05            3e-13                 -1.662e-09            -4.413e-05           
  2.9                   4.421e-05             2.2e-13               -3.1392e-09           -4.42e-05            
  3                     4.427e-05             3.2e-13               -5.604e-09            -4.4258e-05          
  3.1                   4.4322e-05            3e-13                 -9.5078e-09           -4.4308e-05          
  3.2                   4.4378e-05            2.8e-13               -1.5454e-08           -4.4366e-05          
  3.3                   4.4456e-05            3.6e-13               -2.411e-08            -4.4428e-05          
  3.4                   4.4514e-05            1.8e-13               -3.6392e-08           -4.4478e-05          
  3.5                   4.4586e-05            3e-13                 -5.3402e-08           -4.453e-05           
  3.6                   4.4664e-05            1.2e-13               -7.6336e-08           -4.458e-05           
END_DB

BEGIN_DB
 ICCAP_VAR vg         2.851          
 ICCAP_VAR vb         0              
 ICCAP_VAR vs         0              

 #vd                    id                    ig                    ib                    is                   
  0                     1.8804e-09            9.2e-13               1.122e-11             -2.0632e-09          
  0.1                   9.295e-06             7e-13                 1.054e-11             -9.2916e-06          
  0.2                   1.81e-05              6.4e-13               1.122e-11             -1.8096e-05          
  0.3                   2.6384e-05            6.6e-13               9.3e-12               -2.6378e-05          
  0.4                   3.4152e-05            5.8e-13               9.06e-12              -3.4154e-05          
  0.5                   4.1392e-05            6e-13                 1.042e-11             -4.1386e-05          
  0.6                   4.8058e-05            4.6e-13               8.96e-12              -4.8052e-05          
  0.7                   5.4176e-05            5.6e-13               9.9e-12               -5.417e-05           
  0.8                   5.972e-05             4.2e-13               9.24e-12              -5.9706e-05          
  0.9                   6.4668e-05            3.4e-13               8.18e-12              -6.466e-05           
  1                     6.9052e-05            5.6e-13               1.012e-11             -6.9042e-05          
  1.1                   7.2848e-05            5.4e-13               9.18e-12              -7.284e-05           
  1.2                   7.6086e-05            4.6e-13               8.08e-12              -7.608e-05           
  1.3                   7.8782e-05            3.2e-13               1.012e-11             -7.8776e-05          
  1.4                   8.0956e-05            6e-13                 8.84e-12              -8.0962e-05          
  1.5                   8.2666e-05            5e-13                 8.94e-12              -8.2666e-05          
  1.6                   8.3974e-05            4e-13                 9.84e-12              -8.3966e-05          
  1.7                   8.492e-05             4.8e-13               8.46e-12              -8.4918e-05          
  1.8                   8.5614e-05            5.8e-13               8.64e-12              -8.5634e-05          
  1.9                   8.6132e-05            4.4e-13               9.68e-12              -8.6092e-05          
  2                     8.6488e-05            5e-13                 8.58e-12              -8.648e-05           
  2.1                   8.6788e-05            4.8e-13               8.46e-12              -8.6778e-05          
  2.2                   8.7022e-05            5.4e-13               8.6e-12               -8.7044e-05          
  2.3                   8.7246e-05            4.2e-13               7.4e-12               -8.724e-05           
  2.4                   8.743e-05             3.2e-13               8.04e-12              -8.7414e-05          
  2.5                   8.7596e-05            3.2e-13               4.84e-12              -8.7594e-05          
  2.6                   8.7738e-05            2.8e-13               -2.78e-12             -8.7734e-05          
  2.7                   8.7874e-05            3.2e-13               -2.234e-11            -8.786e-05           
  2.8                   8.8e-05               3e-13                 -7.368e-11            -8.7994e-05          
  2.9                   8.8108e-05            2.6e-13               -1.9378e-10           -8.8114e-05          
  3                     8.8224e-05            3.4e-13               -4.513e-10            -8.8222e-05          
  3.1                   8.8324e-05            1.8e-13               -9.808e-10            -8.8328e-05          
  3.2                   8.843e-05             3.2e-13               -1.9882e-09           -8.8418e-05          
  3.3                   8.852e-05             2.4e-13               -3.7944e-09           -8.8522e-05          
  3.4                   8.8622e-05            3.6e-13               -6.882e-09            -8.862e-05           
  3.5                   8.8718e-05            2.4e-13               -1.1912e-08           -8.8716e-05          
  3.6                   8.8828e-05            4e-13                 -1.9716e-08           -8.8802e-05          
END_DB

BEGIN_DB
 ICCAP_VAR vg         3.6            
 ICCAP_VAR vb         0              
 ICCAP_VAR vs         0              

 #vd                    id                    ig                    ib                    is                   
  0                     1.9506e-09            1.04e-12              9.46e-12              -2.2594e-09          
  0.1                   1.1172e-05            8.4e-13               8.38e-12              -1.1164e-05          
  0.2                   2.1944e-05            8e-13                 7.96e-12              -2.1938e-05          
  0.3                   3.2278e-05            7.6e-13               7.18e-12              -3.2272e-05          
  0.4                   4.2192e-05            7.4e-13               8e-12                 -4.219e-05           
  0.5                   5.1658e-05            6e-13                 6.92e-12              -5.1654e-05          
  0.6                   6.0638e-05            6.2e-13               6.68e-12              -6.0628e-05          
  0.7                   6.9136e-05            7.4e-13               7.84e-12              -6.9134e-05          
  0.8                   7.7132e-05            6.8e-13               6.84e-12              -7.7126e-05          
