! VERSION = 6.00
BEGIN_HEADER
 ICCAP_INPUTS
  vd         V  D GROUND SMU1 0.1 LIN        1    0          3.6        37   0.1       
  vg         V  G GROUND SMU2 0.001 LIST       2 3 1.108 1.308 1.508
  vb         V  B GROUND SMU4 0.1 CON        -3.6
  vs         V  S GROUND SMU3 0.1 CON        0
 ICCAP_OUTPUTS
  id         I  D GROUND SMU1 B
  ig         I  G GROUND SMU2 B
  ib         I  B GROUND SMU4 B
  is         I  S GROUND SMU3 B
 ICCAP_VALUES
  MASTER_SETUP_TYPE "~dc_idvd~"
  LINVT_VALUE ""
  LISTVT_VALUE "|idvg|100.0n|-200.0m|1.000m|3|200.0m|200.0m|"
  TYPE "1"
  TEMP "-40.0000 "
  IS_TNOM " 0.00000 "
  MAIN.W "10.00u"
  MAIN.L "500.0n"
  MAIN.AD "3.400p"
  MAIN.AS "3.400p"
  MAIN.PD "20.68u"
  MAIN.PS "20.68u"
  MAIN.NF "1.000"
  MAIN.M "1"
  MAIN.NRD "0.000"
  MAIN.NRS "0.000"
  MAIN.LDRIFT1 "1E-06"
  MAIN.LDRIFT2 "1E-06"
  MAIN.SA "0.000"
  MAIN.SB "0.000"
  MAIN.SD "0.000"
  MAIN.SCA "0.000"
  MAIN.SCB "0.000"
  MAIN.SCC "0.000"
  MAIN.SC "0.000"
  MODULE "S556"
  PIN_D "14"
  PIN_G "7"
  PIN_S "8"
  PIN_B "13"
  PIN_E ""
  PIN_6 ""
  XY_ID ""
  FUNC "Short"
  STI "SA ref"
  WPE "WPE ref"
  COMMENT ""
  DIS_MEAS ""
  TypeTCI "10"
END_HEADER

BEGIN_DB
 ICCAP_VAR vg         1.108          
 ICCAP_VAR vb         -3.6           
 ICCAP_VAR vs         0              

 #vd                    id                    ig                    ib                    is                   
  0                     -2.4e-13              4e-14                 -1.152e-11            0                    
  0.1                   5.592e-11             6e-14                 -7.76e-12             -5.626e-11           
  0.2                   6.514e-11             -2.2e-13              -9.24e-12             -6.454e-11           
  0.3                   7.462e-11             -4e-14                -6.68e-12             -7.454e-11           
  0.4                   8.34e-11              -2.4e-13              -7.6e-12              -8.296e-11           
  0.5                   9.374e-11             0                     -6.14e-12             -9.336e-11           
  0.6                   1.0482e-10            -2.6e-13              -4.86e-12             -1.045e-10           
  0.7                   1.163e-10             -2e-13                -6.36e-12             -1.167e-10           
  0.8                   1.2992e-10            -1e-13                -4.68e-12             -1.2864e-10          
  0.9                   1.4432e-10            6e-14                 -3.68e-12             -1.4368e-10          
  1                     1.5834e-10            -1.4e-13              -3.64e-12             -1.5764e-10          
  1.1                   1.7404e-10            -2.2e-13              -4.08e-12             -1.734e-10           
  1.2                   1.919e-10             0                     -2.66e-12             -1.9112e-10          
  1.3                   2.1e-10               -2.4e-13              -4.8e-12              -2.089e-10           
  1.4                   2.3036e-10            -1.4e-13              -3.14e-12             -2.2958e-10          
  1.5                   2.4894e-10            -2.2e-13              -2.88e-12             -2.4812e-10          
  1.6                   2.7404e-10            -8e-14                -3.96e-12             -2.721e-10           
  1.7                   2.9764e-10            -3.2e-13              -2.4e-12              -2.9822e-10          
  1.8                   3.2742e-10            0                     -2.44e-12             -3.2406e-10          
  1.9                   3.5596e-10            -1.8e-13              -3.14e-12             -3.5632e-10          
  2                     3.927e-10             0                     -2.9e-12              -3.91e-10            
  2.1                   4.2488e-10            -6e-14                -2.1e-12              -4.2764e-10          
  2.2                   4.6818e-10            0                     -3.62e-12             -4.6334e-10          
  2.3                   5.0816e-10            -8e-14                -3.62e-12             -5.0758e-10          
  2.4                   5.5554e-10            0                     -3.24e-12             -5.5078e-10          
  2.5                   6.0348e-10            -1e-13                -4.88e-12             -6.0416e-10          
  2.6                   6.5586e-10            1e-13                 -4.28e-12             -6.523e-10           
  2.7                   7.186e-10             0                     -6.98e-12             -7.1738e-10          
  2.8                   7.8132e-10            -6e-14                -6.56e-12             -7.761e-10           
  2.9                   8.383e-10             4e-14                 -1.1e-11              -8.3198e-10          
  3                     9.1866e-10            2e-13                 -1.386e-11            -9.0196e-10          
  3.1                   1.0046e-09            2e-14                 -2.04e-11             -9.8592e-10          
  3.2                   1.1012e-09            2e-14                 -2.504e-11            -1.07242e-09         
  3.3                   1.1996e-09            0                     -3.584e-11            -1.1692e-09          
  3.4                   1.3254e-09            4e-14                 -4.912e-11            -1.2736e-09          
  3.5                   1.4536e-09            -1.2e-13              -6.534e-11            -1.3888e-09          
  3.6                   1.5898e-09            4e-14                 -8.79e-11             -1.5086e-09          
END_DB

BEGIN_DB
 ICCAP_VAR vg         1.308          
 ICCAP_VAR vb         -3.6           
 ICCAP_VAR vs         0              

 #vd                    id                    ig                    ib                    is                   
  0                     1.5638e-10            1e-13                 -1.6e-12              -1.6324e-10          
  0.1                   1.0612e-07            4e-14                 -2.02e-12             -1.062e-07           
  0.2                   1.2932e-07            -2e-13                -2.24e-12             -1.292e-07           
  0.3                   1.4864e-07            -6e-14                -1.64e-12             -1.4838e-07          
  0.4                   1.6756e-07            2e-13                 -2.52e-12             -1.6688e-07          
  0.5                   1.8584e-07            1e-13                 -2.04e-12             -1.8546e-07          
  0.6                   2.0612e-07            1.2e-13               -3.4e-13              -2.0626e-07          
  0.7                   2.2696e-07            1.6e-13               -6.8e-13              -2.2702e-07          
  0.8                   2.4912e-07            8e-14                 -1.76e-12             -2.4876e-07          
  0.9                   2.7144e-07            -8e-14                -2.3e-12              -2.7212e-07          
  1                     2.9612e-07            -1.4e-13              -1.96e-12             -2.9542e-07          
  1.1                   3.2068e-07            -1e-13                -1.02e-12             -3.205e-07           
  1.2                   3.4742e-07            2.4e-13               -1.96e-12             -3.4688e-07          
  1.3                   3.7534e-07            2e-14                 -2.56e-12             -3.75e-07            
  1.4                   4.051e-07             1.8e-13               -1.68e-12             -4.054e-07           
  1.5                   4.3604e-07            8e-14                 -2.32e-12             -4.3582e-07          
  1.6                   4.689e-07             -6e-14                -4.96e-12             -4.6796e-07          
  1.7                   5.026e-07             -1.6e-13              -8.14e-12             -5.0342e-07          
  1.8                   5.3916e-07            -4e-14                -1.668e-11            -5.3906e-07          
  1.9                   5.7852e-07            -2e-13                -3.454e-11            -5.7936e-07          
  2                     6.2102e-07            -2e-14                -7.218e-11            -6.2056e-07          
  2.1                   6.64e-07              4e-14                 -1.3846e-10           -6.627e-07           
  2.2                   7.0718e-07            2e-14                 -2.5054e-10           -7.074e-07           
  2.3                   7.571e-07             1.8e-13               -4.3844e-10           -7.5974e-07          
  2.4                   8.111e-07             -3e-13                -7.3236e-10           -8.0928e-07          
  2.5                   8.6524e-07            -4e-14                -1.186e-09            -8.6526e-07          
  2.6                   9.2498e-07            1.2e-13               -1.865e-09            -9.2276e-07          
  2.7                   9.8674e-07            0                     -2.871e-09            -9.8428e-07          
  2.8                   1.05218e-06           1.2e-13               -4.3334e-09           -1.05084e-06         
  2.9                   1.12232e-06           6e-14                 -6.3966e-09           -1.11716e-06         
  3                     1.1952e-06            1.6e-13               -9.364e-09            -1.1848e-06          
  3.1                   1.279e-06             1e-13                 -1.3486e-08           -1.261e-06           
  3.2                   1.3568e-06            1.2e-13               -1.9084e-08           -1.3332e-06          
  3.3                   1.4498e-06            -1e-13                -2.6764e-08           -1.4176e-06          
  3.4                   1.5412e-06            -8e-14                -3.694e-08            -1.5028e-06          
  3.5                   1.6488e-06            0                     -5.021e-08            -1.5914e-06          
  3.6                   1.7522e-06            0                     -6.7522e-08           -1.6858e-06          
END_DB

BEGIN_DB
 ICCAP_VAR vg         1.508          
 ICCAP_VAR vb         -3.6           
 ICCAP_VAR vs         0              

 #vd                    id                    ig                    ib                    is                   
  0                     8.944e-09             1.2e-13               -1.12e-12             -2.2386e-09          
  0.1                   9.5034e-06            6e-14                 -2e-13                -9.4942e-06          
  0.2                   1.2888e-05            1.4e-13               -1.88e-12             -1.286e-05           
  0.3                   1.4828e-05            2.4e-13               -2.6e-13              -1.4802e-05          
  0.4                   1.6316e-05            2.2e-13               -2.18e-12             -1.63e-05            
  0.5                   1.7616e-05            1.2e-13               -2.08e-12             -1.7594e-05          
  0.6                   1.8808e-05            4e-14                 -2.8e-13              -1.8762e-05          
  0.7                   1.9932e-05            1.4e-13               -2.14e-12             -1.9934e-05          
  0.8                   2.107e-05             4e-14                 -2.48e-12             -2.1036e-05          
  0.9                   2.2164e-05            1.8e-13               -2e-14                -2.2158e-05          
  1                     2.3266e-05            6e-14                 -3.3e-12              -2.3246e-05          
  1.1                   2.4334e-05            8e-14                 -2.54e-12             -2.4324e-05          
  1.2                   2.5418e-05            1.6e-13               -8e-13                -2.541e-05           
  1.3                   2.6506e-05            -4e-14                -2.32e-12             -2.646e-05           
  1.4                   2.7614e-05            -1.2e-13              -3.76e-12             -2.761e-05           
  1.5                   2.8712e-05            -8e-14                -7.52e-12             -2.8692e-05          
  1.6                   2.9826e-05            -2e-14                -3.03e-11             -2.9794e-05          
  1.7                   3.0942e-05            -6e-14                -9.638e-11            -3.0892e-05          
  1.8                   3.207e-05             0                     -2.7282e-10           -3.2068e-05          
  1.9                   3.317e-05             -1e-13                -6.8358e-10           -3.3144e-05          
  2                     3.426e-05             0                     -1.5376e-09           -3.4254e-05          
  2.1                   3.5466e-05            2e-13                 -3.1684e-09           -3.5426e-05          
  2.2                   3.667e-05             6e-14                 -6.0688e-09           -3.666e-05           
  2.3                   3.7888e-05            4e-14                 -1.09252e-08          -3.7884e-05          
  2.4                   3.9132e-05            1e-13                 -1.865e-08            -3.909e-05           
  2.5                   4.0376e-05            1.8e-13               -3.0548e-08           -4.039e-05           
  2.6                   4.1686e-05            1.2e-13               -4.8268e-08           -4.16e-05            
  2.7                   4.2926e-05            6e-14                 -7.39e-08             -4.2842e-05          
  2.8                   4.4154e-05            1.6e-13               -1.1058e-07           -4.404e-05           
  2.9                   4.5584e-05            2.2e-13               -1.6242e-07           -4.5364e-05          
  3                     4.6882e-05            2.8e-13               -2.34e-07             -4.664e-05           
  3.1                   4.8156e-05            4.8e-13               -3.3138e-07           -4.774e-05           
  3.2                   4.9428e-05            6.8e-13               -4.6204e-07           -4.891e-05           
  3.3                   5.076e-05             9.2e-13               -6.3452e-07           -4.9804e-05          
  3.4                   5.193e-05             1.24e-12              -8.552e-07            -5.0682e-05          
  3.5                   5.2962e-05            1.66e-12              -1.1306e-06           -5.1072e-05          
  3.6                   5.3742e-05            1.9e-12               -1.492e-06            -5.2006e-05          
END_DB

