! VERSION = 6.00
BEGIN_HEADER
 ICCAP_INPUTS
  vg         V  G GROUND SMU2 0.001 LIN        1    -0.5       3.6        83   0.05      
  vb         V  B GROUND SMU4 0.1 LIN        2    0          -3.6       5    -0.9      
  vd         V  D GROUND SMU1 0.1 LIN        3    0.1        3.3        3    1.6       
  vs         V  S GROUND SMU3 0.1 CON        0
 ICCAP_OUTPUTS
  id         I  D GROUND SMU1 B
  ig         I  G GROUND SMU2 B
  ib         I  B GROUND SMU4 B
  is         I  S GROUND SMU3 B
 ICCAP_VALUES
  MASTER_SETUP_TYPE "~dc_idvg~"
  LINVT_VALUE ""
  LISTVT_VALUE ""
  TYPE "1"
  TEMP " 125.000 "
  IS_TNOM " 0.00000 "
  MAIN.W "10.00u"
  MAIN.L "500.0n"
  MAIN.AD "3.400p"
  MAIN.AS "3.400p"
  MAIN.PD "20.68u"
  MAIN.PS "20.68u"
  MAIN.NF "1.000"
  MAIN.M "1"
  MAIN.NRD "0.000"
  MAIN.NRS "0.000"
  MAIN.LDRIFT1 "1E-06"
  MAIN.LDRIFT2 "1E-06"
  MAIN.SA "0.000"
  MAIN.SB "0.000"
  MAIN.SD "0.000"
  MAIN.SCA "0.000"
  MAIN.SCB "0.000"
  MAIN.SCC "0.000"
  MAIN.SC "0.000"
  MODULE "S556"
  PIN_D "14"
  PIN_G "7"
  PIN_S "8"
  PIN_B "13"
  PIN_E ""
  PIN_6 ""
  XY_ID ""
  FUNC "Short"
  STI "SA ref"
  WPE "WPE ref"
  COMMENT ""
  DIS_MEAS ""
  TypeTCI "10"
END_HEADER

BEGIN_DB
 ICCAP_VAR vb         0              
 ICCAP_VAR vd         0.1            
 ICCAP_VAR vs         0              

 #vg                    id                    ig                    ib                    is                   
  -0.5                  2.7e-12               -5.4332e-08           5.432e-08             1e-12                
  -0.45                 0                     -1.2796e-08           1.2818e-08            -1.8e-13             
  -0.4                  -8e-14                -3.0032e-09           3.0314e-09            -5.2e-13             
  -0.35                 1.26e-12              -7.042e-10            7.3052e-10            -6.6e-13             
  -0.3                  1.32e-12              -1.6414e-10           1.902e-10             -8.4e-13             
  -0.25                 1.44e-12              -3.86e-11             6.214e-11             -6.6e-13             
  -0.2                  1.76e-12              -8.76e-12             3.132e-11             -1.36e-12            
  -0.15                 2.56e-12              -1.8e-12              2.384e-11             -1.82e-12            
  -0.1                  3.98e-12              -8e-14                2.24e-11              -3.4e-12             
  -0.05                 7.66e-12              3.6e-13               2.254e-11             -6.92e-12            
  0                     1.618e-11             4.4e-13               2.07e-11              -1.546e-11           
  0.05                  3.756e-11             5.2e-13               1.978e-11             -3.69e-11            
  0.1                   9.19e-11              5.4e-13               1.934e-11             -9.128e-11           
  0.15                  2.3444e-10            6.4e-13               1.828e-11             -2.3388e-10          
  0.2                   6.115e-10             6e-13                 1.852e-11             -6.1096e-10          
  0.25                  1.6296e-09            6e-13                 1.758e-11             -1.6284e-09          
  0.3                   4.3832e-09            6.6e-13               1.758e-11             -4.3834e-09          
  0.35                  1.1938e-08            6.6e-13               1.662e-11             -1.1922e-08          
  0.4                   3.2452e-08            6.8e-13               1.624e-11             -3.2436e-08          
  0.45                  8.7906e-08            8e-13                 1.708e-11             -8.7798e-08          
  0.5                   2.3184e-07            9e-13                 1.568e-11             -2.3198e-07          
  0.55                  5.894e-07             7.2e-13               1.468e-11             -5.8926e-07          
  0.6                   1.3928e-06            5.6e-13               1.578e-11             -1.3898e-06          
  0.65                  3.0262e-06            7.4e-13               1.474e-11             -3.0204e-06          
  0.7                   5.9274e-06            8.2e-13               1.42e-11              -5.9164e-06          
  0.75                  1.04878e-05           8.4e-13               1.372e-11             -1.0482e-05          
  0.8                   1.6828e-05            6e-13                 1.382e-11             -1.6796e-05          
  0.85                  2.4848e-05            8.4e-13               1.384e-11             -2.4836e-05          
  0.9                   3.4228e-05            8.2e-13               1.33e-11              -3.424e-05           
  0.95                  4.4694e-05            8.4e-13               1.188e-11             -4.466e-05           
  1                     5.579e-05             8.4e-13               1.204e-11             -5.5774e-05          
  1.05                  6.7372e-05            9.6e-13               1.344e-11             -6.7336e-05          
  1.1                   7.9114e-05            9e-13                 1.222e-11             -7.91e-05            
  1.15                  9.0972e-05            1.04e-12              1.156e-11             -9.0978e-05          
  1.2                   0.00010281            1e-12                 1.12e-11              -0.000102804         
  1.25                  0.000114584           1.08e-12              1.128e-11             -0.000114552         
  1.3                   0.00012634            8.6e-13               1.162e-11             -0.00012602          
  1.35                  0.0001378             9.6e-13               1.168e-11             -0.00013748          
  1.4                   0.00014912            1.04e-12              1.042e-11             -0.00014878          
  1.45                  0.0001602             1.12e-12              1.02e-11              -0.00015988          
  1.5                   0.00017116            1.1e-12               1.038e-11             -0.00017082          
  1.55                  0.00018184            1.16e-12              1.112e-11             -0.0001815           
  1.6                   0.00019232            1.14e-12              1.082e-11             -0.00019198          
  1.65                  0.00020262            1.16e-12              8.92e-12              -0.0002023           
  1.7                   0.00021272            1.24e-12              9.38e-12              -0.00021238          
  1.75                  0.00022256            1.14e-12              9.76e-12              -0.00022224          
  1.8                   0.00023224            1.2e-12               9.98e-12              -0.00023192          
  1.85                  0.0002417             1.06e-12              9.34e-12              -0.00024136          
  1.9                   0.000251              1.18e-12              8.74e-12              -0.00025066          
  1.95                  0.00026002            1.26e-12              8.76e-12              -0.0002597           
  2                     0.00026888            1.2e-12               8.2e-12               -0.00026856          
  2.05                  0.00027758            1.3e-12               9e-12                 -0.00027724          
  2.1                   0.00028604            1.1e-12               7.9e-12               -0.00028572          
  2.15                  0.00029434            1.28e-12              7.98e-12              -0.00029402          
  2.2                   0.00030242            1.34e-12              7.46e-12              -0.00030212          
  2.25                  0.00031036            1.18e-12              8.02e-12              -0.00031004          
  2.3                   0.0003181             1.32e-12              7.72e-12              -0.00031778          
  2.35                  0.00032568            1.38e-12              7.28e-12              -0.00032534          
  2.4                   0.00033302            1.22e-12              6.98e-12              -0.0003327           
  2.45                  0.00034022            1.38e-12              7.2e-12               -0.00033992          
  2.5                   0.0003473             1.3e-12               8.5e-12               -0.00034698          
  2.55                  0.00035416            1.5e-12               7.94e-12              -0.00035386          
  2.6                   0.00036088            1.36e-12              6.06e-12              -0.00036054          
  2.65                  0.00036738            1.44e-12              6.96e-12              -0.00036706          
  2.7                   0.00037374            1.3e-12               7.32e-12              -0.00037342          
  2.75                  0.00038               1.4e-12               7.58e-12              -0.00037968          
  2.8                   0.00038606            1.38e-12              6.78e-12              -0.00038572          
  2.85                  0.00039198            1.26e-12              5.88e-12              -0.00039164          
  2.9                   0.00039772            1.44e-12              5.88e-12              -0.0003974           
  2.95                  0.00040336            1.52e-12              6.44e-12              -0.00040304          
  3                     0.00040882            1.3e-12               6.64e-12              -0.0004085           
  3.05                  0.00041416            1.48e-12              6.42e-12              -0.00041384          
  3.1                   0.00041936            1.3e-12               5.02e-12              -0.00041902          
  3.15                  0.00042444            1.46e-12              4.94e-12              -0.0004241           
  3.2                   0.00042936            1.5e-12               5.96e-12              -0.00042902          
  3.25                  0.00043414            1.54e-12              6.42e-12              -0.00043384          
  3.3                   0.0004388             1.52e-12              4.98e-12              -0.00043848          
  3.35                  0.00044336            1.46e-12              4.62e-12              -0.00044302          
  3.4                   0.00044778            1.5e-12               5.78e-12              -0.00044744          
  3.45                  0.00045208            1.56e-12              5.4e-12               -0.00045176          
  3.5                   0.00045628            1.52e-12              5.54e-12              -0.00045596          
  3.55                  0.00046032            1.52e-12              4.76e-12              -0.00046             
  3.6                   0.0004643             1.56e-12              4.86e-12              -0.00046396          
END_DB

BEGIN_DB
 ICCAP_VAR vb         -0.9           
 ICCAP_VAR vd         0.1            
 ICCAP_VAR vs         0              

 #vg                    id                    ig                    ib                    is                   
  -0.5                  1.72e-12              -1.08e-12             -4.57e-11             1.86e-12             
  -0.45                 1.66e-12              -5.8e-13              -4.166e-11            1.78e-12             
  -0.4                  1.78e-12              -6e-13                -3.828e-11            1.8e-12              
  -0.35                 1.76e-12              -2e-13                -3.61e-11             1.76e-12             
  -0.3                  1.7e-12               -2.2e-13              -3.422e-11            1.74e-12             
  -0.25                 1.74e-12              -8e-14                -3.38e-11             1.92e-12             
  -0.2                  1.72e-12              4e-14                 -3.146e-11            1.78e-12             
  -0.15                 1.66e-12              -6e-14                -3.01e-11             1.8e-12              
  -0.1                  1.72e-12              6e-14                 -2.872e-11            1.88e-12             
  -0.05                 1.72e-12              2.8e-13               -2.7e-11              1.74e-12             
  0                     1.7e-12               2.8e-13               -2.732e-11            1.8e-12              
  0.05                  1.64e-12              2.4e-13               -2.676e-11            1.88e-12             
  0.1                   1.76e-12              5.6e-13               -2.55e-11             1.52e-12             
  0.15                  1.98e-12              4e-13                 -2.478e-11            1.48e-12             
  0.2                   2.7e-12               4.4e-13               -2.298e-11            7.4e-13              
  0.25                  4.8e-12               5.8e-13               -2.334e-11            -1.44e-12            
  0.3                   1.166e-11             5e-13                 -2.296e-11            -8.42e-12            
  0.35                  3.314e-11             6.2e-13               -2.324e-11            -2.998e-11           
  0.4                   1.0036e-10            6.8e-13               -2.216e-11            -9.718e-11           
  0.45                  3.1072e-10            6.8e-13               -2.196e-11            -3.0794e-10          
  0.5                   9.6568e-10            5.8e-13               -2.024e-11            -9.619e-10           
  0.55                  3.01e-09              5e-13                 -1.942e-11            -3.0052e-09          
  0.6                   9.2936e-09            6e-13                 -2.066e-11            -9.287e-09           
  0.65                  2.8462e-08            6.2e-13               -1.972e-11            -2.8468e-08          
  0.7                   8.5172e-08            7.2e-13               -2.066e-11            -8.5148e-08          
  0.75                  2.4566e-07            8.2e-13               -1.91e-11             -2.4566e-07          
  0.8                   6.6472e-07            6.6e-13               -1.88e-11             -6.6452e-07          
  0.85                  1.649e-06             7.2e-13               -1.89e-11             -1.6432e-06          
  0.9                   3.637e-06             7.4e-13               -1.796e-11            -3.6382e-06          
  0.95                  7.136e-06             1e-12                 -1.766e-11            -7.1382e-06          
  1                     1.2494e-05            7e-13                 -1.824e-11            -1.247e-05           
  1.05                  1.9746e-05            8.8e-13               -1.812e-11            -1.9736e-05          
  1.1                   2.8654e-05            1.04e-12              -1.758e-11            -2.8658e-05          
  1.15                  3.8858e-05            8.8e-13               -1.694e-11            -3.8854e-05          
  1.2                   4.9938e-05            1.1e-12               -1.644e-11            -4.9922e-05          
  1.25                  6.1554e-05            1.1e-12               -1.768e-11            -6.1556e-05          
  1.3                   7.3518e-05            1.12e-12              -1.79e-11             -7.3506e-05          
  1.35                  8.5504e-05            1e-12                 -1.782e-11            -8.5522e-05          
  1.4                   9.7472e-05            1.06e-12              -1.612e-11            -9.7476e-05          
  1.45                  0.000109348           1.14e-12              -1.602e-11            -0.000109346         
  1.5                   0.0001212             9.8e-13               -1.704e-11            -0.00012088          
  1.55                  0.00013272            9e-13                 -1.688e-11            -0.00013242          
  1.6                   0.00014404            1.2e-12               -1.574e-11            -0.00014372          
  1.65                  0.00015518            1.12e-12              -1.56e-11             -0.00015486          
  1.7                   0.00016606            1.24e-12              -1.572e-11            -0.00016574          
  1.75                  0.00017666            1.12e-12              -1.624e-11            -0.00017634          
  1.8                   0.00018708            1.28e-12              -1.638e-11            -0.00018676          
  1.85                  0.00019722            1.14e-12              -1.666e-11            -0.0001969           
  1.9                   0.00020716            1.18e-12              -1.618e-11            -0.00020684          
  1.95                  0.00021686            1.26e-12              -1.492e-11            -0.00021652          
  2                     0.00022634            1.08e-12              -1.658e-11            -0.00022602          
  2.05                  0.00023562            1.26e-12              -1.648e-11            -0.0002353           
  2.1                   0.00024464            1.3e-12               -1.604e-11            -0.00024432          
  2.15                  0.00025348            1.34e-12              -1.532e-11            -0.00025316          
  2.2                   0.00026208            1.28e-12              -1.594e-11            -0.00026178          
  2.25                  0.00027054            1.12e-12              -1.674e-11            -0.00027022          
  2.3                   0.00027874            1.52e-12              -1.604e-11            -0.0002784           
  2.35                  0.00028678            1.36e-12              -1.468e-11            -0.00028646          
  2.4                   0.00029458            1.42e-12              -1.534e-11            -0.00029426          
  2.45                  0.00030222            1.48e-12              -1.536e-11            -0.0003019           
  2.5                   0.00030968            1.5e-12               -1.538e-11            -0.00030934          
  2.55                  0.00031692            1.44e-12              -1.51e-11             -0.0003166           
  2.6                   0.000324              1.4e-12               -1.448e-11            -0.00032368          
  2.65                  0.00033092            1.32e-12              -1.478e-11            -0.0003306           
  2.7                   0.00033764            1.46e-12              -1.488e-11            -0.00033732          
  2.75                  0.00034418            1.36e-12              -1.548e-11            -0.00034388          
  2.8                   0.00035058            1.4e-12               -1.51e-11             -0.00035026          
  2.85                  0.00035682            1.38e-12              -1.44e-11             -0.0003565           
  2.9                   0.00036288            1.4e-12               -1.5e-11              -0.00036256          
  2.95                  0.00036882            1.48e-12              -1.614e-11            -0.0003685           
  3                     0.0003746             1.34e-12              -1.582e-11            -0.00037428          
  3.05                  0.00038018            1.5e-12               -1.424e-11            -0.00037988          
  3.1                   0.00038566            1.44e-12              -1.47e-11             -0.00038534          
  3.15                  0.00039098            1.4e-12               -1.506e-11            -0.00039066          
  3.2                   0.00039612            1.46e-12              -1.57e-11             -0.00039582          
  3.25                  0.0004012             1.46e-12              -1.458e-11            -0.00040086          
  3.3                   0.0004061             1.66e-12              -1.41e-11             -0.00040576          
  3.35                  0.00041088            1.52e-12              -1.478e-11            -0.00041056          
  3.4                   0.00041554            1.56e-12              -1.482e-11            -0.00041522          
  3.45                  0.00042006            1.66e-12              -1.476e-11            -0.00041972          
