! VERSION = 6.00
BEGIN_HEADER
 ICCAP_INPUTS
  vd         V  D GROUND SMU1 0.1 LIN        1    0          3.6        37   0.1       
  vg         V  G GROUND SMU2 0.001 LIN        2    0.788      3.6        5    0.703     
  vb         V  B GROUND SMU4 0.1 CON        0
  vs         V  S GROUND SMU3 0.1 CON        0
 ICCAP_OUTPUTS
  id         I  D GROUND SMU1 B
  ig         I  G GROUND SMU2 B
  ib         I  B GROUND SMU4 B
  is         I  S GROUND SMU3 B
 ICCAP_VALUES
  MASTER_SETUP_TYPE "~dc_idvd~"
  LINVT_VALUE "|idvg|100.0n|100.0m|1.000m|5|3.600|"
  LISTVT_VALUE ""
  TYPE "1"
  TEMP "-40.0000 "
  IS_TNOM " 0.00000 "
  MAIN.W "600.0n"
  MAIN.L "1.200u"
  MAIN.AD "204.0f"
  MAIN.AS "204.0f"
  MAIN.PD "1.880u"
  MAIN.PS "1.880u"
  MAIN.NF "1.000"
  MAIN.M "1"
  MAIN.NRD "0.000"
  MAIN.NRS "0.000"
  MAIN.LDRIFT1 "1E-06"
  MAIN.LDRIFT2 "1E-06"
  MAIN.SA "0.000"
  MAIN.SB "0.000"
  MAIN.SD "0.000"
  MAIN.SCA "0.000"
  MAIN.SCB "0.000"
  MAIN.SCC "0.000"
  MAIN.SC "0.000"
  MODULE "S559"
  PIN_D "14"
  PIN_G "7"
  PIN_S "8"
  PIN_B "13"
  PIN_E ""
  PIN_6 ""
  XY_ID ""
  FUNC "LW Scale"
  STI "SA ref"
  WPE "WPE ref"
  COMMENT ""
  DIS_MEAS ""
  TypeTCI "10"
END_HEADER

BEGIN_DB
 ICCAP_VAR vg         0.788          
 ICCAP_VAR vb         0              
 ICCAP_VAR vs         0              

 #vd                    id                    ig                    ib                    is                   
  0                     3.527e-10             1.6e-13               1.4e-11               -2.6502e-10          
  0.1                   2.503e-07             0                     1.472e-11             -2.5042e-07          
  0.2                   2.8236e-07            -2e-14                1.32e-11              -2.8232e-07          
  0.3                   2.917e-07             6e-14                 1.206e-11             -2.9164e-07          
  0.4                   2.9766e-07            6e-14                 1.2e-11               -2.9774e-07          
  0.5                   3.0246e-07            -8e-14                1.182e-11             -3.0222e-07          
  0.6                   3.0642e-07            -2e-14                1.058e-11             -3.0626e-07          
  0.7                   3.105e-07             4e-14                 1.032e-11             -3.099e-07           
  0.8                   3.1372e-07            -1.2e-13              1.064e-11             -3.1352e-07          
  0.9                   3.169e-07             -2e-14                1.106e-11             -3.1644e-07          
  1                     3.1976e-07            -4e-14                1.042e-11             -3.1954e-07          
  1.1                   3.2224e-07            -1e-13                9.14e-12              -3.2252e-07          
  1.2                   3.246e-07             -8e-14                9.74e-12              -3.2442e-07          
  1.3                   3.2708e-07            -6e-14                9.54e-12              -3.2726e-07          
  1.4                   3.294e-07             -2e-14                8.44e-12              -3.2906e-07          
  1.5                   3.314e-07             -4e-14                8.78e-12              -3.3146e-07          
  1.6                   3.3366e-07            -1.2e-13              8.5e-12               -3.3348e-07          
  1.7                   3.356e-07             -1.6e-13              4.24e-12              -3.355e-07           
  1.8                   3.3756e-07            -1.4e-13              -2.2e-12              -3.3816e-07          
  1.9                   3.3994e-07            -6e-14                -1.602e-11            -3.3956e-07          
  2                     3.416e-07             -6e-14                -3.686e-11            -3.4148e-07          
  2.1                   3.4348e-07            -4e-14                -7.338e-11            -3.436e-07           
  2.2                   3.4536e-07            -1.4e-13              -1.309e-10            -3.4512e-07          
  2.3                   3.4672e-07            -2e-13                -2.1432e-10           -3.4642e-07          
  2.4                   3.4822e-07            2e-14                 -3.3268e-10           -3.4794e-07          
  2.5                   3.4982e-07            -8e-14                -5.0302e-10           -3.4962e-07          
  2.6                   3.5172e-07            -1e-13                -7.3494e-10           -3.5094e-07          
  2.7                   3.5346e-07            -4e-14                -1.0494e-09           -3.5248e-07          
  2.8                   3.5578e-07            8e-14                 -1.4714e-09           -3.5372e-07          
  2.9                   3.5756e-07            -8e-14                -2.0298e-09           -3.5574e-07          
  3                     3.5964e-07            -6e-14                -2.756e-09            -3.559e-07           
  3.1                   3.6158e-07            -8e-14                -3.6944e-09           -3.5744e-07          
  3.2                   3.6362e-07            -6e-14                -4.8894e-09           -3.588e-07           
  3.3                   3.6642e-07            -1.4e-13              -6.3858e-09           -3.6004e-07          
  3.4                   3.6934e-07            -2e-14                -8.2128e-09           -3.6116e-07          
  3.5                   3.7314e-07            0                     -1.045e-08            -3.6254e-07          
  3.6                   3.7704e-07            0                     -1.3106e-08           -3.637e-07           
END_DB

BEGIN_DB
 ICCAP_VAR vg         1.491          
 ICCAP_VAR vb         0              
 ICCAP_VAR vs         0              

 #vd                    id                    ig                    ib                    is                   
  0                     2.4138e-09            3.8e-13               5.74e-12              -2.3636e-09          
  0.1                   6.3242e-06            3.2e-13               5e-12                 -6.3202e-06          
  0.2                   1.13294e-05           2.6e-13               3.48e-12              -1.13254e-05         
  0.3                   1.506e-05             1.6e-13               4.04e-12              -1.504e-05           
  0.4                   1.7616e-05            1.8e-13               3.86e-12              -1.7598e-05          
  0.5                   1.9182e-05            2.2e-13               5.3e-12               -1.9162e-05          
  0.6                   2.0032e-05            2.6e-13               4e-12                 -2.002e-05           
  0.7                   2.0474e-05            8e-14                 4.04e-12              -2.0458e-05          
  0.8                   2.0716e-05            0                     4.62e-12              -2.07e-05            
  0.9                   2.0872e-05            6e-14                 3.5e-12               -2.0854e-05          
  1                     2.0988e-05            1e-13                 3.66e-12              -2.0968e-05          
  1.1                   2.1076e-05            1.8e-13               4.48e-12              -2.106e-05           
  1.2                   2.1154e-05            1.4e-13               3.54e-12              -2.1136e-05          
  1.3                   2.1228e-05            1.4e-13               3.9e-12               -2.1204e-05          
  1.4                   2.1284e-05            -4e-14                4.16e-12              -2.127e-05           
  1.5                   2.1342e-05            1.8e-13               4.08e-12              -2.1324e-05          
  1.6                   2.1398e-05            1.2e-13               3.92e-12              -2.1378e-05          
  1.7                   2.145e-05             2.2e-13               3.54e-12              -2.1432e-05          
  1.8                   2.1496e-05            1e-13                 1.36e-12              -2.1478e-05          
  1.9                   2.1542e-05            6e-14                 -4.96e-12             -2.1526e-05          
  2                     2.1588e-05            1e-13                 -2.942e-11            -2.1574e-05          
  2.1                   2.1632e-05            1e-13                 -9.508e-11            -2.1616e-05          
  2.2                   2.167e-05             8e-14                 -2.655e-10            -2.1654e-05          
  2.3                   2.1712e-05            2e-13                 -6.217e-10            -2.1692e-05          
  2.4                   2.1756e-05            6e-14                 -1.3042e-09           -2.174e-05           
  2.5                   2.18e-05              1.2e-13               -2.5098e-09           -2.1778e-05          
  2.6                   2.1842e-05            -1.8e-13              -4.4978e-09           -2.1818e-05          
  2.7                   2.188e-05             -1.4e-13              -7.594e-09            -2.1856e-05          
  2.8                   2.1924e-05            6e-14                 -1.2226e-08           -2.189e-05           
  2.9                   2.1966e-05            2e-14                 -1.8924e-08           -2.1932e-05          
  3                     2.2006e-05            0                     -2.8404e-08           -2.1958e-05          
  3.1                   2.2056e-05            -4e-14                -4.1466e-08           -2.1998e-05          
  3.2                   2.2102e-05            1.2e-13               -5.9154e-08           -2.2022e-05          
  3.3                   2.2174e-05            1.8e-13               -8.2936e-08           -2.2072e-05          
  3.4                   2.2236e-05            -2e-14                -1.14502e-07          -2.2104e-05          
  3.5                   2.2314e-05            0                     -1.5572e-07           -2.2132e-05          
  3.6                   2.2396e-05            -2e-14                -2.0892e-07           -2.217e-05           
END_DB

BEGIN_DB
 ICCAP_VAR vg         2.194          
 ICCAP_VAR vb         0              
 ICCAP_VAR vs         0              

 #vd                    id                    ig                    ib                    is                   
  0                     2.7114e-09            6e-13                 3.5e-12               -4.017e-09           
  0.1                   1.2654e-05            3e-13                 4.18e-12              -1.2634e-05          
  0.2                   2.411e-05             3.2e-13               3.12e-12              -2.4092e-05          
  0.3                   3.4292e-05            3.4e-13               2.12e-12              -3.4274e-05          
  0.4                   4.319e-05             2.6e-13               3.34e-12              -4.3174e-05          
  0.5                   5.0768e-05            2.2e-13               2.66e-12              -5.075e-05           
  0.6                   5.7028e-05            2.4e-13               1.78e-12              -5.7012e-05          
  0.7                   6.203e-05             1.2e-13               3.26e-12              -6.2012e-05          
  0.8                   6.5866e-05            3e-13                 1.94e-12              -6.5848e-05          
  0.9                   6.8626e-05            0                     2.06e-12              -6.8608e-05          
  1                     7.0522e-05            -1e-13                2.68e-12              -7.0504e-05          
  1.1                   7.176e-05             2.2e-13               2.6e-12               -7.175e-05           
  1.2                   7.2568e-05            2.2e-13               1.76e-12              -7.255e-05           
  1.3                   7.31e-05              2.8e-13               3.54e-12              -7.3078e-05          
  1.4                   7.3466e-05            3.8e-13               2.24e-12              -7.3458e-05          
  1.5                   7.3754e-05            6e-14                 1.9e-12               -7.3734e-05          
  1.6                   7.3976e-05            1.6e-13               3.02e-12              -7.396e-05           
  1.7                   7.4176e-05            4e-14                 2.04e-12              -7.4164e-05          
  1.8                   7.4348e-05            1.4e-13               1.76e-12              -7.4334e-05          
  1.9                   7.4504e-05            2e-14                 2.9e-12               -7.4488e-05          
  2                     7.4636e-05            8e-14                 1.78e-12              -7.4632e-05          
  2.1                   7.4782e-05            0                     4.2e-13               -7.4766e-05          
  2.2                   7.4902e-05            1.8e-13               -6.22e-12             -7.4884e-05          
  2.3                   7.5018e-05            2.2e-13               -3.216e-11            -7.5e-05             
  2.4                   7.5126e-05            1.6e-13               -1.0482e-10           -7.5106e-05          
  2.5                   7.5226e-05            1.4e-13               -2.9636e-10           -7.5212e-05          
  2.6                   7.5324e-05            1.6e-13               -7.4444e-10           -7.5306e-05          
  2.7                   7.5422e-05            8e-14                 -1.6798e-09           -7.5372e-05          
  2.8                   7.548e-05             8e-14                 -3.4768e-09           -7.5464e-05          
  2.9                   7.5576e-05            0                     -6.6606e-09           -7.5556e-05          
  3                     7.5674e-05            2e-14                 -1.1984e-08           -7.5642e-05          
  3.1                   7.5766e-05            1.4e-13               -2.0402e-08           -7.5724e-05          
  3.2                   7.586e-05             2.4e-13               -3.3164e-08           -7.5812e-05          
  3.3                   7.5986e-05            1.4e-13               -5.181e-08            -7.592e-05           
  3.4                   7.6094e-05            2e-13                 -7.8456e-08           -7.6e-05             
  3.5                   7.62e-05              2e-13                 -1.15582e-07          -7.6076e-05          
  3.6                   7.633e-05             2e-14                 -1.6628e-07           -7.6148e-05          
END_DB

BEGIN_DB
 ICCAP_VAR vg         2.897          
 ICCAP_VAR vb         0              
 ICCAP_VAR vs         0              

 #vd                    id                    ig                    ib                    is                   
  0                     9.238e-09             4.2e-13               2.82e-12              -9.264e-09           
  0.1                   1.717e-05             3.4e-13               3.2e-12               -1.7152e-05          
  0.2                   3.3406e-05            5e-13                 2.66e-12              -3.3386e-05          
  0.3                   4.8558e-05            5.4e-13               2.1e-12               -4.8542e-05          
  0.4                   6.26e-05              4.6e-13               2.16e-12              -6.258e-05           
  0.5                   7.5422e-05            2.8e-13               2.08e-12              -7.5402e-05          
  0.6                   8.6958e-05            2.2e-13               1.2e-12               -8.694e-05           
  0.7                   9.721e-05             0                     2.42e-12              -9.7194e-05          
  0.8                   0.000106158           1.4e-13               1.86e-12              -0.000106148         
  0.9                   0.000113812           3.2e-13               1.38e-12              -0.000113802         
  1                     0.00012038            1.6e-13               1.38e-12              -0.00012             
  1.1                   0.00012562            1.4e-13               1.74e-12              -0.00012524          
  1.2                   0.0001298             2.8e-13               2.56e-12              -0.0001294           
  1.3                   0.000133              3.2e-13               1.1e-12               -0.0001326           
  1.4                   0.0001354             1.2e-13               1.62e-12              -0.00013502          
  1.5                   0.00013714            2e-13                 2.1e-12               -0.00013674          
  1.6                   0.00013834            1.8e-13               9.6e-13               -0.00013796          
  1.7                   0.00013922            2.2e-13               2.52e-12              -0.0001388           
  1.8                   0.00013982            1.6e-13               2.24e-12              -0.00013944          
  1.9                   0.00014032            2e-13                 1.42e-12              -0.00013994          
  2                     0.0001407             1.6e-13               2.26e-12              -0.00014032          
  2.1                   0.00014102            2e-14                 1.68e-12              -0.00014066          
  2.2                   0.0001413             1.8e-13               1.14e-12              -0.00014094          
  2.3                   0.00014156            2.2e-13               2.36e-12              -0.00014116          
  2.4                   0.00014176            1.8e-13               -8.8e-13              -0.00014138          
  2.5                   0.00014196            3e-13                 -8.08e-12             -0.00014158          
  2.6                   0.00014216            2e-13                 -3.126e-11            -0.00014178          
  2.7                   0.00014232            2.8e-13               -1.026e-10            -0.00014194          
  2.8                   0.00014248            4.4e-13               -2.8254e-10           -0.0001421           
  2.9                   0.00014262            1.6e-13               -7.0112e-10           -0.00014226          
  3                     0.00014276            1.4e-13               -1.5974e-09           -0.00014238          
  3.1                   0.0001429             6e-14                 -3.3658e-09           -0.00014252          
  3.2                   0.00014304            4e-14                 -6.5972e-09           -0.00014266          
  3.3                   0.00014316            1.8e-13               -1.225e-08            -0.00014276          
  3.4                   0.00014328            1.4e-13               -2.1442e-08           -0.0001429           
  3.5                   0.00014344            1.8e-13               -3.5982e-08           -0.00014302          
  3.6                   0.00014356            2e-14                 -5.7834e-08           -0.00014312          
END_DB

BEGIN_DB
 ICCAP_VAR vg         3.6            
 ICCAP_VAR vb         0              
 ICCAP_VAR vs         0              

 #vd                    id                    ig                    ib                    is                   
  0                     9.646e-09             6.8e-13               1.74e-12              -9.366e-09           
  0.1                   1.9916e-05            3.6e-13               2.16e-12              -1.9896e-05          
  0.2                   3.9132e-05            3.6e-13               6.2e-13               -3.9114e-05          
  0.3                   5.75e-05              4e-13                 1.98e-12              -5.7484e-05          
  0.4                   7.4976e-05            3.6e-13               1.26e-12              -7.4958e-05          
  0.5                   9.1436e-05            3.2e-13               1.34e-12              -9.1422e-05          
  0.6                   0.000106774           3e-13                 1.72e-12              -0.000106762         
  0.7                   0.00012114            2.6e-13               2.28e-12              -0.00012076          
  0.8                   0.00013418            2.4e-13               2.1e-12               -0.0001338           
