! VERSION = 6.00
BEGIN_HEADER
 ICCAP_INPUTS
  vd         V  D GROUND SMU1 0.1 LIN        1    0          3.6        37   0.1       
  vg         V  G GROUND SMU2 0.001 LIN        2    1.472      3.6        5    0.532     
  vb         V  B GROUND SMU4 0.1 CON        -3.6
  vs         V  S GROUND SMU3 0.1 CON        0
 ICCAP_OUTPUTS
  id         I  D GROUND SMU1 B
  ig         I  G GROUND SMU2 B
  ib         I  B GROUND SMU4 B
  is         I  S GROUND SMU3 B
 ICCAP_VALUES
  MASTER_SETUP_TYPE "~dc_idvd~"
  LINVT_VALUE "|idvg|100.0n|100.0m|1.000m|5|3.600|"
  LISTVT_VALUE ""
  TYPE "1"
  TEMP " 27.0000 "
  IS_TNOM " 1.00000 "
  MAIN.W "10.00u"
  MAIN.L "1.200u"
  MAIN.AD "3.400p"
  MAIN.AS "3.400p"
  MAIN.PD "20.68u"
  MAIN.PS "20.68u"
  MAIN.NF "1.000"
  MAIN.M "1"
  MAIN.NRD "0.000"
  MAIN.NRS "0.000"
  MAIN.LDRIFT1 "1E-06"
  MAIN.LDRIFT2 "1E-06"
  MAIN.SA "0.000"
  MAIN.SB "0.000"
  MAIN.SD "0.000"
  MAIN.SCA "0.000"
  MAIN.SCB "0.000"
  MAIN.SCC "0.000"
  MAIN.SC "0.000"
  MODULE "S556"
  PIN_D "12"
  PIN_G "9"
  PIN_S "10"
  PIN_B "11"
  PIN_E ""
  PIN_6 ""
  XY_ID ""
  FUNC "L Scale"
  STI "SA ref"
  WPE "WPE ref"
  COMMENT ""
  DIS_MEAS ""
  TypeTCI "10"
END_HEADER

BEGIN_DB
 ICCAP_VAR vg         1.472          
 ICCAP_VAR vb         -3.6           
 ICCAP_VAR vs         0              

 #vd                    id                    ig                    ib                    is                   
  0                     3.418e-09             8e-13                 -4.296e-11            -3.2144e-09          
  0.1                   4.154e-06             5.4e-13               -3.488e-11            -4.1488e-06          
  0.2                   4.8424e-06            5e-13                 -3.496e-11            -4.8396e-06          
  0.3                   4.9694e-06            5.6e-13               -3.218e-11            -4.9652e-06          
  0.4                   5.0294e-06            4.6e-13               -3.072e-11            -5.0276e-06          
  0.5                   5.074e-06             4.8e-13               -3.04e-11             -5.0724e-06          
  0.6                   5.112e-06             4.2e-13               -2.782e-11            -5.1076e-06          
  0.7                   5.1424e-06            4.6e-13               -2.72e-11             -5.1368e-06          
  0.8                   5.169e-06             4e-13                 -2.67e-11             -5.1666e-06          
  0.9                   5.1972e-06            3e-13                 -2.568e-11            -5.1918e-06          
  1                     5.2196e-06            3e-13                 -2.498e-11            -5.215e-06           
  1.1                   5.2444e-06            2.6e-13               -2.47e-11             -5.239e-06           
  1.2                   5.2632e-06            2.6e-13               -2.222e-11            -5.2608e-06          
  1.3                   5.285e-06             3.6e-13               -2.276e-11            -5.2806e-06          
  1.4                   5.3062e-06            1.2e-13               -2.254e-11            -5.301e-06           
  1.5                   5.3234e-06            2e-13                 -2.202e-11            -5.321e-06           
  1.6                   5.3432e-06            3e-13                 -2.24e-11             -5.339e-06           
  1.7                   5.362e-06             1.8e-13               -2.606e-11            -5.357e-06           
  1.8                   5.3788e-06            2e-13                 -3.452e-11            -5.3748e-06          
  1.9                   5.399e-06             2.6e-13               -6.046e-11            -5.3918e-06          
  2                     5.4168e-06            1.2e-13               -1.1942e-10           -5.4116e-06          
  2.1                   5.4344e-06            1.6e-13               -2.3334e-10           -5.427e-06           
  2.2                   5.4498e-06            1.6e-13               -4.4574e-10           -5.4438e-06          
  2.3                   5.4684e-06            1e-13                 -8.1006e-10           -5.46e-06            
  2.4                   5.4792e-06            1.2e-13               -1.3988e-09           -5.476e-06           
  2.5                   5.4976e-06            1.4e-13               -2.3146e-09           -5.4902e-06          
  2.6                   5.5144e-06            2.6e-13               -3.6824e-09           -5.507e-06           
  2.7                   5.534e-06             2.2e-13               -5.6424e-09           -5.5252e-06          
  2.8                   5.551e-06             1.4e-13               -8.4128e-09           -5.5402e-06          
  2.9                   5.5684e-06            2.6e-13               -1.222e-08            -5.552e-06           
  3                     5.5874e-06            2.4e-13               -1.7408e-08           -5.5656e-06          
  3.1                   5.6078e-06            2.4e-13               -2.4354e-08           -5.5816e-06          
  3.2                   5.633e-06             1e-13                 -3.3576e-08           -5.5956e-06          
  3.3                   5.6596e-06            6e-14                 -4.5576e-08           -5.609e-06           
  3.4                   5.6868e-06            2.8e-13               -6.1174e-08           -5.6208e-06          
  3.5                   5.72e-06              2e-13                 -8.106e-08            -5.6354e-06          
  3.6                   5.7592e-06            1.4e-13               -1.06022e-07          -5.6518e-06          
END_DB

BEGIN_DB
 ICCAP_VAR vg         2.004          
 ICCAP_VAR vb         -3.6           
 ICCAP_VAR vs         0              

 #vd                    id                    ig                    ib                    is                   
  0                     4.6992e-08            4.2e-13               -1.094e-11            -4.4484e-08          
  0.1                   6.3198e-05            2.6e-13               -8e-12                -6.3176e-05          
  0.2                   0.00011154            3.4e-13               -1.042e-11            -0.000111524         
  0.3                   0.00014582            2.2e-13               -9.54e-12             -0.0001454           
  0.4                   0.00016752            2e-13                 -1.118e-11            -0.00016716          
  0.5                   0.00017964            1.4e-13               -9.6e-12              -0.00017928          
  0.6                   0.00018572            3.4e-13               -9.64e-12             -0.00018532          
  0.7                   0.00018872            1.6e-13               -1.034e-11            -0.00018834          
  0.8                   0.00019046            1.4e-13               -8.88e-12             -0.00019006          
  0.9                   0.0001916             2.6e-13               -9.48e-12             -0.0001912           
  1                     0.0001925             2e-13                 -1.024e-11            -0.00019208          
  1.1                   0.0001932             2.6e-13               -8.3e-12              -0.00019278          
  1.2                   0.00019378            8e-14                 -9.66e-12             -0.00019342          
  1.3                   0.00019434            2.4e-13               -9.4e-12              -0.00019398          
  1.4                   0.00019486            1.4e-13               -8.22e-12             -0.00019448          
  1.5                   0.00019538            2.2e-13               -1.01e-11             -0.00019494          
  1.6                   0.00019578            2.6e-13               -9.14e-12             -0.00019542          
  1.7                   0.00019622            1e-13                 -8.76e-12             -0.00019588          
  1.8                   0.00019662            2e-13                 -1.282e-11            -0.00019628          
  1.9                   0.00019706            2.4e-13               -2.274e-11            -0.00019668          
  2                     0.00019744            1.8e-13               -6.048e-11            -0.00019706          
  2.1                   0.00019782            2e-14                 -1.8036e-10           -0.0001974           
  2.2                   0.00019818            2e-13                 -5.0354e-10           -0.00019776          
  2.3                   0.00019852            3.6e-13               -1.2914e-09           -0.00019816          
  2.4                   0.00019886            2.6e-13               -3.0156e-09           -0.00019848          
  2.5                   0.00019924            2.8e-13               -6.4752e-09           -0.0001988           
  2.6                   0.00019954            2.8e-13               -1.2894e-08           -0.00019914          
  2.7                   0.00019986            2e-13                 -2.3986e-08           -0.00019948          
  2.8                   0.00020024            2.6e-13               -4.2176e-08           -0.00019978          
  2.9                   0.00020054            2e-13                 -7.0586e-08           -0.00020006          
  3                     0.00020086            3.2e-13               -1.13384e-07          -0.00020036          
  3.1                   0.00020126            6e-13                 -1.756e-07            -0.00020066          
  3.2                   0.00020164            8.2e-13               -2.6418e-07           -0.00020094          
  3.3                   0.00020196            1.1e-12               -3.8696e-07           -0.00020116          
  3.4                   0.00020238            1.56e-12              -5.5532e-07           -0.0002014           
  3.5                   0.0002028             2.06e-12              -7.821e-07            -0.00020156          
  3.6                   0.00020328            2.86e-12              -1.08484e-06          -0.0002017           
END_DB

BEGIN_DB
 ICCAP_VAR vg         2.536          
 ICCAP_VAR vb         -3.6           
 ICCAP_VAR vs         0              

 #vd                    id                    ig                    ib                    is                   
  0                     9.2964e-08            3.4e-13               -5.72e-12             -8.115e-08           
  0.1                   0.0001263             3e-13                 -6.4e-12              -0.0001259           
  0.2                   0.000239              2.8e-13               -6.3e-12              -0.00023862          
  0.3                   0.00033726            3.6e-13               -5.72e-12             -0.00033686          
  0.4                   0.00042094            3.4e-13               -7.02e-12             -0.00042056          
  0.5                   0.00048982            2.4e-13               -6.56e-12             -0.00048944          
  0.6                   0.00054422            3.4e-13               -6.16e-12             -0.0005438           
  0.7                   0.00058522            2.8e-13               -6.44e-12             -0.00058484          
  0.8                   0.00061436            1.8e-13               -5.9e-12              -0.000614            
  0.9                   0.00063384            2.2e-13               -6.42e-12             -0.00063346          
  1                     0.00064624            2.2e-13               -7.14e-12             -0.0006459           
  1.1                   0.00065402            6e-14                 -6.4e-12              -0.0006536           
  1.2                   0.000659              1.4e-13               -6.76e-12             -0.00065858          
  1.3                   0.00066242            2.8e-13               -6.8e-12              -0.000662            
  1.4                   0.00066492            2.8e-13               -5.36e-12             -0.00066456          
  1.5                   0.00066696            1e-13                 -7.06e-12             -0.0006666           
  1.6                   0.00066866            2.2e-13               -6.82e-12             -0.00066822          
  1.7                   0.00067008            2.6e-13               -5.88e-12             -0.00066974          
  1.8                   0.00067138            1.8e-13               -7.28e-12             -0.00067104          
  1.9                   0.00067264            6e-14                 -5.98e-12             -0.00067226          
  2                     0.00067374            1.6e-13               -7.96e-12             -0.0006734           
  2.1                   0.0006748             2.2e-13               -1.512e-11            -0.00067442          
  2.2                   0.00067576            1.6e-13               -3.832e-11            -0.00067538          
  2.3                   0.00067674            8e-14                 -1.1998e-10           -0.00067632          
  2.4                   0.00067764            6e-14                 -3.689e-10            -0.00067724          
  2.5                   0.00067848            1.8e-13               -1.0356e-09           -0.00067816          
  2.6                   0.00067934            1.8e-13               -2.6632e-09           -0.00067894          
  2.7                   0.00068014            2.2e-13               -6.2746e-09           -0.00067976          
  2.8                   0.00068096            2.4e-13               -1.3656e-08           -0.00068052          
  2.9                   0.00068172            3e-13                 -2.77e-08             -0.00068132          
  3                     0.0006825             4.6e-13               -5.2746e-08           -0.00068204          
  3.1                   0.00068326            6.6e-13               -9.5104e-08           -0.00068274          
  3.2                   0.00068392            1e-12                 -1.6294e-07           -0.00068334          
  3.3                   0.00068464            1.5e-12               -2.6722e-07           -0.0006839           
  3.4                   0.00068528            2.26e-12              -4.24e-07             -0.00068438          
  3.5                   0.00068594            3.48e-12              -6.5044e-07           -0.00068476          
  3.6                   0.00068664            5.12e-12              -9.7104e-07           -0.00068506          
END_DB

BEGIN_DB
 ICCAP_VAR vg         3.068          
 ICCAP_VAR vb         -3.6           
 ICCAP_VAR vs         0              

 #vd                    id                    ig                    ib                    is                   
  0                     1.2104e-07            4.6e-13               -4.2e-12              -1.07026e-07         
  0.1                   0.00017508            2.6e-13               -2.96e-12             -0.00017466          
  0.2                   0.0003392             2.6e-13               -5.02e-12             -0.00033882          
  0.3                   0.00049102            2.8e-13               -5.04e-12             -0.00049062          
  0.4                   0.00062998            4.4e-13               -4.3e-12              -0.0006296           
  0.5                   0.000755              3.6e-13               -5.92e-12             -0.00075458          
  0.6                   0.00086532            2.4e-13               -5.1e-12              -0.00086492          
  0.7                   0.00096114            2.6e-13               -4.88e-12             -0.00096076          
  0.8                   0.00104238            3e-13                 -6.26e-12             -0.00104198          
  0.9                   0.00110934            2.8e-13               -4.54e-12             -0.00110896          
  1                     0.001164              1.8e-13               -5.96e-12             -0.00116266          
  1.1                   0.0012056             6e-14                 -2.68e-12             -0.0012036           
  1.2                   0.0012366             2.8e-13               -5.4e-12              -0.0012344           
  1.3                   0.0012588             1.8e-13               -4.24e-12             -0.0012568           
  1.4                   0.0012742             2.4e-13               -3.9e-12              -0.0012722           
  1.5                   0.001285              2.4e-13               -4.9e-12              -0.001283            
  1.6                   0.0012926             2.8e-13               -3.74e-12             -0.0012904           
  1.7                   0.001298              3.4e-13               -4.66e-12             -0.0012958           
  1.8                   0.001302              2.4e-13               -5.44e-12             -0.0013              
  1.9                   0.0013052             1.6e-13               -4.12e-12             -0.0013032           
  2                     0.0013078             2.6e-13               -4.8e-12              -0.0013056           
  2.1                   0.00131               2.8e-13               -4.94e-12             -0.001308            
  2.2                   0.0013118             1.6e-13               -4.7e-12              -0.0013098           
  2.3                   0.0013136             2.2e-13               -9.98e-12             -0.0013116           
  2.4                   0.0013152             2.8e-13               -2.28e-11             -0.0013132           
  2.5                   0.0013166             2.2e-13               -6.946e-11            -0.0013146           
  2.6                   0.001318              2.4e-13               -2.2022e-10           -0.001316            
  2.7                   0.0013192             2.6e-13               -6.4074e-10           -0.0013172           
  2.8                   0.0013204             1.6e-13               -1.7228e-09           -0.0013184           
  2.9                   0.0013216             2.4e-13               -4.2738e-09           -0.0013196           
  3                     0.0013228             2.4e-13               -9.8258e-09           -0.0013206           
  3.1                   0.0013238             4.4e-13               -2.1054e-08           -0.0013216           
  3.2                   0.0013248             5e-13                 -4.232e-08            -0.0013226           
  3.3                   0.0013256             9.8e-13               -8.026e-08            -0.0013236           
  3.4                   0.0013264             1.58e-12              -1.4514e-07           -0.0013242           
  3.5                   0.0013272             2.62e-12              -2.5014e-07           -0.0013248           
  3.6                   0.001328              4.24e-12              -4.1352e-07           -0.0013254           
END_DB

BEGIN_DB
 ICCAP_VAR vg         3.6            
 ICCAP_VAR vb         -3.6           
 ICCAP_VAR vs         0              

 #vd                    id                    ig                    ib                    is                   
  0                     1.373e-07             4e-13                 -3.36e-12             -1.15828e-07         
  0.1                   0.00020966            3e-13                 -2.76e-12             -0.00020926          
  0.2                   0.00041092            3.8e-13               -4.16e-12             -0.00041054          
  0.3                   0.00060222            2.8e-13               -4.04e-12             -0.00060184          
  0.4                   0.00078296            3e-13                 -3.72e-12             -0.00078256          
  0.5                   0.0009517             2.8e-13               -4.3e-12              -0.0009513           
  0.6                   0.00110732            3.2e-13               -4.12e-12             -0.00110692          
  0.7                   0.0012506             2e-13                 -3.52e-12             -0.0012486           
  0.8                   0.001379              2.6e-13               -3.48e-12             -0.001377            
