! VERSION = 6.00
BEGIN_HEADER
 ICCAP_INPUTS
  vd         V  D GROUND SMU1 0.1 LIN        1    0          3.6        37   0.1       
  vg         V  G GROUND SMU2 0.001 LIST       2 3 0.102 0.302 0.502
  vb         V  B GROUND SMU4 0.1 CON        0
  vs         V  S GROUND SMU3 0.1 CON        0
 ICCAP_OUTPUTS
  id         I  D GROUND SMU1 B
  ig         I  G GROUND SMU2 B
  ib         I  B GROUND SMU4 B
  is         I  S GROUND SMU3 B
 ICCAP_VALUES
  MASTER_SETUP_TYPE "~dc_idvd~"
  LINVT_VALUE ""
  LISTVT_VALUE "|idvg|100.0n|-200.0m|1.000m|3|200.0m|200.0m|"
  TYPE "1"
  TEMP " 27.0000 "
  IS_TNOM " 1.00000 "
  MAIN.W "10.00u"
  MAIN.L "300.0n"
  MAIN.AD "3.400p"
  MAIN.AS "3.400p"
  MAIN.PD "20.68u"
  MAIN.PS "20.68u"
  MAIN.NF "1.000"
  MAIN.M "1"
  MAIN.NRD "0.000"
  MAIN.NRS "0.000"
  MAIN.LDRIFT1 "1E-06"
  MAIN.LDRIFT2 "1E-06"
  MAIN.SA "0.000"
  MAIN.SB "0.000"
  MAIN.SD "0.000"
  MAIN.SCA "0.000"
  MAIN.SCB "0.000"
  MAIN.SCC "0.000"
  MAIN.SC "0.000"
  MODULE "S556"
  PIN_D "20"
  PIN_G "1"
  PIN_S "2"
  PIN_B "19"
  PIN_E ""
  PIN_6 ""
  XY_ID ""
  FUNC "Additional"
  STI "SA ref"
  WPE "WPE ref"
  COMMENT ""
  DIS_MEAS ""
  TypeTCI "10"
END_HEADER

BEGIN_DB
 ICCAP_VAR vg         0.102          
 ICCAP_VAR vb         0              
 ICCAP_VAR vs         0              

 #vd                    id                    ig                    ib                    is                   
  0                     2.08e-12              -5.6e-13              2.6e-12               -1.84e-12            
  0.1                   1.1686e-09            -5.4e-13              2.86e-12              -1.1668e-09          
  0.2                   1.7278e-09            -4.8e-13              2.88e-12              -1.7256e-09          
  0.3                   2.388e-09             -3.4e-13              1.6e-12               -2.3846e-09          
  0.4                   3.2036e-09            -3.4e-13              1.38e-12              -3.2004e-09          
  0.5                   4.215e-09             -3.4e-13              1.7e-12               -4.2102e-09          
  0.6                   5.4596e-09            -3.6e-13              9e-13                 -5.4556e-09          
  0.7                   7.001e-09             -3e-13                1.98e-12              -6.9958e-09          
  0.8                   8.9088e-09            -2.6e-13              1.72e-12              -8.9062e-09          
  0.9                   1.12654e-08           -2.8e-13              1.16e-12              -1.12624e-08         
  1                     1.4172e-08            -2.4e-13              1.6e-12               -1.4148e-08          
  1.1                   1.775e-08             -2e-13                1.66e-12              -1.7716e-08          
  1.2                   2.2128e-08            -2.2e-13              2.5e-12               -2.2104e-08          
  1.3                   2.7498e-08            -1.4e-13              1.52e-12              -2.7464e-08          
  1.4                   3.4028e-08            -1.8e-13              7.2e-13               -3.402e-08           
  1.5                   4.1992e-08            -1.8e-13              -1.4e-12              -4.1972e-08          
  1.6                   5.161e-08             -1.4e-13              -4.94e-12             -5.1562e-08          
  1.7                   6.3102e-08            -1.2e-13              -1.204e-11            -6.3054e-08          
  1.8                   7.695e-08             -2e-14                -2.806e-11            -7.6886e-08          
  1.9                   9.3446e-08            0                     -5.66e-11             -9.3374e-08          
  2                     1.1322e-07            -2e-14                -1.0324e-10           -1.13012e-07         
  2.1                   1.367e-07             -1.2e-13              -1.8406e-10           -1.3638e-07          
  2.2                   1.648e-07             -2e-14                -3.1918e-10           -1.6436e-07          
  2.3                   1.9856e-07            -1.2e-13              -5.3862e-10           -1.9778e-07          
  2.4                   2.391e-07             0                     -8.8924e-10           -2.381e-07           
  2.5                   2.8798e-07            -1.4e-13              -1.4476e-09           -2.8638e-07          
  2.6                   3.4714e-07            -2e-14                -2.3238e-09           -3.4472e-07          
  2.7                   4.1858e-07            -4e-14                -3.6812e-09           -4.1494e-07          
  2.8                   5.0614e-07            -2e-14                -5.7692e-09           -4.9984e-07          
  2.9                   6.1236e-07            0                     -8.9308e-09           -6.031e-07           
  3                     7.4274e-07            -1.6e-13              -1.3702e-08           -7.289e-07           
  3.1                   9.0242e-07            -8e-14                -2.078e-08            -8.8164e-07          
  3.2                   1.09858e-06           -1.2e-13              -3.1166e-08           -1.06694e-06         
  3.3                   1.3416e-06            -2e-14                -4.6206e-08           -1.2908e-06          
  3.4                   1.6374e-06            -1e-13                -6.784e-08            -1.5656e-06          
  3.5                   2.0022e-06            -4e-14                -9.8526e-08           -1.8992e-06          
  3.6                   2.4524e-06            -4e-14                -1.4168e-07           -2.306e-06           
END_DB

BEGIN_DB
 ICCAP_VAR vg         0.302          
 ICCAP_VAR vb         0              
 ICCAP_VAR vs         0              

 #vd                    id                    ig                    ib                    is                   
  0                     2.1818e-10            -1.2e-13              2.36e-12              -2.1826e-10          
  0.1                   1.69e-07              -2e-14                2.08e-12              -1.6886e-07          
  0.2                   2.4788e-07            6e-14                 1.12e-12              -2.4774e-07          
  0.3                   3.2972e-07            0                     1.9e-12               -3.2956e-07          
  0.4                   4.2136e-07            1e-13                 2.46e-12              -4.213e-07           
  0.5                   5.246e-07             4e-14                 1.3e-12               -5.246e-07           
  0.6                   6.412e-07             6e-14                 6.6e-13               -6.4126e-07          
  0.7                   7.738e-07             0                     1.58e-12              -7.7372e-07          
  0.8                   9.2406e-07            2e-14                 1.9e-12               -9.2392e-07          
  0.9                   1.09392e-06           6e-14                 1.18e-12              -1.09354e-06         
  1                     1.2908e-06            0                     1.94e-12              -1.286e-06           
  1.1                   1.5104e-06            2e-14                 9.2e-13               -1.506e-06           
  1.2                   1.7582e-06            0                     -6.8e-13              -1.755e-06           
  1.3                   2.0414e-06            8e-14                 -6.5e-12              -2.0382e-06          
  1.4                   2.3604e-06            1e-13                 -2.652e-11            -2.3566e-06          
  1.5                   2.7226e-06            4e-14                 -7.794e-11            -2.7172e-06          
  1.6                   3.1296e-06            1.2e-13               -1.9492e-10           -3.1254e-06          
  1.7                   3.5868e-06            8e-14                 -4.3658e-10           -3.582e-06           
  1.8                   4.1018e-06            -2e-14                -8.9878e-10           -4.097e-06           
  1.9                   4.6792e-06            4e-14                 -1.725e-09            -4.6732e-06          
  2                     5.3246e-06            1e-13                 -3.1354e-09           -5.318e-06           
  2.1                   6.046e-06             4e-14                 -5.4552e-09           -6.0368e-06          
  2.2                   6.856e-06             6e-14                 -9.1528e-09           -6.8444e-06          
  2.3                   7.761e-06             4e-14                 -1.4906e-08           -7.7412e-06          
  2.4                   8.767e-06             0                     -2.3662e-08           -8.74e-06            
  2.5                   9.889e-06             1e-13                 -3.6824e-08           -9.85e-06            
  2.6                   1.115e-05             8e-14                 -5.6296e-08           -1.10844e-05         
  2.7                   1.2554e-05            6e-14                 -8.4642e-08           -1.2446e-05          
  2.8                   1.4114e-05            0                     -1.254e-07            -1.3964e-05          
  2.9                   1.5852e-05            8e-14                 -1.8332e-07           -1.5646e-05          
  3                     1.7808e-05            2e-14                 -2.6468e-07           -1.7526e-05          
  3.1                   2.001e-05             8e-14                 -3.7694e-07           -1.96e-05            
  3.2                   2.2458e-05            4e-14                 -5.2986e-07           -2.1908e-05          
  3.3                   2.5218e-05            8e-14                 -7.3478e-07           -2.446e-05           
  3.4                   2.833e-05             1e-13                 -1.00676e-06          -2.7308e-05          
  3.5                   3.1854e-05            -4e-14                -1.3636e-06           -3.0484e-05          
  3.6                   3.5836e-05            -2e-14                -1.8244e-06           -3.398e-05           
END_DB

BEGIN_DB
 ICCAP_VAR vg         0.502          
 ICCAP_VAR vb         0              
 ICCAP_VAR vs         0              

 #vd                    id                    ig                    ib                    is                   
  0                     3.012e-09             0                     1.18e-12              -4.4584e-09          
  0.1                   7.104e-06             -4e-14                1.62e-12              -7.0958e-06          
  0.2                   1.02442e-05           4e-14                 2.4e-12               -1.02384e-05         
  0.3                   1.2906e-05            8e-14                 1.54e-12              -1.2878e-05          
  0.4                   1.5508e-05            4e-14                 7.4e-13               -1.549e-05           
  0.5                   1.8178e-05            8e-14                 1.2e-12               -1.8158e-05          
  0.6                   2.094e-05             6e-14                 1.66e-12              -2.0922e-05          
  0.7                   2.3828e-05            1.2e-13               9.8e-13               -2.3806e-05          
  0.8                   2.6838e-05            1.8e-13               9.2e-13               -2.682e-05           
  0.9                   2.9992e-05            1.4e-13               1.52e-12              -2.9972e-05          
  1                     3.33e-05              6e-14                 1.06e-12              -3.3282e-05          
  1.1                   3.6766e-05            2e-14                 -9.4e-13              -3.6746e-05          
  1.2                   4.0388e-05            4e-14                 -1e-11                -4.0388e-05          
  1.3                   4.4212e-05            6e-14                 -5.304e-11            -4.419e-05           
  1.4                   4.8188e-05            6e-14                 -2.0086e-10           -4.8166e-05          
  1.5                   5.236e-05             1e-13                 -6.1552e-10           -5.2346e-05          
  1.6                   5.6718e-05            1e-13                 -1.6208e-09           -5.6702e-05          
  1.7                   6.127e-05             1.2e-13               -3.7588e-09           -6.125e-05           
  1.8                   6.6024e-05            2e-13                 -7.8978e-09           -6.6004e-05          
  1.9                   7.1016e-05            1.2e-13               -1.529e-08            -7.1006e-05          
  2                     7.6242e-05            4e-14                 -2.7674e-08           -7.6196e-05          
  2.1                   8.1678e-05            1.8e-13               -4.752e-08            -8.1612e-05          
  2.2                   8.737e-05             1.4e-13               -7.8072e-08           -8.7276e-05          
  2.3                   9.3328e-05            0                     -1.2374e-07           -9.319e-05           
  2.4                   9.9558e-05            1.8e-13               -1.9042e-07           -9.9362e-05          
  2.5                   0.000106112           1.2e-13               -2.8618e-07           -0.000105786         
  2.6                   0.000112972           1e-13                 -4.2172e-07           -0.000112558         
  2.7                   0.00012032            2e-13                 -6.1006e-07           -0.0001193           
  2.8                   0.00012796            2e-13                 -8.6954e-07           -0.0001267           
  2.9                   0.00013608            -1.8e-13              -1.2208e-06           -0.0001344           
  3                     0.00014468            1.2e-13               -1.6942e-06           -0.00014258          
  3.1                   0.00015386            1.2e-13               -2.3202e-06           -0.00015112          
  3.2                   0.00016368            1.8e-13               -3.138e-06            -0.00016016          
  3.3                   0.00017426            2e-13                 -4.1876e-06           -0.00016966          
  3.4                   0.00018574            1.6e-13               -5.5244e-06           -0.0001798           
  3.5                   0.00019818            4e-14                 -7.2012e-06           -0.00019058          
  3.6                   0.00021174            1.2e-13               -9.2794e-06           -0.00020206          
END_DB

