! VERSION = 6.00
BEGIN_HEADER
 ICCAP_INPUTS
  vd         V  D GROUND SMU1 0.1 LIN        1    0          3.6        37   0.1       
  vg         V  G GROUND SMU2 0.001 LIN        2    1.452      3.6        5    0.537     
  vb         V  B GROUND SMU4 0.1 CON        -3.6
  vs         V  S GROUND SMU3 0.1 CON        0
 ICCAP_OUTPUTS
  id         I  D GROUND SMU1 B
  ig         I  G GROUND SMU2 B
  ib         I  B GROUND SMU4 B
  is         I  S GROUND SMU3 B
 ICCAP_VALUES
  MASTER_SETUP_TYPE "~dc_idvd~"
  LINVT_VALUE "|idvg|100.0n|100.0m|1.000m|5|3.600|"
  LISTVT_VALUE ""
  TYPE "1"
  TEMP " 27.0000 "
  IS_TNOM " 1.00000 "
  MAIN.W "300.0n"
  MAIN.L "10.00u"
  MAIN.AD "102.0f"
  MAIN.AS "102.0f"
  MAIN.PD "1.280u"
  MAIN.PS "1.280u"
  MAIN.NF "1.000"
  MAIN.M "1"
  MAIN.NRD "0.000"
  MAIN.NRS "0.000"
  MAIN.LDRIFT1 "1E-06"
  MAIN.LDRIFT2 "1E-06"
  MAIN.SA "0.000"
  MAIN.SB "0.000"
  MAIN.SD "0.000"
  MAIN.SCA "0.000"
  MAIN.SCB "0.000"
  MAIN.SCC "0.000"
  MAIN.SC "0.000"
  MODULE "S547"
  PIN_D "14"
  PIN_G "7"
  PIN_S "8"
  PIN_B "13"
  PIN_E ""
  PIN_6 ""
  XY_ID ""
  FUNC "Narrow"
  STI "SA ref"
  WPE "WPE ref"
  COMMENT ""
  DIS_MEAS ""
  TypeTCI "10"
END_HEADER

BEGIN_DB
 ICCAP_VAR vg         1.452          
 ICCAP_VAR vb         -3.6           
 ICCAP_VAR vs         0              

 #vd                    id                    ig                    ib                    is                   
  0                     1.762e-11             9.2e-13               -4.166e-11            -1.49e-11            
  0.1                   1.4378e-08            5.2e-13               -3.626e-11            -1.4354e-08          
  0.2                   1.6552e-08            5.6e-13               -3.452e-11            -1.6518e-08          
  0.3                   1.667e-08             6.4e-13               -3.34e-11             -1.6646e-08          
  0.4                   1.6684e-08            7.8e-13               -3.094e-11            -1.6658e-08          
  0.5                   1.6688e-08            5.2e-13               -2.98e-11             -1.6664e-08          
  0.6                   1.6696e-08            3.2e-13               -3.23e-11             -1.6684e-08          
  0.7                   1.6716e-08            3.8e-13               -2.786e-11            -1.6676e-08          
  0.8                   1.6708e-08            3.8e-13               -2.636e-11            -1.6688e-08          
  0.9                   1.672e-08             3.4e-13               -2.544e-11            -1.6684e-08          
  1                     1.6718e-08            3e-13                 -2.484e-11            -1.669e-08           
  1.1                   1.6738e-08            1.6e-13               -2.436e-11            -1.6702e-08          
  1.2                   1.6732e-08            3.2e-13               -2.298e-11            -1.6712e-08          
  1.3                   1.6726e-08            5.6e-13               -2.184e-11            -1.6714e-08          
  1.4                   1.673e-08             4e-13                 -2.182e-11            -1.6724e-08          
  1.5                   1.6754e-08            3.8e-13               -2.096e-11            -1.6718e-08          
  1.6                   1.674e-08             4e-13                 -2.096e-11            -1.672e-08           
  1.7                   1.6748e-08            3.2e-13               -1.96e-11             -1.6724e-08          
  1.8                   1.6762e-08            4e-13                 -1.798e-11            -1.6726e-08          
  1.9                   1.6758e-08            3.4e-13               -1.912e-11            -1.6742e-08          
  2                     1.6768e-08            2.8e-13               -1.852e-11            -1.6742e-08          
  2.1                   1.677e-08             3.4e-13               -1.808e-11            -1.6746e-08          
  2.2                   1.6776e-08            2.2e-13               -1.77e-11             -1.676e-08           
  2.3                   1.6782e-08            3.6e-13               -1.858e-11            -1.6756e-08          
  2.4                   1.6792e-08            2e-13                 -2.052e-11            -1.6754e-08          
  2.5                   1.6804e-08            1.4e-13               -2.194e-11            -1.677e-08           
  2.6                   1.6802e-08            1.8e-13               -2.358e-11            -1.6768e-08          
  2.7                   1.6826e-08            3.2e-13               -2.876e-11            -1.6778e-08          
  2.8                   1.6824e-08            3.2e-13               -3.642e-11            -1.679e-08           
  2.9                   1.6836e-08            2.8e-13               -4.582e-11            -1.6778e-08          
  3                     1.686e-08             3e-13                 -5.824e-11            -1.6784e-08          
  3.1                   1.6862e-08            2.6e-13               -7.462e-11            -1.6806e-08          
  3.2                   1.691e-08             4.6e-13               -9.88e-11             -1.6796e-08          
  3.3                   1.6944e-08            3.8e-13               -1.294e-10            -1.6802e-08          
  3.4                   1.698e-08             -2e-14                -1.6812e-10           -1.6798e-08          
  3.5                   1.7036e-08            1e-13                 -2.1792e-10           -1.6804e-08          
  3.6                   1.709e-08             1e-13                 -2.8248e-10           -1.6804e-08          
END_DB

BEGIN_DB
 ICCAP_VAR vg         1.989          
 ICCAP_VAR vb         -3.6           
 ICCAP_VAR vs         0              

 #vd                    id                    ig                    ib                    is                   
  0                     1.1634e-10            5.2e-13               -1.08e-11             -1.1828e-10          
  0.1                   1.7818e-07            3.8e-13               -1.018e-11            -1.7802e-07          
  0.2                   3.1514e-07            3.2e-13               -1.092e-11            -3.1502e-07          
  0.3                   4.1238e-07            3.2e-13               -9.58e-12             -4.1226e-07          
  0.4                   4.7326e-07            3.2e-13               -1.004e-11            -4.7312e-07          
  0.5                   5.0346e-07            2.2e-13               -1.098e-11            -5.0342e-07          
  0.6                   5.1374e-07            2e-13                 -9.32e-12             -5.1362e-07          
  0.7                   5.1628e-07            2e-13                 -8.68e-12             -5.1616e-07          
  0.8                   5.1694e-07            1.8e-13               -1.036e-11            -5.1684e-07          
  0.9                   5.173e-07             2.2e-13               -1.042e-11            -5.1724e-07          
  1                     5.1752e-07            3.6e-13               -9.04e-12             -5.1744e-07          
  1.1                   5.1774e-07            1.6e-13               -8.52e-12             -5.176e-07           
  1.2                   5.1782e-07            1.6e-13               -9.58e-12             -5.1776e-07          
  1.3                   5.1798e-07            2.8e-13               -9.38e-12             -5.1786e-07          
  1.4                   5.1814e-07            3.4e-13               -8.6e-12              -5.1804e-07          
  1.5                   5.1822e-07            3.8e-13               -7.94e-12             -5.1814e-07          
  1.6                   5.1838e-07            4e-13                 -9.24e-12             -5.1844e-07          
  1.7                   5.1866e-07            3e-13                 -9.14e-12             -5.1854e-07          
  1.8                   5.188e-07             4e-13                 -8.78e-12             -5.1868e-07          
  1.9                   5.1882e-07            2.4e-13               -8.16e-12             -5.1872e-07          
  2                     5.1894e-07            1e-13                 -6.88e-12             -5.188e-07           
  2.1                   5.1896e-07            2.4e-13               -9.3e-12              -5.1884e-07          
  2.2                   5.191e-07             6e-14                 -8.54e-12             -5.1896e-07          
  2.3                   5.1926e-07            1e-13                 -8.64e-12             -5.1914e-07          
  2.4                   5.1934e-07            2e-13                 -1.144e-11            -5.1918e-07          
  2.5                   5.1938e-07            1.4e-13               -1.658e-11            -5.1936e-07          
  2.6                   5.1956e-07            1e-13                 -2.412e-11            -5.1942e-07          
  2.7                   5.196e-07             2.8e-13               -3.932e-11            -5.1946e-07          
  2.8                   5.1974e-07            1.6e-13               -6.874e-11            -5.1954e-07          
  2.9                   5.1986e-07            1e-13                 -1.147e-10            -5.197e-07           
  3                     5.2024e-07            2.6e-13               -1.8638e-10           -5.1992e-07          
  3.1                   5.2038e-07            1.4e-13               -2.9516e-10           -5.2e-07             
  3.2                   5.2064e-07            -2e-14                -4.55e-10             -5.2002e-07          
  3.3                   5.209e-07             1.6e-13               -6.7804e-10           -5.2022e-07          
  3.4                   5.2138e-07            2.4e-13               -9.852e-10            -5.2028e-07          
  3.5                   5.2184e-07            1.6e-13               -1.4076e-09           -5.2032e-07          
  3.6                   5.2258e-07            2.8e-13               -1.9742e-09           -5.2046e-07          
END_DB

BEGIN_DB
 ICCAP_VAR vg         2.526          
 ICCAP_VAR vb         -3.6           
 ICCAP_VAR vs         0              

 #vd                    id                    ig                    ib                    is                   
  0                     2.1336e-10            5.6e-13               -5.26e-12             -2.2342e-10          
  0.1                   3.5864e-07            7.6e-13               -5.5e-12              -3.585e-07           
  0.2                   6.7848e-07            4.6e-13               -6.02e-12             -6.7844e-07          
  0.3                   9.5864e-07            3e-13                 -6.94e-12             -9.5854e-07          
  0.4                   1.2012e-06            3.6e-13               -5.68e-12             -1.197e-06           
  0.5                   1.4022e-06            1.2e-13               -7.12e-12             -1.398e-06           
  0.6                   1.5632e-06            4e-13                 -6.22e-12             -1.559e-06           
  0.7                   1.6856e-06            3.2e-13               -6.46e-12             -1.6814e-06          
  0.8                   1.7708e-06            1.4e-13               -6.94e-12             -1.7668e-06          
  0.9                   1.8232e-06            1.6e-13               -5.88e-12             -1.819e-06           
  1                     1.8496e-06            3e-13                 -5.48e-12             -1.8458e-06          
  1.1                   1.8604e-06            2e-13                 -7.36e-12             -1.8564e-06          
  1.2                   1.8648e-06            8e-14                 -6.36e-12             -1.8606e-06          
  1.3                   1.8666e-06            1.2e-13               -5.7e-12              -1.8626e-06          
  1.4                   1.8674e-06            6e-14                 -6.52e-12             -1.8634e-06          
  1.5                   1.8684e-06            1.6e-13               -5.9e-12              -1.8642e-06          
  1.6                   1.869e-06             3e-13                 -4.98e-12             -1.8652e-06          
  1.7                   1.8698e-06            3e-13                 -5.78e-12             -1.8654e-06          
  1.8                   1.8702e-06            3e-13                 -5.82e-12             -1.8662e-06          
  1.9                   1.8706e-06            3.2e-13               -5.1e-12              -1.8668e-06          
  2                     1.8712e-06            2.2e-13               -5.94e-12             -1.867e-06           
  2.1                   1.8716e-06            3e-13                 -5.92e-12             -1.8676e-06          
  2.2                   1.872e-06             4.4e-13               -5.06e-12             -1.868e-06           
  2.3                   1.8722e-06            1.8e-13               -6.08e-12             -1.868e-06           
  2.4                   1.8726e-06            1e-13                 -5.78e-12             -1.8688e-06          
  2.5                   1.873e-06             3e-13                 -4.48e-12             -1.8688e-06          
  2.6                   1.8732e-06            2.8e-13               -6.04e-12             -1.8694e-06          
  2.7                   1.8734e-06            1.2e-13               -7.94e-12             -1.8696e-06          
  2.8                   1.8738e-06            3e-13                 -9.58e-12             -1.87e-06            
  2.9                   1.874e-06             4.2e-13               -1.882e-11            -1.8698e-06          
  3                     1.8744e-06            -6e-14                -3.69e-11             -1.8704e-06          
  3.1                   1.8746e-06            -2e-14                -7.042e-11            -1.8704e-06          
  3.2                   1.8748e-06            2e-13                 -1.3512e-10           -1.8712e-06          
  3.3                   1.8756e-06            3.2e-13               -2.5008e-10           -1.8712e-06          
  3.4                   1.8758e-06            1.8e-13               -4.3064e-10           -1.8718e-06          
  3.5                   1.8764e-06            2.2e-13               -7.1546e-10           -1.8718e-06          
  3.6                   1.8776e-06            2e-13                 -1.1368e-09           -1.8718e-06          
END_DB

BEGIN_DB
 ICCAP_VAR vg         3.063          
 ICCAP_VAR vb         -3.6           
 ICCAP_VAR vs         0              

 #vd                    id                    ig                    ib                    is                   
  0                     3.194e-10             6.2e-13               -4.38e-12             -3.165e-10           
  0.1                   5.1142e-07            4.4e-13               -4.98e-12             -5.1134e-07          
  0.2                   9.9016e-07            3.2e-13               -6.18e-12             -9.9018e-07          
  0.3                   1.4362e-06            4.2e-13               -4.16e-12             -1.432e-06           
  0.4                   1.8466e-06            4e-13                 -5.86e-12             -1.8426e-06          
  0.5                   2.2214e-06            1.4e-13               -5.02e-12             -2.2174e-06          
  0.6                   2.5594e-06            2e-13                 -4.4e-12              -2.5554e-06          
  0.7                   2.8606e-06            4.2e-13               -5.34e-12             -2.8566e-06          
  0.8                   3.1238e-06            3.8e-13               -5.88e-12             -3.1198e-06          
  0.9                   3.3484e-06            3e-13                 -3.98e-12             -3.3444e-06          
  1                     3.5348e-06            2.6e-13               -5e-12                -3.5312e-06          
  1.1                   3.6836e-06            3.2e-13               -5.06e-12             -3.6796e-06          
  1.2                   3.7952e-06            1e-13                 -3.64e-12             -3.7912e-06          
  1.3                   3.8728e-06            2e-13                 -4.72e-12             -3.8688e-06          
  1.4                   3.9208e-06            3.2e-13               -5.62e-12             -3.917e-06           
  1.5                   3.9468e-06            4e-13                 -4.16e-12             -3.9428e-06          
  1.6                   3.9594e-06            1.8e-13               -4.44e-12             -3.9554e-06          
  1.7                   3.9652e-06            8e-14                 -4.68e-12             -3.9612e-06          
  1.8                   3.9688e-06            6e-14                 -3.14e-12             -3.9648e-06          
  1.9                   3.9706e-06            3.2e-13               -4.86e-12             -3.9666e-06          
  2                     3.9722e-06            2.8e-13               -4.54e-12             -3.9682e-06          
  2.1                   3.9738e-06            1.8e-13               -3.38e-12             -3.9696e-06          
  2.2                   3.9748e-06            2e-13                 -4.16e-12             -3.9708e-06          
  2.3                   3.9758e-06            3.4e-13               -4.3e-12              -3.9716e-06          
  2.4                   3.9768e-06            1e-13                 -3.26e-12             -3.9726e-06          
  2.5                   3.9774e-06            2.6e-13               -3.86e-12             -3.973e-06           
  2.6                   3.978e-06             2.8e-13               -4.54e-12             -3.9746e-06          
  2.7                   3.979e-06             2.4e-13               -3.14e-12             -3.975e-06           
  2.8                   3.9798e-06            1.6e-13               -4.44e-12             -3.976e-06           
  2.9                   3.9806e-06            1.6e-13               -4.84e-12             -3.9766e-06          
  3                     3.9812e-06            2.8e-13               -4.04e-12             -3.9774e-06          
  3.1                   3.9822e-06            2.4e-13               -6.1e-12              -3.9786e-06          
  3.2                   3.9826e-06            1.8e-13               -9.46e-12             -3.9786e-06          
  3.3                   3.9834e-06            2.4e-13               -1.804e-11            -3.9794e-06          
  3.4                   3.9838e-06            2e-13                 -4.076e-11            -3.9798e-06          
  3.5                   3.9842e-06            6e-14                 -8.6e-11              -3.9802e-06          
  3.6                   3.9852e-06            1.4e-13               -1.7302e-10           -3.981e-06           
END_DB

BEGIN_DB
 ICCAP_VAR vg         3.6            
 ICCAP_VAR vb         -3.6           
 ICCAP_VAR vs         0              

 #vd                    id                    ig                    ib                    is                   
  0                     3.862e-10             6e-13                 -3.36e-12             -3.893e-10           
  0.1                   6.3068e-07            4.8e-13               -3.96e-12             -6.3056e-07          
  0.2                   1.2366e-06            5e-13                 -3.86e-12             -1.2324e-06          
  0.3                   1.8126e-06            3e-13                 -2.88e-12             -1.8086e-06          
  0.4                   2.3614e-06            4e-13                 -4.72e-12             -2.3572e-06          
  0.5                   2.8808e-06            2.8e-13               -4.1e-12              -2.8766e-06          
  0.6                   3.3692e-06            2.8e-13               -3.8e-12              -3.3652e-06          
  0.7                   3.8266e-06            1.6e-13               -4.22e-12             -3.8228e-06          
  0.8                   4.2518e-06            1e-13                 -3.72e-12             -4.2482e-06          
