! VERSION = 6.00
BEGIN_HEADER
 ICCAP_INPUTS
  vd         V  D GROUND SMU1 0.1 LIN        1    0          3.6        37   0.1       
  vg         V  G GROUND SMU2 0.001 LIN        2    1.452      3.6        5    0.537     
  vb         V  B GROUND SMU4 0.1 CON        -3.6
  vs         V  S GROUND SMU3 0.1 CON        0
 ICCAP_OUTPUTS
  id         I  D GROUND SMU1 B
  ig         I  G GROUND SMU2 B
  ib         I  B GROUND SMU4 B
  is         I  S GROUND SMU3 B
 ICCAP_VALUES
  MASTER_SETUP_TYPE "~dc_idvd~"
  LINVT_VALUE "|idvg|100.0n|100.0m|1.000m|5|3.600|"
  LISTVT_VALUE ""
  TYPE "1"
  TEMP " 27.0000 "
  IS_TNOM " 1.00000 "
  MAIN.W "10.00u"
  MAIN.L "10.00u"
  MAIN.AD "3.400p"
  MAIN.AS "3.400p"
  MAIN.PD "20.68u"
  MAIN.PS "20.68u"
  MAIN.NF "1.000"
  MAIN.M "1"
  MAIN.NRD "0.000"
  MAIN.NRS "0.000"
  MAIN.LDRIFT1 "1E-06"
  MAIN.LDRIFT2 "1E-06"
  MAIN.SA "0.000"
  MAIN.SB "0.000"
  MAIN.SD "0.000"
  MAIN.SCA "0.000"
  MAIN.SCB "0.000"
  MAIN.SCC "0.000"
  MAIN.SC "0.000"
  MODULE "S557"
  PIN_D "16"
  PIN_G "5"
  PIN_S "6"
  PIN_B "15"
  PIN_E ""
  PIN_6 ""
  XY_ID ""
  FUNC "Large"
  STI "SA ref"
  WPE "WPE ref"
  COMMENT ""
  DIS_MEAS ""
  TypeTCI "10"
END_HEADER

BEGIN_DB
 ICCAP_VAR vg         1.452          
 ICCAP_VAR vb         -3.6           
 ICCAP_VAR vs         0              

 #vd                    id                    ig                    ib                    is                   
  0                     4.622e-10             8e-13                 -4.276e-11            -3.8114e-10          
  0.1                   4.776e-07             4.2e-13               -3.628e-11            -4.775e-07           
  0.2                   5.4574e-07            4.4e-13               -3.536e-11            -5.4576e-07          
  0.3                   5.5046e-07            3.8e-13               -3.428e-11            -5.5034e-07          
  0.4                   5.5152e-07            4.2e-13               -3.166e-11            -5.5144e-07          
  0.5                   5.5228e-07            3.6e-13               -3.108e-11            -5.521e-07           
  0.6                   5.5286e-07            4e-13                 -3.054e-11            -5.527e-07           
  0.7                   5.5332e-07            4.6e-13               -2.876e-11            -5.5322e-07          
  0.8                   5.537e-07             4.4e-13               -2.712e-11            -5.5364e-07          
  0.9                   5.541e-07             3.2e-13               -2.652e-11            -5.5408e-07          
  1                     5.546e-07             2e-13                 -2.58e-11             -5.5456e-07          
  1.1                   5.5498e-07            3.2e-13               -2.488e-11            -5.5486e-07          
  1.2                   5.5524e-07            2e-13                 -2.258e-11            -5.5504e-07          
  1.3                   5.5554e-07            1.2e-13               -2.276e-11            -5.5552e-07          
  1.4                   5.5582e-07            2.4e-13               -2.318e-11            -5.5568e-07          
  1.5                   5.5604e-07            2.6e-13               -2.29e-11             -5.56e-07            
  1.6                   5.564e-07             2e-13                 -2.12e-11             -5.5628e-07          
  1.7                   5.5664e-07            2.2e-13               -2.178e-11            -5.5656e-07          
  1.8                   5.5694e-07            2e-13                 -2.194e-11            -5.567e-07           
  1.9                   5.57e-07              2.6e-13               -2.404e-11            -5.5696e-07          
  2                     5.5734e-07            1.8e-13               -2.816e-11            -5.572e-07           
  2.1                   5.577e-07             1.8e-13               -3.692e-11            -5.575e-07           
  2.2                   5.579e-07             2.6e-13               -5.724e-11            -5.5782e-07          
  2.3                   5.5818e-07            1.4e-13               -9.092e-11            -5.5802e-07          
  2.4                   5.5844e-07            8e-14                 -1.4426e-10           -5.5828e-07          
  2.5                   5.5876e-07            2.2e-13               -2.3038e-10           -5.5848e-07          
  2.6                   5.5914e-07            2.2e-13               -3.5876e-10           -5.5872e-07          
  2.7                   5.5952e-07            1.8e-13               -5.4352e-10           -5.5894e-07          
  2.8                   5.6008e-07            1e-13                 -8.0168e-10           -5.5912e-07          
  2.9                   5.6066e-07            1.8e-13               -1.1612e-09           -5.5936e-07          
  3                     5.6124e-07            1e-13                 -1.6528e-09           -5.5952e-07          
  3.1                   5.6216e-07            1e-13                 -2.3084e-09           -5.597e-07           
  3.2                   5.6322e-07            1e-13                 -3.1774e-09           -5.5992e-07          
  3.3                   5.6446e-07            8e-14                 -4.3118e-09           -5.6006e-07          
  3.4                   5.6616e-07            1e-13                 -5.78e-09             -5.6024e-07          
  3.5                   5.683e-07             1.6e-13               -7.6518e-09           -5.6058e-07          
  3.6                   5.7082e-07            3.2e-13               -1.0008e-08           -5.6064e-07          
END_DB

BEGIN_DB
 ICCAP_VAR vg         1.989          
 ICCAP_VAR vb         -3.6           
 ICCAP_VAR vs         0              

 #vd                    id                    ig                    ib                    is                   
  0                     2.2044e-09            4.2e-13               -9.04e-12             -2.3042e-09          
  0.1                   6.6092e-06            2.6e-13               -8.92e-12             -6.6048e-06          
  0.2                   1.1644e-05            1.2e-13               -1.022e-11            -1.1622e-05          
  0.3                   1.5146e-05            4e-13                 -8.58e-12             -1.5124e-05          
  0.4                   1.7266e-05            2.2e-13               -1.076e-11            -1.7246e-05          
  0.5                   1.8248e-05            2.2e-13               -1.034e-11            -1.8228e-05          
  0.6                   1.8548e-05            2e-13                 -8.78e-12             -1.8528e-05          
  0.7                   1.8618e-05            2.2e-13               -1.098e-11            -1.86e-05            
  0.8                   1.8646e-05            1.8e-13               -1.042e-11            -1.8624e-05          
  0.9                   1.866e-05             2e-13                 -9.22e-12             -1.864e-05           
  1                     1.8672e-05            1.6e-13               -9.62e-12             -1.8652e-05          
  1.1                   1.8682e-05            1.4e-13               -9.94e-12             -1.866e-05           
  1.2                   1.8688e-05            1e-13                 -9.36e-12             -1.8668e-05          
  1.3                   1.8696e-05            2.4e-13               -1.052e-11            -1.8676e-05          
  1.4                   1.8702e-05            1.4e-13               -8.62e-12             -1.8684e-05          
  1.5                   1.871e-05             1.6e-13               -8.74e-12             -1.8688e-05          
  1.6                   1.8714e-05            2e-13                 -1e-11                -1.8694e-05          
  1.7                   1.872e-05             1.2e-13               -9.38e-12             -1.87e-05            
  1.8                   1.8726e-05            2e-13                 -9.16e-12             -1.8706e-05          
  1.9                   1.8732e-05            0                     -9.86e-12             -1.871e-05           
  2                     1.8736e-05            6e-14                 -9.62e-12             -1.8716e-05          
  2.1                   1.874e-05             1.2e-13               -1.362e-11            -1.872e-05           
  2.2                   1.8744e-05            1.8e-13               -2.764e-11            -1.8724e-05          
  2.3                   1.875e-05             6e-14                 -6.216e-11            -1.8728e-05          
  2.4                   1.8754e-05            2e-13                 -1.4936e-10           -1.8734e-05          
  2.5                   1.876e-05             1.8e-13               -3.4188e-10           -1.8738e-05          
  2.6                   1.8764e-05            1.8e-13               -7.2416e-10           -1.8742e-05          
  2.7                   1.8768e-05            1.2e-13               -1.428e-09            -1.8746e-05          
  2.8                   1.8774e-05            8e-14                 -2.6404e-09           -1.875e-05           
  2.9                   1.878e-05             6e-14                 -4.6048e-09           -1.8756e-05          
  3                     1.8788e-05            1.2e-13               -7.6492e-09           -1.8758e-05          
  3.1                   1.8796e-05            1.4e-13               -1.219e-08            -1.8762e-05          
  3.2                   1.8806e-05            8e-14                 -1.8732e-08           -1.8766e-05          
  3.3                   1.8818e-05            1.8e-13               -2.7928e-08           -1.877e-05           
  3.4                   1.8834e-05            3e-13                 -4.0646e-08           -1.8774e-05          
  3.5                   1.8856e-05            2.4e-13               -5.7916e-08           -1.8776e-05          
  3.6                   1.8882e-05            2.6e-13               -8.1026e-08           -1.878e-05           
END_DB

BEGIN_DB
 ICCAP_VAR vg         2.526          
 ICCAP_VAR vb         -3.6           
 ICCAP_VAR vs         0              

 #vd                    id                    ig                    ib                    is                   
  0                     2.4736e-09            4.8e-13               -5.1e-12              -3.9404e-09          
  0.1                   1.3692e-05            2.6e-13               -6.5e-12              -1.3672e-05          
  0.2                   2.587e-05             3.2e-13               -6.34e-12             -2.585e-05           
  0.3                   3.6492e-05            3.2e-13               -5.52e-12             -3.6472e-05          
  0.4                   4.5572e-05            3.4e-13               -6.7e-12              -4.555e-05           
  0.5                   5.308e-05             2.4e-13               -5.78e-12             -5.306e-05           
  0.6                   5.902e-05             1.2e-13               -6.62e-12             -5.9002e-05          
  0.7                   6.3452e-05            1.6e-13               -6.62e-12             -6.3432e-05          
  0.8                   6.6448e-05            2.4e-13               -5.96e-12             -6.643e-05           
  0.9                   6.819e-05             3.2e-13               -6.32e-12             -6.817e-05           
  1                     6.9006e-05            2e-13                 -7.26e-12             -6.8988e-05          
  1.1                   6.9322e-05            2e-13                 -6.64e-12             -6.9304e-05          
  1.2                   6.9444e-05            1.8e-13               -6.02e-12             -6.9426e-05          
  1.3                   6.9506e-05            8e-14                 -6.7e-12              -6.9488e-05          
  1.4                   6.9548e-05            1.8e-13               -6.54e-12             -6.953e-05           
  1.5                   6.958e-05             2.2e-13               -6.66e-12             -6.956e-05           
  1.6                   6.9606e-05            1e-13                 -6.74e-12             -6.9588e-05          
  1.7                   6.963e-05             1e-13                 -5.94e-12             -6.961e-05           
  1.8                   6.9648e-05            1.4e-13               -6.1e-12              -6.9632e-05          
  1.9                   6.9668e-05            1e-13                 -6.44e-12             -6.965e-05           
  2                     6.9688e-05            1.2e-13               -6.1e-12              -6.9666e-05          
  2.1                   6.9702e-05            6e-14                 -6.18e-12             -6.9684e-05          
  2.2                   6.9718e-05            2.4e-13               -6.92e-12             -6.97e-05            
  2.3                   6.9734e-05            1e-13                 -6.46e-12             -6.9714e-05          
  2.4                   6.9748e-05            1e-13                 -8.66e-12             -6.9728e-05          
  2.5                   6.9762e-05            1.4e-13               -1.436e-11            -6.9742e-05          
  2.6                   6.9778e-05            3e-13                 -3.452e-11            -6.9756e-05          
  2.7                   6.979e-05             1.8e-13               -9.738e-11            -6.977e-05           
  2.8                   6.9802e-05            6e-14                 -2.6396e-10           -6.9782e-05          
  2.9                   6.9814e-05            4e-14                 -6.511e-10            -6.9792e-05          
  3                     6.983e-05             1e-13                 -1.4768e-09           -6.9806e-05          
  3.1                   6.984e-05             1.8e-13               -3.089e-09            -6.9818e-05          
  3.2                   6.9856e-05            1.2e-13               -6.0022e-09           -6.983e-05           
  3.3                   6.9874e-05            2e-14                 -1.09338e-08          -6.9842e-05          
  3.4                   6.9892e-05            2.6e-13               -1.888e-08            -6.9854e-05          
  3.5                   6.9914e-05            3e-13                 -3.1088e-08           -6.9864e-05          
  3.6                   6.9944e-05            4.2e-13               -4.9144e-08           -6.9874e-05          
END_DB

BEGIN_DB
 ICCAP_VAR vg         3.063          
 ICCAP_VAR vb         -3.6           
 ICCAP_VAR vs         0              

 #vd                    id                    ig                    ib                    is                   
  0                     9.678e-09             4e-13                 -2.96e-12             -9.274e-09           
  0.1                   1.958e-05             3.6e-13               -5.54e-12             -1.956e-05           
  0.2                   3.7926e-05            3.4e-13               -5.38e-12             -3.7906e-05          
  0.3                   5.4964e-05            3e-13                 -3.64e-12             -5.4942e-05          
  0.4                   7.07e-05              2.8e-13               -5.44e-12             -7.068e-05           
  0.5                   8.5056e-05            2.4e-13               -5.16e-12             -8.5036e-05          
  0.6                   9.7962e-05            2.2e-13               -3.74e-12             -9.7942e-05          
  0.7                   0.00010942            1.8e-13               -6.28e-12             -0.000109402         
  0.8                   0.00011952            3.4e-13               -7.22e-12             -0.00011912          
  0.9                   0.00012794            2.4e-13               -5.22e-12             -0.00012752          
  1                     0.00013484            3e-13                 -4.28e-12             -0.00013444          
  1.1                   0.00014026            2.6e-13               -5.38e-12             -0.00013984          
  1.2                   0.00014422            2.4e-13               -5.9e-12              -0.0001438           
  1.3                   0.00014686            2.2e-13               -4.36e-12             -0.00014646          
  1.4                   0.00014842            2e-13                 -5e-12                -0.00014802          
  1.5                   0.0001492             1.2e-13               -5.32e-12             -0.0001488           
  1.6                   0.00014956            1.8e-13               -4.48e-12             -0.00014918          
  1.7                   0.00014976            3e-13                 -6.08e-12             -0.00014936          
  1.8                   0.00014986            2.2e-13               -5.5e-12              -0.00014946          
  1.9                   0.00014994            2.2e-13               -3.62e-12             -0.00014954          
  2                     0.00014998            1.8e-13               -5.22e-12             -0.0001496           
  2.1                   0.00015004            2.2e-13               -5.56e-12             -0.00014964          
  2.2                   0.00015008            1.6e-13               -3.94e-12             -0.00014968          
  2.3                   0.00015012            1.2e-13               -5.48e-12             -0.00014972          
  2.4                   0.00015014            1.8e-13               -4.74e-12             -0.00014974          
  2.5                   0.00015018            8e-14                 -4.02e-12             -0.00014978          
  2.6                   0.0001502             1.2e-13               -5e-12                -0.0001498           
  2.7                   0.00015024            1.4e-13               -4.96e-12             -0.00014984          
  2.8                   0.00015026            1.4e-13               -5.9e-12              -0.00014986          
  2.9                   0.0001503             2.6e-13               -1.256e-11            -0.00014988          
  3                     0.00015032            4e-14                 -3.222e-11            -0.00014992          
  3.1                   0.00015034            2e-13                 -9.73e-11             -0.00014994          
  3.2                   0.00015036            1e-13                 -2.8084e-10           -0.00014996          
  3.3                   0.00015038            1.6e-13               -7.3506e-10           -0.00014998          
  3.4                   0.0001504             6e-14                 -1.7616e-09           -0.00015             
  3.5                   0.00015042            1.8e-13               -3.8688e-09           -0.00015002          
  3.6                   0.00015046            1.2e-13               -7.8616e-09           -0.00015004          
END_DB

BEGIN_DB
 ICCAP_VAR vg         3.6            
 ICCAP_VAR vb         -3.6           
 ICCAP_VAR vs         0              

 #vd                    id                    ig                    ib                    is                   
  0                     1.2498e-08            5e-13                 -1.3e-12              -1.2006e-08          
  0.1                   2.3948e-05            3e-13                 -6.86e-12             -2.3928e-05          
  0.2                   4.6958e-05            3.2e-13               -3.3e-12              -4.6938e-05          
  0.3                   6.8946e-05            2.8e-13               -5.04e-12             -6.8926e-05          
  0.4                   8.994e-05             1.6e-13               -5.16e-12             -8.9922e-05          
  0.5                   0.000109852           2.2e-13               -4.36e-12             -0.000109832         
  0.6                   0.00012872            3.4e-13               -2.88e-12             -0.00012832          
  0.7                   0.0001463             2.2e-13               -4.98e-12             -0.0001459           
  0.8                   0.0001626             2.2e-13               -4.2e-12              -0.0001622           
