! VERSION = 6.00
BEGIN_HEADER
 ICCAP_INPUTS
  vd         V  D GROUND SMU1 0.1 LIN        1    0          3.6        37   0.1       
  vg         V  G GROUND SMU2 0.001 LIN        2    0.844      3.6        5    0.689     
  vb         V  B GROUND SMU4 0.1 CON        -3.6
  vs         V  S GROUND SMU3 0.1 CON        0
 ICCAP_OUTPUTS
  id         I  D GROUND SMU1 B
  ig         I  G GROUND SMU2 B
  ib         I  B GROUND SMU4 B
  is         I  S GROUND SMU3 B
 ICCAP_VALUES
  MASTER_SETUP_TYPE "~dc_idvd~"
  LINVT_VALUE "|idvg|100.0n|100.0m|1.000m|5|3.600|"
  LISTVT_VALUE ""
  TYPE "1"
  TEMP " 27.0000 "
  IS_TNOM " 1.00000 "
  MAIN.W "600.0n"
  MAIN.L "350.0n"
  MAIN.AD "204.0f"
  MAIN.AS "204.0f"
  MAIN.PD "1.880u"
  MAIN.PS "1.880u"
  MAIN.NF "1.000"
  MAIN.M "1"
  MAIN.NRD "0.000"
  MAIN.NRS "0.000"
  MAIN.LDRIFT1 "1E-06"
  MAIN.LDRIFT2 "1E-06"
  MAIN.SA "0.000"
  MAIN.SB "0.000"
  MAIN.SD "0.000"
  MAIN.SCA "0.000"
  MAIN.SCB "0.000"
  MAIN.SCC "0.000"
  MAIN.SC "0.000"
  MODULE "S559"
  PIN_D "18"
  PIN_G "3"
  PIN_S "4"
  PIN_B "17"
  PIN_E ""
  PIN_6 ""
  XY_ID ""
  FUNC "Additional"
  STI "SA ref"
  WPE "WPE ref"
  COMMENT ""
  DIS_MEAS ""
  TypeTCI "10"
END_HEADER

BEGIN_DB
 ICCAP_VAR vg         0.844          
 ICCAP_VAR vb         -3.6           
 ICCAP_VAR vs         0              

 #vd                    id                    ig                    ib                    is                   
  0                     1.3326e-10            5.2e-13               -4.23e-11             -8.744e-11           
  0.1                   1.0184e-07            2.6e-13               -3.31e-11             -1.0198e-07          
  0.2                   1.4456e-07            2e-13                 -3.17e-11             -1.4318e-07          
  0.3                   1.7278e-07            2.4e-13               -2.98e-11             -1.785e-07           
  0.4                   2.1162e-07            2e-13                 -2.756e-11            -2.0942e-07          
  0.5                   2.4986e-07            2.4e-13               -2.76e-11             -2.5096e-07          
  0.6                   2.9144e-07            1.4e-13               -2.622e-11            -2.9008e-07          
  0.7                   3.385e-07             1.4e-13               -2.622e-11            -3.3832e-07          
  0.8                   3.8674e-07            6e-14                 -2.344e-11            -3.8494e-07          
  0.9                   4.4056e-07            2.8e-13               -2.386e-11            -4.3954e-07          
  1                     5e-07                 1.4e-13               -2.414e-11            -4.9936e-07          
  1.1                   5.6244e-07            2e-13                 -2.21e-11             -5.6438e-07          
  1.2                   6.2858e-07            2.2e-13               -2.068e-11            -6.3148e-07          
  1.3                   7.059e-07             1e-13                 -2.238e-11            -7.0316e-07          
  1.4                   7.8994e-07            1.2e-13               -2.23e-11             -7.8484e-07          
  1.5                   8.6264e-07            2e-13                 -2.634e-11            -8.721e-07           
  1.6                   9.56e-07              8e-14                 -3.644e-11            -9.525e-07           
  1.7                   1.0522e-06            0                     -6.016e-11            -1.0488e-06          
  1.8                   1.1482e-06            -2e-14                -1.1444e-10           -1.1456e-06          
  1.9                   1.257e-06             2.2e-13               -2.1498e-10           -1.2502e-06          
  2                     1.3718e-06            1.8e-13               -3.9424e-10           -1.3604e-06          
  2.1                   1.4844e-06            1.4e-13               -6.9264e-10           -1.528e-06           
  2.2                   1.6064e-06            6e-14                 -1.176e-09            -1.6202e-06          
  2.3                   1.804e-06             4e-14                 -1.919e-09            -1.7454e-06          
  2.4                   1.9586e-06            1.2e-13               -3.0466e-09           -1.888e-06           
  2.5                   2.0624e-06            1.4e-13               -4.7244e-09           -2.0218e-06          
  2.6                   2.1952e-06            4e-14                 -7.2006e-09           -2.2224e-06          
  2.7                   2.4024e-06            2e-14                 -1.0878e-08           -2.4704e-06          
  2.8                   2.6414e-06            6e-14                 -1.6164e-08           -2.572e-06           
  2.9                   2.8396e-06            1e-13                 -2.301e-08            -2.7992e-06          
  3                     3.0658e-06            -2e-14                -3.2348e-08           -3.0188e-06          
  3.1                   3.3108e-06            -8e-14                -4.6394e-08           -3.2458e-06          
  3.2                   3.5366e-06            -2e-14                -6.4506e-08           -3.4658e-06          
  3.3                   3.8048e-06            6e-14                 -8.7456e-08           -3.715e-06           
  3.4                   4.0546e-06            6e-14                 -1.1778e-07           -3.9254e-06          
  3.5                   4.3494e-06            6e-14                 -1.5712e-07           -4.1966e-06          
  3.6                   4.6622e-06            8e-14                 -2.0552e-07           -4.4354e-06          
END_DB

BEGIN_DB
 ICCAP_VAR vg         1.533          
 ICCAP_VAR vb         -3.6           
 ICCAP_VAR vs         0              

 #vd                    id                    ig                    ib                    is                   
  0                     2.8208e-09            5.2e-13               -7.76e-12             -4.739e-09           
  0.1                   1.4658e-05            3.8e-13               -9.2e-12              -1.4654e-05          
  0.2                   2.6004e-05            3.6e-13               -8.14e-12             -2.6016e-05          
  0.3                   3.4194e-05            3.4e-13               -9.96e-12             -3.4182e-05          
  0.4                   3.9986e-05            2.2e-13               -9.76e-12             -3.992e-05           
  0.5                   4.3938e-05            4e-13                 -8.58e-12             -4.3916e-05          
  0.6                   4.688e-05             2.2e-13               -9.12e-12             -4.6952e-05          
  0.7                   4.9172e-05            1e-13                 -8.94e-12             -4.916e-05           
  0.8                   5.1096e-05            1.8e-13               -8.54e-12             -5.1108e-05          
  0.9                   5.2756e-05            2.4e-13               -9.88e-12             -5.2856e-05          
  1                     5.4258e-05            1.8e-13               -8.78e-12             -5.4244e-05          
  1.1                   5.572e-05             2.4e-13               -9.26e-12             -5.57e-05            
  1.2                   5.703e-05             1.8e-13               -9.92e-12             -5.694e-05           
  1.3                   5.8264e-05            8e-14                 -1.046e-11            -5.8294e-05          
  1.4                   5.9534e-05            2e-13                 -1.33e-11             -5.9544e-05          
  1.5                   6.0798e-05            2.6e-13               -2.694e-11            -6.0732e-05          
  1.6                   6.1754e-05            2e-13                 -7.01e-11             -6.177e-05           
  1.7                   6.2866e-05            1.2e-13               -1.9336e-10           -6.2862e-05          
  1.8                   6.3976e-05            1.6e-13               -4.9532e-10           -6.393e-05           
  1.9                   6.502e-05             4e-14                 -1.1558e-09           -6.5088e-05          
  2                     6.6258e-05            1.8e-13               -2.4824e-09           -6.6124e-05          
  2.1                   6.7252e-05            1.4e-13               -4.9428e-09           -6.7238e-05          
  2.2                   6.8134e-05            8e-14                 -9.2052e-09           -6.8094e-05          
  2.3                   6.9306e-05            1.2e-13               -1.6188e-08           -6.9152e-05          
  2.4                   7.0202e-05            1e-13                 -2.703e-08            -7.0226e-05          
  2.5                   7.1426e-05            1.4e-13               -4.3382e-08           -7.1198e-05          
  2.6                   7.2384e-05            1.6e-13               -6.723e-08            -7.2222e-05          
  2.7                   7.3324e-05            1.4e-13               -1.0095e-07           -7.3198e-05          
  2.8                   7.437e-05             1.4e-13               -1.4796e-07           -7.434e-05           
  2.9                   7.554e-05             2e-14                 -2.124e-07            -7.5196e-05          
  3                     7.647e-05             1.2e-13               -2.9978e-07           -7.621e-05           
  3.1                   7.7644e-05            1.2e-13               -4.166e-07            -7.7152e-05          
  3.2                   7.8792e-05            2e-14                 -5.7042e-07           -7.8302e-05          
  3.3                   7.9966e-05            1.2e-13               -7.6748e-07           -7.9268e-05          
  3.4                   8.1242e-05            1.4e-13               -1.02462e-06          -8.0284e-05          
  3.5                   8.267e-05             1e-13                 -1.3478e-06           -8.1228e-05          
  3.6                   8.404e-05             6e-14                 -1.757e-06            -8.229e-05           
END_DB

BEGIN_DB
 ICCAP_VAR vg         2.222          
 ICCAP_VAR vb         -3.6           
 ICCAP_VAR vs         0              

 #vd                    id                    ig                    ib                    is                   
  0                     1.6458e-08            5.8e-13               -4.94e-12             -1.5656e-08          
  0.1                   3.0802e-05            3.2e-13               -4.72e-12             -3.0782e-05          
  0.2                   5.8446e-05            4.4e-13               -6.82e-12             -5.8426e-05          
  0.3                   8.2018e-05            3.4e-13               -6.1e-12              -8.202e-05           
  0.4                   0.000101288           2.6e-13               -6.66e-12             -0.000101272         
  0.5                   0.00011652            3.2e-13               -6.8e-12              -0.00011608          
  0.6                   0.00012792            4e-13                 -5.32e-12             -0.00012756          
  0.7                   0.00013658            1.4e-13               -5.76e-12             -0.00013616          
  0.8                   0.00014298            2.2e-13               -6.5e-12              -0.00014264          
  0.9                   0.000148              2.2e-13               -5.32e-12             -0.00014754          
  1                     0.00015198            3.8e-13               -6.04e-12             -0.0001516           
  1.1                   0.0001552             2.4e-13               -6.46e-12             -0.00015482          
  1.2                   0.000158              1.4e-13               -4.56e-12             -0.0001576           
  1.3                   0.00016034            3e-13                 -7.1e-12              -0.00016004          
  1.4                   0.00016252            1.6e-13               -8.66e-12             -0.00016214          
  1.5                   0.00016442            2.2e-13               -1.262e-11            -0.00016408          
  1.6                   0.00016636            2.8e-13               -3.318e-11            -0.00016592          
  1.7                   0.00016802            8e-14                 -9.332e-11            -0.00016768          
  1.8                   0.0001697             1.8e-13               -2.5084e-10           -0.0001693           
  1.9                   0.0001713             1.4e-13               -6.3582e-10           -0.00017088          
  2                     0.00017276            2e-13                 -1.4702e-09           -0.0001724           
  2.1                   0.00017426            1.8e-13               -3.1612e-09           -0.00017386          
  2.2                   0.00017562            2.4e-13               -6.3398e-09           -0.00017528          
  2.3                   0.000177              1.2e-13               -1.1946e-08           -0.00017654          
  2.4                   0.00017834            2e-14                 -2.1304e-08           -0.00017794          
  2.5                   0.00017962            2e-13                 -3.6296e-08           -0.00017922          
  2.6                   0.000181              1.2e-13               -5.9336e-08           -0.0001805           
  2.7                   0.00018238            1.8e-13               -9.372e-08            -0.00018184          
  2.8                   0.00018376            1.8e-13               -1.4318e-07           -0.00018328          
  2.9                   0.00018516            1.6e-13               -2.1288e-07           -0.00018448          
  3                     0.00018638            1.4e-13               -3.0986e-07           -0.00018568          
  3.1                   0.00018772            1.2e-13               -4.4182e-07           -0.00018688          
  3.2                   0.00018912            1.6e-13               -6.1948e-07           -0.00018808          
  3.3                   0.0001906             8e-14                 -8.549e-07            -0.00018934          
  3.4                   0.00019206            1.6e-13               -1.1612e-06           -0.0001905           
  3.5                   0.00019372            6e-14                 -1.5602e-06           -0.00019174          
  3.6                   0.00019548            1.8e-13               -2.0712e-06           -0.00019296          
END_DB

BEGIN_DB
 ICCAP_VAR vg         2.911          
 ICCAP_VAR vb         -3.6           
 ICCAP_VAR vs         0              

 #vd                    id                    ig                    ib                    is                   
  0                     2.1976e-08            5.4e-13               -4.68e-12             -2.0786e-08          
  0.1                   4.1444e-05            4.4e-13               -3.38e-12             -4.1424e-05          
  0.2                   8.026e-05             3.6e-13               -4.24e-12             -8.0244e-05          
  0.3                   0.00011544            3e-13                 -3.66e-12             -0.00011504          
  0.4                   0.00014612            2.8e-13               -4.8e-12              -0.00014572          
  0.5                   0.00017216            2e-13                 -4.42e-12             -0.00017176          
  0.6                   0.00019364            2.2e-13               -5.3e-12              -0.00019324          
  0.7                   0.00021106            3.6e-13               -4.24e-12             -0.00021066          
  0.8                   0.00022496            3.2e-13               -4.06e-12             -0.00022458          
  0.9                   0.00023592            2.6e-13               -5.38e-12             -0.00023554          
  1                     0.00024462            2.4e-13               -3.98e-12             -0.00024424          
  1.1                   0.00025158            2.2e-13               -3.44e-12             -0.0002512           
  1.2                   0.00025714            3e-13                 -5.38e-12             -0.00025684          
  1.3                   0.00026186            2.4e-13               -4.76e-12             -0.00026146          
  1.4                   0.00026568            2.6e-13               -5.62e-12             -0.00026528          
  1.5                   0.00026906            6e-14                 -8e-12                -0.00026868          
  1.6                   0.00027202            2e-13                 -1.332e-11            -0.00027162          
  1.7                   0.00027466            2e-13                 -3.704e-11            -0.00027438          
  1.8                   0.00027714            1.8e-13               -1.0538e-10           -0.00027674          
  1.9                   0.0002793             2.8e-13               -2.6964e-10           -0.0002789           
  2                     0.00028138            8e-14                 -6.6736e-10           -0.00028096          
  2.1                   0.0002833             2.2e-13               -1.5342e-09           -0.0002829           
  2.2                   0.00028512            1.2e-13               -3.2782e-09           -0.00028474          
  2.3                   0.00028688            1.2e-13               -6.5302e-09           -0.00028648          
  2.4                   0.0002886             1.6e-13               -1.2282e-08           -0.0002881           
  2.5                   0.00029012            1.2e-13               -2.1992e-08           -0.0002897           
  2.6                   0.00029172            1.6e-13               -3.7516e-08           -0.00029132          
  2.7                   0.0002932             1.4e-13               -6.137e-08            -0.0002928           
  2.8                   0.00029464            2e-14                 -9.7144e-08           -0.00029412          
  2.9                   0.00029612            1.2e-13               -1.49e-07             -0.00029556          
  3                     0.00029762            1.2e-13               -2.2338e-07           -0.00029694          
  3.1                   0.000299              1.2e-13               -3.2684e-07           -0.00029826          
  3.2                   0.00030046            2.6e-13               -4.6852e-07           -0.00029956          
  3.3                   0.0003019             2.2e-13               -6.5948e-07           -0.00030096          
  3.4                   0.00030348            2e-13                 -9.1662e-07           -0.00030214          
  3.5                   0.00030508            2.8e-13               -1.2506e-06           -0.0003034           
  3.6                   0.00030678            2.2e-13               -1.6892e-06           -0.00030468          
END_DB

BEGIN_DB
 ICCAP_VAR vg         3.6            
 ICCAP_VAR vb         -3.6           
 ICCAP_VAR vs         0              

 #vd                    id                    ig                    ib                    is                   
  0                     2.6388e-08            5e-13                 -3.48e-12             -2.5172e-08          
  0.1                   4.839e-05             4.4e-13               -2.32e-12             -4.8368e-05          
  0.2                   9.4648e-05            3.6e-13               -3.54e-12             -9.463e-05           
  0.3                   0.00013776            2.2e-13               -4.46e-12             -0.00013736          
  0.4                   0.00017678            3.4e-13               -4e-12                -0.00017638          
  0.5                   0.0002114             2.2e-13               -3.14e-12             -0.000211            
  0.6                   0.00024144            2.8e-13               -3.98e-12             -0.00024104          
  0.7                   0.00026714            3e-13                 -4.62e-12             -0.00026674          
  0.8                   0.0002888             3e-13                 -3.56e-12             -0.00028842          
