! VERSION = 6.00
BEGIN_HEADER
 ICCAP_INPUTS
  vg         V  G GROUND SMU2 0.001 LIN        1    -0.5       3.6        83   0.05      
  vb         V  B GROUND SMU4 0.1 LIN        2    0          -3.6       5    -0.9      
  vd         V  D GROUND SMU1 0.1 LIN        3    0.1        3.3        3    1.6       
  vs         V  S GROUND SMU3 0.1 CON        0
 ICCAP_OUTPUTS
  id         I  D GROUND SMU1 B
  ig         I  G GROUND SMU2 B
  ib         I  B GROUND SMU4 B
  is         I  S GROUND SMU3 B
 ICCAP_VALUES
  MASTER_SETUP_TYPE "~dc_idvg~"
  LINVT_VALUE ""
  LISTVT_VALUE ""
  TYPE "1"
  TEMP " 27.0000 "
  IS_TNOM " 1.00000 "
  MAIN.W "300.0n"
  MAIN.L "350.0n"
  MAIN.AD "102.0f"
  MAIN.AS "102.0f"
  MAIN.PD "1.280u"
  MAIN.PS "1.280u"
  MAIN.NF "1.000"
  MAIN.M "1"
  MAIN.NRD "0.000"
  MAIN.NRS "0.000"
  MAIN.LDRIFT1 "1E-06"
  MAIN.LDRIFT2 "1E-06"
  MAIN.SA "0.000"
  MAIN.SB "0.000"
  MAIN.SD "0.000"
  MAIN.SCA "0.000"
  MAIN.SCB "0.000"
  MAIN.SCC "0.000"
  MAIN.SC "0.000"
  MODULE "S560"
  PIN_D "16"
  PIN_G "5"
  PIN_S "6"
  PIN_B "15"
  PIN_E ""
  PIN_6 ""
  XY_ID ""
  FUNC "Additional"
  STI "SA ref"
  WPE "WPE ref"
  COMMENT ""
  DIS_MEAS ""
  TypeTCI "10"
END_HEADER

BEGIN_DB
 ICCAP_VAR vb         0              
 ICCAP_VAR vd         0.1            
 ICCAP_VAR vs         0              

 #vg                    id                    ig                    ib                    is                   
  -0.5                  1.8e-13               -4.416e-11            5.208e-11             2.2e-13              
  -0.45                 4e-14                 -6.64e-12             1.592e-11             -1.2e-13             
  -0.4                  8e-14                 -1.08e-12             9.64e-12              6e-14                
  -0.35                 8e-14                 -1.8e-13              8.2e-12               -8e-14               
  -0.3                  2e-14                 0                     7.52e-12              6e-14                
  -0.25                 6e-14                 6e-14                 7.56e-12              2e-14                
  -0.2                  1.2e-13               1.6e-13               8.38e-12              1e-13                
  -0.15                 8e-14                 1.4e-13               8.24e-12              8e-14                
  -0.1                  1.2e-13               1.2e-13               7.1e-12               8e-14                
  -0.05                 0                     1.6e-13               6.86e-12              1e-13                
  0                     1.8e-13               0                     7.38e-12              1.4e-13              
  0.05                  4.2e-13               2.8e-13               7.82e-12              -2.6e-13             
  0.1                   1.46e-12              2.6e-13               7.92e-12              -1.36e-12            
  0.15                  5.5e-12               3e-13                 6.68e-12              -5.24e-12            
  0.2                   2.184e-11             2.4e-13               6.5e-12               -2.168e-11           
  0.25                  8.66e-11              3.4e-13               6.22e-12              -8.622e-11           
  0.3                   3.349e-10             3.8e-13               7.08e-12              -3.3464e-10          
  0.35                  1.2884e-09            1.6e-13               6.12e-12              -1.2832e-09          
  0.4                   4.8148e-09            3e-13                 6.24e-12              -4.811e-09           
  0.45                  1.6704e-08            2.6e-13               5.84e-12              -1.6692e-08          
  0.5                   5.0216e-08            3.8e-13               6.46e-12              -5.0244e-08          
  0.55                  1.2698e-07            4.6e-13               6.54e-12              -1.2684e-07          
  0.6                   2.6848e-07            4.2e-13               5.02e-12              -2.6844e-07          
  0.65                  4.9704e-07            4.8e-13               5.7e-12               -4.9714e-07          
  0.7                   8.3136e-07            4e-13                 6.28e-12              -8.3174e-07          
  0.75                  1.2882e-06            3.2e-13               6.02e-12              -1.284e-06           
  0.8                   1.85e-06              4.8e-13               5.5e-12               -1.8462e-06          
  0.85                  2.5008e-06            4.4e-13               6.1e-12               -2.4968e-06          
  0.9                   3.2074e-06            4.8e-13               6.38e-12              -3.2038e-06          
  0.95                  3.9494e-06            4.2e-13               5.88e-12              -3.9446e-06          
  1                     4.7084e-06            4.6e-13               5.4e-12               -4.7036e-06          
  1.05                  5.4746e-06            5e-13                 6e-12                 -5.4704e-06          
  1.1                   6.2342e-06            4.4e-13               6.4e-12               -6.2302e-06          
  1.15                  6.9854e-06            4.8e-13               5.56e-12              -6.98e-06            
  1.2                   7.7226e-06            5.6e-13               5.18e-12              -7.7184e-06          
  1.25                  8.4476e-06            6.2e-13               5.22e-12              -8.444e-06           
  1.3                   9.1598e-06            5.4e-13               6.52e-12              -9.1542e-06          
  1.35                  9.852e-06             4.4e-13               5.24e-12              -9.8458e-06          
  1.4                   1.0526e-05            6.2e-13               4.98e-12              -1.05192e-05         
  1.45                  1.11888e-05           5.8e-13               4.86e-12              -1.1185e-05          
  1.5                   1.184e-05             5.6e-13               5.9e-12               -1.182e-05           
  1.55                  1.247e-05             5.6e-13               5.54e-12              -1.2452e-05          
  1.6                   1.3082e-05            6e-13                 4.54e-12              -1.306e-05           
  1.65                  1.3676e-05            5.2e-13               5.1e-12               -1.3656e-05          
  1.7                   1.4258e-05            6.2e-13               5.42e-12              -1.4236e-05          
  1.75                  1.4822e-05            5.8e-13               5.52e-12              -1.4804e-05          
  1.8                   1.5372e-05            6e-13                 4.64e-12              -1.5354e-05          
  1.85                  1.5906e-05            7.4e-13               5.04e-12              -1.5886e-05          
  1.9                   1.6424e-05            5.2e-13               5.16e-12              -1.6406e-05          
  1.95                  1.693e-05             7e-13                 5.6e-12               -1.691e-05           
  2                     1.7428e-05            6.4e-13               4.46e-12              -1.7406e-05          
  2.05                  1.7908e-05            5.8e-13               4.14e-12              -1.7888e-05          
  2.1                   1.8368e-05            6.4e-13               4.86e-12              -1.8354e-05          
  2.15                  1.8832e-05            5.4e-13               4.48e-12              -1.8812e-05          
  2.2                   1.9276e-05            6.4e-13               5.26e-12              -1.9256e-05          
  2.25                  1.9706e-05            7e-13                 4.4e-12               -1.9682e-05          
  2.3                   2.0128e-05            5.8e-13               4.22e-12              -2.0108e-05          
  2.35                  2.0538e-05            8e-13                 4.94e-12              -2.0514e-05          
  2.4                   2.0934e-05            5.4e-13               5.02e-12              -2.0914e-05          
  2.45                  2.132e-05             6.4e-13               4.68e-12              -2.1294e-05          
  2.5                   2.1698e-05            6.4e-13               3.68e-12              -2.1678e-05          
  2.55                  2.2066e-05            7e-13                 4.44e-12              -2.2044e-05          
  2.6                   2.242e-05             6e-13                 4.98e-12              -2.24e-05            
  2.65                  2.2766e-05            6.6e-13               4.46e-12              -2.2738e-05          
  2.7                   2.3098e-05            7.6e-13               3.92e-12              -2.308e-05           
  2.75                  2.3426e-05            7.6e-13               4.16e-12              -2.3406e-05          
  2.8                   2.3746e-05            6.4e-13               5.06e-12              -2.372e-05           
  2.85                  2.4054e-05            8e-13                 4.52e-12              -2.4032e-05          
  2.9                   2.4352e-05            7.2e-13               3.56e-12              -2.4332e-05          
  2.95                  2.4638e-05            7e-13                 4.32e-12              -2.4618e-05          
  3                     2.4922e-05            7e-13                 4.68e-12              -2.49e-05            
  3.05                  2.5196e-05            8e-13                 4.44e-12              -2.5176e-05          
  3.1                   2.5462e-05            7e-13                 3.98e-12              -2.5442e-05          
  3.15                  2.5722e-05            7e-13                 4.4e-12               -2.57e-05            
  3.2                   2.5972e-05            7.2e-13               4.18e-12              -2.5954e-05          
  3.25                  2.6218e-05            7.6e-13               4.48e-12              -2.6198e-05          
  3.3                   2.6456e-05            7.2e-13               3.7e-12               -2.644e-05           
  3.35                  2.669e-05             8.2e-13               3.66e-12              -2.6666e-05          
  3.4                   2.6908e-05            7.6e-13               3.04e-12              -2.6886e-05          
  3.45                  2.7118e-05            7.2e-13               4.86e-12              -2.71e-05            
  3.5                   2.733e-05             7.6e-13               3.96e-12              -2.731e-05           
  3.55                  2.7534e-05            7.4e-13               3.16e-12              -2.7514e-05          
  3.6                   2.7736e-05            7.2e-13               3.44e-12              -2.7712e-05          
END_DB

BEGIN_DB
 ICCAP_VAR vb         -0.9           
 ICCAP_VAR vd         0.1            
 ICCAP_VAR vs         0              

 #vg                    id                    ig                    ib                    is                   
  -0.5                  4e-13                 -5.2e-13              -9.72e-12             2.2e-13              
  -0.45                 2.2e-13               -4.6e-13              -9.1e-12              1.2e-13              
  -0.4                  0                     -1.8e-13              -7.92e-12             8e-14                
  -0.35                 2.2e-13               -1.4e-13              -6.3e-12              2.2e-13              
  -0.3                  2e-13                 -1.6e-13              -5.36e-12             6e-14                
  -0.25                 1e-13                 -1.2e-13              -5.76e-12             1.8e-13              
  -0.2                  0                     -1e-13                -5.8e-12              1.6e-13              
  -0.15                 1.6e-13               6e-14                 -5.76e-12             2.2e-13              
  -0.1                  8e-14                 0                     -3.9e-12              1.2e-13              
  -0.05                 1.4e-13               1.8e-13               -3e-12                1.4e-13              
  0                     8e-14                 8e-14                 -4.18e-12             8e-14                
  0.05                  6e-14                 1.8e-13               -3.52e-12             1.4e-13              
  0.1                   1e-13                 1.4e-13               -3.1e-12              1e-13                
  0.15                  6e-14                 2.8e-13               -2.38e-12             6e-14                
  0.2                   2.6e-13               6e-14                 -1.62e-12             -1.6e-13             
  0.25                  8.8e-13               1.8e-13               -2.3e-12              -5.8e-13             
  0.3                   3.56e-12              3.2e-13               -2.7e-12              -3.48e-12            
  0.35                  1.528e-11             3.2e-13               -2.02e-12             -1.516e-11           
  0.4                   6.602e-11             8e-14                 -2.08e-12             -6.586e-11           
  0.45                  2.7828e-10            3e-13                 -1.26e-12             -2.7588e-10          
  0.5                   1.148e-09             2e-13                 -2.06e-12             -1.1418e-09          
  0.55                  4.5806e-09            3.4e-13               -1.34e-12             -4.5964e-09          
  0.6                   1.6684e-08            3.2e-13               -6.4e-13              -1.6646e-08          
  0.65                  5.1408e-08            4e-13                 -8.6e-13              -5.1334e-08          
  0.7                   1.2956e-07            4.2e-13               -1.2e-12              -1.2972e-07          
  0.75                  2.7232e-07            3.2e-13               -9.2e-13              -2.7214e-07          
  0.8                   4.9632e-07            3.8e-13               -1.4e-13              -4.9626e-07          
  0.85                  8.2376e-07            4.6e-13               -1.4e-12              -8.236e-07           
  0.9                   1.2654e-06            2.6e-13               3.8e-13               -1.261e-06           
  0.95                  1.8154e-06            4e-13                 -1.14e-12             -1.8108e-06          
  1                     2.4546e-06            4.6e-13               -1.32e-12             -2.4496e-06          
  1.05                  3.1562e-06            4.2e-13               2e-14                 -3.1524e-06          
  1.1                   3.893e-06             3e-13                 -9.6e-13              -3.8882e-06          
  1.15                  4.6398e-06            5e-13                 4.2e-13               -4.6404e-06          
  1.2                   5.3968e-06            4e-13                 4e-14                 -5.393e-06           
  1.25                  6.143e-06             4.8e-13               -8e-13                -6.1402e-06          
  1.3                   6.885e-06             4.8e-13               -2e-13                -6.8792e-06          
  1.35                  7.602e-06             4.8e-13               -5.8e-13              -7.603e-06           
  1.4                   8.3148e-06            4.6e-13               -2.6e-13              -8.31e-06            
  1.45                  9.0002e-06            4e-13                 -6.8e-13              -8.9986e-06          
  1.5                   9.6832e-06            4.8e-13               -1.24e-12             -9.6756e-06          
  1.55                  1.03418e-05           5.6e-13               2e-13                 -1.03374e-05         
  1.6                   1.09836e-05           4.2e-13               -8e-14                -1.09736e-05         
  1.65                  1.1616e-05            4.8e-13               -6e-13                -1.1594e-05          
  1.7                   1.2228e-05            6.2e-13               -4.2e-13              -1.2206e-05          
  1.75                  1.2818e-05            5.6e-13               6e-14                 -1.2796e-05          
  1.8                   1.3398e-05            7.2e-13               9.2e-13               -1.3374e-05          
  1.85                  1.3958e-05            5.2e-13               -2.4e-13              -1.3934e-05          
  1.9                   1.4502e-05            5.2e-13               -5.4e-13              -1.4482e-05          
  1.95                  1.5034e-05            4.8e-13               2.8e-13               -1.5016e-05          
  2                     1.5554e-05            6.2e-13               7.8e-13               -1.5534e-05          
  2.05                  1.6056e-05            5.4e-13               -3.8e-13              -1.6038e-05          
  2.1                   1.6544e-05            6.4e-13               -2e-13                -1.652e-05           
  2.15                  1.7016e-05            5.8e-13               -1.6e-13              -1.7004e-05          
  2.2                   1.7488e-05            6e-13                 9e-13                 -1.7464e-05          
  2.25                  1.7936e-05            6.4e-13               2.6e-13               -1.7916e-05          
  2.3                   1.8376e-05            6e-13                 -2.8e-13              -1.8356e-05          
  2.35                  1.8802e-05            6.4e-13               -5e-13                -1.8784e-05          
  2.4                   1.921e-05             6.4e-13               -2e-14                -1.9194e-05          
  2.45                  1.962e-05             6.6e-13               6e-13                 -1.9594e-05          
  2.5                   2.0012e-05            7e-13                 -4.6e-13              -1.9992e-05          
  2.55                  2.039e-05             5.6e-13               2e-14                 -2.0372e-05          
  2.6                   2.0762e-05            7.2e-13               0                     -2.0742e-05          
  2.65                  2.1122e-05            5.2e-13               6.2e-13               -2.1102e-05          
  2.7                   2.147e-05             7.6e-13               2e-14                 -2.1452e-05          
  2.75                  2.1806e-05            6.6e-13               -2.8e-13              -2.1786e-05          
  2.8                   2.2136e-05            7e-13                 -1.4e-13              -2.2114e-05          
  2.85                  2.2456e-05            7.2e-13               9.6e-13               -2.244e-05           
  2.9                   2.2766e-05            6.8e-13               1.18e-12              -2.2754e-05          
  2.95                  2.3076e-05            5.8e-13               -8e-13                -2.3056e-05          
  3                     2.337e-05             8.2e-13               2.4e-13               -2.3346e-05          
  3.05                  2.3648e-05            6.4e-13               6.2e-13               -2.3628e-05          
  3.1                   2.3922e-05            7.2e-13               1.2e-12               -2.3902e-05          
  3.15                  2.4192e-05            7.2e-13               1e-13                 -2.4172e-05          
  3.2                   2.4452e-05            7e-13                 -3.2e-13              -2.443e-05           
  3.25                  2.471e-05             7.2e-13               4.8e-13               -2.4686e-05          
  3.3                   2.4952e-05            8e-13                 6.4e-13               -2.4932e-05          
  3.35                  2.5192e-05            7.8e-13               2e-14                 -2.517e-05           
  3.4                   2.5422e-05            7.6e-13               -4.2e-13              -2.5396e-05          
  3.45                  2.5646e-05            6.4e-13               2.2e-13               -2.5626e-05          
