! VERSION = 6.00
BEGIN_HEADER
 ICCAP_INPUTS
  vg         V  G GROUND SMU2 0.001 LIN        1    -0.5       3.6        83   0.05      
  vb         V  B GROUND SMU4 0.1 LIN        2    0          -3.6       5    -0.9      
  vd         V  D GROUND SMU1 0.1 LIN        3    0.1        3.3        3    1.6       
  vs         V  S GROUND SMU3 0.1 CON        0
 ICCAP_OUTPUTS
  id         I  D GROUND SMU1 B
  ig         I  G GROUND SMU2 B
  ib         I  B GROUND SMU4 B
  is         I  S GROUND SMU3 B
 ICCAP_VALUES
  MASTER_SETUP_TYPE "~dc_idvg~"
  LINVT_VALUE ""
  LISTVT_VALUE ""
  TYPE "1"
  TEMP " 27.0000 "
  IS_TNOM " 1.00000 "
  MAIN.W "2.000u"
  MAIN.L "10.00u"
  MAIN.AD "680.0f"
  MAIN.AS "680.0f"
  MAIN.PD "4.680u"
  MAIN.PS "4.680u"
  MAIN.NF "1.000"
  MAIN.M "1"
  MAIN.NRD "0.000"
  MAIN.NRS "0.000"
  MAIN.LDRIFT1 "1E-06"
  MAIN.LDRIFT2 "1E-06"
  MAIN.SA "0.000"
  MAIN.SB "0.000"
  MAIN.SD "0.000"
  MAIN.SCA "0.000"
  MAIN.SCB "0.000"
  MAIN.SCC "0.000"
  MAIN.SC "0.000"
  MODULE "S558"
  PIN_D "12"
  PIN_G "9"
  PIN_S "10"
  PIN_B "11"
  PIN_E ""
  PIN_6 ""
  XY_ID ""
  FUNC "W Scale"
  STI "SA ref"
  WPE "WPE ref"
  COMMENT ""
  DIS_MEAS ""
  TypeTCI "10"
END_HEADER

BEGIN_DB
 ICCAP_VAR vb         0              
 ICCAP_VAR vd         0.1            
 ICCAP_VAR vs         0              

 #vg                    id                    ig                    ib                    is                   
  -0.5                  1.2e-13               -4.428e-11            5.244e-11             1.8e-13              
  -0.45                 -2e-14                -6.88e-12             1.524e-11             0                    
  -0.4                  1e-13                 -1.2e-12              8.94e-12              -2e-14               
  -0.35                 -4e-14                -3e-13                8.82e-12              2.4e-13              
  -0.3                  1.6e-13               1e-13                 8.74e-12              -6e-14               
  -0.25                 0                     0                     7.28e-12              2.6e-13              
  -0.2                  2e-13                 1.2e-13               7.72e-12              0                    
  -0.15                 -2e-14                4e-14                 7.1e-12               2.2e-13              
  -0.1                  0                     2.2e-13               8.18e-12              1.6e-13              
  -0.05                 -1e-13                2e-13                 7.78e-12              4e-14                
  0                     1.2e-13               1.2e-13               6.96e-12              2.4e-13              
  0.05                  2e-14                 3.2e-13               6.7e-12               1.4e-13              
  0.1                   2.6e-13               3e-13                 6.56e-12              -4e-14               
  0.15                  4e-14                 4e-13                 7.5e-12               -1.2e-13             
  0.2                   6.8e-13               3.8e-13               7.46e-12              -4.4e-13             
  0.25                  2.1e-12               3.6e-13               6.42e-12              -2e-12               
  0.3                   8.56e-12              4.4e-13               6.48e-12              -8.56e-12            
  0.35                  3.502e-11             4.2e-13               6.4e-12               -3.48e-11            
  0.4                   1.411e-10             4e-13                 7.68e-12              -1.4086e-10          
  0.45                  5.6422e-10            4.4e-13               6.64e-12              -5.6398e-10          
  0.5                   2.1236e-09            3.8e-13               5.92e-12              -2.1208e-09          
  0.55                  7.1324e-09            5.2e-13               6.64e-12              -7.1256e-09          
  0.6                   2.0122e-08            3.8e-13               5.42e-12              -2.0086e-08          
  0.65                  4.7322e-08            4.6e-13               6.58e-12              -4.7302e-08          
  0.7                   9.3768e-08            5.4e-13               6.36e-12              -9.3728e-08          
  0.75                  1.6178e-07            5.2e-13               6.48e-12              -1.6158e-07          
  0.8                   2.4924e-07            4.4e-13               5.84e-12              -2.4908e-07          
  0.85                  3.537e-07             4.6e-13               6.26e-12              -3.5352e-07          
  0.9                   4.7058e-07            5.6e-13               5.82e-12              -4.7036e-07          
  0.95                  5.9712e-07            4.8e-13               5.24e-12              -5.9704e-07          
  1                     7.3092e-07            5.2e-13               5.22e-12              -7.3078e-07          
  1.05                  8.7054e-07            6.6e-13               6.32e-12              -8.7042e-07          
  1.1                   1.01348e-06           5.4e-13               5.5e-12               -1.01346e-06         
  1.15                  1.1612e-06            5e-13                 5.16e-12              -1.1568e-06          
  1.2                   1.3088e-06            5.4e-13               5.78e-12              -1.3048e-06          
  1.25                  1.4582e-06            6e-13                 5.92e-12              -1.4542e-06          
  1.3                   1.6088e-06            5e-13                 5.58e-12              -1.6046e-06          
  1.35                  1.7592e-06            5.6e-13               5.06e-12              -1.7552e-06          
  1.4                   1.9096e-06            5.6e-13               4.64e-12              -1.9056e-06          
  1.45                  2.0598e-06            7.2e-13               5.64e-12              -2.0556e-06          
  1.5                   2.21e-06              5.6e-13               6.1e-12               -2.2058e-06          
  1.55                  2.359e-06             6.8e-13               5.1e-12               -2.3548e-06          
  1.6                   2.5068e-06            7.8e-13               4.32e-12              -2.5026e-06          
  1.65                  2.6538e-06            7.6e-13               5.6e-12               -2.6498e-06          
  1.7                   2.7998e-06            6e-13                 5.4e-12               -2.7956e-06          
  1.75                  2.9434e-06            7.2e-13               4.84e-12              -2.9396e-06          
  1.8                   3.0864e-06            7e-13                 4.48e-12              -3.0822e-06          
  1.85                  3.227e-06             7.4e-13               4.82e-12              -3.2228e-06          
  1.9                   3.3662e-06            6.6e-13               5.76e-12              -3.3622e-06          
  1.95                  3.503e-06             7.2e-13               4.9e-12               -3.499e-06           
  2                     3.6382e-06            7.6e-13               4.22e-12              -3.634e-06           
  2.05                  3.7712e-06            8e-13                 5e-12                 -3.7672e-06          
  2.1                   3.9016e-06            7.2e-13               5.18e-12              -3.8976e-06          
  2.15                  4.03e-06              6.2e-13               5.76e-12              -4.026e-06           
  2.2                   4.1558e-06            7.2e-13               4.18e-12              -4.1518e-06          
  2.25                  4.2796e-06            7e-13                 4.3e-12               -4.2754e-06          
  2.3                   4.4002e-06            7.2e-13               4.62e-12              -4.3964e-06          
  2.35                  4.5192e-06            7e-13                 4.8e-12               -4.515e-06           
  2.4                   4.635e-06             7e-13                 3.98e-12              -4.631e-06           
  2.45                  4.7482e-06            7.8e-13               2.3e-12               -4.7442e-06          
  2.5                   4.8592e-06            8.2e-13               4.6e-12               -4.8552e-06          
  2.55                  4.9674e-06            7.2e-13               4.74e-12              -4.9634e-06          
  2.6                   5.0726e-06            7.2e-13               4.34e-12              -5.0686e-06          
  2.65                  5.1754e-06            8.4e-13               4.4e-12               -5.1714e-06          
  2.7                   5.2754e-06            7.6e-13               4.02e-12              -5.2714e-06          
  2.75                  5.373e-06             8.2e-13               5.48e-12              -5.3688e-06          
  2.8                   5.4676e-06            7.8e-13               4.04e-12              -5.4636e-06          
  2.85                  5.5596e-06            8.6e-13               4.34e-12              -5.5556e-06          
  2.9                   5.649e-06             8.6e-13               3.38e-12              -5.645e-06           
  2.95                  5.736e-06             9e-13                 4.8e-12               -5.732e-06           
  3                     5.8202e-06            7.6e-13               4.48e-12              -5.816e-06           
  3.05                  5.9016e-06            8.2e-13               4.02e-12              -5.8974e-06          
  3.1                   5.9804e-06            9.2e-13               3.42e-12              -5.9764e-06          
  3.15                  6.057e-06             7.4e-13               4.06e-12              -6.0532e-06          
  3.2                   6.131e-06             8e-13                 4.52e-12              -6.127e-06           
  3.25                  6.2028e-06            8.4e-13               3.76e-12              -6.1988e-06          
  3.3                   6.272e-06             7.2e-13               3.2e-12               -6.268e-06           
  3.35                  6.3388e-06            9e-13                 2.7e-12               -6.3346e-06          
  3.4                   6.4032e-06            7.4e-13               4.38e-12              -6.3992e-06          
  3.45                  6.465e-06             7.4e-13               4.4e-12               -6.461e-06           
  3.5                   6.525e-06             9e-13                 3.02e-12              -6.5212e-06          
  3.55                  6.5828e-06            8e-13                 3.58e-12              -6.5786e-06          
  3.6                   6.6384e-06            8.8e-13               3.58e-12              -6.6342e-06          
END_DB

BEGIN_DB
 ICCAP_VAR vb         -0.9           
 ICCAP_VAR vd         0.1            
 ICCAP_VAR vs         0              

 #vg                    id                    ig                    ib                    is                   
  -0.5                  0                     -6.6e-13              -1.034e-11            2.2e-13              
  -0.45                 4e-14                 -3.4e-13              -9.88e-12             2.2e-13              
  -0.4                  -1e-13                -2.6e-13              -7.86e-12             2e-14                
  -0.35                 1.2e-13               -3e-13                -5.96e-12             2.2e-13              
  -0.3                  -2e-14                -1e-13                -6.32e-12             1.2e-13              
  -0.25                 1.6e-13               -1.8e-13              -6.4e-12              1.6e-13              
  -0.2                  -2e-14                -2e-14                -5.66e-12             1.2e-13              
  -0.15                 1.8e-13               0                     -4.7e-12              1.6e-13              
  -0.1                  -2e-14                1e-13                 -3.92e-12             1.6e-13              
  -0.05                 4e-14                 -8e-14                -3.66e-12             1.2e-13              
  0                     -1e-13                2e-13                 -4e-12                1.4e-13              
  0.05                  0                     -2e-14                -3.96e-12             2.6e-13              
  0.1                   -1e-13                2.8e-13               -2.82e-12             6e-14                
  0.15                  4e-14                 1.8e-13               -2.36e-12             1.6e-13              
  0.2                   -4e-14                3.6e-13               -2.2e-12              0                    
  0.25                  8e-14                 3e-13                 -2.88e-12             1.4e-13              
  0.3                   -1.6e-13              3e-13                 -2.98e-12             2e-14                
  0.35                  2e-13                 2.2e-13               -1.86e-12             1.8e-13              
  0.4                   8e-14                 3.8e-13               -1.52e-12             1e-13                
  0.45                  4e-14                 2.8e-13               -1.64e-12             -6e-14               
  0.5                   1.08e-12              3e-13                 -1.86e-12             -9e-13               
  0.55                  4.74e-12              3e-13                 -1.42e-12             -4.86e-12            
  0.6                   2.276e-11             4.2e-13               -1.98e-12             -2.27e-11            
  0.65                  1.0458e-10            2.6e-13               -1.38e-12             -1.041e-10           
  0.7                   4.6372e-10            6.4e-13               -5e-13                -4.638e-10           
  0.75                  1.922e-09             3.8e-13               -1e-12                -1.9188e-09          
  0.8                   6.8558e-09            3e-13                 -1.74e-12             -6.8502e-09          
  0.85                  2.0174e-08            2.4e-13               -1.96e-12             -2.0138e-08          
  0.9                   4.8002e-08            4.6e-13               -1e-13                -4.7988e-08          
  0.95                  9.511e-08             5.8e-13               -1.02e-12             -9.507e-08           
  1                     1.6274e-07            4.6e-13               -6.4e-13              -1.6254e-07          
  1.05                  2.4906e-07            5.6e-13               -1.28e-12             -2.4888e-07          
  1.1                   3.5006e-07            4.8e-13               -1.6e-13              -3.4988e-07          
  1.15                  4.6252e-07            4.4e-13               -7.6e-13              -4.6236e-07          
  1.2                   5.8368e-07            4.2e-13               -1.04e-12             -5.8352e-07          
  1.25                  7.113e-07             5.4e-13               -5e-13                -7.112e-07           
  1.3                   8.4428e-07            5.2e-13               -4e-14                -8.4416e-07          
  1.35                  9.8034e-07            5.2e-13               -4e-14                -9.8028e-07          
  1.4                   1.11892e-06           5.6e-13               -7.2e-13              -1.11888e-06         
  1.45                  1.261e-06             3.8e-13               4.8e-13               -1.2568e-06          
  1.5                   1.4032e-06            5.2e-13               6e-14                 -1.399e-06           
  1.55                  1.5454e-06            5.2e-13               -6e-13                -1.5414e-06          
  1.6                   1.6878e-06            7e-13                 -5.6e-13              -1.6838e-06          
  1.65                  1.8306e-06            6.4e-13               6e-13                 -1.8266e-06          
  1.7                   1.973e-06             4.8e-13               -4e-14                -1.969e-06           
  1.75                  2.1144e-06            7e-13                 -8e-14                -2.1102e-06          
  1.8                   2.2552e-06            8e-13                 -3.2e-13              -2.2512e-06          
  1.85                  2.3946e-06            5e-13                 -1.2e-13              -2.3904e-06          
  1.9                   2.533e-06             7e-13                 1.28e-12              -2.529e-06           
  1.95                  2.6696e-06            6e-13                 1.8e-13               -2.6656e-06          
  2                     2.8048e-06            6.2e-13               -3.8e-13              -2.8008e-06          
  2.05                  2.9384e-06            6.6e-13               4e-14                 -2.9344e-06          
  2.1                   3.07e-06              6.4e-13               4e-13                 -3.0658e-06          
  2.15                  3.1998e-06            6.2e-13               1.02e-12              -3.1958e-06          
  2.2                   3.327e-06             6.4e-13               -4.6e-13              -3.323e-06           
  2.25                  3.4528e-06            6.6e-13               -1.6e-13              -3.4488e-06          
  2.3                   3.5758e-06            6.2e-13               -4.6e-13              -3.5716e-06          
  2.35                  3.6968e-06            6e-13                 3.4e-13               -3.6928e-06          
  2.4                   3.8152e-06            7.6e-13               -8e-14                -3.8112e-06          
  2.45                  3.931e-06             7.6e-13               -2.6e-13              -3.927e-06           
  2.5                   4.045e-06             7.8e-13               -3.2e-13              -4.041e-06           
  2.55                  4.1558e-06            7e-13                 1.56e-12              -4.1518e-06          
  2.6                   4.2642e-06            7.6e-13               -5.8e-13              -4.2602e-06          
  2.65                  4.3702e-06            8.2e-13               -3.8e-13              -4.3662e-06          
  2.7                   4.4734e-06            7.6e-13               -1.2e-13              -4.4692e-06          
  2.75                  4.5742e-06            7.8e-13               8.4e-13               -4.5702e-06          
  2.8                   4.6722e-06            8e-13                 8.2e-13               -4.668e-06           
  2.85                  4.7676e-06            6.8e-13               -6e-13                -4.7636e-06          
  2.9                   4.8604e-06            8.4e-13               -2.7e-12              -4.8564e-06          
  2.95                  4.951e-06             7e-13                 5.4e-13               -4.947e-06           
  3                     5.0388e-06            8e-13                 8.2e-13               -5.0348e-06          
  3.05                  5.1238e-06            7e-13                 -1.4e-13              -5.1198e-06          
  3.1                   5.2064e-06            7.4e-13               -5.6e-13              -5.2022e-06          
  3.15                  5.2866e-06            8.2e-13               4.6e-13               -5.2826e-06          
  3.2                   5.3642e-06            8e-13                 6.2e-13               -5.3602e-06          
  3.25                  5.4396e-06            7.8e-13               -5.2e-13              -5.4354e-06          
  3.3                   5.5124e-06            7.6e-13               0                     -5.5084e-06          
  3.35                  5.5826e-06            8e-13                 4.6e-13               -5.5786e-06          
  3.4                   5.6508e-06            7.4e-13               6.8e-13               -5.6468e-06          
  3.45                  5.7164e-06            8.6e-13               3.2e-13               -5.7126e-06          
