! VERSION = 6.00
BEGIN_HEADER
 ICCAP_INPUTS
  vd         V  D GROUND SMU1 0.1 LIN        1    0          3.6        37   0.1       
  vg         V  G GROUND SMU2 0.001 LIST       2 3 1.133 1.333 1.533
  vb         V  B GROUND SMU4 0.1 CON        -3.6
  vs         V  S GROUND SMU3 0.1 CON        0
 ICCAP_OUTPUTS
  id         I  D GROUND SMU1 B
  ig         I  G GROUND SMU2 B
  ib         I  B GROUND SMU4 B
  is         I  S GROUND SMU3 B
 ICCAP_VALUES
  MASTER_SETUP_TYPE "~dc_idvd~"
  LINVT_VALUE ""
  LISTVT_VALUE "|idvg|100.0n|-200.0m|1.000m|3|200.0m|200.0m|"
  TYPE "1"
  TEMP " 70.0000 "
  IS_TNOM " 0.00000 "
  MAIN.W "600.0n"
  MAIN.L "1.200u"
  MAIN.AD "204.0f"
  MAIN.AS "204.0f"
  MAIN.PD "1.880u"
  MAIN.PS "1.880u"
  MAIN.NF "1.000"
  MAIN.M "1"
  MAIN.NRD "0.000"
  MAIN.NRS "0.000"
  MAIN.LDRIFT1 "1E-06"
  MAIN.LDRIFT2 "1E-06"
  MAIN.SA "0.000"
  MAIN.SB "0.000"
  MAIN.SD "0.000"
  MAIN.SCA "0.000"
  MAIN.SCB "0.000"
  MAIN.SCC "0.000"
  MAIN.SC "0.000"
  MODULE "S559"
  PIN_D "14"
  PIN_G "7"
  PIN_S "8"
  PIN_B "13"
  PIN_E ""
  PIN_6 ""
  XY_ID ""
  FUNC "LW Scale"
  STI "SA ref"
  WPE "WPE ref"
  COMMENT ""
  DIS_MEAS ""
  TypeTCI "10"
END_HEADER

BEGIN_DB
 ICCAP_VAR vg         1.133          
 ICCAP_VAR vb         -3.6           
 ICCAP_VAR vs         0              

 #vd                    id                    ig                    ib                    is                   
  0                     2e-13                 -4e-14                -3.002e-11            -2e-13               
  0.1                   3.0294e-10            -1.4e-13              -2.61e-11             -3.0304e-10          
  0.2                   3.1624e-10            -2.2e-13              -2.206e-11            -3.1594e-10          
  0.3                   3.1878e-10            -4.4e-13              -2.02e-11             -3.1828e-10          
  0.4                   3.208e-10             -8e-14                -1.77e-11             -3.2026e-10          
  0.5                   3.2252e-10            -8e-14                -1.63e-11             -3.2182e-10          
  0.6                   3.2412e-10            -2.8e-13              -1.472e-11            -3.233e-10           
  0.7                   3.2538e-10            -3.4e-13              -1.446e-11            -3.2476e-10          
  0.8                   3.269e-10             -2.2e-13              -1.262e-11            -3.2602e-10          
  0.9                   3.2814e-10            -2.4e-13              -1.3e-11              -3.2732e-10          
  1                     3.2948e-10            -2.4e-13              -1.112e-11            -3.2856e-10          
  1.1                   3.3052e-10            -1e-13                -1.136e-11            -3.2958e-10          
  1.2                   3.3194e-10            -1.8e-13              -1.068e-11            -3.307e-10           
  1.3                   3.3306e-10            -1.8e-13              -1.012e-11            -3.3212e-10          
  1.4                   3.3418e-10            -8e-14                -9.72e-12             -3.3312e-10          
  1.5                   3.3522e-10            -1.4e-13              -9.54e-12             -3.3416e-10          
  1.6                   3.3646e-10            -1.4e-13              -9.46e-12             -3.3514e-10          
  1.7                   3.3752e-10            -2e-13                -8.48e-12             -3.365e-10           
  1.8                   3.3852e-10            -2.4e-13              -8.3e-12              -3.3732e-10          
  1.9                   3.3952e-10            -1.4e-13              -7.66e-12             -3.3852e-10          
  2                     3.4076e-10            2e-14                 -7.48e-12             -3.3944e-10          
  2.1                   3.4174e-10            -6e-14                -8.2e-12              -3.405e-10           
  2.2                   3.4268e-10            -2.6e-13              -7.88e-12             -3.4126e-10          
  2.3                   3.4378e-10            6e-14                 -7.02e-12             -3.4256e-10          
  2.4                   3.45e-10              6e-14                 -7.5e-12              -3.4356e-10          
  2.5                   3.4612e-10            -6e-14                -7.02e-12             -3.444e-10           
  2.6                   3.472e-10             -1.2e-13              -7.32e-12             -3.452e-10           
  2.7                   3.4848e-10            -1e-13                -8.24e-12             -3.4606e-10          
  2.8                   3.4992e-10            -2.4e-13              -6.82e-12             -3.4714e-10          
  2.9                   3.5138e-10            -6e-14                -8.74e-12             -3.4796e-10          
  3                     3.5302e-10            -1.2e-13              -8.78e-12             -3.4898e-10          
  3.1                   3.549e-10             -1.2e-13              -1.004e-11            -3.5002e-10          
  3.2                   3.5676e-10            -3.2e-13              -1.042e-11            -3.5074e-10          
  3.3                   3.5894e-10            -6e-14                -1.23e-11             -3.5186e-10          
  3.4                   3.6166e-10            -1.2e-13              -1.262e-11            -3.5278e-10          
  3.5                   3.6474e-10            -4e-14                -1.564e-11            -3.5384e-10          
  3.6                   3.6812e-10            -1.2e-13              -1.756e-11            -3.5454e-10          
END_DB

BEGIN_DB
 ICCAP_VAR vg         1.333          
 ICCAP_VAR vb         -3.6           
 ICCAP_VAR vs         0              

 #vd                    id                    ig                    ib                    is                   
  0                     3.94e-11              8e-14                 -4.5e-12              -4.04e-11            
  0.1                   4.5428e-08            8e-14                 -5.3e-12              -4.5342e-08          
  0.2                   4.9514e-08            2e-14                 -5.28e-12             -4.9432e-08          
  0.3                   5.0106e-08            -1.2e-13              -4.8e-12              -5.0046e-08          
  0.4                   5.043e-08             1.6e-13               -5.16e-12             -5.0384e-08          
  0.5                   5.064e-08             8e-14                 -6.28e-12             -5.0772e-08          
  0.6                   5.1026e-08            -1e-13                -5.64e-12             -5.0964e-08          
  0.7                   5.1152e-08            4e-14                 -4.64e-12             -5.1178e-08          
  0.8                   5.139e-08             0                     -6.26e-12             -5.1366e-08          
  0.9                   5.1536e-08            -6e-14                -7.1e-12              -5.1526e-08          
  1                     5.1716e-08            4e-14                 -5.98e-12             -5.17e-08            
  1.1                   5.1876e-08            -1.6e-13              -4.82e-12             -5.1864e-08          
  1.2                   5.1976e-08            -6e-14                -5.54e-12             -5.2022e-08          
  1.3                   5.2198e-08            -1e-13                -6.1e-12              -5.2118e-08          
  1.4                   5.2336e-08            -1e-13                -5.22e-12             -5.2328e-08          
  1.5                   5.2494e-08            -8e-14                -2.84e-12             -5.2476e-08          
  1.6                   5.262e-08             -4e-14                -5.48e-12             -5.263e-08           
  1.7                   5.2774e-08            -6e-14                -6.5e-12              -5.2652e-08          
  1.8                   5.2906e-08            4e-14                 -6.32e-12             -5.2882e-08          
  1.9                   5.3046e-08            0                     -5.44e-12             -5.3024e-08          
  2                     5.3144e-08            0                     -6.52e-12             -5.314e-08           
  2.1                   5.3206e-08            0                     -9.42e-12             -5.3294e-08          
  2.2                   5.3408e-08            -6e-14                -1.358e-11            -5.3398e-08          
  2.3                   5.358e-08             -1.8e-13              -1.798e-11            -5.349e-08           
  2.4                   5.3678e-08            8e-14                 -2.664e-11            -5.3658e-08          
  2.5                   5.3824e-08            0                     -4.078e-11            -5.3778e-08          
  2.6                   5.3968e-08            -1e-13                -6.014e-11            -5.3906e-08          
  2.7                   5.409e-08             1.2e-13               -8.532e-11            -5.3992e-08          
  2.8                   5.4276e-08            -6e-14                -1.198e-10            -5.414e-08           
  2.9                   5.4448e-08            6e-14                 -1.6954e-10           -5.4274e-08          
  3                     5.4634e-08            -2e-14                -2.3376e-10           -5.4394e-08          
  3.1                   5.4834e-08            -2.6e-13              -3.1518e-10           -5.4512e-08          
  3.2                   5.506e-08             2e-14                 -4.2448e-10           -5.463e-08           
  3.3                   5.5298e-08            -4e-14                -5.6288e-10           -5.4732e-08          
  3.4                   5.5666e-08            -4e-14                -7.42e-10             -5.4914e-08          
  3.5                   5.599e-08             -4e-14                -9.624e-10            -5.5036e-08          
  3.6                   5.6396e-08            -2.4e-13              -1.239e-09            -5.5142e-08          
END_DB

BEGIN_DB
 ICCAP_VAR vg         1.533          
 ICCAP_VAR vb         -3.6           
 ICCAP_VAR vs         0              

 #vd                    id                    ig                    ib                    is                   
  0                     2.8024e-10            2.2e-13               -4.1e-12              -2.9552e-10          
  0.1                   5.3372e-07            1e-13                 -4e-12                -5.3382e-07          
  0.2                   7.1984e-07            1.2e-13               -4.26e-12             -7.2038e-07          
  0.3                   7.6544e-07            1.6e-13               -5.48e-12             -7.6446e-07          
  0.4                   7.7654e-07            -2e-14                -5.74e-12             -7.766e-07           
  0.5                   7.8254e-07            0                     -3.42e-12             -7.8316e-07          
  0.6                   7.869e-07             8e-14                 -4.44e-12             -7.8712e-07          
  0.7                   7.9042e-07            4e-14                 -6.3e-12              -7.9064e-07          
  0.8                   7.9382e-07            -6e-14                -4.76e-12             -7.9334e-07          
  0.9                   7.9588e-07            4e-14                 -3.76e-12             -7.96e-07            
  1                     7.9842e-07            -4e-14                -5.14e-12             -7.9848e-07          
  1.1                   8.0184e-07            2e-14                 -5e-12                -8.0194e-07          
  1.2                   8.0372e-07            -1.4e-13              -4.52e-12             -8.041e-07           
  1.3                   8.07e-07              -1e-13                -2.82e-12             -8.0678e-07          
  1.4                   8.078e-07             4e-14                 -4.06e-12             -8.0832e-07          
  1.5                   8.1026e-07            6e-14                 -5.68e-12             -8.1004e-07          
  1.6                   8.1268e-07            0                     -3.94e-12             -8.121e-07           
  1.7                   8.1372e-07            0                     -4.18e-12             -8.1434e-07          
  1.8                   8.1528e-07            4e-14                 -6.12e-12             -8.15e-07            
  1.9                   8.1722e-07            -2e-14                -8.94e-12             -8.168e-07           
  2                     8.1904e-07            -6e-14                -1.264e-11            -8.1892e-07          
  2.1                   8.1974e-07            4e-14                 -2.382e-11            -8.197e-07           
  2.2                   8.2138e-07            -4e-14                -4.48e-11             -8.2134e-07          
  2.3                   8.2298e-07            -2e-14                -8.138e-11            -8.2324e-07          
  2.4                   8.2448e-07            4e-14                 -1.4082e-10           -8.2524e-07          
  2.5                   8.2614e-07            0                     -2.3852e-10           -8.257e-07           
  2.6                   8.276e-07             4e-14                 -3.8616e-10           -8.2746e-07          
  2.7                   8.3018e-07            -8e-14                -6.013e-10            -8.2884e-07          
  2.8                   8.3128e-07            0                     -9.074e-10            -8.3054e-07          
  2.9                   8.3292e-07            0                     -1.3334e-09           -8.3184e-07          
  3                     8.3494e-07            6e-14                 -1.917e-09            -8.3302e-07          
  3.1                   8.377e-07             -1.4e-13              -2.6954e-09           -8.3556e-07          
  3.2                   8.3948e-07            -1e-13                -3.7358e-09           -8.366e-07           
  3.3                   8.4164e-07            -1.4e-13              -5.087e-09            -8.3742e-07          
  3.4                   8.458e-07             4e-14                 -6.8424e-09           -8.3834e-07          
  3.5                   8.4914e-07            2e-14                 -9.0958e-09           -8.4064e-07          
  3.6                   8.5312e-07            6e-14                 -1.195e-08            -8.4082e-07          
END_DB

