! VERSION = 6.00
BEGIN_HEADER
 ICCAP_INPUTS
  vg         V  G GROUND SMU2 0.001 LIN        1    -0.5       3.6        83   0.05      
  vb         V  B GROUND SMU4 0.1 LIN        2    0          -3.6       5    -0.9      
  vd         V  D GROUND SMU1 0.1 LIN        3    0.1        3.3        3    1.6       
  vs         V  S GROUND SMU3 0.1 CON        0
 ICCAP_OUTPUTS
  id         I  D GROUND SMU1 B
  ig         I  G GROUND SMU2 B
  ib         I  B GROUND SMU4 B
  is         I  S GROUND SMU3 B
 ICCAP_VALUES
  MASTER_SETUP_TYPE "~dc_idvg~"
  LINVT_VALUE ""
  LISTVT_VALUE ""
  TYPE "1"
  TEMP " 70.0000 "
  IS_TNOM " 0.00000 "
  MAIN.W "2.000u"
  MAIN.L "3.000u"
  MAIN.AD "680.0f"
  MAIN.AS "680.0f"
  MAIN.PD "4.680u"
  MAIN.PS "4.680u"
  MAIN.NF "1.000"
  MAIN.M "1"
  MAIN.NRD "0.000"
  MAIN.NRS "0.000"
  MAIN.LDRIFT1 "1E-06"
  MAIN.LDRIFT2 "1E-06"
  MAIN.SA "0.000"
  MAIN.SB "0.000"
  MAIN.SD "0.000"
  MAIN.SCA "0.000"
  MAIN.SCB "0.000"
  MAIN.SCC "0.000"
  MAIN.SC "0.000"
  MODULE "S558"
  PIN_D "14"
  PIN_G "7"
  PIN_S "8"
  PIN_B "13"
  PIN_E ""
  PIN_6 ""
  XY_ID ""
  FUNC "LW Scale"
  STI "SA ref"
  WPE "WPE ref"
  COMMENT ""
  DIS_MEAS ""
  TypeTCI "10"
END_HEADER

BEGIN_DB
 ICCAP_VAR vb         0              
 ICCAP_VAR vd         0.1            
 ICCAP_VAR vs         0              

 #vg                    id                    ig                    ib                    is                   
  -0.5                  2.4e-13               -1.6124e-09           1.6212e-09            1.6e-13              
  -0.45                 -4e-14                -3.0128e-10           3.1294e-10            -4e-14               
  -0.4                  -6e-14                -5.652e-11            6.764e-11             1.8e-13              
  -0.35                 -8e-14                -1.062e-11            2.32e-11              1.2e-13              
  -0.3                  4e-14                 -1.88e-12             1.324e-11             1.2e-13              
  -0.25                 2e-14                 -3.4e-13              1.15e-11              2e-13                
  -0.2                  4e-14                 2.8e-13               1.138e-11             8e-14                
  -0.15                 4e-14                 2.8e-13               1.156e-11             6e-14                
  -0.1                  0                     5.4e-13               1.13e-11              4e-14                
  -0.05                 8e-14                 2e-13                 1.17e-11              1e-13                
  0                     1.8e-13               4.8e-13               1.104e-11             -8e-14               
  0.05                  5e-13                 5.2e-13               1.074e-11             -4.6e-13             
  0.1                   1.74e-12              5.8e-13               1.02e-11              -1.68e-12            
  0.15                  5.86e-12              5.4e-13               1.042e-11             -5.68e-12            
  0.2                   1.9e-11               5.4e-13               1.188e-11             -1.888e-11           
  0.25                  6.294e-11             5.2e-13               9.96e-12              -6.282e-11           
  0.3                   2.0932e-10            5.4e-13               9.74e-12              -2.0902e-10          
  0.35                  7.0098e-10            5.4e-13               9.04e-12              -7.0068e-10          
  0.4                   2.3136e-09            4.8e-13               9.1e-12               -2.3128e-09          
  0.45                  7.4082e-09            6.6e-13               9.66e-12              -7.4066e-09          
  0.5                   2.1862e-08            5.2e-13               1.1e-11               -2.1864e-08          
  0.55                  5.7482e-08            6e-13                 9.64e-12              -5.7422e-08          
  0.6                   1.3002e-07            5.6e-13               9e-12                 -1.3002e-07          
  0.65                  2.5486e-07            5.4e-13               9.16e-12              -2.5496e-07          
  0.7                   4.383e-07             6.6e-13               9.78e-12              -4.3836e-07          
  0.75                  6.7922e-07            7e-13                 9.02e-12              -6.7886e-07          
  0.8                   9.6584e-07            7e-13                 8.22e-12              -9.6596e-07          
  0.85                  1.293e-06             5e-13                 1.024e-11             -1.2892e-06          
  0.9                   1.645e-06             6.4e-13               8.6e-12               -1.6416e-06          
  0.95                  2.0172e-06            6.8e-13               9.32e-12              -2.014e-06           
  1                     2.404e-06             7.8e-13               8.52e-12              -2.4004e-06          
  1.05                  2.8028e-06            7.6e-13               8.3e-12               -2.7996e-06          
  1.1                   3.208e-06             8.8e-13               9.02e-12              -3.2046e-06          
  1.15                  3.6178e-06            8e-13                 8.58e-12              -3.6148e-06          
  1.2                   4.0306e-06            8.8e-13               7.64e-12              -4.027e-06           
  1.25                  4.4446e-06            7.6e-13               7.78e-12              -4.441e-06           
  1.3                   4.8602e-06            8.8e-13               9.26e-12              -4.8568e-06          
  1.35                  5.2738e-06            7.4e-13               8.52e-12              -5.2706e-06          
  1.4                   5.6864e-06            1e-12                 7.48e-12              -5.6826e-06          
  1.45                  6.0962e-06            9.2e-13               8.24e-12              -6.0928e-06          
  1.5                   6.5052e-06            8.8e-13               8.14e-12              -6.5014e-06          
  1.55                  6.909e-06             9.8e-13               8.4e-12               -6.9062e-06          
  1.6                   7.3098e-06            8.8e-13               7.14e-12              -7.306e-06           
  1.65                  7.707e-06             7.2e-13               6.44e-12              -7.7036e-06          
  1.7                   8.1002e-06            1e-12                 7.72e-12              -8.0972e-06          
  1.75                  8.4878e-06            1.06e-12              8.3e-12               -8.4842e-06          
  1.8                   8.8716e-06            9.6e-13               7.46e-12              -8.8682e-06          
  1.85                  9.2496e-06            9.8e-13               7.74e-12              -9.246e-06           
  1.9                   9.6236e-06            8.8e-13               6.64e-12              -9.6202e-06          
  1.95                  9.9904e-06            9.8e-13               6.88e-12              -9.9868e-06          
  2                     1.0353e-05            1e-12                 7.84e-12              -1.03488e-05         
  2.05                  1.071e-05             9e-13                 7.74e-12              -1.07064e-05         
  2.1                   1.10592e-05           1.02e-12              6.5e-12               -1.10558e-05         
  2.15                  1.1404e-05            8.4e-13               6.28e-12              -1.14008e-05         
  2.2                   1.1744e-05            8.2e-13               7.1e-12               -1.1738e-05          
  2.25                  1.2076e-05            8.8e-13               8.44e-12              -1.207e-05           
  2.3                   1.2402e-05            9.6e-13               6.72e-12              -1.2396e-05          
  2.35                  1.2722e-05            1.04e-12              6.04e-12              -1.2716e-05          
  2.4                   1.3034e-05            9.6e-13               7.54e-12              -1.3026e-05          
  2.45                  1.3338e-05            1.12e-12              7.76e-12              -1.3332e-05          
  2.5                   1.3638e-05            9.6e-13               6.8e-12               -1.3634e-05          
  2.55                  1.3932e-05            9.8e-13               5.96e-12              -1.3926e-05          
  2.6                   1.4216e-05            9.8e-13               7.04e-12              -1.421e-05           
  2.65                  1.4496e-05            1.04e-12              5.98e-12              -1.449e-05           
  2.7                   1.4768e-05            1.12e-12              7.42e-12              -1.4762e-05          
  2.75                  1.5036e-05            9.6e-13               6.78e-12              -1.503e-05           
  2.8                   1.5296e-05            1.08e-12              6.9e-12               -1.529e-05           
  2.85                  1.5548e-05            1.14e-12              5.5e-12               -1.5542e-05          
  2.9                   1.5794e-05            1.06e-12              6.86e-12              -1.5788e-05          
  2.95                  1.6036e-05            1.12e-12              7.54e-12              -1.603e-05           
  3                     1.6268e-05            1.2e-12               6.96e-12              -1.6264e-05          
  3.05                  1.6496e-05            1.12e-12              5.38e-12              -1.6492e-05          
  3.1                   1.6718e-05            1.12e-12              6.58e-12              -1.6712e-05          
  3.15                  1.6932e-05            1.06e-12              8.24e-12              -1.6928e-05          
  3.2                   1.7142e-05            1e-12                 6.34e-12              -1.7136e-05          
  3.25                  1.7344e-05            1.22e-12              5.84e-12              -1.7338e-05          
  3.3                   1.7542e-05            1.02e-12              5.66e-12              -1.7536e-05          
  3.35                  1.7732e-05            1.16e-12              6.4e-12               -1.7726e-05          
  3.4                   1.7918e-05            1.14e-12              6.36e-12              -1.7912e-05          
  3.45                  1.8098e-05            1.22e-12              5.38e-12              -1.8092e-05          
  3.5                   1.8272e-05            1.16e-12              5.48e-12              -1.8266e-05          
  3.55                  1.844e-05             1.02e-12              5.78e-12              -1.8436e-05          
  3.6                   1.8604e-05            1.24e-12              6.12e-12              -1.8598e-05          
END_DB

BEGIN_DB
 ICCAP_VAR vb         -0.9           
 ICCAP_VAR vd         0.1            
 ICCAP_VAR vs         0              

 #vg                    id                    ig                    ib                    is                   
  -0.5                  -6e-14                -8.8e-13              -1.712e-11            6e-14                
  -0.45                 -1e-13                -4.8e-13              -1.454e-11            2e-13                
  -0.4                  -6e-14                -2.8e-13              -1.144e-11            1.2e-13              
  -0.35                 2e-14                 -1.4e-13              -1.182e-11            1.6e-13              
  -0.3                  -2e-14                -1.4e-13              -1.084e-11            1.6e-13              
  -0.25                 -1e-13                0                     -9.8e-12              1.8e-13              
  -0.2                  -6e-14                1.6e-13               -8.78e-12             1.2e-13              
  -0.15                 0                     1.4e-13               -7.92e-12             1.6e-13              
  -0.1                  -2e-14                2.4e-13               -6.8e-12              1.8e-13              
  -0.05                 -8e-14                1e-13                 -6.46e-12             2.4e-13              
  0                     0                     2.6e-13               -7e-12                2.2e-13              
  0.05                  -2e-14                1.8e-13               -6.68e-12             2.8e-13              
  0.1                   -6e-14                2.4e-13               -5.64e-12             2.2e-13              
  0.15                  -6e-14                3.4e-13               -4.34e-12             1.2e-13              
  0.2                   4e-14                 1.8e-13               -5.06e-12             2.4e-13              
  0.25                  -2e-14                4.6e-13               -5.42e-12             2.4e-13              
  0.3                   1.6e-13               3.6e-13               -5.14e-12             1.2e-13              
  0.35                  6.4e-13               4.8e-13               -5.14e-12             -3.2e-13             
  0.4                   2.18e-12              6e-13                 -3.98e-12             -2.06e-12            
  0.45                  8.44e-12              4e-13                 -2.64e-12             -8.38e-12            
  0.5                   3.208e-11             5.4e-13               -3.12e-12             -3.198e-11           
  0.55                  1.22e-10              5.8e-13               -3.76e-12             -1.2192e-10          
  0.6                   4.5798e-10            6e-13                 -3.7e-12              -4.5774e-10          
  0.65                  1.6966e-09            4e-13                 -3.46e-12             -1.6938e-09          
  0.7                   5.969e-09             4.6e-13               -2.8e-12              -5.9688e-09          
  0.75                  1.9182e-08            5e-13                 -2.2e-12              -1.917e-08           
  0.8                   5.312e-08             5.4e-13               -2.3e-12              -5.3106e-08          
  0.85                  1.2458e-07            8.6e-13               -2.24e-12             -1.2454e-07          
  0.9                   2.4794e-07            6.2e-13               -1.5e-12              -2.478e-07           
  0.95                  4.2914e-07            6e-13                 -7e-13                -4.2888e-07          
  1                     6.641e-07             7.4e-13               -2.36e-12             -6.6396e-07          
  1.05                  9.443e-07             6.4e-13               -1.52e-12             -9.442e-07           
  1.1                   1.2588e-06            6.4e-13               -1.32e-12             -1.2554e-06          
  1.15                  1.5976e-06            7.2e-13               -1.5e-12              -1.5944e-06          
  1.2                   1.955e-06             7.6e-13               -2.22e-12             -1.9518e-06          
  1.25                  2.326e-06             7.2e-13               -1.94e-12             -2.3228e-06          
  1.3                   2.7086e-06            7.6e-13               -8.6e-13              -2.7046e-06          
  1.35                  3.0958e-06            8.4e-13               -1.76e-12             -3.0922e-06          
  1.4                   3.487e-06             6.8e-13               -1.76e-12             -3.4836e-06          
  1.45                  3.8812e-06            8.4e-13               -1.18e-12             -3.878e-06           
  1.5                   4.2782e-06            8.2e-13               -7.8e-13              -4.2748e-06          
  1.55                  4.6732e-06            8.2e-13               -4.6e-13              -4.67e-06            
  1.6                   5.0672e-06            8e-13                 -1.22e-12             -5.0634e-06          
  1.65                  5.4604e-06            8.6e-13               -7.6e-13              -5.457e-06           
  1.7                   5.8516e-06            8.8e-13               -1.06e-12             -5.848e-06           
  1.75                  6.2382e-06            8.8e-13               -1.02e-12             -6.235e-06           
  1.8                   6.6228e-06            8.4e-13               -1.2e-13              -6.6198e-06          
  1.85                  7.0028e-06            7.6e-13               -8.4e-13              -6.9998e-06          
  1.9                   7.3798e-06            8.8e-13               -1.82e-12             -7.376e-06           
  1.95                  7.75e-06              9.2e-13               -8e-13                -7.7466e-06          
  2                     8.1176e-06            9.4e-13               -5.8e-13              -8.1142e-06          
  2.05                  8.4798e-06            9.8e-13               -2e-14                -8.4764e-06          
  2.1                   8.8356e-06            9.8e-13               -2.24e-12             -8.8322e-06          
  2.15                  9.187e-06             1.18e-12              -9.8e-13              -9.1838e-06          
  2.2                   9.5316e-06            9.8e-13               -3e-13                -9.528e-06           
  2.25                  9.872e-06             9e-13                 -4.4e-13              -9.8686e-06          
  2.3                   1.02048e-05           1.06e-12              -7.4e-13              -1.0201e-05          
  2.35                  1.05328e-05           9e-13                 -9.4e-13              -1.05294e-05         
  2.4                   1.08528e-05           9.4e-13               -2e-14                -1.08496e-05         
  2.45                  1.11678e-05           9.8e-13               -5.4e-13              -1.11638e-05         
  2.5                   1.14762e-05           9.2e-13               8e-14                 -1.1473e-05          
  2.55                  1.178e-05             9e-13                 -4.8e-13              -1.1774e-05          
  2.6                   1.2074e-05            9.8e-13               2.8e-13               -1.207e-05           
  2.65                  1.2364e-05            1.04e-12              -1.3e-12              -1.2358e-05          
  2.7                   1.2646e-05            9.2e-13               9.4e-13               -1.264e-05           
  2.75                  1.2924e-05            9.8e-13               8.2e-13               -1.2916e-05          
  2.8                   1.3192e-05            1.06e-12              -7.4e-13              -1.3186e-05          
  2.85                  1.3454e-05            1.14e-12              -1.14e-12             -1.345e-05           
  2.9                   1.371e-05             1.04e-12              -6.2e-13              -1.3706e-05          
  2.95                  1.3962e-05            9.2e-13               1.46e-12              -1.3956e-05          
  3                     1.4206e-05            1.02e-12              -4e-13                -1.42e-05            
  3.05                  1.4442e-05            9.8e-13               -6.4e-13              -1.4436e-05          
  3.1                   1.4674e-05            1.1e-12               -6.2e-13              -1.4668e-05          
  3.15                  1.49e-05              1.18e-12              8.6e-13               -1.4892e-05          
  3.2                   1.5116e-05            1.04e-12              -6.2e-13              -1.5112e-05          
  3.25                  1.533e-05             1.16e-12              3.4e-13               -1.5324e-05          
  3.3                   1.5536e-05            1.12e-12              3e-13                 -1.5532e-05          
  3.35                  1.5736e-05            9.4e-13               1e-13                 -1.5732e-05          
  3.4                   1.5932e-05            1.02e-12              4.6e-13               -1.5926e-05          
  3.45                  1.612e-05             1.1e-12               8e-13                 -1.6114e-05          
