! VERSION = 6.00
BEGIN_HEADER
 ICCAP_INPUTS
  vg         V  G GROUND SMU2 0.001 LIN        1    -0.5       3.6        83   0.05      
  vb         V  B GROUND SMU4 0.1 LIN        2    0          -3.6       5    -0.9      
  vd         V  D GROUND SMU1 0.1 LIN        3    0.1        3.3        3    1.6       
  vs         V  S GROUND SMU3 0.1 CON        0
 ICCAP_OUTPUTS
  id         I  D GROUND SMU1 B
  ig         I  G GROUND SMU2 B
  ib         I  B GROUND SMU4 B
  is         I  S GROUND SMU3 B
 ICCAP_VALUES
  MASTER_SETUP_TYPE "~dc_idvg~"
  LINVT_VALUE ""
  LISTVT_VALUE ""
  TYPE "1"
  TEMP " 125.000 "
  IS_TNOM " 0.00000 "
  MAIN.W "300.0n"
  MAIN.L "500.0n"
  MAIN.AD "102.0f"
  MAIN.AS "102.0f"
  MAIN.PD "1.280u"
  MAIN.PS "1.280u"
  MAIN.NF "1.000"
  MAIN.M "1"
  MAIN.NRD "0.000"
  MAIN.NRS "0.000"
  MAIN.LDRIFT1 "1E-06"
  MAIN.LDRIFT2 "1E-06"
  MAIN.SA "0.000"
  MAIN.SB "0.000"
  MAIN.SD "0.000"
  MAIN.SCA "0.000"
  MAIN.SCB "0.000"
  MAIN.SCC "0.000"
  MAIN.SC "0.000"
  MODULE "S560"
  PIN_D "14"
  PIN_G "7"
  PIN_S "8"
  PIN_B "13"
  PIN_E ""
  PIN_6 ""
  XY_ID ""
  FUNC "Small"
  STI "SA ref"
  WPE "WPE ref"
  COMMENT ""
  DIS_MEAS ""
  TypeTCI "10"
END_HEADER

BEGIN_DB
 ICCAP_VAR vb         0              
 ICCAP_VAR vd         0.1            
 ICCAP_VAR vs         0              

 #vg                    id                    ig                    ib                    is                   
  -0.5                  8e-14                 -5.5542e-08           5.553e-08             2.4e-13              
  -0.45                 -1.5e-12              -1.309e-08            1.311e-08             3.2e-13              
  -0.4                  -1.32e-12             -3.078e-09            3.1046e-09            2e-14                
  -0.35                 -8e-14                -7.2302e-10           7.4828e-10            2e-13                
  -0.3                  -4e-14                -1.6874e-10           1.9384e-10            6e-14                
  -0.25                 0                     -3.946e-11            6.41e-11              6e-14                
  -0.2                  2e-14                 -9.1e-12              3.27e-11              6e-14                
  -0.15                 6e-14                 -1.96e-12             2.516e-11             -1.4e-13             
  -0.1                  1.8e-13               -2.6e-13              2.374e-11             -1e-13               
  -0.05                 6e-13                 3e-13                 2.34e-11              -5.8e-13             
  0                     1.4e-12               3.6e-13               2.18e-11              -1.36e-12            
  0.05                  3.46e-12              6e-13                 2.142e-11             -3.46e-12            
  0.1                   8.72e-12              2.4e-13               2.086e-11             -8.54e-12            
  0.15                  2.244e-11             8.2e-13               2.086e-11             -2.24e-11            
  0.2                   5.828e-11             7.2e-13               2.182e-11             -5.83e-11            
  0.25                  1.544e-10             5.8e-13               2.108e-11             -1.5416e-10          
  0.3                   4.1112e-10            8e-13                 2.016e-11             -4.1096e-10          
  0.35                  1.10764e-09           7e-13                 1.904e-11             -1.1065e-09          
  0.4                   2.9644e-09            4.2e-13               1.892e-11             -2.9626e-09          
  0.45                  7.8506e-09            6e-13                 1.86e-11              -7.8486e-09          
  0.5                   2.0046e-08            6.8e-13               1.896e-11             -2.0036e-08          
  0.55                  4.827e-08             7.4e-13               1.93e-11              -4.8194e-08          
  0.6                   1.05668e-07           7.6e-13               1.804e-11             -1.05652e-07         
  0.65                  2.0714e-07            8.8e-13               1.864e-11             -2.0712e-07          
  0.7                   3.6098e-07            8e-13                 1.812e-11             -3.6098e-07          
  0.75                  5.6792e-07            7.4e-13               1.76e-11              -5.678e-07           
  0.8                   8.165e-07             1.02e-12              1.698e-11             -8.165e-07           
  0.85                  1.09916e-06           7.6e-13               1.728e-11             -1.09916e-06         
  0.9                   1.404e-06             5.8e-13               1.812e-11             -1.4004e-06          
  0.95                  1.721e-06             8.2e-13               1.64e-11              -1.7182e-06          
  1                     2.0478e-06            1.06e-12              1.624e-11             -2.0448e-06          
  1.05                  2.3814e-06            9e-13                 1.632e-11             -2.3774e-06          
  1.1                   2.7148e-06            8.8e-13               1.754e-11             -2.712e-06           
  1.15                  3.0524e-06            1.06e-12              1.622e-11             -3.0492e-06          
  1.2                   3.3854e-06            8.8e-13               1.542e-11             -3.383e-06           
  1.25                  3.7188e-06            9.6e-13               1.52e-11              -3.7158e-06          
  1.3                   4.048e-06             9.4e-13               1.45e-11              -4.0464e-06          
  1.35                  4.3704e-06            9.4e-13               1.578e-11             -4.3716e-06          
  1.4                   4.694e-06             1.04e-12              1.504e-11             -4.6908e-06          
  1.45                  5.0036e-06            9.2e-13               1.476e-11             -5.008e-06           
  1.5                   5.3212e-06            1.1e-12               1.402e-11             -5.3164e-06          
  1.55                  5.6212e-06            9.8e-13               1.432e-11             -5.618e-06           
  1.6                   5.9206e-06            1.1e-12               1.516e-11             -5.9156e-06          
  1.65                  6.2162e-06            1.08e-12              1.37e-11              -6.2096e-06          
  1.7                   6.5068e-06            1.12e-12              1.34e-11              -6.4986e-06          
  1.75                  6.7848e-06            1.28e-12              1.398e-11             -6.782e-06           
  1.8                   7.0628e-06            1.2e-12               1.464e-11             -7.0596e-06          
  1.85                  7.3258e-06            1.26e-12              1.374e-11             -7.3224e-06          
  1.9                   7.594e-06             1.2e-12               1.304e-11             -7.5898e-06          
  1.95                  7.8584e-06            1.32e-12              1.292e-11             -7.8522e-06          
  2                     8.1156e-06            1.22e-12              1.428e-11             -8.109e-06           
  2.05                  8.366e-06             1.3e-12               1.318e-11             -8.3648e-06          
  2.1                   8.6134e-06            1.22e-12              1.308e-11             -8.6082e-06          
  2.15                  8.8542e-06            1.22e-12              1.268e-11             -8.8506e-06          
  2.2                   9.0916e-06            1.26e-12              1.24e-11              -9.0876e-06          
  2.25                  9.3238e-06            1.3e-12               1.378e-11             -9.3192e-06          
  2.3                   9.5502e-06            1.2e-12               1.288e-11             -9.5482e-06          
  2.35                  9.7748e-06            1.36e-12              1.268e-11             -9.7712e-06          
  2.4                   9.9936e-06            1.18e-12              1.144e-11             -9.9896e-06          
  2.45                  1.02072e-05           1.36e-12              1.208e-11             -1.0205e-05          
  2.5                   1.04158e-05           1.46e-12              1.306e-11             -1.04164e-05         
  2.55                  1.06234e-05           1.56e-12              1.292e-11             -1.062e-05           
  2.6                   1.0825e-05            1.46e-12              1.21e-11              -1.08216e-05         
  2.65                  1.10218e-05           1.38e-12              1.192e-11             -1.10192e-05         
  2.7                   1.12136e-05           1.42e-12              1.21e-11              -1.12118e-05         
  2.75                  1.14044e-05           1.36e-12              1.326e-11             -1.14014e-05         
  2.8                   1.1592e-05            1.08e-12              1.186e-11             -1.1588e-05          
  2.85                  1.1774e-05            1.2e-12               1.094e-11             -1.1768e-05          
  2.9                   1.195e-05             1.38e-12              1.186e-11             -1.1942e-05          
  2.95                  1.2124e-05            1.52e-12              1.124e-11             -1.2116e-05          
  3                     1.2294e-05            1.24e-12              1.152e-11             -1.2286e-05          
  3.05                  1.246e-05             1.5e-12               1.082e-11             -1.2452e-05          
  3.1                   1.2622e-05            1.36e-12              1.088e-11             -1.2618e-05          
  3.15                  1.2784e-05            1.48e-12              1.116e-11             -1.2776e-05          
  3.2                   1.2938e-05            1.38e-12              1.182e-11             -1.293e-05           
  3.25                  1.309e-05             1.48e-12              1.182e-11             -1.3086e-05          
  3.3                   1.324e-05             1.46e-12              1.09e-11              -1.3234e-05          
  3.35                  1.3386e-05            1.56e-12              1.018e-11             -1.338e-05           
  3.4                   1.3528e-05            1.54e-12              1.114e-11             -1.3522e-05          
  3.45                  1.3668e-05            1.44e-12              1.162e-11             -1.3664e-05          
  3.5                   1.3804e-05            1.58e-12              1.058e-11             -1.3798e-05          
  3.55                  1.394e-05             1.5e-12               1.006e-11             -1.3932e-05          
  3.6                   1.4068e-05            1.58e-12              1.052e-11             -1.406e-05           
END_DB

BEGIN_DB
 ICCAP_VAR vb         -0.9           
 ICCAP_VAR vd         0.1            
 ICCAP_VAR vs         0              

 #vg                    id                    ig                    ib                    is                   
  -0.5                  -1.2e-13              -1.18e-12             -3.126e-11            2.2e-13              
  -0.45                 -1.2e-13              -6.4e-13              -2.774e-11            1.6e-13              
  -0.4                  0                     -3.2e-13              -2.392e-11            1.6e-13              
  -0.35                 -6e-14                -5e-13                -2.21e-11             2.4e-13              
  -0.3                  0                     -1.4e-13              -2.096e-11            1.6e-13              
  -0.25                 0                     -1.2e-13              -1.942e-11            2.2e-13              
  -0.2                  0                     -1.6e-13              -1.75e-11             1.4e-13              
  -0.15                 -8e-14                2.2e-13               -1.516e-11            6e-14                
  -0.1                  0                     -4e-14                -1.364e-11            3.2e-13              
  -0.05                 -2e-14                1.8e-13               -1.434e-11            2.6e-13              
  0                     -4e-14                2.4e-13               -1.342e-11            1.8e-13              
  0.05                  0                     2.4e-13               -1.252e-11            4.2e-13              
  0.1                   2e-14                 4.2e-13               -1.256e-11            2.2e-13              
  0.15                  -6e-14                3.2e-13               -9.86e-12             2.2e-13              
  0.2                   2e-14                 3.4e-13               -1.058e-11            1.8e-13              
  0.25                  2.2e-13               5e-13                 -1.006e-11            -8e-14               
  0.3                   7.2e-13               4.4e-13               -1.022e-11            -5.8e-13             
  0.35                  2.34e-12              6e-13                 -9.38e-12             -2.2e-12             
  0.4                   7.32e-12              6e-13                 -8.52e-12             -7.14e-12            
  0.45                  2.252e-11             7.4e-13               -6.98e-12             -2.254e-11           
  0.5                   6.954e-11             6.4e-13               -7.12e-12             -6.934e-11           
  0.55                  2.1366e-10            8.6e-13               -7.44e-12             -2.135e-10           
  0.6                   6.503e-10             7.8e-13               -7.06e-12             -6.4956e-10          
  0.65                  1.9626e-09            4.8e-13               -7.18e-12             -1.9616e-09          
  0.7                   5.7768e-09            7.2e-13               -6.16e-12             -5.7698e-09          
  0.75                  1.6336e-08            5.6e-13               -4.3e-12              -1.632e-08           
  0.8                   4.2746e-08            7.8e-13               -6e-12                -4.2732e-08          
  0.85                  1.00508e-07           6.6e-13               -6.08e-12             -1.00498e-07         
  0.9                   2.0562e-07            7.2e-13               -4.68e-12             -2.0564e-07          
  0.95                  3.6656e-07            7.4e-13               -3.96e-12             -3.6656e-07          
  1                     5.7974e-07            7e-13                 -5.06e-12             -5.7984e-07          
  1.05                  8.3496e-07            9.8e-13               -5.5e-12              -8.351e-07           
  1.1                   1.11852e-06           1.06e-12              -5.44e-12             -1.11886e-06         
  1.15                  1.42e-06              8.2e-13               -4.26e-12             -1.416e-06           
  1.2                   1.7328e-06            9.4e-13               -3.96e-12             -1.7286e-06          
  1.25                  2.0536e-06            8.4e-13               -5.04e-12             -2.0482e-06          
  1.3                   2.3762e-06            1.08e-12              -3.48e-12             -2.3766e-06          
  1.35                  2.7058e-06            9.2e-13               -3.02e-12             -2.7026e-06          
  1.4                   3.0238e-06            8.4e-13               -4.04e-12             -3.0262e-06          
  1.45                  3.3528e-06            9.4e-13               -4.5e-12              -3.3498e-06          
  1.5                   3.6676e-06            1.06e-12              -3.64e-12             -3.6622e-06          
  1.55                  3.9844e-06            9.6e-13               -2.98e-12             -3.973e-06           
  1.6                   4.2962e-06            1.22e-12              -2.62e-12             -4.2928e-06          
  1.65                  4.5932e-06            1.02e-12              -4.02e-12             -4.593e-06           
  1.7                   4.8988e-06            1.22e-12              -3.36e-12             -4.896e-06           
  1.75                  5.1984e-06            1.12e-12              -2.52e-12             -5.1946e-06          
  1.8                   5.491e-06             1.28e-12              -2.04e-12             -5.4912e-06          
  1.85                  5.7746e-06            1.02e-12              -2.7e-12              -5.7746e-06          
  1.9                   6.0532e-06            1.22e-12              -3.38e-12             -6.0546e-06          
  1.95                  6.3332e-06            1.3e-12               -3.3e-12              -6.3268e-06          
  2                     6.6024e-06            1.28e-12              -3.06e-12             -6.597e-06           
  2.05                  6.8704e-06            1.36e-12              -1.64e-12             -6.8634e-06          
  2.1                   7.1256e-06            1.18e-12              -2.46e-12             -7.123e-06           
  2.15                  7.3814e-06            1.26e-12              -3.74e-12             -7.3806e-06          
  2.2                   7.631e-06             1.28e-12              -3.02e-12             -7.6276e-06          
  2.25                  7.878e-06             1.2e-12               -2.08e-12             -7.875e-06           
  2.3                   8.1148e-06            1.34e-12              -1.16e-12             -8.1128e-06          
  2.35                  8.349e-06             1.18e-12              -3.02e-12             -8.347e-06           
  2.4                   8.5802e-06            1.3e-12               -2.72e-12             -8.5766e-06          
  2.45                  8.8062e-06            1.3e-12               -2.38e-12             -8.7996e-06          
  2.5                   9.026e-06             1.3e-12               -1.2e-12              -9.024e-06           
  2.55                  9.241e-06             1.22e-12              -2.88e-12             -9.237e-06           
  2.6                   9.4524e-06            1.28e-12              -2.82e-12             -9.45e-06            
  2.65                  9.6566e-06            1.48e-12              -2.32e-12             -9.6534e-06          
  2.7                   9.8588e-06            1.46e-12              -2.1e-12              -9.8544e-06          
  2.75                  1.00594e-05           1.26e-12              -1.34e-12             -1.00564e-05         
  2.8                   1.02528e-05           1.4e-12               -2.22e-12             -1.02478e-05         
  2.85                  1.0442e-05            1.44e-12              -2.62e-12             -1.04404e-05         
  2.9                   1.06258e-05           1.44e-12              -2.08e-12             -1.06236e-05         
  2.95                  1.08052e-05           1.44e-12              -1.16e-12             -1.0803e-05          
  3                     1.09826e-05           1.4e-12               -1.26e-12             -1.09798e-05         
  3.05                  1.11576e-05           1.46e-12              -2.26e-12             -1.11524e-05         
  3.1                   1.13256e-05           1.28e-12              -2.36e-12             -1.13202e-05         
  3.15                  1.1491e-05            1.5e-12               -2.42e-12             -1.1489e-05          
  3.2                   1.1654e-05            1.18e-12              -8.2e-13              -1.1648e-05          
  3.25                  1.1814e-05            1.4e-12               -1.4e-12              -1.1806e-05          
  3.3                   1.197e-05             1.36e-12              -2.72e-12             -1.1962e-05          
  3.35                  1.212e-05             1.62e-12              -1.72e-12             -1.2114e-05          
  3.4                   1.227e-05             1.42e-12              -7.8e-13              -1.2264e-05          
  3.45                  1.2414e-05            1.56e-12              -1.06e-12             -1.2406e-05          
