! VERSION = 6.00
BEGIN_HEADER
 ICCAP_INPUTS
  vg         V  G GROUND SMU2 0.001 LIN        1    -0.5       3.6        83   0.05      
  vb         V  B GROUND SMU4 0.1 LIN        2    0          -3.6       5    -0.9      
  vd         V  D GROUND SMU1 0.1 LIN        3    0.1        3.3        3    1.6       
  vs         V  S GROUND SMU3 0.1 CON        0
 ICCAP_OUTPUTS
  id         I  D GROUND SMU1 B
  ig         I  G GROUND SMU2 B
  ib         I  B GROUND SMU4 B
  is         I  S GROUND SMU3 B
 ICCAP_VALUES
  MASTER_SETUP_TYPE "~dc_idvg~"
  LINVT_VALUE ""
  LISTVT_VALUE ""
  TYPE "1"
  TEMP " 27.0000 "
  IS_TNOM " 1.00000 "
  MAIN.W "5.000u"
  MAIN.L "330.0n"
  MAIN.AD "1.700p"
  MAIN.AS "1.700p"
  MAIN.PD "10.68u"
  MAIN.PS "10.68u"
  MAIN.NF "1.000"
  MAIN.M "1"
  MAIN.NRD "0.000"
  MAIN.NRS "0.000"
  MAIN.LDRIFT1 "1E-06"
  MAIN.LDRIFT2 "1E-06"
  MAIN.SA "0.000"
  MAIN.SB "0.000"
  MAIN.SD "0.000"
  MAIN.SCA "0.000"
  MAIN.SCB "0.000"
  MAIN.SCC "0.000"
  MAIN.SC "0.000"
  MODULE "S557"
  PIN_D "14"
  PIN_G "7"
  PIN_S "8"
  PIN_B "13"
  PIN_E ""
  PIN_6 ""
  XY_ID ""
  FUNC "Additional"
  STI "SA ref"
  WPE "WPE ref"
  COMMENT ""
  DIS_MEAS ""
  TypeTCI "10"
END_HEADER

BEGIN_DB
 ICCAP_VAR vb         0              
 ICCAP_VAR vd         0.1            
 ICCAP_VAR vs         0              

 #vg                    id                    ig                    ib                    is                   
  -0.5                  1.8e-13               -4.4e-11              5.244e-11             1.4e-13              
  -0.45                 1.4e-13               -6.96e-12             1.472e-11             6e-14                
  -0.4                  1.2e-13               -1.08e-12             9.26e-12              -1.2e-13             
  -0.35                 2e-14                 -2.8e-13              7.66e-12              2e-14                
  -0.3                  8e-14                 6e-14                 8.24e-12              4e-14                
  -0.25                 8e-14                 6e-14                 8.54e-12              0                    
  -0.2                  1.2e-13               1.8e-13               7.86e-12              2e-14                
  -0.15                 1.2e-13               3e-13                 7.36e-12              1e-13                
  -0.1                  2e-13                 1.8e-13               7.1e-12               1.4e-13              
  -0.05                 3.2e-13               3.8e-13               7e-12                 -1.4e-13             
  0                     1.02e-12              3e-13                 7.6e-12               -6.2e-13             
  0.05                  4.02e-12              2.6e-13               7.48e-12              -3.9e-12             
  0.1                   1.644e-11             5.8e-13               7.12e-12              -1.624e-11           
  0.15                  6.844e-11             4e-13                 5.84e-12              -6.816e-11           
  0.2                   2.8248e-10            5e-13                 6.88e-12              -2.8276e-10          
  0.25                  1.165e-09             3.8e-13               5.86e-12              -1.1638e-09          
  0.3                   4.713e-09             3.8e-13               6.14e-12              -4.7116e-09          
  0.35                  1.8714e-08            4.2e-13               6.4e-12               -1.8692e-08          
  0.4                   7.1034e-08            4.8e-13               7.14e-12              -7.0942e-08          
  0.45                  2.5164e-07            4.6e-13               6.12e-12              -2.515e-07           
  0.5                   7.8786e-07            4.6e-13               6.28e-12              -7.8784e-07          
  0.55                  2.1194e-06            2e-13                 6.28e-12              -2.114e-06           
  0.6                   4.7946e-06            6e-13                 5.84e-12              -4.8108e-06          
  0.65                  9.4292e-06            5.4e-13               5.3e-12               -9.4218e-06          
  0.7                   1.6218e-05            5.6e-13               6.82e-12              -1.618e-05           
  0.75                  2.5046e-05            7.6e-13               6.46e-12              -2.5016e-05          
  0.8                   3.5578e-05            6.6e-13               5.78e-12              -3.554e-05           
  0.85                  4.7524e-05            6.6e-13               5.84e-12              -4.7522e-05          
  0.9                   6.0328e-05            7.2e-13               5.84e-12              -6.0316e-05          
  0.95                  7.3604e-05            5.6e-13               6.58e-12              -7.3608e-05          
  1                     8.7082e-05            8.2e-13               6.5e-12               -8.7056e-05          
  1.05                  0.000100576           7e-13                 5.14e-12              -0.000100534         
  1.1                   0.000113834           6.6e-13               4.9e-12               -0.000113772         
  1.15                  0.00012698            7.6e-13               5.88e-12              -0.00012662          
  1.2                   0.00013976            7.4e-13               6.38e-12              -0.0001394           
  1.25                  0.00015222            7.2e-13               5.76e-12              -0.00015182          
  1.3                   0.0001644             8.4e-13               4.6e-12               -0.00016398          
  1.35                  0.00017616            6.2e-13               5e-12                 -0.00017578          
  1.4                   0.00018762            7.2e-13               6.6e-12               -0.00018724          
  1.45                  0.00019876            6.8e-13               4.5e-12               -0.00019836          
  1.5                   0.0002096             7.6e-13               4.96e-12              -0.00020922          
  1.55                  0.0002201             7.4e-13               4.72e-12              -0.0002197           
  1.6                   0.00023026            9.6e-13               5.98e-12              -0.00022986          
  1.65                  0.00024016            7e-13                 4.68e-12              -0.00023976          
  1.7                   0.00024974            7.2e-13               4.64e-12              -0.00024934          
  1.75                  0.00025902            9.2e-13               4.74e-12              -0.00025862          
  1.8                   0.00026806            8.6e-13               5.08e-12              -0.00026764          
  1.85                  0.00027672            9.4e-13               5.12e-12              -0.00027636          
  1.9                   0.00028524            8.2e-13               5.48e-12              -0.00028482          
  1.95                  0.00029342            8.4e-13               5.12e-12              -0.00029302          
  2                     0.00030138            1.06e-12              4.52e-12              -0.00030098          
  2.05                  0.00030908            7.4e-13               5.54e-12              -0.00030868          
  2.1                   0.00031652            9.8e-13               4.74e-12              -0.00031612          
  2.15                  0.00032374            9.2e-13               4.52e-12              -0.00032336          
  2.2                   0.00033072            8.2e-13               4.34e-12              -0.00033034          
  2.25                  0.0003375             8.8e-13               5.98e-12              -0.00033712          
  2.3                   0.00034406            8.8e-13               4.92e-12              -0.00034366          
  2.35                  0.0003504             8.6e-13               3.78e-12              -0.00035002          
  2.4                   0.0003565             9.8e-13               3.8e-12               -0.00035612          
  2.45                  0.00036244            7e-13                 4.5e-12               -0.00036204          
  2.5                   0.0003682             8.4e-13               5.1e-12               -0.0003678           
  2.55                  0.00037374            8.4e-13               3.76e-12              -0.0003733           
  2.6                   0.00037902            8e-13                 3.68e-12              -0.00037864          
  2.65                  0.00038422            9.6e-13               4.52e-12              -0.00038384          
  2.7                   0.00038922            9.8e-13               4.5e-12               -0.00038882          
  2.75                  0.00039402            8.8e-13               4.1e-12               -0.00039364          
  2.8                   0.0003987             1.04e-12              2.58e-12              -0.0003983           
  2.85                  0.0004032             1.06e-12              4.54e-12              -0.00040282          
  2.9                   0.00040754            9.6e-13               4.32e-12              -0.00040716          
  2.95                  0.00041174            9.2e-13               3.44e-12              -0.00041134          
  3                     0.0004158             1.1e-12               3.36e-12              -0.00041542          
  3.05                  0.00041974            9.8e-13               4.4e-12               -0.00041934          
  3.1                   0.00042354            1.36e-12              4.72e-12              -0.00042312          
  3.15                  0.00042716            8.4e-13               4.32e-12              -0.00042676          
  3.2                   0.00043064            1.34e-12              3.86e-12              -0.00043028          
  3.25                  0.00043406            9e-13                 3.58e-12              -0.00043368          
  3.3                   0.00043732            9.8e-13               4.14e-12              -0.00043692          
  3.35                  0.0004405             8.2e-13               4.22e-12              -0.00044008          
  3.4                   0.00044354            1.12e-12              3.76e-12              -0.00044314          
  3.45                  0.00044646            9.2e-13               3.36e-12              -0.00044606          
  3.5                   0.0004493             1e-12                 3.58e-12              -0.0004489           
  3.55                  0.00045202            9.4e-13               4.52e-12              -0.0004516           
  3.6                   0.00045464            1.14e-12              3.76e-12              -0.00045426          
END_DB

BEGIN_DB
 ICCAP_VAR vb         -0.9           
 ICCAP_VAR vd         0.1            
 ICCAP_VAR vs         0              

 #vg                    id                    ig                    ib                    is                   
  -0.5                  -1e-13                -7.6e-13              -1.054e-11            2e-13                
  -0.45                 -2e-14                -3.8e-13              -9.7e-12              1.2e-13              
  -0.4                  -2e-14                -3.4e-13              -7.42e-12             -8e-14               
  -0.35                 -2e-14                -1e-13                -7.14e-12             1.4e-13              
  -0.3                  0                     0                     -6.08e-12             4e-14                
  -0.25                 4e-14                 -1.4e-13              -6.54e-12             2.2e-13              
  -0.2                  -6e-14                8e-14                 -5.78e-12             6e-14                
  -0.15                 -8e-14                -2e-14                -4.04e-12             2e-14                
  -0.1                  4e-14                 1e-13                 -4.58e-12             1.8e-13              
  -0.05                 -8e-14                1.6e-13               -4.16e-12             8e-14                
  0                     1.4e-13               8e-14                 -4.3e-12              6e-14                
  0.05                  1e-13                 4.2e-13               -3.38e-12             4e-14                
  0.1                   5.8e-13               2.8e-13               -2.2e-12              -4.8e-13             
  0.15                  2.4e-12               4.2e-13               -2.46e-12             -2.24e-12            
  0.2                   1.072e-11             3e-13                 -2.78e-12             -1.062e-11           
  0.25                  4.79e-11              5.2e-13               -3.02e-12             -4.778e-11           
  0.3                   2.1114e-10            4.4e-13               -2.58e-12             -2.1102e-10          
  0.35                  9.2268e-10            5.8e-13               -1.34e-12             -9.2246e-10          
  0.4                   3.9262e-09            3.8e-13               -2.06e-12             -3.924e-09           
  0.45                  1.629e-08             3e-13                 -1.76e-12             -1.6266e-08          
  0.5                   6.3984e-08            4.2e-13               -2.18e-12             -6.3966e-08          
  0.55                  2.3138e-07            7.8e-13               -7.6e-13              -2.3118e-07          
  0.6                   7.2304e-07            4e-13                 -9e-13                -7.2288e-07          
  0.65                  1.9874e-06            4e-13                 -1.28e-12             -1.9646e-06          
  0.7                   4.547e-06             6e-13                 -5.6e-13              -4.5604e-06          
  0.75                  9.042e-06             6.8e-13               -9.6e-13              -9.0546e-06          
  0.8                   1.5728e-05            5.6e-13               -1.28e-12             -1.57e-05            
  0.85                  2.4538e-05            5.4e-13               -9.6e-13              -2.4524e-05          
  0.9                   3.5148e-05            5.2e-13               -9.4e-13              -3.5058e-05          
  0.95                  4.7114e-05            5.6e-13               -8.2e-13              -4.7066e-05          
  1                     6.0034e-05            6.2e-13               -1.32e-12             -5.995e-05           
  1.05                  7.3436e-05            5.6e-13               -1.36e-12             -7.3372e-05          
  1.1                   8.6918e-05            7.4e-13               -8.6e-13              -8.6914e-05          
  1.15                  0.000100404           8.2e-13               1e-13                 -0.000100322         
  1.2                   0.000113648           5.6e-13               -8e-13                -0.00011364          
  1.25                  0.00012682            6.6e-13               -9.8e-13              -0.0001264           
  1.3                   0.0001396             6.4e-13               -9e-13                -0.00013918          
  1.35                  0.00015194            9e-13                 -2.2e-13              -0.00015156          
  1.4                   0.00016396            7.4e-13               6e-14                 -0.00016356          
  1.45                  0.00017564            6.6e-13               -9.2e-13              -0.00017524          
  1.5                   0.000187              9.6e-13               -9.4e-13              -0.0001866           
  1.55                  0.00019796            6.8e-13               -2.6e-13              -0.00019758          
  1.6                   0.00020858            8.8e-13               1.06e-12              -0.00020818          
  1.65                  0.00021892            7.4e-13               -3.8e-13              -0.00021852          
  1.7                   0.00022892            8.6e-13               -5.6e-13              -0.00022852          
  1.75                  0.00023856            6.6e-13               6e-14                 -0.00023818          
  1.8                   0.00024798            7.4e-13               8.2e-13               -0.00024758          
  1.85                  0.00025704            7.8e-13               2.2e-13               -0.00025666          
  1.9                   0.00026584            7.8e-13               -8e-14                -0.00026544          
  1.95                  0.00027434            1.02e-12              -4.2e-13              -0.00027394          
  2                     0.00028256            8.4e-13               -2.6e-13              -0.00028216          
  2.05                  0.00029054            6.6e-13               6.2e-13               -0.00029014          
  2.1                   0.00029824            1.16e-12              -6.2e-13              -0.00029784          
  2.15                  0.00030574            5.8e-13               -4.6e-13              -0.00030534          
  2.2                   0.00031292            1e-12                 -8.8e-13              -0.00031254          
  2.25                  0.0003199             7.2e-13               8.6e-13               -0.00031954          
  2.3                   0.00032668            7.2e-13               -5.4e-13              -0.00032628          
  2.35                  0.00033324            8.8e-13               -2.6e-13              -0.0003328           
  2.4                   0.00033948            9.8e-13               -4.2e-13              -0.00033912          
  2.45                  0.00034562            7.6e-13               -1.6e-12              -0.00034522          
  2.5                   0.00035152            1.16e-12              4.2e-13               -0.00035112          
  2.55                  0.00035724            8.2e-13               -6e-13                -0.00035684          
  2.6                   0.00036276            1.06e-12              6.4e-13               -0.00036234          
  2.65                  0.00036808            9.4e-13               6e-13                 -0.00036768          
  2.7                   0.00037322            8.6e-13               6.4e-13               -0.00037282          
  2.75                  0.00037816            9.6e-13               -3e-13                -0.00037778          
  2.8                   0.00038296            1.08e-12              2e-14                 -0.00038256          
  2.85                  0.0003876             9e-13                 6e-13                 -0.00038718          
  2.9                   0.00039206            9.2e-13               -6e-14                -0.00039166          
  2.95                  0.0003964             9.2e-13               6e-14                 -0.000396            
  3                     0.00040056            1.2e-12               1.6e-13               -0.00040018          
  3.05                  0.00040458            9.4e-13               -1.6e-13              -0.00040418          
  3.1                   0.00040848            1e-12                 6.6e-13               -0.00040808          
  3.15                  0.00041222            9e-13                 -1.2e-13              -0.00041182          
  3.2                   0.0004158             8.2e-13               1.2e-13               -0.00041544          
  3.25                  0.0004193             1.02e-12              4e-14                 -0.00041892          
  3.3                   0.00042268            9.4e-13               6e-13                 -0.00042224          
  3.35                  0.00042592            9.2e-13               1.08e-12              -0.0004255           
  3.4                   0.00042898            1.12e-12              -6.6e-13              -0.00042864          
  3.45                  0.00043206            1.06e-12              -1.2e-13              -0.00043164          
