! VERSION = 6.00
BEGIN_HEADER
 ICCAP_INPUTS
  vd         V  D GROUND SMU1 0.1 LIN        1    0          3.6        37   0.1       
  vg         V  G GROUND SMU2 0.001 LIN        2    0.404      3.6        5    0.799     
  vb         V  B GROUND SMU4 0.1 CON        0
  vs         V  S GROUND SMU3 0.1 CON        0
 ICCAP_OUTPUTS
  id         I  D GROUND SMU1 B
  ig         I  G GROUND SMU2 B
  ib         I  B GROUND SMU4 B
  is         I  S GROUND SMU3 B
 ICCAP_VALUES
  MASTER_SETUP_TYPE "~dc_idvd~"
  LINVT_VALUE "|idvg|100.0n|100.0m|1.000m|5|3.600|"
  LISTVT_VALUE ""
  TYPE "1"
  TEMP " 27.0000 "
  IS_TNOM " 1.00000 "
  MAIN.W "10.00u"
  MAIN.L "300.0n"
  MAIN.AD "3.400p"
  MAIN.AS "3.400p"
  MAIN.PD "20.68u"
  MAIN.PS "20.68u"
  MAIN.NF "1.000"
  MAIN.M "1"
  MAIN.NRD "0.000"
  MAIN.NRS "0.000"
  MAIN.LDRIFT1 "1E-06"
  MAIN.LDRIFT2 "1E-06"
  MAIN.SA "0.000"
  MAIN.SB "0.000"
  MAIN.SD "0.000"
  MAIN.SCA "0.000"
  MAIN.SCB "0.000"
  MAIN.SCC "0.000"
  MAIN.SC "0.000"
  MODULE "S556"
  PIN_D "20"
  PIN_G "1"
  PIN_S "2"
  PIN_B "19"
  PIN_E ""
  PIN_6 ""
  XY_ID ""
  FUNC "Additional"
  STI "SA ref"
  WPE "WPE ref"
  COMMENT ""
  DIS_MEAS ""
  TypeTCI "10"
END_HEADER

BEGIN_DB
 ICCAP_VAR vg         0.404          
 ICCAP_VAR vb         0              
 ICCAP_VAR vs         0              

 #vd                    id                    ig                    ib                    is                   
  0                     2.0814e-09            -1.2e-13              2.678e-11             -1.3216e-09          
  0.1                   1.3246e-06            -2.2e-13              2.31e-11              -1.3196e-06          
  0.2                   1.917e-06             -1.4e-13              2.088e-11             -1.9128e-06          
  0.3                   2.4842e-06            -8e-14                2.014e-11             -2.4792e-06          
  0.4                   3.089e-06             -1.2e-13              2.074e-11             -3.0818e-06          
  0.5                   3.7416e-06            -2e-14                1.876e-11             -3.7366e-06          
  0.6                   4.4584e-06            -1.2e-13              1.838e-11             -4.4534e-06          
  0.7                   5.2382e-06            -4e-14                1.846e-11             -5.2324e-06          
  0.8                   6.0936e-06            2e-14                 1.708e-11             -6.0888e-06          
  0.9                   7.0288e-06            6e-14                 1.68e-11              -7.0246e-06          
  1                     8.0554e-06            2e-14                 1.698e-11             -8.0608e-06          
  1.1                   9.187e-06             -4e-14                1.422e-11             -9.1818e-06          
  1.2                   1.04076e-05           -1.2e-13              9.38e-12              -1.04026e-05         
  1.3                   1.1754e-05            -6e-14                -1.102e-11            -1.1734e-05          
  1.4                   1.3192e-05            -2e-14                -7.906e-11            -1.3172e-05          
  1.5                   1.4766e-05            -2e-14                -2.6038e-10           -1.4746e-05          
  1.6                   1.6464e-05            4e-14                 -6.8298e-10           -1.6442e-05          
  1.7                   1.8296e-05            -6e-14                -1.5678e-09           -1.8272e-05          
  1.8                   2.0274e-05            2e-14                 -3.268e-09            -2.0246e-05          
  1.9                   2.24e-05              4e-14                 -6.3008e-09           -2.2376e-05          
  2                     2.4692e-05            6e-14                 -1.13912e-08          -2.4658e-05          
  2.1                   2.7152e-05            -4e-14                -1.9624e-08           -2.7112e-05          
  2.2                   2.9796e-05            6e-14                 -3.2474e-08           -2.974e-05           
  2.3                   3.2636e-05            0                     -5.1992e-08           -3.2568e-05          
  2.4                   3.5682e-05            -6e-14                -8.094e-08            -3.5586e-05          
  2.5                   3.8978e-05            0                     -1.2318e-07           -3.8828e-05          
  2.6                   4.251e-05             6e-14                 -1.8418e-07           -4.2312e-05          
  2.7                   4.631e-05             0                     -2.7046e-07           -4.6018e-05          
  2.8                   5.041e-05             8e-14                 -3.916e-07            -5.0006e-05          
  2.9                   5.4842e-05            -2e-14                -5.5876e-07           -5.4268e-05          
  3                     5.9654e-05            1e-13                 -7.8708e-07           -5.8838e-05          
  3.1                   6.486e-05             8e-14                 -1.0943e-06           -6.3754e-05          
  3.2                   7.0548e-05            -2e-14                -1.5006e-06           -6.9024e-05          
  3.3                   7.6756e-05            6e-14                 -2.0326e-06           -7.4728e-05          
  3.4                   8.3596e-05            0                     -2.7202e-06           -8.0866e-05          
  3.5                   9.1098e-05            8e-14                 -3.5968e-06           -8.7486e-05          
  3.6                   9.9388e-05            6e-14                 -4.701e-06            -9.4656e-05          
END_DB

BEGIN_DB
 ICCAP_VAR vg         1.203          
 ICCAP_VAR vb         0              
 ICCAP_VAR vs         0              

 #vd                    id                    ig                    ib                    is                   
  0                     1.7894e-07            4e-13                 8.16e-12              -1.6372e-07          
  0.1                   0.00034124            2.6e-13               9.38e-12              -0.00034082          
  0.2                   0.00060842            2.8e-13               6.98e-12              -0.00060808          
  0.3                   0.00079942            2.4e-13               6.92e-12              -0.00079904          
  0.4                   0.0009293             2.2e-13               7.28e-12              -0.0009289           
  0.5                   0.0010176             1.8e-13               6.44e-12              -0.00101722          
  0.6                   0.00108098            1.6e-13               7.22e-12              -0.0010806           
  0.7                   0.00113058            2.6e-13               6.94e-12              -0.00113036          
  0.8                   0.0011726             1.6e-13               7.42e-12              -0.0011706           
  0.9                   0.0012084             1.8e-13               6.9e-12               -0.0012064           
  1                     0.0012408             2.4e-13               6.02e-12              -0.0012388           
  1.1                   0.0012708             2.2e-13               3.76e-12              -0.0012688           
  1.2                   0.0012992             2.2e-13               -7.66e-12             -0.0012968           
  1.3                   0.0013258             2e-13                 -7.054e-11            -0.0013236           
  1.4                   0.0013518             1.4e-13               -3.3266e-10           -0.0013494           
  1.5                   0.0013766             1.6e-13               -1.2484e-09           -0.0013746           
  1.6                   0.0014012             2.2e-13               -3.964e-09            -0.001399            
  1.7                   0.001425              3.2e-13               -1.08772e-08          -0.0014228           
  1.8                   0.0014486             1.6e-13               -2.6504e-08           -0.0014466           
  1.9                   0.001472              1e-13                 -5.8246e-08           -0.0014698           
  2                     0.0014952             1e-13                 -1.1708e-07           -0.001493            
  2.1                   0.001518              1.2e-13               -2.1938e-07           -0.0015162           
  2.2                   0.0015404             2e-13                 -3.8608e-07           -0.001538            
  2.3                   0.0015634             2e-13                 -6.4504e-07           -0.0015608           
  2.4                   0.001586              2e-13                 -1.03126e-06          -0.0015838           
  2.5                   0.0016096             -6e-14                -1.5894e-06           -0.001606            
  2.6                   0.0016326             6e-14                 -2.3784e-06           -0.0016284           
  2.7                   0.0016566             1.2e-13               -3.4666e-06           -0.0016512           
  2.8                   0.0016814             2e-13                 -4.9486e-06           -0.0016742           
  2.9                   0.0017064             2.8e-13               -6.9314e-06           -0.0016974           
  3                     0.0017328             1.6e-13               -9.5664e-06           -0.0017214           
  3.1                   0.0017608             4e-14                 -1.3e-05              -0.0017458           
  3.2                   0.0017906             6e-14                 -1.7454e-05           -0.001771            
  3.3                   0.0018224             1.4e-13               -2.3132e-05           -0.0017972           
  3.4                   0.0018574             1.4e-13               -3.03e-05             -0.0018248           
  3.5                   0.0018956             3.6e-13               -3.9222e-05           -0.0018542           
  3.6                   0.0019378             2e-13                 -5.0164e-05           -0.0018858           
END_DB

BEGIN_DB
 ICCAP_VAR vg         2.002          
 ICCAP_VAR vb         0              
 ICCAP_VAR vs         0              

 #vd                    id                    ig                    ib                    is                   
  0                     2.2878e-07            3.6e-13               4.78e-12              -2.5946e-07          
  0.1                   0.00067582            3.2e-13               5.14e-12              -0.00067542          
  0.2                   0.0012846             3e-13                 3.78e-12              -0.0012826           
  0.3                   0.0018                3.6e-13               4.52e-12              -0.001798            
  0.4                   0.0022174             2.8e-13               3.62e-12              -0.0022152           
  0.5                   0.0025424             2.8e-13               4.84e-12              -0.0025404           
  0.6                   0.002789              2.2e-13               4.52e-12              -0.002787            
  0.7                   0.002975              2.8e-13               4.18e-12              -0.002973            
  0.8                   0.0031154             2.8e-13               4.2e-12               -0.0031134           
  0.9                   0.0032236             2e-13                 4.2e-12               -0.0032216           
  1                     0.0033098             3.2e-13               3.9e-12               -0.0033078           
  1.1                   0.0033806             3e-13                 3.92e-12              -0.0033786           
  1.2                   0.0034408             2.4e-13               -2.02e-12             -0.0034388           
  1.3                   0.0034932             2e-13                 -2.852e-11            -0.0034912           
  1.4                   0.00354               2.6e-13               -1.4188e-10           -0.003538            
  1.5                   0.0035826             2.2e-13               -5.5636e-10           -0.0035804           
  1.6                   0.003622              2.6e-13               -1.8472e-09           -0.0036198           
  1.7                   0.0036584             2.4e-13               -5.3876e-09           -0.0036564           
  1.8                   0.003693              2e-13                 -1.4084e-08           -0.0036908           
  1.9                   0.003726              2.2e-13               -3.3384e-08           -0.0037238           
  2                     0.0037574             2.8e-13               -7.2582e-08           -0.0037554           
  2.1                   0.0037882             1.6e-13               -1.4672e-07           -0.003786            
  2.2                   0.003818              3e-13                 -2.782e-07            -0.0038158           
  2.3                   0.0038474             2.4e-13               -4.9852e-07           -0.0038446           
  2.4                   0.0038764             2.2e-13               -8.4906e-07           -0.0038734           
  2.5                   0.0039048             6e-14                 -1.3868e-06           -0.0039016           
  2.6                   0.0039332             1.6e-13               -2.1836e-06           -0.003929            
  2.7                   0.0039618             1.2e-13               -3.3284e-06           -0.0039564           
  2.8                   0.0039902             2.6e-13               -4.9374e-06           -0.0039834           
  2.9                   0.0040196             3.6e-13               -7.1496e-06           -0.0040106           
  3                     0.0040502             3.2e-13               -1.015e-05            -0.004038            
  3.1                   0.0040822             6e-14                 -1.4142e-05           -0.004066            
  3.2                   0.004116              2e-13                 -1.9412e-05           -0.0040946           
  3.3                   0.0041526             2.6e-13               -2.6252e-05           -0.0041242           
  3.4                   0.0041922             3.2e-13               -3.506e-05            -0.0041552           
  3.5                   0.0042364             3.4e-13               -4.6238e-05           -0.004188            
  3.6                   0.0042856             3.2e-13               -6.0234e-05           -0.0042232           
END_DB

BEGIN_DB
 ICCAP_VAR vg         2.801          
 ICCAP_VAR vb         0              
 ICCAP_VAR vs         0              

 #vd                    id                    ig                    ib                    is                   
  0                     2.4842e-07            5.6e-13               2.9e-12               -3.079e-07           
  0.1                   0.00087406            3.8e-13               4.04e-12              -0.00087366          
  0.2                   0.0016956             3.6e-13               3.22e-12              -0.0016936           
  0.3                   0.002434              2.8e-13               3.76e-12              -0.002432            
  0.4                   0.0030774             3.8e-13               5.46e-12              -0.0030754           
  0.5                   0.0036214             2.6e-13               4e-12                 -0.0036192           
  0.6                   0.00407               3.4e-13               3.32e-12              -0.0040682           
  0.7                   0.0044356             3.2e-13               2.44e-12              -0.0044336           
  0.8                   0.0047298             3.6e-13               3.1e-12               -0.0047278           
  0.9                   0.0049648             2.8e-13               2.62e-12              -0.0049628           
  1                     0.005154              3.4e-13               2.78e-12              -0.0051518           
  1.1                   0.0053068             3e-13                 2.82e-12              -0.0053048           
  1.2                   0.0054314             3.2e-13               1.04e-12              -0.0054292           
  1.3                   0.0055356             2.8e-13               -9.02e-12             -0.0055336           
  1.4                   0.0056234             3.6e-13               -5.076e-11            -0.0056212           
  1.5                   0.005699              3.8e-13               -2.1688e-10           -0.005697            
  1.6                   0.0057652             3.2e-13               -7.6196e-10           -0.005763            
  1.7                   0.0058236             2.4e-13               -2.3408e-09           -0.0058214           
  1.8                   0.0058762             3.6e-13               -6.4434e-09           -0.005874            
  1.9                   0.005924              2.8e-13               -1.6066e-08           -0.0059218           
  2                     0.0059678             3.2e-13               -3.6672e-08           -0.0059658           
  2.1                   0.0060084             2.2e-13               -7.773e-08            -0.0060064           
  2.2                   0.0060468             1.2e-13               -1.5402e-07           -0.0060446           
  2.3                   0.0060826             2.4e-13               -2.8798e-07           -0.0060804           
  2.4                   0.0061166             2.6e-13               -5.109e-07            -0.0061138           
  2.5                   0.0061492             2.6e-13               -8.6704e-07           -0.0061466           
  2.6                   0.0061812             1.4e-13               -1.4136e-06           -0.0061778           
  2.7                   0.0062118             3e-13                 -2.2268e-06           -0.0062078           
  2.8                   0.0062422             5e-13                 -3.4056e-06           -0.0062368           
  2.9                   0.0062722             6e-13                 -5.069e-06            -0.0062652           
  3                     0.0063026             8.4e-13               -7.3796e-06           -0.006293            
  3.1                   0.0063336             9.6e-13               -1.05258e-05          -0.0063208           
  3.2                   0.0063656             9.6e-13               -1.4736e-05           -0.0063492           
  3.3                   0.0063994             1.22e-12              -2.0308e-05           -0.0063774           
  3.4                   0.006436              1.56e-12              -2.7598e-05           -0.0064066           
  3.5                   0.0064758             1.78e-12              -3.701e-05            -0.006437            
  3.6                   0.00652               1.94e-12              -4.8994e-05           -0.0064688           
END_DB

BEGIN_DB
 ICCAP_VAR vg         3.6            
 ICCAP_VAR vb         0              
 ICCAP_VAR vs         0              

 #vd                    id                    ig                    ib                    is                   
  0                     2.6472e-07            5e-13                 3.22e-12              -3.5236e-07          
  0.1                   0.00098822            4e-13                 3.06e-12              -0.00098788          
  0.2                   0.001937              3.6e-13               2.3e-12               -0.001935            
  0.3                   0.0028172             3.8e-13               3.48e-12              -0.002815            
  0.4                   0.0036156             4e-13                 1.8e-12               -0.0036136           
  0.5                   0.0043228             3.6e-13               2.08e-12              -0.0043208           
  0.6                   0.0049366             4.4e-13               3.18e-12              -0.0049344           
  0.7                   0.0054632             4e-13                 1.9e-12               -0.0054612           
  0.8                   0.0059096             3.4e-13               1.86e-12              -0.0059074           
