! VERSION = 6.00
BEGIN_HEADER
 ICCAP_INPUTS
  vg         V  G GROUND SMU2 0.001 LIN        1    -0.5       3.6        83   0.05      
  vb         V  B GROUND SMU4 0.1 LIN        2    0          -3.6       5    -0.9      
  vd         V  D GROUND SMU1 0.1 LIN        3    0.1        3.3        3    1.6       
  vs         V  S GROUND SMU3 0.1 CON        0
 ICCAP_OUTPUTS
  id         I  D GROUND SMU1 B
  ig         I  G GROUND SMU2 B
  ib         I  B GROUND SMU4 B
  is         I  S GROUND SMU3 B
 ICCAP_VALUES
  MASTER_SETUP_TYPE "~dc_idvg~"
  LINVT_VALUE ""
  LISTVT_VALUE ""
  TYPE "1"
  TEMP " 27.0000 "
  IS_TNOM " 1.00000 "
  MAIN.W "10.00u"
  MAIN.L "500.0n"
  MAIN.AD "3.400p"
  MAIN.AS "3.400p"
  MAIN.PD "20.68u"
  MAIN.PS "20.68u"
  MAIN.NF "1.000"
  MAIN.M "1"
  MAIN.NRD "0.000"
  MAIN.NRS "0.000"
  MAIN.LDRIFT1 "1E-06"
  MAIN.LDRIFT2 "1E-06"
  MAIN.SA "0.000"
  MAIN.SB "0.000"
  MAIN.SD "0.000"
  MAIN.SCA "0.000"
  MAIN.SCB "0.000"
  MAIN.SCC "0.000"
  MAIN.SC "0.000"
  MODULE "S556"
  PIN_D "14"
  PIN_G "7"
  PIN_S "8"
  PIN_B "13"
  PIN_E ""
  PIN_6 ""
  XY_ID ""
  FUNC "Short"
  STI "SA ref"
  WPE "WPE ref"
  COMMENT ""
  DIS_MEAS ""
  TypeTCI "10"
END_HEADER

BEGIN_DB
 ICCAP_VAR vb         0              
 ICCAP_VAR vd         0.1            
 ICCAP_VAR vs         0              

 #vg                    id                    ig                    ib                    is                   
  -0.5                  2e-14                 -4.206e-11            4.606e-11             -6e-14               
  -0.45                 2e-14                 -6.46e-12             1.108e-11             1.4e-13              
  -0.4                  6e-14                 -9.6e-13              5.3e-12               6e-14                
  -0.35                 6e-14                 -1.6e-13              3.84e-12              8e-14                
  -0.3                  2e-14                 2e-14                 3.26e-12              1e-13                
  -0.25                 6e-14                 3.2e-13               4.56e-12              4e-14                
  -0.2                  4e-14                 2.6e-13               4.9e-12               1.6e-13              
  -0.15                 -2e-14                4e-13                 4.8e-12               2e-14                
  -0.1                  -4e-14                4.8e-13               3.84e-12              6e-14                
  -0.05                 2e-14                 4.4e-13               3.78e-12              6e-14                
  0                     0                     7.2e-13               4.68e-12              0                    
  0.05                  1.6e-13               3.4e-13               4.44e-12              1.6e-13              
  0.1                   1.6e-13               6.4e-13               4.3e-12               -1e-13               
  0.15                  5e-13                 3.8e-13               3.9e-12               -2.6e-13             
  0.2                   1.82e-12              5e-13                 3.68e-12              -1.68e-12            
  0.25                  7e-12                 6.6e-13               3.94e-12              -6.84e-12            
  0.3                   2.734e-11             4.6e-13               4.74e-12              -2.69e-11            
  0.35                  1.083e-10             7.6e-13               4.14e-12              -1.0774e-10          
  0.4                   4.275e-10             4.6e-13               2.88e-12              -4.273e-10           
  0.45                  1.7058e-09            5.4e-13               3.62e-12              -1.7032e-09          
  0.5                   6.7352e-09            3.8e-13               3.68e-12              -6.7272e-09          
  0.55                  2.6088e-08            5.8e-13               4.12e-12              -2.6006e-08          
  0.6                   9.5386e-08            5.4e-13               3.38e-12              -9.5014e-08          
  0.65                  3.2568e-07            6.4e-13               3.28e-12              -3.2592e-07          
  0.7                   9.985e-07             6.8e-13               3.96e-12              -9.9766e-07          
  0.75                  2.6616e-06            6.8e-13               3.64e-12              -2.6568e-06          
  0.8                   6.0738e-06            7.2e-13               2.5e-12               -6.0682e-06          
  0.85                  1.2012e-05            5.8e-13               3.6e-12               -1.1982e-05          
  0.9                   2.075e-05             7.2e-13               4.28e-12              -2.0714e-05          
  0.95                  3.221e-05             6.2e-13               3.1e-12               -3.2186e-05          
  1                     4.595e-05             8.6e-13               2.64e-12              -4.5936e-05          
  1.05                  6.1442e-05            7e-13                 3.18e-12              -6.1416e-05          
  1.1                   7.8068e-05            8.8e-13               3.58e-12              -7.805e-05           
  1.15                  9.5432e-05            5.6e-13               3.82e-12              -9.537e-05           
  1.2                   0.00011313            9e-13                 2.9e-12               -0.000113138         
  1.25                  0.00013122            6.6e-13               3.5e-12               -0.00013078          
  1.3                   0.0001491             8.6e-13               3.14e-12              -0.00014868          
  1.35                  0.00016678            7e-13                 4.02e-12              -0.00016638          
  1.4                   0.0001843             8.2e-13               3.4e-12               -0.00018388          
  1.45                  0.0002015             7e-13                 2.48e-12              -0.00020108          
  1.5                   0.00021844            9.2e-13               3.36e-12              -0.00021804          
  1.55                  0.000235              7.6e-13               3.66e-12              -0.00023458          
  1.6                   0.00025116            8.4e-13               3.38e-12              -0.00025076          
  1.65                  0.00026702            7.8e-13               4.76e-12              -0.0002666           
  1.7                   0.00028248            9e-13                 2.8e-12               -0.00028206          
  1.75                  0.00029748            8.8e-13               3.86e-12              -0.00029708          
  1.8                   0.0003122             1.04e-12              3.1e-12               -0.00031178          
  1.85                  0.00032644            1.08e-12              2.26e-12              -0.00032602          
  1.9                   0.0003404             1.04e-12              2.62e-12              -0.00034             
  1.95                  0.00035392            9.6e-13               3.28e-12              -0.00035352          
  2                     0.0003671             1.22e-12              3.94e-12              -0.00036672          
  2.05                  0.00037992            1e-12                 2.3e-12               -0.00037954          
  2.1                   0.00039232            1.04e-12              2.98e-12              -0.00039194          
  2.15                  0.00040444            8.4e-13               3.36e-12              -0.00040404          
  2.2                   0.00041612            1.14e-12              3.22e-12              -0.00041572          
  2.25                  0.00042752            9.2e-13               2.52e-12              -0.00042712          
  2.3                   0.0004385             1.1e-12               2.56e-12              -0.00043808          
  2.35                  0.00044916            9.8e-13               3.08e-12              -0.00044872          
  2.4                   0.00045948            9e-13                 4.02e-12              -0.00045908          
  2.45                  0.0004695             8.6e-13               3e-12                 -0.0004691           
  2.5                   0.00047926            1.02e-12              2.44e-12              -0.00047884          
  2.55                  0.00048864            8.6e-13               2.68e-12              -0.00048824          
  2.6                   0.00049772            1.12e-12              2.88e-12              -0.00049732          
  2.65                  0.0005065             7.2e-13               3.38e-12              -0.0005061           
  2.7                   0.00051502            1.18e-12              2.68e-12              -0.0005146           
  2.75                  0.00052326            9.6e-13               2.3e-12               -0.00052284          
  2.8                   0.0005312             1.08e-12              2.32e-12              -0.00053078          
  2.85                  0.00053886            8.2e-13               3.32e-12              -0.00053844          
  2.9                   0.00054626            1.06e-12              1.92e-12              -0.00054586          
  2.95                  0.00055342            7.8e-13               1.96e-12              -0.00055302          
  3                     0.00056032            1.26e-12              3.04e-12              -0.0005599           
  3.05                  0.00056698            9e-13                 2.88e-12              -0.00056656          
  3.1                   0.00057336            1.2e-12               2.84e-12              -0.00057294          
  3.15                  0.00057956            1.1e-12               1.62e-12              -0.00057916          
  3.2                   0.0005855             1.12e-12              2.26e-12              -0.0005851           
  3.25                  0.00059126            1.02e-12              3.36e-12              -0.00059086          
  3.3                   0.00059682            1.18e-12              3.36e-12              -0.0005964           
  3.35                  0.00060212            1.14e-12              2.68e-12              -0.00060168          
  3.4                   0.00060722            1.08e-12              2.36e-12              -0.00060682          
  3.45                  0.00061214            9.4e-13               2.78e-12              -0.00061174          
  3.5                   0.00061688            1.2e-12               3.22e-12              -0.00061648          
  3.55                  0.00062144            8.8e-13               2.32e-12              -0.00062104          
  3.6                   0.00062584            1.14e-12              1.98e-12              -0.00062542          
END_DB

BEGIN_DB
 ICCAP_VAR vb         -0.9           
 ICCAP_VAR vd         0.1            
 ICCAP_VAR vs         0              

 #vg                    id                    ig                    ib                    is                   
  -0.5                  -1.4e-13              -9e-13                -1.016e-11            -4e-14               
  -0.45                 -6e-14                -2.8e-13              -8.96e-12             4e-14                
  -0.4                  0                     -3.8e-13              -8.9e-12              1.6e-13              
  -0.35                 0                     8e-14                 -8.62e-12             1.4e-13              
  -0.3                  -4e-14                -1.6e-13              -7.48e-12             1.6e-13              
  -0.25                 -8e-14                -6e-14                -5.88e-12             1.2e-13              
  -0.2                  2e-14                 2.4e-13               -5.64e-12             1.4e-13              
  -0.15                 -2e-14                0                     -5.9e-12              2.2e-13              
  -0.1                  4e-14                 1.8e-13               -5.4e-12              6e-14                
  -0.05                 -6e-14                2.2e-13               -5.22e-12             1.6e-13              
  0                     -6e-14                2e-13                 -4.1e-12              1.6e-13              
  0.05                  -2e-14                4.6e-13               -3.48e-12             0                    
  0.1                   4e-14                 3.2e-13               -4.22e-12             1.6e-13              
  0.15                  0                     4e-13                 -4.02e-12             0                    
  0.2                   2e-14                 3.8e-13               -4e-12                2.2e-13              
  0.25                  0                     4.8e-13               -2.54e-12             6e-14                
  0.3                   4e-14                 2.6e-13               -2.5e-12              1.8e-13              
  0.35                  1e-13                 4.4e-13               -2.9e-12              2e-14                
  0.4                   3e-13                 5.6e-13               -3.14e-12             -8e-14               
  0.45                  1.34e-12              3.2e-13               -3.08e-12             -1.04e-12            
  0.5                   6.24e-12              5.2e-13               -2.7e-12              -5.96e-12            
  0.55                  2.814e-11             4.6e-13               -1.82e-12             -2.786e-11           
  0.6                   1.275e-10             5.6e-13               -2.68e-12             -1.2722e-10          
  0.65                  5.7798e-10            5e-13                 -2.96e-12             -5.779e-10           
  0.7                   2.5724e-09            4.2e-13               -2.3e-12              -2.5656e-09          
  0.75                  1.12758e-08           6.6e-13               -2.18e-12             -1.12578e-08         
  0.8                   4.69e-08              6.6e-13               -1.42e-12             -4.6866e-08          
  0.85                  1.84e-07              6e-13                 -2.38e-12             -1.8356e-07          
  0.9                   6.3782e-07            7.2e-13               -2.22e-12             -6.3736e-07          
  0.95                  1.8888e-06            5.6e-13               -8e-13                -1.8812e-06          
  1                     4.6722e-06            4.8e-13               -1.88e-12             -4.6682e-06          
  1.05                  9.8754e-06            8e-13                 -3.6e-13              -9.8654e-06          
  1.1                   1.7974e-05            5.4e-13               -1.12e-12             -1.7922e-05          
  1.15                  2.8968e-05            7e-13                 -2.52e-12             -2.8932e-05          
  1.2                   4.249e-05             6.6e-13               -7.4e-13              -4.249e-05           
  1.25                  5.8004e-05            8.2e-13               -2.18e-12             -5.7966e-05          
  1.3                   7.4916e-05            6.6e-13               -1.04e-12             -7.4892e-05          
  1.35                  9.2582e-05            7.6e-13               -9.8e-13              -9.2558e-05          
  1.4                   0.000110646           8.4e-13               -5.6e-13              -0.000110618         
  1.45                  0.00012902            4.6e-13               -1.2e-12              -0.0001286           
  1.5                   0.00014722            6.2e-13               -8.6e-13              -0.0001468           
  1.55                  0.00016512            8.6e-13               -8.8e-13              -0.00016474          
  1.6                   0.00018276            7.4e-13               -4.6e-13              -0.00018236          
  1.65                  0.00020008            8.4e-13               -6e-13                -0.00019968          
  1.7                   0.00021698            7.2e-13               -1.42e-12             -0.0002166           
  1.75                  0.00023346            7.8e-13               -1.16e-12             -0.00023304          
  1.8                   0.00024952            6.6e-13               -5.4e-13              -0.0002491           
  1.85                  0.0002651             7.8e-13               -7.2e-13              -0.00026468          
  1.9                   0.0002803             8.8e-13               -1.04e-12             -0.0002799           
  1.95                  0.00029502            7.2e-13               -1.5e-12              -0.00029462          
  2                     0.00030938            6.8e-13               -5.6e-13              -0.00030898          
  2.05                  0.00032334            1.1e-12               -1.4e-13              -0.00032292          
  2.1                   0.00033682            7.6e-13               -1.28e-12             -0.0003364           
  2.15                  0.00034994            1.1e-12               -1.3e-12              -0.00034954          
  2.2                   0.00036262            8e-13                 -1.06e-12             -0.0003622           
  2.25                  0.00037494            8.2e-13               3.2e-13               -0.00037456          
  2.3                   0.00038684            8.4e-13               -8.4e-13              -0.00038644          
  2.35                  0.00039842            1e-12                 -1.04e-12             -0.00039802          
  2.4                   0.00040958            9e-13                 -6.8e-13              -0.00040918          
  2.45                  0.00042038            1.1e-12               -2e-14                -0.00041998          
  2.5                   0.00043088            8e-13                 -4.4e-13              -0.0004305           
  2.55                  0.000441              1.08e-12              -4.4e-13              -0.0004406           
  2.6                   0.00045078            7.2e-13               -8.2e-13              -0.00045038          
  2.65                  0.00046022            1.1e-12               0                     -0.0004598           
  2.7                   0.00046938            9e-13                 -2.4e-13              -0.00046898          
  2.75                  0.0004782             7.4e-13               -1.22e-12             -0.00047782          
  2.8                   0.00048674            9.2e-13               -7.6e-13              -0.00048634          
  2.85                  0.00049498            9e-13                 -6.6e-13              -0.00049456          
  2.9                   0.00050292            9.2e-13               4.4e-13               -0.00050252          
  2.95                  0.0005106             9.2e-13               -8.4e-13              -0.0005102           
  3                     0.000518              8.4e-13               -6.2e-13              -0.00051758          
  3.05                  0.00052512            1.06e-12              -9e-13                -0.00052472          
  3.1                   0.000532              9.2e-13               -2.8e-13              -0.00053158          
  3.15                  0.00053864            1.14e-12              -4.2e-13              -0.00053826          
  3.2                   0.00054502            8.4e-13               -1.38e-12             -0.00054462          
  3.25                  0.0005512             9.8e-13               -1e-12                -0.00055076          
  3.3                   0.00055714            1.02e-12              2.6e-13               -0.00055672          
  3.35                  0.0005628             1.06e-12              -4.2e-13              -0.0005624           
  3.4                   0.00056832            1.16e-12              -3.2e-13              -0.0005679           
  3.45                  0.00057358            1.04e-12              -5.4e-13              -0.0005732           
