! VERSION = 6.00
BEGIN_HEADER
 ICCAP_INPUTS
  vd         V  D GROUND SMU1 0.1 LIN        1    0          3.6        37   0.1       
  vg         V  G GROUND SMU2 0.001 LIST       2 3 1.093 1.293 1.493
  vb         V  B GROUND SMU4 0.1 CON        -3.6
  vs         V  S GROUND SMU3 0.1 CON        0
 ICCAP_OUTPUTS
  id         I  D GROUND SMU1 B
  ig         I  G GROUND SMU2 B
  ib         I  B GROUND SMU4 B
  is         I  S GROUND SMU3 B
 ICCAP_VALUES
  MASTER_SETUP_TYPE "~dc_idvd~"
  LINVT_VALUE ""
  LISTVT_VALUE "|idvg|100.0n|-200.0m|1.000m|3|200.0m|200.0m|"
  TYPE "1"
  TEMP " 125.000 "
  IS_TNOM " 0.00000 "
  MAIN.W "2.000u"
  MAIN.L "3.000u"
  MAIN.AD "680.0f"
  MAIN.AS "680.0f"
  MAIN.PD "4.680u"
  MAIN.PS "4.680u"
  MAIN.NF "1.000"
  MAIN.M "1"
  MAIN.NRD "0.000"
  MAIN.NRS "0.000"
  MAIN.LDRIFT1 "1E-06"
  MAIN.LDRIFT2 "1E-06"
  MAIN.SA "0.000"
  MAIN.SB "0.000"
  MAIN.SD "0.000"
  MAIN.SCA "0.000"
  MAIN.SCB "0.000"
  MAIN.SCC "0.000"
  MAIN.SC "0.000"
  MODULE "S558"
  PIN_D "14"
  PIN_G "7"
  PIN_S "8"
  PIN_B "13"
  PIN_E ""
  PIN_6 ""
  XY_ID ""
  FUNC "LW Scale"
  STI "SA ref"
  WPE "WPE ref"
  COMMENT ""
  DIS_MEAS ""
  TypeTCI "10"
END_HEADER

BEGIN_DB
 ICCAP_VAR vg         1.093          
 ICCAP_VAR vb         -3.6           
 ICCAP_VAR vs         0              

 #vd                    id                    ig                    ib                    is                   
  0                     2.66e-12              -8e-14                -6.848e-11            4.2e-13              
  0.1                   8.1356e-10            -2.6e-13              -6.054e-11            -8.1024e-10          
  0.2                   8.622e-10             -1.4e-13              -5.426e-11            -8.5874e-10          
  0.3                   8.6788e-10            -3.2e-13              -5.008e-11            -8.6404e-10          
  0.4                   8.6992e-10            -1.4e-13              -4.5e-11              -8.6584e-10          
  0.5                   8.7166e-10            -2e-13                -4.304e-11            -8.681e-10           
  0.6                   8.7396e-10            -1e-13                -4.076e-11            -8.6996e-10          
  0.7                   8.7568e-10            -1.2e-13              -3.766e-11            -8.7114e-10          
  0.8                   8.774e-10             -3.2e-13              -3.772e-11            -8.729e-10           
  0.9                   8.7878e-10            -1.8e-13              -3.49e-11             -8.7438e-10          
  1                     8.8044e-10            -1.6e-13              -3.534e-11            -8.7552e-10          
  1.1                   8.817e-10             -8e-14                -3.184e-11            -8.7706e-10          
  1.2                   8.83e-10              -1.4e-13              -3.254e-11            -8.7824e-10          
  1.3                   8.8416e-10            -2.2e-13              -3.154e-11            -8.7912e-10          
  1.4                   8.8554e-10            -2.6e-13              -3.148e-11            -8.7962e-10          
  1.5                   8.8664e-10            -8e-14                -2.944e-11            -8.8148e-10          
  1.6                   8.88e-10              -6e-14                -2.968e-11            -8.8238e-10          
  1.7                   8.8932e-10            -1.8e-13              -2.958e-11            -8.833e-10           
  1.8                   8.902e-10             -2.6e-13              -2.782e-11            -8.8386e-10          
  1.9                   8.913e-10             -8e-14                -2.878e-11            -8.8522e-10          
  2                     8.9238e-10            -1.2e-13              -2.862e-11            -8.8626e-10          
  2.1                   8.9364e-10            -2e-14                -2.724e-11            -8.8718e-10          
  2.2                   8.9468e-10            6e-14                 -2.818e-11            -8.88e-10            
  2.3                   8.9612e-10            -1.8e-13              -2.782e-11            -8.8896e-10          
  2.4                   8.9726e-10            -2e-14                -2.818e-11            -8.895e-10           
  2.5                   8.9832e-10            -6e-14                -2.876e-11            -8.9032e-10          
  2.6                   8.9998e-10            8e-14                 -2.798e-11            -8.917e-10           
  2.7                   9.0148e-10            -8e-14                -2.95e-11             -8.914e-10           
  2.8                   9.0334e-10            1e-13                 -2.91e-11             -8.9304e-10          
  2.9                   9.055e-10             -1.4e-13              -3.186e-11            -8.9352e-10          
  3                     9.0814e-10            -6e-14                -3.276e-11            -8.9454e-10          
  3.1                   9.1136e-10            4e-14                 -3.478e-11            -8.9524e-10          
  3.2                   9.1402e-10            -1.8e-13              -3.816e-11            -8.9558e-10          
  3.3                   9.1842e-10            -6e-14                -4.008e-11            -8.9652e-10          
  3.4                   9.2324e-10            2e-14                 -4.538e-11            -8.9718e-10          
  3.5                   9.29e-10              -2e-14                -4.912e-11            -8.9822e-10          
  3.6                   9.3542e-10            -4e-14                -5.564e-11            -8.985e-10           
END_DB

BEGIN_DB
 ICCAP_VAR vg         1.293          
 ICCAP_VAR vb         -3.6           
 ICCAP_VAR vs         0              

 #vd                    id                    ig                    ib                    is                   
  0                     4.352e-11             1.2e-13               -2.226e-11            -4.73e-11            
  0.1                   6.0576e-08            0                     -2.142e-11            -6.0508e-08          
  0.2                   6.6822e-08            2.2e-13               -2.26e-11             -6.6808e-08          
  0.3                   6.752e-08             1.6e-13               -2.2e-11              -6.7496e-08          
  0.4                   6.7754e-08            1e-13                 -2.212e-11            -6.7728e-08          
  0.5                   6.7904e-08            4e-14                 -2.19e-11             -6.7924e-08          
  0.6                   6.8048e-08            8e-14                 -2.25e-11             -6.799e-08           
  0.7                   6.8154e-08            1.6e-13               -2.256e-11            -6.8174e-08          
  0.8                   6.8322e-08            1.6e-13               -2.184e-11            -6.8276e-08          
  0.9                   6.8414e-08            1.2e-13               -2.24e-11             -6.838e-08           
  1                     6.8574e-08            0                     -2.346e-11            -6.85e-08            
  1.1                   6.8622e-08            1.6e-13               -2.2e-11              -6.8638e-08          
  1.2                   6.8678e-08            1e-13                 -2.216e-11            -6.868e-08           
  1.3                   6.8718e-08            -8e-14                -2.134e-11            -6.8724e-08          
  1.4                   6.88e-08              2e-13                 -2.248e-11            -6.8736e-08          
  1.5                   6.8868e-08            1e-13                 -2.316e-11            -6.8812e-08          
  1.6                   6.8954e-08            2.2e-13               -2.29e-11             -6.8944e-08          
  1.7                   6.9058e-08            1.6e-13               -2.258e-11            -6.8972e-08          
  1.8                   6.9078e-08            1e-13                 -2.406e-11            -6.912e-08           
  1.9                   6.9182e-08            8e-14                 -2.394e-11            -6.9168e-08          
  2                     6.9206e-08            0                     -2.55e-11             -6.923e-08           
  2.1                   6.9376e-08            0                     -2.728e-11            -6.932e-08           
  2.2                   6.9428e-08            1e-13                 -3.282e-11            -6.9338e-08          
  2.3                   6.9402e-08            1e-13                 -4.158e-11            -6.9408e-08          
  2.4                   6.9496e-08            1.2e-13               -5.074e-11            -6.942e-08           
  2.5                   6.9588e-08            2.2e-13               -6.698e-11            -6.9542e-08          
  2.6                   6.9724e-08            1.4e-13               -9.25e-11             -6.9652e-08          
  2.7                   6.9826e-08            1e-13                 -1.2468e-10           -6.9742e-08          
  2.8                   6.997e-08             1.6e-13               -1.6848e-10           -6.9794e-08          
  2.9                   7.0096e-08            1e-13                 -2.2726e-10           -6.991e-08           
  3                     7.0218e-08            -8e-14                -3.0644e-10           -6.9856e-08          
  3.1                   7.0286e-08            8e-14                 -4.0896e-10           -6.9924e-08          
  3.2                   7.0544e-08            2.2e-13               -5.3676e-10           -6.997e-08           
  3.3                   7.0636e-08            4e-14                 -7.0344e-10           -7e-08               
  3.4                   7.101e-08             6e-14                 -9.1338e-10           -7.0068e-08          
  3.5                   7.1274e-08            2.2e-13               -1.1734e-09           -7.0078e-08          
  3.6                   7.1624e-08            1e-13                 -1.4968e-09           -7.0186e-08          
END_DB

BEGIN_DB
 ICCAP_VAR vg         1.493          
 ICCAP_VAR vb         -3.6           
 ICCAP_VAR vs         0              

 #vd                    id                    ig                    ib                    is                   
  0                     2.7938e-10            3e-13                 -1.914e-11            -2.8306e-10          
  0.1                   5.6976e-07            1.6e-13               -1.814e-11            -5.6962e-07          
  0.2                   7.6778e-07            4e-13                 -1.988e-11            -7.675e-07           
  0.3                   8.079e-07             2.2e-13               -2.052e-11            -8.0822e-07          
  0.4                   8.1524e-07            1.8e-13               -2.012e-11            -8.15e-07            
  0.5                   8.177e-07             1.6e-13               -1.964e-11            -8.1798e-07          
  0.6                   8.199e-07             3.2e-13               -2.004e-11            -8.2006e-07          
  0.7                   8.2162e-07            1.8e-13               -2.096e-11            -8.2156e-07          
  0.8                   8.2322e-07            2.8e-13               -2.078e-11            -8.2308e-07          
  0.9                   8.243e-07             2e-13                 -1.926e-11            -8.2434e-07          
  1                     8.251e-07             3.8e-13               -2.062e-11            -8.2508e-07          
  1.1                   8.264e-07             1.8e-13               -2.04e-11             -8.2626e-07          
  1.2                   8.2734e-07            3e-13                 -1.988e-11            -8.2724e-07          
  1.3                   8.2828e-07            0                     -2.054e-11            -8.2778e-07          
  1.4                   8.2842e-07            0                     -2.19e-11             -8.2854e-07          
  1.5                   8.2948e-07            2.2e-13               -2.146e-11            -8.2934e-07          
  1.6                   8.3056e-07            2e-13                 -2.134e-11            -8.305e-07           
  1.7                   8.3092e-07            2e-14                 -2.17e-11             -8.309e-07           
  1.8                   8.3166e-07            8e-14                 -2.384e-11            -8.319e-07           
  1.9                   8.3264e-07            1.2e-13               -2.582e-11            -8.3272e-07          
  2                     8.3356e-07            4e-14                 -3.03e-11             -8.336e-07           
  2.1                   8.3422e-07            1e-13                 -4.184e-11            -8.3438e-07          
  2.2                   8.3468e-07            1.4e-13               -6.294e-11            -8.3516e-07          
  2.3                   8.3558e-07            1.2e-13               -9.924e-11            -8.357e-07           
  2.4                   8.3594e-07            1.4e-13               -1.5814e-10           -8.3592e-07          
  2.5                   8.369e-07             3e-13                 -2.5394e-10           -8.3656e-07          
  2.6                   8.3756e-07            2.8e-13               -3.9876e-10           -8.37e-07            
  2.7                   8.386e-07             1e-13                 -6.0704e-10           -8.3784e-07          
  2.8                   8.3936e-07            1.2e-13               -9.074e-10            -8.382e-07           
  2.9                   8.4016e-07            2.4e-13               -1.3188e-09           -8.3864e-07          
  3                     8.41e-07              1.2e-13               -1.8802e-09           -8.392e-07           
  3.1                   8.4272e-07            2.8e-13               -2.6296e-09           -8.3934e-07          
  3.2                   8.4386e-07            1.4e-13               -3.6118e-09           -8.3956e-07          
  3.3                   8.4538e-07            8e-14                 -4.888e-09            -8.4036e-07          
  3.4                   8.476e-07             2.6e-13               -6.5408e-09           -8.4194e-07          
  3.5                   8.512e-07             2.4e-13               -8.633e-09            -8.4256e-07          
  3.6                   8.5364e-07            1e-13                 -1.12692e-08          -8.4248e-07          
END_DB

