! VERSION = 6.00
BEGIN_HEADER
 ICCAP_INPUTS
  vd         V  D GROUND SMU1 0.1 LIN        1    0          3.6        37   0.1       
  vg         V  G GROUND SMU2 0.001 LIN        2    1.5        3.6        5    0.525     
  vb         V  B GROUND SMU4 0.1 CON        -3.6
  vs         V  S GROUND SMU3 0.1 CON        0
 ICCAP_OUTPUTS
  id         I  D GROUND SMU1 B
  ig         I  G GROUND SMU2 B
  ib         I  B GROUND SMU4 B
  is         I  S GROUND SMU3 B
 ICCAP_VALUES
  MASTER_SETUP_TYPE "~dc_idvd~"
  LINVT_VALUE "|idvg|100.0n|100.0m|1.000m|5|3.600|"
  LISTVT_VALUE ""
  TYPE "1"
  TEMP "-40.0000 "
  IS_TNOM " 0.00000 "
  MAIN.W "300.0n"
  MAIN.L "10.00u"
  MAIN.AD "102.0f"
  MAIN.AS "102.0f"
  MAIN.PD "1.280u"
  MAIN.PS "1.280u"
  MAIN.NF "1.000"
  MAIN.M "1"
  MAIN.NRD "0.000"
  MAIN.NRS "0.000"
  MAIN.LDRIFT1 "1E-06"
  MAIN.LDRIFT2 "1E-06"
  MAIN.SA "0.000"
  MAIN.SB "0.000"
  MAIN.SD "0.000"
  MAIN.SCA "0.000"
  MAIN.SCB "0.000"
  MAIN.SCC "0.000"
  MAIN.SC "0.000"
  MODULE "S547"
  PIN_D "14"
  PIN_G "7"
  PIN_S "8"
  PIN_B "13"
  PIN_E ""
  PIN_6 ""
  XY_ID ""
  FUNC "Narrow"
  STI "SA ref"
  WPE "WPE ref"
  COMMENT ""
  DIS_MEAS ""
  TypeTCI "10"
END_HEADER

BEGIN_DB
 ICCAP_VAR vg         1.5            
 ICCAP_VAR vb         -3.6           
 ICCAP_VAR vs         0              

 #vd                    id                    ig                    ib                    is                   
  0                     2.046e-11             9.6e-13               -2.452e-11            -1.794e-11           
  0.1                   1.6892e-08            5e-13                 -2.154e-11            -1.6868e-08          
  0.2                   1.8868e-08            5e-13                 -2.12e-11             -1.884e-08           
  0.3                   1.8954e-08            4.4e-13               -2.132e-11            -1.8938e-08          
  0.4                   1.897e-08             3.6e-13               -1.83e-11             -1.8952e-08          
  0.5                   1.8982e-08            3e-13                 -1.74e-11             -1.8954e-08          
  0.6                   1.8986e-08            3.4e-13               -1.808e-11            -1.8962e-08          
  0.7                   1.8998e-08            3.4e-13               -1.718e-11            -1.897e-08           
  0.8                   1.9006e-08            4.4e-13               -1.636e-11            -1.8988e-08          
  0.9                   1.9012e-08            4e-13                 -1.492e-11            -1.8982e-08          
  1                     1.9018e-08            4e-13                 -1.45e-11             -1.8988e-08          
  1.1                   1.902e-08             3.6e-13               -1.542e-11            -1.8994e-08          
  1.2                   1.9026e-08            1.8e-13               -1.44e-11             -1.9e-08             
  1.3                   1.9034e-08            3e-13                 -1.306e-11            -1.9008e-08          
  1.4                   1.9044e-08            2e-13                 -1.366e-11            -1.902e-08           
  1.5                   1.9046e-08            2.4e-13               -1.356e-11            -1.9022e-08          
  1.6                   1.9098e-08            3.6e-13               -1.264e-11            -1.9074e-08          
  1.7                   1.9064e-08            2.4e-13               -1.226e-11            -1.9032e-08          
  1.8                   1.9066e-08            4e-13                 -1.042e-11            -1.9034e-08          
  1.9                   1.9072e-08            4.2e-13               -1.196e-11            -1.9034e-08          
  2                     1.9072e-08            2.4e-13               -1.174e-11            -1.9048e-08          
  2.1                   1.908e-08             2.6e-13               -1.122e-11            -1.906e-08           
  2.2                   1.9088e-08            1.8e-13               -1.072e-11            -1.9104e-08          
  2.3                   1.9134e-08            2.2e-13               -1.232e-11            -1.907e-08           
  2.4                   1.9098e-08            1.2e-13               -1.372e-11            -1.9072e-08          
  2.5                   1.9112e-08            1.8e-13               -1.546e-11            -1.9074e-08          
  2.6                   1.911e-08             2.4e-13               -1.79e-11             -1.9082e-08          
  2.7                   1.9122e-08            2.2e-13               -2.488e-11            -1.9084e-08          
  2.8                   1.9124e-08            1e-13                 -3.192e-11            -1.9084e-08          
  2.9                   1.9152e-08            6e-14                 -4.134e-11            -1.9088e-08          
  3                     1.9162e-08            1.8e-13               -5.608e-11            -1.9092e-08          
  3.1                   1.9192e-08            2.4e-13               -7.538e-11            -1.9102e-08          
  3.2                   1.9224e-08            1.4e-13               -1.0358e-10           -1.9106e-08          
  3.3                   1.9272e-08            2.6e-13               -1.394e-10            -1.9112e-08          
  3.4                   1.9322e-08            2e-13                 -1.8454e-10           -1.9124e-08          
  3.5                   1.939e-08             1.4e-13               -2.4468e-10           -1.913e-08           
  3.6                   1.9472e-08            1.8e-13               -3.234e-10            -1.913e-08           
END_DB

BEGIN_DB
 ICCAP_VAR vg         2.025          
 ICCAP_VAR vb         -3.6           
 ICCAP_VAR vs         0              

 #vd                    id                    ig                    ib                    is                   
  0                     1.4858e-10            4.6e-13               -5.98e-12             -1.563e-10           
  0.1                   2.3308e-07            3.4e-13               -5.66e-12             -2.3294e-07          
  0.2                   4.0976e-07            5e-13                 -6.24e-12             -4.096e-07           
  0.3                   5.3248e-07            3.2e-13               -6.76e-12             -5.3226e-07          
  0.4                   6.0648e-07            2.8e-13               -3.14e-12             -6.0644e-07          
  0.5                   6.4112e-07            3.4e-13               -7.38e-12             -6.41e-07            
  0.6                   6.5182e-07            3e-13                 -5.54e-12             -6.5184e-07          
  0.7                   6.5458e-07            2.8e-13               -5.76e-12             -6.5448e-07          
  0.8                   6.5558e-07            3e-13                 -6.52e-12             -6.5542e-07          
  0.9                   6.5588e-07            2.8e-13               -5.94e-12             -6.5578e-07          
  1                     6.5628e-07            3e-13                 -5.5e-12              -6.5634e-07          
  1.1                   6.5648e-07            2.2e-13               -6.6e-12              -6.5646e-07          
  1.2                   6.5672e-07            2.8e-13               -6.12e-12             -6.5668e-07          
  1.3                   6.5696e-07            2.6e-13               -6.54e-12             -6.568e-07           
  1.4                   6.5712e-07            2.6e-13               -5.52e-12             -6.5702e-07          
  1.5                   6.5734e-07            2.8e-13               -5.14e-12             -6.5728e-07          
  1.6                   6.5744e-07            2.2e-13               -6.4e-12              -6.5746e-07          
  1.7                   6.5758e-07            2.6e-13               -5.4e-12              -6.5762e-07          
  1.8                   6.5766e-07            2.4e-13               -4.8e-12              -6.5772e-07          
  1.9                   6.5784e-07            2e-13                 -5.62e-12             -6.5774e-07          
  2                     6.5818e-07            2.8e-13               -5.3e-12              -6.5806e-07          
  2.1                   6.5804e-07            2.4e-13               -5.48e-12             -6.582e-07           
  2.2                   6.5828e-07            1.8e-13               -4.64e-12             -6.5818e-07          
  2.3                   6.585e-07             2e-13                 -6.38e-12             -6.5838e-07          
  2.4                   6.5854e-07            3.4e-13               -8.5e-12              -6.5838e-07          
  2.5                   6.5868e-07            3.2e-13               -1.238e-11            -6.5868e-07          
  2.6                   6.5876e-07            2e-13                 -2.122e-11            -6.5866e-07          
  2.7                   6.5892e-07            2.8e-13               -4.418e-11            -6.5882e-07          
  2.8                   6.591e-07             1.4e-13               -7.65e-11             -6.5898e-07          
  2.9                   6.5912e-07            1.8e-13               -1.3282e-10           -6.5902e-07          
  3                     6.595e-07             2e-13                 -2.2424e-10           -6.5922e-07          
  3.1                   6.5982e-07            2.4e-13               -3.6328e-10           -6.5926e-07          
  3.2                   6.6e-07               2.4e-13               -5.6812e-10           -6.594e-07           
  3.3                   6.606e-07             1.8e-13               -8.6004e-10           -6.5962e-07          
  3.4                   6.6104e-07            2.6e-13               -1.2658e-09           -6.5962e-07          
  3.5                   6.6176e-07            2.2e-13               -1.8286e-09           -6.5972e-07          
  3.6                   6.6248e-07            1.6e-13               -2.5988e-09           -6.5986e-07          
END_DB

BEGIN_DB
 ICCAP_VAR vg         2.55           
 ICCAP_VAR vb         -3.6           
 ICCAP_VAR vs         0              

 #vd                    id                    ig                    ib                    is                   
  0                     2.7e-10               4.2e-13               -3.68e-12             -2.853e-10           
  0.1                   4.7594e-07            3.2e-13               -3.86e-12             -4.7586e-07          
  0.2                   8.9918e-07            3.2e-13               -3.3e-12              -8.9914e-07          
  0.3                   1.2694e-06            3.6e-13               -4.12e-12             -1.2654e-06          
  0.4                   1.5842e-06            1.6e-13               -4.1e-12              -1.58e-06            
  0.5                   1.8438e-06            2.4e-13               -3.22e-12             -1.8398e-06          
  0.6                   2.0488e-06            3e-13                 -3.66e-12             -2.0448e-06          
  0.7                   2.201e-06             3e-13                 -3.7e-12              -2.1972e-06          
  0.8                   2.304e-06             2e-13                 -2.84e-12             -2.3e-06             
  0.9                   2.364e-06             8e-14                 -3.58e-12             -2.36e-06            
  1                     2.3926e-06            1.2e-13               -3.72e-12             -2.3888e-06          
  1.1                   2.404e-06             2e-13                 -3.44e-12             -2.4e-06             
  1.2                   2.4082e-06            3.2e-13               -4.66e-12             -2.4048e-06          
  1.3                   2.411e-06             3.2e-13               -4.36e-12             -2.4066e-06          
  1.4                   2.4124e-06            3.4e-13               -3.3e-12              -2.4084e-06          
  1.5                   2.413e-06             1.2e-13               1e-13                 -2.4092e-06          
  1.6                   2.4142e-06            6e-14                 -3.46e-12             -2.4106e-06          
  1.7                   2.415e-06             8e-14                 -2.94e-12             -2.411e-06           
  1.8                   2.4158e-06            1.6e-13               -4.76e-12             -2.4118e-06          
  1.9                   2.4162e-06            3.6e-13               -2.78e-12             -2.4122e-06          
  2                     2.4164e-06            2.8e-13               -2.5e-12              -2.4124e-06          
  2.1                   2.417e-06             2.8e-13               -3.98e-12             -2.4134e-06          
  2.2                   2.4178e-06            2e-13                 -2.66e-12             -2.4138e-06          
  2.3                   2.4184e-06            1.6e-13               -3e-12                -2.4144e-06          
  2.4                   2.419e-06             2.2e-13               -4.06e-12             -2.415e-06           
  2.5                   2.4196e-06            2.4e-13               -3.38e-12             -2.4156e-06          
  2.6                   2.42e-06              2.4e-13               -3.8e-12              -2.416e-06           
  2.7                   2.4202e-06            -6e-14                -6.2e-12              -2.4164e-06          
  2.8                   2.4206e-06            -2e-14                -9.12e-12             -2.4166e-06          
  2.9                   2.4214e-06            2e-13                 -1.93e-11             -2.417e-06           
  3                     2.4216e-06            2.6e-13               -4.352e-11            -2.4176e-06          
  3.1                   2.4222e-06            2.6e-13               -8.95e-11             -2.418e-06           
  3.2                   2.4226e-06            1.4e-13               -1.7918e-10           -2.4186e-06          
  3.3                   2.423e-06             8e-14                 -3.3426e-10           -2.419e-06           
  3.4                   2.4236e-06            1.6e-13               -5.8538e-10           -2.4192e-06          
  3.5                   2.4244e-06            2e-13                 -9.842e-10            -2.4194e-06          
  3.6                   2.4254e-06            1.4e-13               -1.5758e-09           -2.4196e-06          
END_DB

BEGIN_DB
 ICCAP_VAR vg         3.075          
 ICCAP_VAR vb         -3.6           
 ICCAP_VAR vs         0              

 #vd                    id                    ig                    ib                    is                   
  0                     4.1404e-10            4.4e-13               -2.7e-12              -4.035e-10           
  0.1                   6.7452e-07            3.2e-13               -2.4e-12              -6.7446e-07          
  0.2                   1.3078e-06            2.6e-13               -3e-12                -1.3038e-06          
  0.3                   1.894e-06             3.6e-13               -2.26e-12             -1.89e-06            
  0.4                   2.4346e-06            3.2e-13               -2e-12                -2.431e-06           
  0.5                   2.9278e-06            4e-13                 -2.3e-12              -2.9238e-06          
  0.6                   3.3704e-06            3.6e-13               -2.66e-12             -3.3666e-06          
  0.7                   3.763e-06             3.4e-13               -3.3e-12              -3.7592e-06          
  0.8                   4.1034e-06            1.8e-13               -2.72e-12             -4.0996e-06          
  0.9                   4.3908e-06            2.2e-13               -3.14e-12             -4.387e-06           
  1                     4.626e-06             1.8e-13               -2.46e-12             -4.622e-06           
  1.1                   4.8094e-06            6e-14                 -3.36e-12             -4.8052e-06          
  1.2                   4.9428e-06            1e-13                 -3.82e-12             -4.939e-06           
  1.3                   5.0324e-06            2.4e-13               -3.54e-12             -5.0286e-06          
  1.4                   5.0854e-06            2.4e-13               -2.66e-12             -5.0812e-06          
  1.5                   5.1122e-06            2.4e-13               -3.02e-12             -5.1084e-06          
  1.6                   5.1254e-06            1.8e-13               -2.92e-12             -5.1212e-06          
  1.7                   5.1314e-06            1.2e-13               -2.16e-12             -5.1274e-06          
  1.8                   5.1354e-06            2.6e-13               -2.2e-12              -5.1316e-06          
  1.9                   5.1378e-06            3e-13                 -2.82e-12             -5.1344e-06          
  2                     5.1404e-06            3e-13                 -2.76e-12             -5.1364e-06          
  2.1                   5.1422e-06            2.8e-13               -1.96e-12             -5.138e-06           
  2.2                   5.1434e-06            1.8e-13               -2.7e-12              -5.1396e-06          
  2.3                   5.1446e-06            1.4e-13               -2.2e-12              -5.141e-06           
  2.4                   5.1462e-06            2.2e-13               -2.14e-12             -5.1426e-06          
  2.5                   5.1476e-06            3e-13                 -3.26e-12             -5.1428e-06          
  2.6                   5.148e-06             2.4e-13               -2.92e-12             -5.1446e-06          
  2.7                   5.1496e-06            1.6e-13               1.12e-12              -5.1458e-06          
  2.8                   5.1504e-06            1.2e-13               -3.34e-12             -5.1466e-06          
  2.9                   5.1516e-06            1.8e-13               -1.36e-12             -5.1478e-06          
  3                     5.152e-06             1.4e-13               -2.94e-12             -5.1484e-06          
  3.1                   5.1528e-06            1.2e-13               -4.92e-12             -5.1494e-06          
  3.2                   5.1542e-06            1.2e-13               -9.28e-12             -5.15e-06            
  3.3                   5.1546e-06            2.2e-13               -2.296e-11            -5.1508e-06          
  3.4                   5.1554e-06            1.8e-13               -5.534e-11            -5.1518e-06          
  3.5                   5.1568e-06            -2e-14                -1.2108e-10           -5.153e-06           
  3.6                   5.1582e-06            4e-14                 -2.534e-10            -5.1536e-06          
END_DB

BEGIN_DB
 ICCAP_VAR vg         3.6            
 ICCAP_VAR vb         -3.6           
 ICCAP_VAR vs         0              

 #vd                    id                    ig                    ib                    is                   
  0                     4.7904e-10            5.4e-13               -2.4e-12              -4.768e-10           
  0.1                   8.2068e-07            4.2e-13               -1.08e-12             -8.2058e-07          
  0.2                   1.61e-06              3e-13                 -2.56e-12             -1.6062e-06          
  0.3                   2.362e-06             3.8e-13               -1.76e-12             -2.3582e-06          
  0.4                   3.0792e-06            3.2e-13               -3.22e-12             -3.0754e-06          
  0.5                   3.7586e-06            3e-13                 -2.08e-12             -3.7548e-06          
  0.6                   4.3974e-06            2.4e-13               -1.44e-12             -4.3936e-06          
  0.7                   4.9954e-06            2.6e-13               -2.8e-12              -4.9918e-06          
  0.8                   5.5502e-06            3e-13                 -2.56e-12             -5.5464e-06          
