! VERSION = 6.00
BEGIN_HEADER
 ICCAP_INPUTS
  vd         V  D GROUND SMU1 0.1 LIN        1    0          3.6        37   0.1       
  vg         V  G GROUND SMU2 0.001 LIN        2    1.444      3.6        5    0.539     
  vb         V  B GROUND SMU4 0.1 CON        -3.6
  vs         V  S GROUND SMU3 0.1 CON        0
 ICCAP_OUTPUTS
  id         I  D GROUND SMU1 B
  ig         I  G GROUND SMU2 B
  ib         I  B GROUND SMU4 B
  is         I  S GROUND SMU3 B
 ICCAP_VALUES
  MASTER_SETUP_TYPE "~dc_idvd~"
  LINVT_VALUE "|idvg|100.0n|100.0m|1.000m|5|3.600|"
  LISTVT_VALUE ""
  TYPE "1"
  TEMP " 27.0000 "
  IS_TNOM " 1.00000 "
  MAIN.W "2.000u"
  MAIN.L "1.200u"
  MAIN.AD "680.0f"
  MAIN.AS "680.0f"
  MAIN.PD "4.680u"
  MAIN.PS "4.680u"
  MAIN.NF "1.000"
  MAIN.M "1"
  MAIN.NRD "0.000"
  MAIN.NRS "0.000"
  MAIN.LDRIFT1 "1E-06"
  MAIN.LDRIFT2 "1E-06"
  MAIN.SA "0.000"
  MAIN.SB "0.000"
  MAIN.SD "0.000"
  MAIN.SCA "0.000"
  MAIN.SCB "0.000"
  MAIN.SCC "0.000"
  MAIN.SC "0.000"
  MODULE "S558"
  PIN_D "16"
  PIN_G "5"
  PIN_S "6"
  PIN_B "15"
  PIN_E ""
  PIN_6 ""
  XY_ID ""
  FUNC "LW Scale"
  STI "SA ref"
  WPE "WPE ref"
  COMMENT ""
  DIS_MEAS ""
  TypeTCI "10"
END_HEADER

BEGIN_DB
 ICCAP_VAR vg         1.444          
 ICCAP_VAR vb         -3.6           
 ICCAP_VAR vs         0              

 #vd                    id                    ig                    ib                    is                   
  0                     8.506e-10             7.4e-13               -4.204e-11            -6.4734e-10          
  0.1                   7.6358e-07            5.6e-13               -3.52e-11             -7.6346e-07          
  0.2                   8.9324e-07            4e-13                 -3.634e-11            -8.9348e-07          
  0.3                   9.2232e-07            3.6e-13               -3.526e-11            -9.2234e-07          
  0.4                   9.3714e-07            4.6e-13               -3.204e-11            -9.369e-07           
  0.5                   9.4766e-07            3.4e-13               -3.04e-11             -9.4766e-07          
  0.6                   9.5664e-07            3.8e-13               -2.99e-11             -9.565e-07           
  0.7                   9.6372e-07            3.2e-13               -2.86e-11             -9.6372e-07          
  0.8                   9.7046e-07            2.8e-13               -2.744e-11            -9.7042e-07          
  0.9                   9.767e-07             3.8e-13               -2.614e-11            -9.772e-07           
  1                     9.8272e-07            3e-13                 -2.598e-11            -9.823e-07           
  1.1                   9.878e-07             2.4e-13               -2.504e-11            -9.8764e-07          
  1.2                   9.9314e-07            1.6e-13               -2.292e-11            -9.9288e-07          
  1.3                   9.9788e-07            2.8e-13               -2.252e-11            -9.982e-07           
  1.4                   1.00256e-06           2.6e-13               -2.304e-11            -1.00278e-06         
  1.5                   1.00714e-06           1.4e-13               -2.21e-11             -1.00752e-06         
  1.6                   1.01186e-06           1.2e-13               -2.166e-11            -1.01216e-06         
  1.7                   1.0163e-06            2e-13                 -2.194e-11            -1.01626e-06         
  1.8                   1.0202e-06            3e-13                 -2.31e-11             -1.01992e-06         
  1.9                   1.0244e-06            2.2e-13               -2.81e-11             -1.02422e-06         
  2                     1.02788e-06           2.6e-13               -3.78e-11             -1.02776e-06         
  2.1                   1.03216e-06           2.2e-13               -6.124e-11            -1.03216e-06         
  2.2                   1.03592e-06           6e-14                 -1.0296e-10           -1.03564e-06         
  2.3                   1.0397e-06            1e-13                 -1.7434e-10           -1.03978e-06         
  2.4                   1.04316e-06           8e-14                 -2.8888e-10           -1.04366e-06         
  2.5                   1.04706e-06           1e-13                 -4.6822e-10           -1.04708e-06         
  2.6                   1.0505e-06            1.8e-13               -7.3184e-10           -1.0496e-06          
  2.7                   1.05458e-06           6e-14                 -1.1114e-09           -1.05336e-06         
  2.8                   1.0583e-06            1.2e-13               -1.649e-09            -1.05648e-06         
  2.9                   1.06212e-06           1.4e-13               -2.3906e-09           -1.05962e-06         
  3                     1.06668e-06           1e-13                 -3.3956e-09           -1.06298e-06         
  3.1                   1.07058e-06           1e-13                 -4.7426e-09           -1.06644e-06         
  3.2                   1.07572e-06           1.4e-13               -6.5228e-09           -1.06976e-06         
  3.3                   1.08166e-06           2.6e-13               -8.8528e-09           -1.07254e-06         
  3.4                   1.08716e-06           8e-14                 -1.1868e-08           -1.073e-06           
  3.5                   1.09402e-06           1.6e-13               -1.57e-08             -1.076e-06           
  3.6                   1.10162e-06           1.4e-13               -2.053e-08            -1.079e-06           
END_DB

BEGIN_DB
 ICCAP_VAR vg         1.983          
 ICCAP_VAR vb         -3.6           
 ICCAP_VAR vs         0              

 #vd                    id                    ig                    ib                    is                   
  0                     2.6022e-09            4.6e-13               -1.02e-11             -3.8734e-09          
  0.1                   1.1976e-05            3.4e-13               -9.32e-12             -1.1956e-05          
  0.2                   2.1154e-05            2e-13                 -9.1e-12              -2.114e-05           
  0.3                   2.7656e-05            2.8e-13               -1.018e-11            -2.7642e-05          
  0.4                   3.1804e-05            3e-13                 -1.114e-11            -3.1776e-05          
  0.5                   3.411e-05             1.8e-13               -9.3e-12              -3.4094e-05          
  0.6                   3.53e-05              1.6e-13               -1.004e-11            -3.5278e-05          
  0.7                   3.5924e-05            2e-13                 -1.1e-11              -3.5902e-05          
  0.8                   3.6292e-05            2.8e-13               -8.44e-12             -3.6264e-05          
  0.9                   3.653e-05             1.8e-13               -9.74e-12             -3.651e-05           
  1                     3.6714e-05            2.4e-13               -1.012e-11            -3.6692e-05          
  1.1                   3.6864e-05            2.4e-13               -8.48e-12             -3.685e-05           
  1.2                   3.6998e-05            8e-14                 -9.92e-12             -3.6974e-05          
  1.3                   3.712e-05             1.6e-13               -9.24e-12             -3.7094e-05          
  1.4                   3.7228e-05            0                     -8.3e-12              -3.7202e-05          
  1.5                   3.733e-05             2.8e-13               -9.16e-12             -3.7306e-05          
  1.6                   3.7424e-05            1.8e-13               -8.94e-12             -3.7404e-05          
  1.7                   3.7514e-05            1.2e-13               -8.68e-12             -3.7494e-05          
  1.8                   3.761e-05             1.2e-13               -1.06e-11             -3.7588e-05          
  1.9                   3.769e-05             1.6e-13               -1.152e-11            -3.7674e-05          
  2                     3.7772e-05            1.8e-13               -1.78e-11             -3.7752e-05          
  2.1                   3.7846e-05            1.4e-13               -4.19e-11             -3.7824e-05          
  2.2                   3.7922e-05            1e-13                 -1.0338e-10           -3.791e-05           
  2.3                   3.8008e-05            1.2e-13               -2.5132e-10           -3.7982e-05          
  2.4                   3.8082e-05            1e-13                 -5.7974e-10           -3.806e-05           
  2.5                   3.8148e-05            1.2e-13               -1.236e-09            -3.813e-05           
  2.6                   3.8226e-05            1e-13                 -2.4602e-09           -3.82e-05            
  2.7                   3.8294e-05            1.2e-13               -4.5812e-09           -3.8266e-05          
  2.8                   3.8366e-05            2e-14                 -8.0652e-09           -3.8328e-05          
  2.9                   3.8436e-05            1.6e-13               -1.351e-08            -3.8402e-05          
  3                     3.8506e-05            2.2e-13               -2.1714e-08           -3.8466e-05          
  3.1                   3.858e-05             2.2e-13               -3.366e-08            -3.852e-05           
  3.2                   3.8658e-05            2e-13                 -5.0658e-08           -3.8578e-05          
  3.3                   3.874e-05             3.2e-13               -7.419e-08            -3.8648e-05          
  3.4                   3.8838e-05            4e-13                 -1.0651e-07           -3.8698e-05          
  3.5                   3.893e-05             4.6e-13               -1.4992e-07           -3.876e-05           
  3.6                   3.9048e-05            5.8e-13               -2.0768e-07           -3.882e-05           
END_DB

BEGIN_DB
 ICCAP_VAR vg         2.522          
 ICCAP_VAR vb         -3.6           
 ICCAP_VAR vs         0              

 #vd                    id                    ig                    ib                    is                   
  0                     1.2968e-08            3.2e-13               -6.18e-12             -1.2252e-08          
  0.1                   2.3882e-05            2.6e-13               -5.4e-12              -2.3862e-05          
  0.2                   4.5262e-05            1.8e-13               -6.82e-12             -4.5242e-05          
  0.3                   6.398e-05             2.2e-13               -6.3e-12              -6.3962e-05          
  0.4                   8.0022e-05            1.8e-13               -7.02e-12             -8.001e-05           
  0.5                   9.3312e-05            2.2e-13               -6.88e-12             -9.3296e-05          
  0.6                   0.000103906           3.2e-13               -6.34e-12             -0.000103888         
  0.7                   0.000111978           1.6e-13               -6.26e-12             -0.000111958         
  0.8                   0.00011794            1.6e-13               -4.7e-12              -0.00011752          
  0.9                   0.00012184            2.6e-13               -6.24e-12             -0.00012142          
  1                     0.00012438            1.8e-13               -6.72e-12             -0.00012398          
  1.1                   0.00012602            2.4e-13               -6.26e-12             -0.0001256           
  1.2                   0.00012706            1.8e-13               -6.82e-12             -0.00012668          
  1.3                   0.00012782            1.6e-13               -5.9e-12              -0.00012742          
  1.4                   0.00012836            1.8e-13               -6.4e-12              -0.00012794          
  1.5                   0.00012876            1.6e-13               -6.2e-12              -0.00012834          
  1.6                   0.00012912            1.4e-13               -5.62e-12             -0.00012874          
  1.7                   0.00012942            2.4e-13               -6.02e-12             -0.00012906          
  1.8                   0.0001297             1.2e-13               -6.12e-12             -0.0001293           
  1.9                   0.00013               1.8e-13               -5.42e-12             -0.0001296           
  2                     0.00013024            6e-14                 -6.6e-12              -0.0001298           
  2.1                   0.0001304             1.4e-13               -7.5e-12              -0.00013002          
  2.2                   0.00013062            1.2e-13               -1.056e-11            -0.00013026          
  2.3                   0.00013086            4e-14                 -2.526e-11            -0.00013046          
  2.4                   0.00013104            2.2e-13               -6.868e-11            -0.00013066          
  2.5                   0.00013124            1.6e-13               -1.8322e-10           -0.00013084          
  2.6                   0.00013142            6e-14                 -4.7098e-10           -0.00013102          
  2.7                   0.00013158            2e-13                 -1.111e-09            -0.00013124          
  2.8                   0.0001318             1.4e-13               -2.431e-09            -0.0001314           
  2.9                   0.00013196            2e-13                 -4.9656e-09           -0.00013154          
  3                     0.00013212            1.2e-13               -9.5222e-09           -0.00013172          
  3.1                   0.0001323             2e-13                 -1.7294e-08           -0.00013186          
  3.2                   0.00013244            3.2e-13               -2.9824e-08           -0.00013202          
  3.3                   0.00013262            3.2e-13               -4.9198e-08           -0.00013214          
  3.4                   0.00013276            5.4e-13               -7.8204e-08           -0.00013228          
  3.5                   0.00013294            8.2e-13               -1.2044e-07           -0.0001324           
  3.6                   0.00013312            1.14e-12              -1.801e-07            -0.00013254          
END_DB

BEGIN_DB
 ICCAP_VAR vg         3.061          
 ICCAP_VAR vb         -3.6           
 ICCAP_VAR vs         0              

 #vd                    id                    ig                    ib                    is                   
  0                     1.7236e-08            3.8e-13               -4.14e-12             -1.5776e-08          
  0.1                   3.3146e-05            3e-13                 -3.66e-12             -3.3126e-05          
  0.2                   6.43e-05              3.2e-13               -4.5e-12              -6.428e-05           
  0.3                   9.318e-05             3e-13                 -5.14e-12             -9.3164e-05          
  0.4                   0.0001199             4.6e-13               -4.92e-12             -0.0001195           
  0.5                   0.00014392            3.2e-13               -5.36e-12             -0.00014354          
  0.6                   0.00016528            2.8e-13               -3.62e-12             -0.00016488          
  0.7                   0.00018396            2.8e-13               -4.98e-12             -0.00018358          
  0.8                   0.0002                1.2e-13               -4.82e-12             -0.0001996           
  0.9                   0.00021336            1.8e-13               -3.98e-12             -0.00021298          
  1                     0.00022416            2e-13                 -4.9e-12              -0.00022378          
  1.1                   0.00023268            2e-13                 -4.86e-12             -0.0002323           
  1.2                   0.00023914            2.2e-13               -4.04e-12             -0.00023878          
  1.3                   0.0002439             1.6e-13               -5.44e-12             -0.0002435           
  1.4                   0.0002472             2e-13                 -4.76e-12             -0.00024684          
  1.5                   0.00024958            1.2e-13               -4.26e-12             -0.00024916          
  1.6                   0.00025118            1.2e-13               -5.12e-12             -0.00025086          
  1.7                   0.00025242            2.2e-13               -4.4e-12              -0.000252            
  1.8                   0.00025332            8e-14                 -4.78e-12             -0.00025294          
  1.9                   0.00025402            4e-14                 -5.78e-12             -0.00025364          
  2                     0.00025462            2.4e-13               -4.1e-12              -0.00025426          
  2.1                   0.00025514            1.2e-13               -4.48e-12             -0.00025476          
  2.2                   0.0002556             8e-14                 -5.64e-12             -0.0002552           
  2.3                   0.000256              1.2e-13               -5.74e-12             -0.00025562          
  2.4                   0.00025638            2.2e-13               -7.4e-12              -0.00025598          
  2.5                   0.00025666            2e-13                 -1.442e-11            -0.00025626          
  2.6                   0.00025698            4e-14                 -3.832e-11            -0.0002566           
  2.7                   0.00025728            6e-14                 -1.0712e-10           -0.0002569           
  2.8                   0.00025758            1.8e-13               -2.8604e-10           -0.00025718          
  2.9                   0.00025784            3e-13                 -7.119e-10            -0.00025748          
  3                     0.00025812            4e-14                 -1.6546e-09           -0.00025774          
  3.1                   0.00025836            6e-14                 -3.5932e-09           -0.000258            
  3.2                   0.00025862            1.8e-13               -7.2922e-09           -0.00025824          
  3.3                   0.00025886            2e-13                 -1.3974e-08           -0.00025848          
  3.4                   0.00025914            3.4e-13               -2.5454e-08           -0.00025872          
  3.5                   0.00025938            4.8e-13               -4.407e-08            -0.0002589           
  3.6                   0.00025962            8.2e-13               -7.3382e-08           -0.00025914          
END_DB

BEGIN_DB
 ICCAP_VAR vg         3.6            
 ICCAP_VAR vb         -3.6           
 ICCAP_VAR vs         0              

 #vd                    id                    ig                    ib                    is                   
  0                     2.0282e-08            3.8e-13               -3.14e-12             -1.981e-08           
  0.1                   3.9784e-05            2.8e-13               -1.82e-12             -3.9762e-05          
  0.2                   7.8036e-05            4e-13                 -4.3e-12              -7.8012e-05          
  0.3                   0.000114464           3e-13                 -4.72e-12             -0.000114448         
  0.4                   0.00014914            3.2e-13               -3.14e-12             -0.00014874          
  0.5                   0.00018152            3.4e-13               -3.04e-12             -0.00018112          
  0.6                   0.00021156            2.6e-13               -4.02e-12             -0.00021118          
  0.7                   0.00023924            1.6e-13               -4.3e-12              -0.00023882          
  0.8                   0.00026438            1.4e-13               -3.44e-12             -0.00026396          
