! VERSION = 6.00
BEGIN_HEADER
 ICCAP_INPUTS
  vd         V  D GROUND SMU1 0.1 LIN        1    0          3.6        37   0.1       
  vg         V  G GROUND SMU2 0.001 LIST       2 3 0.279 0.479 0.679
  vb         V  B GROUND SMU4 0.1 CON        -3.6
  vs         V  S GROUND SMU3 0.1 CON        0
 ICCAP_OUTPUTS
  id         I  D GROUND SMU1 B
  ig         I  G GROUND SMU2 B
  ib         I  B GROUND SMU4 B
  is         I  S GROUND SMU3 B
 ICCAP_VALUES
  MASTER_SETUP_TYPE "~dc_idvd~"
  LINVT_VALUE ""
  LISTVT_VALUE "|idvg|100.0n|-200.0m|1.000m|3|200.0m|200.0m|"
  TYPE "1"
  TEMP " 27.0000 "
  IS_TNOM " 1.00000 "
  MAIN.W "10.00u"
  MAIN.L "300.0n"
  MAIN.AD "3.400p"
  MAIN.AS "3.400p"
  MAIN.PD "20.68u"
  MAIN.PS "20.68u"
  MAIN.NF "1.000"
  MAIN.M "1"
  MAIN.NRD "0.000"
  MAIN.NRS "0.000"
  MAIN.LDRIFT1 "1E-06"
  MAIN.LDRIFT2 "1E-06"
  MAIN.SA "0.000"
  MAIN.SB "0.000"
  MAIN.SD "0.000"
  MAIN.SCA "0.000"
  MAIN.SCB "0.000"
  MAIN.SCC "0.000"
  MAIN.SC "0.000"
  MODULE "S556"
  PIN_D "20"
  PIN_G "1"
  PIN_S "2"
  PIN_B "19"
  PIN_E ""
  PIN_6 ""
  XY_ID ""
  FUNC "Additional"
  STI "SA ref"
  WPE "WPE ref"
  COMMENT ""
  DIS_MEAS ""
  TypeTCI "10"
END_HEADER

BEGIN_DB
 ICCAP_VAR vg         0.279          
 ICCAP_VAR vb         -3.6           
 ICCAP_VAR vs         0              

 #vd                    id                    ig                    ib                    is                   
  0                     1.6e-12               -4.4e-13              -1.988e-11            -1.28e-12            
  0.1                   8.65e-10              -3.6e-13              -1.778e-11            -8.6522e-10          
  0.2                   1.3346e-09            -3e-13                -1.368e-11            -1.332e-09           
  0.3                   1.9268e-09            -3.2e-13              -1.28e-11             -1.9232e-09          
  0.4                   2.693e-09             -2.8e-13              -1.298e-11            -2.6904e-09          
  0.5                   3.6758e-09            -2.6e-13              -1.186e-11            -3.6728e-09          
  0.6                   4.9212e-09            -1.8e-13              -1.142e-11            -4.9152e-09          
  0.7                   6.488e-09             -1.8e-13              -9.46e-12             -6.4834e-09          
  0.8                   8.4602e-09            -1.4e-13              -9.96e-12             -8.4544e-09          
  0.9                   1.08946e-08           -1.4e-13              -8.84e-12             -1.08948e-08         
  1                     1.3922e-08            -2e-13                -8.46e-12             -1.3888e-08          
  1.1                   1.7632e-08            -1.2e-13              -7.1e-12              -1.7592e-08          
  1.2                   2.2112e-08            -8e-14                -7.8e-12              -2.2116e-08          
  1.3                   2.7622e-08            -6e-14                -7.64e-12             -2.7574e-08          
  1.4                   3.4204e-08            -6e-14                -8.7e-12              -3.4196e-08          
  1.5                   4.2128e-08            -1e-13                -1.03e-11             -4.2144e-08          
  1.6                   5.166e-08             -1.6e-13              -1.288e-11            -5.1632e-08          
  1.7                   6.2912e-08            -8e-14                -2.054e-11            -6.296e-08           
  1.8                   7.6364e-08            -8e-14                -3.736e-11            -7.6324e-08          
  1.9                   9.2236e-08            -4e-14                -6.578e-11            -9.2202e-08          
  2                     1.1094e-07            -2e-14                -1.1496e-10           -1.1076e-07          
  2.1                   1.3284e-07            -8e-14                -1.9794e-10           -1.3248e-07          
  2.2                   1.5846e-07            -6e-14                -3.3868e-10           -1.5796e-07          
  2.3                   1.8846e-07            -4e-14                -5.6788e-10           -1.8772e-07          
  2.4                   2.2308e-07            0                     -9.2782e-10           -2.2206e-07          
  2.5                   2.6366e-07            2e-14                 -1.4928e-09           -2.6204e-07          
  2.6                   3.1058e-07            -8e-14                -2.3644e-09           -3.0792e-07          
  2.7                   3.6508e-07            2e-14                 -3.681e-09            -3.6132e-07          
  2.8                   4.282e-07             -2e-14                -5.6526e-09           -4.2248e-07          
  2.9                   5.0094e-07            6e-14                 -8.5502e-09           -4.9244e-07          
  3                     5.8596e-07            0                     -1.275e-08            -5.7296e-07          
  3.1                   6.8342e-07            2e-14                 -1.8718e-08           -6.645e-07           
  3.2                   7.9572e-07            0                     -2.7076e-08           -7.689e-07           
  3.3                   9.2582e-07            2e-14                 -3.8572e-08           -8.87e-07            
  3.4                   1.07572e-06           0                     -5.4234e-08           -1.02184e-06         
  3.5                   1.2512e-06            2e-14                 -7.5218e-08           -1.1716e-06          
  3.6                   1.4508e-06            2e-14                 -1.02924e-07          -1.3438e-06          
END_DB

BEGIN_DB
 ICCAP_VAR vg         0.479          
 ICCAP_VAR vb         -3.6           
 ICCAP_VAR vs         0              

 #vd                    id                    ig                    ib                    is                   
  0                     1.8556e-10            0                     -2.84e-12             -1.875e-10           
  0.1                   1.5714e-07            2e-14                 -3.66e-12             -1.5696e-07          
  0.2                   2.362e-07             1.2e-13               -4.12e-12             -2.3644e-07          
  0.3                   3.2356e-07            0                     -3.54e-12             -3.2342e-07          
  0.4                   4.2528e-07            0                     -4.06e-12             -4.2534e-07          
  0.5                   5.4432e-07            4e-14                 -5.12e-12             -5.4418e-07          
  0.6                   6.8224e-07            2e-14                 -3.12e-12             -6.8216e-07          
  0.7                   8.4488e-07            2e-14                 -3.5e-12              -8.4482e-07          
  0.8                   1.03238e-06           4e-14                 -4.56e-12             -1.03156e-06         
  0.9                   1.2514e-06            1.4e-13               -3.52e-12             -1.2476e-06          
  1                     1.5024e-06            6e-14                 -3.44e-12             -1.4984e-06          
  1.1                   1.7928e-06            1.2e-13               -3.88e-12             -1.789e-06           
  1.2                   2.1258e-06            4e-14                 -5.16e-12             -2.1228e-06          
  1.3                   2.508e-06             1.4e-13               -1.12e-11             -2.5034e-06          
  1.4                   2.943e-06             6e-14                 -3.17e-11             -2.9384e-06          
  1.5                   3.437e-06             1.2e-13               -8.936e-11            -3.4326e-06          
  1.6                   3.9934e-06            1e-13                 -2.2112e-10           -3.9896e-06          
  1.7                   4.6192e-06            1.6e-13               -5.1118e-10           -4.617e-06           
  1.8                   5.32e-06              0                     -1.0854e-09           -5.3158e-06          
  1.9                   6.1034e-06            8e-14                 -2.1476e-09           -6.0968e-06          
  2                     6.9734e-06            1.2e-13               -4.0004e-09           -6.9654e-06          
  2.1                   7.9412e-06            4e-14                 -7.1082e-09           -7.9298e-06          
  2.2                   8.995e-06             1.6e-13               -1.212e-08            -8.9874e-06          
  2.3                   1.01724e-05           8e-14                 -1.9982e-08           -1.01502e-05         
  2.4                   1.1458e-05            2e-13                 -3.2006e-08           -1.14154e-05         
  2.5                   1.2858e-05            1.6e-13               -5.008e-08            -1.2784e-05          
  2.6                   1.4376e-05            4e-14                 -7.6822e-08           -1.4278e-05          
  2.7                   1.6028e-05            4e-14                 -1.155e-07            -1.589e-05           
  2.8                   1.782e-05             6e-14                 -1.7108e-07           -1.7628e-05          
  2.9                   1.9766e-05            0                     -2.4928e-07           -1.9496e-05          
  3                     2.1882e-05            1.8e-13               -3.5786e-07           -2.1506e-05          
  3.1                   2.4174e-05            8e-14                 -5.0592e-07           -2.3652e-05          
  3.2                   2.6666e-05            1.2e-13               -7.0456e-07           -2.5944e-05          
  3.3                   2.9372e-05            1.4e-13               -9.6516e-07           -2.8386e-05          
  3.4                   3.2306e-05            4e-14                 -1.3032e-06           -3.0976e-05          
  3.5                   3.55e-05              1.4e-13               -1.7374e-06           -3.3742e-05          
  3.6                   3.8978e-05            1.6e-13               -2.2834e-06           -3.6674e-05          
END_DB

BEGIN_DB
 ICCAP_VAR vg         0.679          
 ICCAP_VAR vb         -3.6           
 ICCAP_VAR vs         0              

 #vd                    id                    ig                    ib                    is                   
  0                     3.4056e-09            -2e-14                -2.18e-12             -4.4144e-09          
  0.1                   7.1054e-06            4e-14                 -3.44e-12             -7.098e-06           
  0.2                   1.06256e-05           2e-13                 -2.22e-12             -1.06248e-05         
  0.3                   1.3802e-05            8e-14                 -3.84e-12             -1.3778e-05          
  0.4                   1.7026e-05            2e-14                 -2.58e-12             -1.7014e-05          
  0.5                   2.0428e-05            8e-14                 -2.48e-12             -2.04e-05            
  0.6                   2.3994e-05            6e-14                 -3.94e-12             -2.3974e-05          
  0.7                   2.7788e-05            1e-13                 -3.24e-12             -2.776e-05           
  0.8                   3.1788e-05            6e-14                 -3.54e-12             -3.176e-05           
  0.9                   3.5994e-05            1.2e-13               -3.42e-12             -3.5984e-05          
  1                     4.0442e-05            6e-14                 -1.4e-12              -4.0408e-05          
  1.1                   4.5094e-05            1.8e-13               -4.92e-12             -4.5074e-05          
  1.2                   4.9966e-05            8e-14                 -1.288e-11            -4.9946e-05          
  1.3                   5.5092e-05            1e-13                 -4.772e-11            -5.5064e-05          
  1.4                   6.0434e-05            2e-13                 -1.8474e-10           -6.0402e-05          
  1.5                   6.597e-05             6e-14                 -5.9396e-10           -6.5968e-05          
  1.6                   7.177e-05             1.8e-13               -1.6402e-09           -7.1722e-05          
  1.7                   7.7738e-05            1.2e-13               -3.9744e-09           -7.7724e-05          
  1.8                   8.3956e-05            8e-14                 -8.6684e-09           -8.3926e-05          
  1.9                   9.0392e-05            2e-14                 -1.7356e-08           -9.0384e-05          
  2                     9.7046e-05            1.6e-13               -3.2244e-08           -9.696e-05           
  2.1                   0.000103896           1.2e-13               -5.6612e-08           -0.0001038           
  2.2                   0.000110926           1e-13                 -9.4694e-08           -0.00011082          
  2.3                   0.00011838            1e-13                 -1.5224e-07           -0.0001178           
  2.4                   0.00012588            1.4e-13               -2.3712e-07           -0.00012526          
  2.5                   0.00013362            1.6e-13               -3.5954e-07           -0.00013288          
  2.6                   0.00014162            2.2e-13               -5.333e-07            -0.0001407           
  2.7                   0.00014988            2.4e-13               -7.756e-07            -0.0001487           
  2.8                   0.00015838            1.8e-13               -1.10936e-06          -0.00015692          
  2.9                   0.00016726            2e-14                 -1.5624e-06           -0.00016538          
  3                     0.00017656            0                     -2.1712e-06           -0.00017396          
  3.1                   0.00018616            1.4e-13               -2.9748e-06           -0.00018284          
  3.2                   0.00019628            1.4e-13               -4.0206e-06           -0.0001919           
  3.3                   0.00020694            1.4e-13               -5.3562e-06           -0.00020118          
  3.4                   0.00021818            1.6e-13               -7.0438e-06           -0.00021076          
  3.5                   0.00023012            2.4e-13               -9.142e-06            -0.0002206           
  3.6                   0.00024296            6e-14                 -1.1706e-05           -0.00023088          
END_DB

