! VERSION = 6.00
BEGIN_HEADER
 ICCAP_INPUTS
  vd         V  D GROUND SMU1 0.1 LIN        1    0          3.6        37   0.1       
  vg         V  G GROUND SMU2 0.001 LIST       2 3 0.322 0.522 0.722
  vb         V  B GROUND SMU4 0.1 CON        0
  vs         V  S GROUND SMU3 0.1 CON        0
 ICCAP_OUTPUTS
  id         I  D GROUND SMU1 B
  ig         I  G GROUND SMU2 B
  ib         I  B GROUND SMU4 B
  is         I  S GROUND SMU3 B
 ICCAP_VALUES
  MASTER_SETUP_TYPE "~dc_idvd~"
  LINVT_VALUE ""
  LISTVT_VALUE "|idvg|100.0n|-200.0m|1.000m|3|200.0m|200.0m|"
  TYPE "1"
  TEMP " 70.0000 "
  IS_TNOM " 0.00000 "
  MAIN.W "300.0n"
  MAIN.L "10.00u"
  MAIN.AD "102.0f"
  MAIN.AS "102.0f"
  MAIN.PD "1.280u"
  MAIN.PS "1.280u"
  MAIN.NF "1.000"
  MAIN.M "1"
  MAIN.NRD "0.000"
  MAIN.NRS "0.000"
  MAIN.LDRIFT1 "1E-06"
  MAIN.LDRIFT2 "1E-06"
  MAIN.SA "0.000"
  MAIN.SB "0.000"
  MAIN.SD "0.000"
  MAIN.SCA "0.000"
  MAIN.SCB "0.000"
  MAIN.SCC "0.000"
  MAIN.SC "0.000"
  MODULE "S547"
  PIN_D "14"
  PIN_G "7"
  PIN_S "8"
  PIN_B "13"
  PIN_E ""
  PIN_6 ""
  XY_ID ""
  FUNC "Narrow"
  STI "SA ref"
  WPE "WPE ref"
  COMMENT ""
  DIS_MEAS ""
  TypeTCI "10"
END_HEADER

BEGIN_DB
 ICCAP_VAR vg         0.322          
 ICCAP_VAR vb         0              
 ICCAP_VAR vs         0              

 #vd                    id                    ig                    ib                    is                   
  0                     -3e-13                -7.2e-13              3.94e-12              2e-14                
  0.1                   3.574e-11             -5.8e-13              3.98e-12              -3.562e-11           
  0.2                   3.716e-11             -4.6e-13              2.5e-12               -3.702e-11           
  0.3                   3.738e-11             -5.4e-13              3.1e-12               -3.698e-11           
  0.4                   3.756e-11             -4e-13                3.1e-12               -3.704e-11           
  0.5                   3.772e-11             -5.8e-13              1.96e-12              -3.696e-11           
  0.6                   3.766e-11             -4.2e-13              1.78e-12              -3.712e-11           
  0.7                   3.774e-11             -4e-13                4.04e-12              -3.708e-11           
  0.8                   3.782e-11             -5.6e-13              3.36e-12              -3.704e-11           
  0.9                   3.782e-11             -4.2e-13              2.7e-12               -3.712e-11           
  1                     3.786e-11             -3.6e-13              3.66e-12              -3.706e-11           
  1.1                   3.798e-11             -4.2e-13              3.18e-12              -3.694e-11           
  1.2                   3.796e-11             -3.2e-13              2.7e-12               -3.716e-11           
  1.3                   3.808e-11             -5e-13                2.22e-12              -3.704e-11           
  1.4                   3.808e-11             -2e-13                3.64e-12              -3.728e-11           
  1.5                   3.804e-11             -3.4e-13              1.92e-12              -3.712e-11           
  1.6                   3.818e-11             -1.4e-13              1.82e-12              -3.716e-11           
  1.7                   3.818e-11             -2.8e-13              3.94e-12              -3.718e-11           
  1.8                   3.818e-11             -1.8e-13              1.74e-12              -3.71e-11            
  1.9                   3.826e-11             -2.8e-13              2.88e-12              -3.708e-11           
  2                     3.822e-11             -2.2e-13              2.78e-12              -3.716e-11           
  2.1                   3.834e-11             -2e-13                2.06e-12              -3.708e-11           
  2.2                   3.836e-11             -1.6e-13              1.78e-12              -3.716e-11           
  2.3                   3.842e-11             -2.8e-13              2.22e-12              -3.712e-11           
  2.4                   3.842e-11             -1.6e-13              3.12e-12              -3.726e-11           
  2.5                   3.85e-11              -2.8e-13              2.26e-12              -3.716e-11           
  2.6                   3.864e-11             -2.4e-13              2.8e-12               -3.716e-11           
  2.7                   3.856e-11             -2e-13                3.04e-12              -3.72e-11            
  2.8                   3.872e-11             -2.8e-13              2.02e-12              -3.722e-11           
  2.9                   3.886e-11             -2.6e-13              1.96e-12              -3.722e-11           
  3                     3.912e-11             -1.6e-13              2.88e-12              -3.732e-11           
  3.1                   3.918e-11             -1.4e-13              1.96e-12              -3.722e-11           
  3.2                   3.936e-11             -3e-13                1.58e-12              -3.724e-11           
  3.3                   3.958e-11             -1e-13                2.9e-12               -3.734e-11           
  3.4                   3.986e-11             -3.2e-13              2.8e-13               -3.718e-11           
  3.5                   4.018e-11             -6e-14                1.18e-12              -3.742e-11           
  3.6                   4.054e-11             -2e-13                1.8e-13               -3.718e-11           
END_DB

BEGIN_DB
 ICCAP_VAR vg         0.522          
 ICCAP_VAR vb         0              
 ICCAP_VAR vs         0              

 #vd                    id                    ig                    ib                    is                   
  0                     2e-12                 8e-14                 3.12e-12              -3.34e-12            
  0.1                   2.9052e-09            -4e-14                1.5e-12               -2.9036e-09          
  0.2                   3.0708e-09            -1e-13                2e-12                 -3.0684e-09          
  0.3                   3.08e-09              1.2e-13               3.34e-12              -3.0776e-09          
  0.4                   3.0816e-09            -1.2e-13              2.7e-12               -3.079e-09           
  0.5                   3.0838e-09            -1e-13                2.2e-12               -3.0834e-09          
  0.6                   3.0854e-09            -4e-14                2.1e-12               -3.0832e-09          
  0.7                   3.087e-09             1e-13                 2.18e-12              -3.0848e-09          
  0.8                   3.0868e-09            1e-13                 2.48e-12              -3.0864e-09          
  0.9                   3.09e-09              -8e-14                2.26e-12              -3.0878e-09          
  1                     3.0888e-09            4e-14                 2.44e-12              -3.0892e-09          
  1.1                   3.0912e-09            -1.8e-13              1.72e-12              -3.09e-09            
  1.2                   3.0926e-09            -2e-14                1.7e-12               -3.09e-09            
  1.3                   3.0926e-09            2e-14                 2.54e-12              -3.0892e-09          
  1.4                   3.0932e-09            -2.6e-13              2.98e-12              -3.0906e-09          
  1.5                   3.094e-09             -8e-14                2.68e-12              -3.0926e-09          
  1.6                   3.0956e-09            4e-14                 1.88e-12              -3.0914e-09          
  1.7                   3.0944e-09            -6e-14                2e-12                 -3.0916e-09          
  1.8                   3.096e-09             -1.2e-13              1.9e-12               -3.0926e-09          
  1.9                   3.098e-09             -4e-14                2.4e-12               -3.0946e-09          
  2                     3.0986e-09            1e-13                 2.28e-12              -3.0956e-09          
  2.1                   3.0992e-09            -6e-14                1.42e-12              -3.095e-09           
  2.2                   3.1022e-09            -2e-14                -6.2e-13              -3.0966e-09          
  2.3                   3.1028e-09            -4e-14                -6e-13                -3.097e-09           
  2.4                   3.1046e-09            2e-14                 -1.7e-12              -3.098e-09           
  2.5                   3.1072e-09            -1.6e-13              -2.7e-12              -3.0984e-09          
  2.6                   3.111e-09             -2e-13                -6.98e-12             -3.0978e-09          
  2.7                   3.1124e-09            2e-14                 -9.96e-12             -3.098e-09           
  2.8                   3.1176e-09            0                     -1.402e-11            -3.0994e-09          
  2.9                   3.124e-09             -1.2e-13              -1.96e-11             -3.1002e-09          
  3                     3.1308e-09            -2e-14                -2.502e-11            -3.1002e-09          
  3.1                   3.1396e-09            -2e-13                -3.498e-11            -3.0996e-09          
  3.2                   3.1514e-09            -8e-14                -4.446e-11            -3.1014e-09          
  3.3                   3.1648e-09            -6e-14                -5.816e-11            -3.1024e-09          
  3.4                   3.1804e-09            -4e-14                -7.282e-11            -3.1024e-09          
  3.5                   3.1992e-09            0                     -8.972e-11            -3.1022e-09          
  3.6                   3.2214e-09            -1.6e-13              -1.119e-10            -3.104e-09           
END_DB

BEGIN_DB
 ICCAP_VAR vg         0.722          
 ICCAP_VAR vb         0              
 ICCAP_VAR vs         0              

 #vd                    id                    ig                    ib                    is                   
  0                     2.142e-11             2e-14                 3.1e-12               -1.98e-11            
  0.1                   3.2972e-08            -8e-14                2.26e-12              -3.296e-08           
  0.2                   4.104e-08             8e-14                 1.54e-12              -4.1024e-08          
  0.3                   4.1916e-08            -8e-14                2.64e-12              -4.1932e-08          
  0.4                   4.2008e-08            2e-14                 2.5e-12               -4.199e-08           
  0.5                   4.204e-08             2e-14                 1.08e-12              -4.203e-08           
  0.6                   4.207e-08             0                     1.28e-12              -4.2052e-08          
  0.7                   4.2084e-08            -2e-14                3.2e-12               -4.2064e-08          
  0.8                   4.2084e-08            0                     1.6e-12               -4.2064e-08          
  0.9                   4.2094e-08            -1e-13                1.7e-12               -4.2066e-08          
  1                     4.2102e-08            1.2e-13               1.7e-12               -4.21e-08            
  1.1                   4.2138e-08            4e-14                 2.5e-12               -4.2116e-08          
  1.2                   4.215e-08             -4e-14                3.08e-12              -4.213e-08           
  1.3                   4.214e-08             0                     1.14e-12              -4.2144e-08          
  1.4                   4.217e-08             0                     1.06e-12              -4.2154e-08          
  1.5                   4.2156e-08            0                     1.94e-12              -4.212e-08           
  1.6                   4.2162e-08            0                     1.92e-12              -4.2152e-08          
  1.7                   4.2166e-08            -4e-14                1.7e-12               -4.2174e-08          
  1.8                   4.22e-08              0                     5.4e-13               -4.2192e-08          
  1.9                   4.2206e-08            -8e-14                -5.6e-13              -4.2196e-08          
  2                     4.2224e-08            0                     -5.6e-13              -4.2178e-08          
  2.1                   4.2238e-08            8e-14                 -6.18e-12             -4.221e-08           
  2.2                   4.2246e-08            -2e-13                -1.106e-11            -4.2214e-08          
  2.3                   4.2268e-08            -8e-14                -1.888e-11            -4.2214e-08          
  2.4                   4.228e-08             -4e-14                -2.976e-11            -4.2232e-08          
  2.5                   4.2296e-08            -2e-14                -4.478e-11            -4.2246e-08          
  2.6                   4.2322e-08            -1e-13                -6.668e-11            -4.2234e-08          
  2.7                   4.2354e-08            -2e-14                -9.544e-11            -4.224e-08           
  2.8                   4.2396e-08            -1.8e-13              -1.3068e-10           -4.224e-08           
  2.9                   4.2464e-08            -8e-14                -1.8106e-10           -4.2264e-08          
  3                     4.2532e-08            4e-14                 -2.4264e-10           -4.2258e-08          
  3.1                   4.2606e-08            4e-14                 -3.2208e-10           -4.227e-08           
  3.2                   4.2714e-08            1.4e-13               -4.2172e-10           -4.2284e-08          
  3.3                   4.2862e-08            -2.2e-13              -5.4652e-10           -4.229e-08           
  3.4                   4.3022e-08            -4e-14                -7.0192e-10           -4.2288e-08          
  3.5                   4.321e-08             -8e-14                -8.8878e-10           -4.2302e-08          
  3.6                   4.3448e-08            4e-14                 -1.1126e-09           -4.232e-08           
END_DB

