! VERSION = 6.00
BEGIN_HEADER
 ICCAP_INPUTS
  vg         V  G GROUND SMU2 0.001 LIN        1    -0.5       3.6        83   0.05      
  vb         V  B GROUND SMU4 0.1 LIN        2    0          -3.6       5    -0.9      
  vd         V  D GROUND SMU1 0.1 LIN        3    0.1        3.3        3    1.6       
  vs         V  S GROUND SMU3 0.1 CON        0
 ICCAP_OUTPUTS
  id         I  D GROUND SMU1 B
  ig         I  G GROUND SMU2 B
  ib         I  B GROUND SMU4 B
  is         I  S GROUND SMU3 B
 ICCAP_VALUES
  MASTER_SETUP_TYPE "~dc_idvg~"
  LINVT_VALUE ""
  LISTVT_VALUE ""
  TYPE "1"
  TEMP " 70.0000 "
  IS_TNOM " 0.00000 "
  MAIN.W "10.00u"
  MAIN.L "10.00u"
  MAIN.AD "3.400p"
  MAIN.AS "3.400p"
  MAIN.PD "20.68u"
  MAIN.PS "20.68u"
  MAIN.NF "1.000"
  MAIN.M "1"
  MAIN.NRD "0.000"
  MAIN.NRS "0.000"
  MAIN.LDRIFT1 "1E-06"
  MAIN.LDRIFT2 "1E-06"
  MAIN.SA "0.000"
  MAIN.SB "0.000"
  MAIN.SD "0.000"
  MAIN.SCA "0.000"
  MAIN.SCB "0.000"
  MAIN.SCC "0.000"
  MAIN.SC "0.000"
  MODULE "S557"
  PIN_D "16"
  PIN_G "5"
  PIN_S "6"
  PIN_B "15"
  PIN_E ""
  PIN_6 ""
  XY_ID ""
  FUNC "Large"
  STI "SA ref"
  WPE "WPE ref"
  COMMENT ""
  DIS_MEAS ""
  TypeTCI "10"
END_HEADER

BEGIN_DB
 ICCAP_VAR vb         0              
 ICCAP_VAR vd         0.1            
 ICCAP_VAR vs         0              

 #vg                    id                    ig                    ib                    is                   
  -0.5                  2.2e-13               -1.6426e-09           1.6514e-09            1e-13                
  -0.45                 -8e-14                -3.0828e-10           3.2006e-10            1e-13                
  -0.4                  8e-14                 -5.81e-11             6.982e-11             1.4e-13              
  -0.35                 2e-14                 -1.116e-11            2.1e-11               6e-14                
  -0.3                  0                     -2.04e-12             1.314e-11             1.8e-13              
  -0.25                 6e-14                 -3.6e-13              1.168e-11             -2e-14               
  -0.2                  6e-14                 2e-14                 1.088e-11             1.4e-13              
  -0.15                 1e-13                 2e-13                 1e-11                 1e-13                
  -0.1                  1e-13                 1.8e-13               9.84e-12              -1.4e-13             
  -0.05                 1.4e-13               2.6e-13               1.118e-11             -8e-14               
  0                     4.8e-13               3.8e-13               1.072e-11             -4.8e-13             
  0.05                  1.28e-12              4e-13                 1.026e-11             -1.18e-12            
  0.1                   4.14e-12              4e-13                 9.02e-12              -3.98e-12            
  0.15                  1.34e-11              3.6e-13               1e-11                 -1.36e-11            
  0.2                   4.434e-11             4.2e-13               9.14e-12              -4.404e-11           
  0.25                  1.472e-10             3.4e-13               1.03e-11              -1.4716e-10          
  0.3                   4.9112e-10            4.6e-13               1.104e-11             -4.9084e-10          
  0.35                  1.6444e-09            2.2e-13               9.44e-12              -1.6434e-09          
  0.4                   5.3914e-09            2.8e-13               9.78e-12              -5.3902e-09          
  0.45                  1.6906e-08            4.2e-13               9.92e-12              -1.6888e-08          
  0.5                   4.809e-08             4.8e-13               9.08e-12              -4.8066e-08          
  0.55                  1.2008e-07            5e-13                 9.18e-12              -1.2004e-07          
  0.6                   2.5744e-07            4.2e-13               8.62e-12              -2.5738e-07          
  0.65                  4.8052e-07            5.6e-13               8.26e-12              -4.8044e-07          
  0.7                   7.925e-07             4.8e-13               1.02e-11              -7.925e-07           
  0.75                  1.188e-06             3.2e-13               8.14e-12              -1.1846e-06          
  0.8                   1.6458e-06            4.8e-13               7.96e-12              -1.6426e-06          
  0.85                  2.1556e-06            4.2e-13               8.98e-12              -2.1524e-06          
  0.9                   2.7004e-06            6.4e-13               9.56e-12              -2.6972e-06          
  0.95                  3.2724e-06            5.6e-13               8.08e-12              -3.269e-06           
  1                     3.8638e-06            5.8e-13               7.82e-12              -3.8604e-06          
  1.05                  4.4716e-06            6.8e-13               7.64e-12              -4.4682e-06          
  1.1                   5.0878e-06            4.4e-13               9.38e-12              -5.0842e-06          
  1.15                  5.7104e-06            5.8e-13               8.7e-12               -5.707e-06           
  1.2                   6.3374e-06            5.2e-13               7.76e-12              -6.334e-06           
  1.25                  6.9672e-06            6.6e-13               7.04e-12              -6.9636e-06          
  1.3                   7.5998e-06            6.4e-13               7.96e-12              -7.5966e-06          
  1.35                  8.2302e-06            6.8e-13               8.44e-12              -8.2268e-06          
  1.4                   8.8586e-06            6.8e-13               6.96e-12              -8.8554e-06          
  1.45                  9.485e-06             6e-13                 7.6e-12               -9.4816e-06          
  1.5                   1.01102e-05           7e-13                 6.86e-12              -1.01068e-05         
  1.55                  1.0729e-05            7.4e-13               8.62e-12              -1.07256e-05         
  1.6                   1.13424e-05           7e-13                 7.24e-12              -1.1339e-05          
  1.65                  1.1954e-05            6.2e-13               7.92e-12              -1.195e-05           
  1.7                   1.256e-05             6.2e-13               6.56e-12              -1.2554e-05          
  1.75                  1.3156e-05            6.8e-13               6.5e-12               -1.315e-05           
  1.8                   1.3746e-05            8.2e-13               8.76e-12              -1.3742e-05          
  1.85                  1.4328e-05            6.2e-13               7.1e-12               -1.4324e-05          
  1.9                   1.4906e-05            8.2e-13               5.66e-12              -1.49e-05            
  1.95                  1.5472e-05            8e-13                 6.18e-12              -1.5468e-05          
  2                     1.6034e-05            7.2e-13               7.82e-12              -1.6028e-05          
  2.05                  1.6586e-05            7e-13                 7.26e-12              -1.658e-05           
  2.1                   1.7128e-05            6.8e-13               6.4e-12               -1.7122e-05          
  2.15                  1.7662e-05            7e-13                 6.7e-12               -1.7656e-05          
  2.2                   1.8186e-05            8e-13                 7.5e-12               -1.818e-05           
  2.25                  1.8702e-05            6.6e-13               6.6e-12               -1.8696e-05          
  2.3                   1.9206e-05            8.8e-13               7.14e-12              -1.92e-05            
  2.35                  1.9702e-05            8e-13                 6.28e-12              -1.9698e-05          
  2.4                   2.0188e-05            9.4e-13               6.32e-12              -2.0184e-05          
  2.45                  2.0664e-05            8.4e-13               6.8e-12               -2.0658e-05          
  2.5                   2.1132e-05            7.6e-13               7.76e-12              -2.1126e-05          
  2.55                  2.1586e-05            9.4e-13               6.66e-12              -2.1582e-05          
  2.6                   2.2032e-05            7.8e-13               5.58e-12              -2.2026e-05          
  2.65                  2.2468e-05            6.8e-13               6.16e-12              -2.2462e-05          
  2.7                   2.2892e-05            8.6e-13               6.52e-12              -2.2886e-05          
  2.75                  2.3308e-05            8.8e-13               6.98e-12              -2.3302e-05          
  2.8                   2.3712e-05            8e-13                 5.9e-12               -2.3708e-05          
  2.85                  2.4106e-05            7e-13                 6.1e-12               -2.4102e-05          
  2.9                   2.449e-05             8e-13                 5.7e-12               -2.4486e-05          
  2.95                  2.4866e-05            9.2e-13               7.76e-12              -2.4862e-05          
  3                     2.523e-05             8.4e-13               5.16e-12              -2.5224e-05          
  3.05                  2.5584e-05            8.6e-13               4.72e-12              -2.5578e-05          
  3.1                   2.5928e-05            8.6e-13               6.18e-12              -2.5922e-05          
  3.15                  2.6262e-05            8e-13                 5.74e-12              -2.6256e-05          
  3.2                   2.6586e-05            9.6e-13               6.1e-12               -2.6582e-05          
  3.25                  2.6902e-05            8.6e-13               5.46e-12              -2.6898e-05          
  3.3                   2.7208e-05            9.4e-13               5.3e-12               -2.7204e-05          
  3.35                  2.7504e-05            1.02e-12              5.2e-12               -2.7498e-05          
  3.4                   2.7792e-05            8.8e-13               6.56e-12              -2.7786e-05          
  3.45                  2.807e-05             9.8e-13               6.08e-12              -2.8064e-05          
  3.5                   2.834e-05             8e-13                 5.92e-12              -2.8334e-05          
  3.55                  2.86e-05              9.2e-13               5.36e-12              -2.8594e-05          
  3.6                   2.8852e-05            1.08e-12              6.06e-12              -2.8848e-05          
END_DB

BEGIN_DB
 ICCAP_VAR vb         -0.9           
 ICCAP_VAR vd         0.1            
 ICCAP_VAR vs         0              

 #vg                    id                    ig                    ib                    is                   
  -0.5                  2.4e-13               -5.6e-13              -1.736e-11            2e-14                
  -0.45                 2.4e-13               -3.8e-13              -1.63e-11             3e-13                
  -0.4                  4e-14                 -4e-13                -1.386e-11            4e-14                
  -0.35                 2e-13                 -2.4e-13              -1.212e-11            2.4e-13              
  -0.3                  1.2e-13               -1.4e-13              -1.048e-11            2e-13                
  -0.25                 1e-13                 -1.6e-13              -9.52e-12             8e-14                
  -0.2                  1e-13                 -2e-14                -1.078e-11            6e-14                
  -0.15                 2e-14                 0                     -9.32e-12             1.6e-13              
  -0.1                  6e-14                 0                     -8.04e-12             8e-14                
  -0.05                 6e-14                 8e-14                 -7.18e-12             6e-14                
  0                     1.4e-13               1e-13                 -6.88e-12             1.2e-13              
  0.05                  1.2e-13               1.6e-13               -6.5e-12              6e-14                
  0.1                   1e-13                 6e-14                 -6.64e-12             8e-14                
  0.15                  1e-13                 1.8e-13               -6.86e-12             1.4e-13              
  0.2                   1.8e-13               2e-13                 -5.76e-12             3.2e-13              
  0.25                  1.6e-13               3.2e-13               -4.28e-12             -6e-14               
  0.3                   4.6e-13               2.4e-13               -4.66e-12             -1e-13               
  0.35                  1.3e-12               4.2e-13               -5.2e-12              -1.24e-12            
  0.4                   4.92e-12              3.4e-13               -5.28e-12             -4.96e-12            
  0.45                  1.864e-11             2e-13                 -5.08e-12             -1.834e-11           
  0.5                   7.066e-11             4.2e-13               -3.62e-12             -7.076e-11           
  0.55                  2.686e-10             3.2e-13               -3.52e-12             -2.6852e-10          
  0.6                   1.0082e-09            4.6e-13               -3.2e-12              -1.00832e-09         
  0.65                  3.7156e-09            3.2e-13               -3.8e-12              -3.714e-09           
  0.7                   1.2854e-08            3.8e-13               -3.32e-12             -1.2836e-08          
  0.75                  3.9996e-08            4.6e-13               -4e-12                -3.9986e-08          
  0.8                   1.06062e-07           3e-13                 -1.6e-12              -1.06018e-07         
  0.85                  2.3782e-07            3.2e-13               -3.74e-12             -2.3778e-07          
  0.9                   4.5356e-07            5.2e-13               -3e-12                -4.5356e-07          
  0.95                  7.5718e-07            4.6e-13               -2.14e-12             -7.5712e-07          
  1                     1.13832e-06           6.8e-13               -1.3e-12              -1.13842e-06         
  1.05                  1.5844e-06            4.2e-13               -2.76e-12             -1.5806e-06          
  1.1                   2.074e-06             5.8e-13               -2.04e-12             -2.0706e-06          
  1.15                  2.5984e-06            3.6e-13               -1.72e-12             -2.5948e-06          
  1.2                   3.1478e-06            5.8e-13               -2.12e-12             -3.1444e-06          
  1.25                  3.7158e-06            6.4e-13               -2.16e-12             -3.7124e-06          
  1.3                   4.2992e-06            4.8e-13               -2.32e-12             -4.296e-06           
  1.35                  4.8902e-06            6.6e-13               -2.08e-12             -4.887e-06           
  1.4                   5.4876e-06            5.4e-13               -8e-13                -5.484e-06           
  1.45                  6.0884e-06            5.8e-13               -2.2e-12              -6.0852e-06          
  1.5                   6.6942e-06            4.6e-13               -2.32e-12             -6.6906e-06          
  1.55                  7.2978e-06            5.4e-13               -1.18e-12             -7.2944e-06          
  1.6                   7.8996e-06            7e-13                 -3.2e-13              -7.8962e-06          
  1.65                  8.5018e-06            5.4e-13               -1.58e-12             -8.4984e-06          
  1.7                   9.1006e-06            7.6e-13               -2.66e-12             -9.0974e-06          
  1.75                  9.694e-06             5.4e-13               -2.64e-12             -9.6908e-06          
  1.8                   1.02846e-05           6e-13                 -1.32e-12             -1.0281e-05          
  1.85                  1.08682e-05           7.4e-13               -3.8e-13              -1.08648e-05         
  1.9                   1.1448e-05            6e-13                 -1.92e-12             -1.14444e-05         
  1.95                  1.202e-05             5.8e-13               -7.2e-13              -1.2016e-05          
  2                     1.2586e-05            5.2e-13               -1.16e-12             -1.2582e-05          
  2.05                  1.3148e-05            6.8e-13               -4.8e-13              -1.3142e-05          
  2.1                   1.3696e-05            6.6e-13               -5.6e-13              -1.3692e-05          
  2.15                  1.424e-05             7.6e-13               -1e-12                -1.4234e-05          
  2.2                   1.4774e-05            6.4e-13               -2.36e-12             -1.4768e-05          
  2.25                  1.53e-05              7e-13                 -6e-13                -1.5294e-05          
  2.3                   1.5816e-05            6.2e-13               2.6e-13               -1.581e-05           
  2.35                  1.6324e-05            7.2e-13               -1.16e-12             -1.632e-05           
  2.4                   1.6822e-05            7e-13                 -1.94e-12             -1.6818e-05          
  2.45                  1.7312e-05            7.6e-13               -1.62e-12             -1.7306e-05          
  2.5                   1.7792e-05            8.2e-13               -5.4e-13              -1.7786e-05          
  2.55                  1.826e-05             6.6e-13               2e-13                 -1.8256e-05          
  2.6                   1.872e-05             6.8e-13               -1.58e-12             -1.8714e-05          
  2.65                  1.917e-05             8.2e-13               -1.26e-12             -1.9164e-05          
  2.7                   1.9608e-05            6.6e-13               -8.6e-13              -1.9604e-05          
  2.75                  2.004e-05             7.8e-13               -2e-13                -2.0034e-05          
  2.8                   2.0458e-05            7.2e-13               -3.4e-13              -2.0452e-05          
  2.85                  2.0868e-05            9e-13                 -1.5e-12              -2.0862e-05          
  2.9                   2.1266e-05            7.8e-13               -3.6e-13              -2.1262e-05          
  2.95                  2.1656e-05            8.2e-13               -2e-13                -2.1652e-05          
  3                     2.2036e-05            8.2e-13               5e-13                 -2.2032e-05          
  3.05                  2.2406e-05            6.8e-13               -7.8e-13              -2.24e-05            
  3.1                   2.2764e-05            8.2e-13               -1.08e-12             -2.276e-05           
  3.15                  2.3116e-05            8.2e-13               -8e-13                -2.311e-05           
  3.2                   2.3454e-05            6.8e-13               -3e-13                -2.3448e-05          
  3.25                  2.3786e-05            7.8e-13               -6e-14                -2.378e-05           
  3.3                   2.4108e-05            7e-13                 -9.6e-13              -2.4102e-05          
  3.35                  2.4418e-05            8.2e-13               -6.8e-13              -2.4412e-05          
  3.4                   2.4722e-05            8.8e-13               -1.66e-12             -2.4716e-05          
  3.45                  2.5014e-05            8.2e-13               6.4e-13               -2.5008e-05          
