! VERSION = 6.00
BEGIN_HEADER
 ICCAP_INPUTS
  vg         V  G GROUND SMU2 0.001 LIN        1    -0.5       3.6        83   0.05      
  vb         V  B GROUND SMU4 0.1 LIN        2    0          -3.6       5    -0.9      
  vd         V  D GROUND SMU1 0.1 LIN        3    0.1        3.3        3    1.6       
  vs         V  S GROUND SMU3 0.1 CON        0
 ICCAP_OUTPUTS
  id         I  D GROUND SMU1 B
  ig         I  G GROUND SMU2 B
  ib         I  B GROUND SMU4 B
  is         I  S GROUND SMU3 B
 ICCAP_VALUES
  MASTER_SETUP_TYPE "~dc_idvg~"
  LINVT_VALUE ""
  LISTVT_VALUE ""
  TYPE "1"
  TEMP " 27.0000 "
  IS_TNOM " 1.00000 "
  MAIN.W "10.00u"
  MAIN.L "330.0n"
  MAIN.AD "3.400p"
  MAIN.AS "3.400p"
  MAIN.PD "20.68u"
  MAIN.PS "20.68u"
  MAIN.NF "1.000"
  MAIN.M "1"
  MAIN.NRD "0.000"
  MAIN.NRS "0.000"
  MAIN.LDRIFT1 "1E-06"
  MAIN.LDRIFT2 "1E-06"
  MAIN.SA "0.000"
  MAIN.SB "0.000"
  MAIN.SD "0.000"
  MAIN.SCA "0.000"
  MAIN.SCB "0.000"
  MAIN.SCC "0.000"
  MAIN.SC "0.000"
  MODULE "S556"
  PIN_D "18"
  PIN_G "3"
  PIN_S "4"
  PIN_B "17"
  PIN_E ""
  PIN_6 ""
  XY_ID ""
  FUNC "Additional"
  STI "SA ref"
  WPE "WPE ref"
  COMMENT ""
  DIS_MEAS ""
  TypeTCI "10"
END_HEADER

BEGIN_DB
 ICCAP_VAR vb         0              
 ICCAP_VAR vd         0.1            
 ICCAP_VAR vs         0              

 #vg                    id                    ig                    ib                    is                   
  -0.5                  1.2e-13               -4.558e-11            5.328e-11             1.6e-13              
  -0.45                 8e-14                 -6.76e-12             1.464e-11             8e-14                
  -0.4                  2e-13                 -1.06e-12             9.92e-12              4e-14                
  -0.35                 2e-13                 -1.8e-13              7.64e-12              8e-14                
  -0.3                  1.2e-13               0                     6.76e-12              8e-14                
  -0.25                 0                     1.8e-13               7.04e-12              1.2e-13              
  -0.2                  2e-14                 1e-13                 7.12e-12              6e-14                
  -0.15                 1.2e-13               1.6e-13               8.06e-12              4e-14                
  -0.1                  6e-14                 2.4e-13               7.58e-12              -1e-13               
  -0.05                 3.2e-13               6e-14                 7.24e-12              -2.8e-13             
  0                     1.5e-12               3e-13                 7.18e-12              -1.46e-12            
  0.05                  5.98e-12              3.4e-13               6.82e-12              -5.94e-12            
  0.1                   2.46e-11              3.2e-13               8.32e-12              -2.452e-11           
  0.15                  1.0182e-10            3.6e-13               7.66e-12              -1.018e-10           
  0.2                   4.1982e-10            2.6e-13               6.42e-12              -4.1932e-10          
  0.25                  1.7244e-09            3.4e-13               6.36e-12              -1.721e-09           
  0.3                   6.915e-09             3.2e-13               6.46e-12              -6.9104e-09          
  0.35                  2.696e-08             3.8e-13               7.4e-12               -2.696e-08           
  0.4                   9.9244e-08            3e-13                 6.6e-12               -9.9158e-08          
  0.45                  3.3974e-07            4.2e-13               6.3e-12               -3.3992e-07          
  0.5                   1.05362e-06           4e-13                 6.06e-12              -1.05282e-06         
  0.55                  2.8876e-06            2.6e-13               6.46e-12              -2.8932e-06          
  0.6                   6.8654e-06            4.2e-13               5.7e-12               -6.84e-06            
  0.65                  1.412e-05             3.8e-13               6.06e-12              -1.4086e-05          
  0.7                   2.5418e-05            4e-13                 6.52e-12              -2.5372e-05          
  0.75                  4.1094e-05            5.8e-13               5.38e-12              -4.1036e-05          
  0.8                   6.0592e-05            4.6e-13               5.46e-12              -6.057e-05           
  0.85                  8.3314e-05            5e-13                 5.02e-12              -8.3268e-05          
  0.9                   0.000108116           4.2e-13               5.96e-12              -0.00010813          
  0.95                  0.00013448            4e-13                 5.4e-12               -0.0001341           
  1                     0.00016144            4.8e-13               5.22e-12              -0.000161            
  1.05                  0.0001886             5.6e-13               5.4e-12               -0.00018822          
  1.1                   0.00021554            5.2e-13               4.68e-12              -0.0002152           
  1.15                  0.00024226            4.6e-13               6.28e-12              -0.00024178          
  1.2                   0.00026838            6e-13                 5.94e-12              -0.00026796          
  1.25                  0.00029386            6e-13                 5.04e-12              -0.0002935           
  1.3                   0.0003189             6e-13                 5.3e-12               -0.00031852          
  1.35                  0.0003432             4.8e-13               5.66e-12              -0.00034284          
  1.4                   0.00036668            6.4e-13               5.9e-12               -0.00036634          
  1.45                  0.00038964            5.4e-13               4.86e-12              -0.00038914          
  1.5                   0.00041188            7e-13                 4.94e-12              -0.00041148          
  1.55                  0.00043348            5.2e-13               5.22e-12              -0.00043308          
  1.6                   0.00045426            5.2e-13               5.36e-12              -0.00045386          
  1.65                  0.00047458            5.8e-13               4.48e-12              -0.00047412          
  1.7                   0.00049426            5.4e-13               4.3e-12               -0.0004939           
  1.75                  0.00051328            6.8e-13               3.9e-12               -0.00051286          
  1.8                   0.0005317             5.8e-13               5.42e-12              -0.00053134          
  1.85                  0.00054944            6.6e-13               4.84e-12              -0.00054906          
  1.9                   0.00056684            6.2e-13               3.98e-12              -0.00056642          
  1.95                  0.00058348            6.6e-13               4.6e-12               -0.00058304          
  2                     0.00059966            7.8e-13               4.7e-12               -0.00059924          
  2.05                  0.0006153             5.2e-13               5.36e-12              -0.00061492          
  2.1                   0.00063044            7.4e-13               4.2e-12               -0.00063004          
  2.15                  0.00064514            6e-13                 3.96e-12              -0.0006447           
  2.2                   0.00065928            5.6e-13               4.7e-12               -0.00065886          
  2.25                  0.00067302            5.8e-13               4.7e-12               -0.00067256          
  2.3                   0.0006862             7e-13                 4.24e-12              -0.00068584          
  2.35                  0.00069906            4.6e-13               4.32e-12              -0.00069866          
  2.4                   0.00071146            7e-13                 4.22e-12              -0.00071104          
  2.45                  0.00072342            6.2e-13               4.88e-12              -0.00072298          
  2.5                   0.00073504            7.2e-13               4.24e-12              -0.00073466          
  2.55                  0.00074622            7.2e-13               3.38e-12              -0.0007458           
  2.6                   0.000757              6.6e-13               4.64e-12              -0.0007566           
  2.65                  0.00076746            7e-13                 4.9e-12               -0.00076706          
  2.7                   0.00077754            7.6e-13               4.3e-12               -0.00077712          
  2.75                  0.00078726            7e-13                 3.66e-12              -0.00078686          
  2.8                   0.00079668            7.8e-13               3.7e-12               -0.00079626          
  2.85                  0.00080574            6.6e-13               4.44e-12              -0.0008054           
  2.9                   0.00081454            6.2e-13               4.28e-12              -0.00081412          
  2.95                  0.00082302            6.6e-13               3.06e-12              -0.0008226           
  3                     0.00083118            7.2e-13               3.56e-12              -0.0008308           
  3.05                  0.00083912            7.2e-13               3.54e-12              -0.00083872          
  3.1                   0.00084672            5.8e-13               4.66e-12              -0.00084632          
  3.15                  0.0008541             8e-13                 3.42e-12              -0.00085368          
  3.2                   0.00086114            7.4e-13               3.3e-12               -0.00086072          
  3.25                  0.00086802            7.2e-13               3.8e-12               -0.0008676           
  3.3                   0.00087462            7.2e-13               4.34e-12              -0.0008742           
  3.35                  0.00088096            7.2e-13               3.46e-12              -0.00088054          
  3.4                   0.0008871             7.6e-13               3.34e-12              -0.0008867           
  3.45                  0.000893              8.2e-13               3.42e-12              -0.0008926           
  3.5                   0.0008987             8e-13                 4.8e-12               -0.00089832          
  3.55                  0.00090422            7.4e-13               3.78e-12              -0.0009038           
  3.6                   0.00090952            7.2e-13               3.72e-12              -0.0009091           
END_DB

BEGIN_DB
 ICCAP_VAR vb         -0.9           
 ICCAP_VAR vd         0.1            
 ICCAP_VAR vs         0              

 #vg                    id                    ig                    ib                    is                   
  -0.5                  6e-14                 -6.6e-13              -9.16e-12             2.4e-13              
  -0.45                 8e-14                 -1.8e-13              -8.42e-12             8e-14                
  -0.4                  1.6e-13               -2.4e-13              -8.66e-12             1.4e-13              
  -0.35                 2e-14                 -6e-14                -7.16e-12             6e-14                
  -0.3                  2.2e-13               -2e-14                -5.86e-12             1e-13                
  -0.25                 1.2e-13               -6e-14                -5.26e-12             2.8e-13              
  -0.2                  1.4e-13               -6e-14                -5.02e-12             4e-14                
  -0.15                 1.8e-13               0                     -5.46e-12             1.8e-13              
  -0.1                  2e-14                 8e-14                 -4.66e-12             4e-14                
  -0.05                 2.6e-13               4e-14                 -4.3e-12              2e-13                
  0                     1e-13                 1.4e-13               -2.98e-12             -4e-14               
  0.05                  2.2e-13               3.6e-13               -3.3e-12              -4e-14               
  0.1                   7.6e-13               1.2e-13               -3.2e-12              -4.8e-13             
  0.15                  3.08e-12              3e-13                 -3.52e-12             -2.9e-12             
  0.2                   1.334e-11             2.6e-13               -2.96e-12             -1.33e-11            
  0.25                  6.036e-11             2.6e-13               -1.64e-12             -6.06e-11            
  0.3                   2.6744e-10            3.4e-13               -2.48e-12             -2.664e-10           
  0.35                  1.1704e-09            1e-13                 -1.66e-12             -1.1682e-09          
  0.4                   4.982e-09             2.2e-13               -9e-13                -4.9764e-09          
  0.45                  2.0476e-08            2.4e-13               -1.14e-12             -2.0476e-08          
  0.5                   7.886e-08             3e-13                 -2.22e-12             -7.884e-08           
  0.55                  2.8172e-07            2.4e-13               -1.72e-12             -2.8128e-07          
  0.6                   9.0264e-07            4e-13                 -6.8e-13              -9.022e-07           
  0.65                  2.552e-06             2.4e-13               -2.08e-12             -2.5388e-06          
  0.7                   6.1898e-06            4.8e-13               -1.26e-12             -6.1836e-06          
  0.75                  1.3066e-05            2.2e-13               -3.2e-13              -1.3056e-05          
  0.8                   2.4074e-05            3.8e-13               -1.28e-12             -2.3998e-05          
  0.85                  3.9488e-05            3.4e-13               -1.22e-12             -3.945e-05           
  0.9                   5.8892e-05            4e-13                 -8.6e-13              -5.8886e-05          
  0.95                  8.1608e-05            4.6e-13               -1.22e-12             -8.1604e-05          
  1                     0.00010661            2.2e-13               -4.6e-13              -0.000106576         
  1.05                  0.0001333             4.6e-13               -9.8e-13              -0.0001329           
  1.1                   0.00016046            4.2e-13               -1.28e-12             -0.0001601           
  1.15                  0.0001878             3.6e-13               -8e-13                -0.00018736          
  1.2                   0.0002149             4.8e-13               4e-13                 -0.0002145           
  1.25                  0.00024148            4.8e-13               -1.46e-12             -0.00024112          
  1.3                   0.00026776            4e-13                 -1.02e-12             -0.00026734          
  1.35                  0.00029316            5.6e-13               -7e-13                -0.0002928           
  1.4                   0.00031804            5.2e-13               -7.8e-13              -0.0003176           
  1.45                  0.00034202            4.8e-13               2.4e-13               -0.00034162          
  1.5                   0.0003655             5.2e-13               -1.1e-12              -0.0003651           
  1.55                  0.0003882             5e-13                 -5.6e-13              -0.00038778          
  1.6                   0.00041004            5.6e-13               -9.8e-13              -0.00040964          
  1.65                  0.00043136            5.4e-13               2.2e-13               -0.00043096          
  1.7                   0.00045202            5.4e-13               -5.8e-13              -0.00045162          
  1.75                  0.00047188            5.2e-13               -7.4e-13              -0.00047144          
  1.8                   0.00049114            5.6e-13               -7.8e-13              -0.00049076          
  1.85                  0.00050972            6.8e-13               1.26e-12              -0.00050928          
  1.9                   0.00052774            6.2e-13               -2e-14                -0.00052734          
  1.95                  0.00054508            6e-13                 -6.2e-13              -0.0005447           
  2                     0.00056196            6.4e-13               -1.42e-12             -0.00056154          
  2.05                  0.00057828            6.4e-13               2.8e-13               -0.00057786          
  2.1                   0.00059398            6.2e-13               6.6e-13               -0.00059354          
  2.15                  0.00060924            6e-13                 -3.2e-13              -0.00060882          
  2.2                   0.0006239             7e-13                 -7e-13                -0.00062352          
  2.25                  0.00063816            6.2e-13               -2.6e-13              -0.00063774          
  2.3                   0.00065182            6.6e-13               6.2e-13               -0.00065142          
  2.35                  0.00066512            6.2e-13               -5.8e-13              -0.00066474          
  2.4                   0.00067794            6.6e-13               -6.6e-13              -0.0006775           
  2.45                  0.00069028            6.2e-13               -2.2e-13              -0.00068988          
  2.5                   0.00070228            5.8e-13               3e-13                 -0.00070184          
  2.55                  0.00071378            6.2e-13               8e-14                 -0.00071342          
  2.6                   0.00072496            7e-13                 -7.8e-13              -0.00072454          
  2.65                  0.0007357             6.4e-13               0                     -0.00073528          
  2.7                   0.0007461             8e-13                 1e-13                 -0.00074572          
  2.75                  0.0007562             6.2e-13               5.6e-13               -0.00075582          
  2.8                   0.0007659             6.4e-13               -4e-13                -0.00076548          
  2.85                  0.00077522            6.6e-13               -9e-13                -0.0007748           
  2.9                   0.00078424            6.8e-13               -8e-14                -0.00078386          
  2.95                  0.000793              7.2e-13               8.6e-13               -0.00079262          
  3                     0.00080142            6.8e-13               -1e-13                -0.00080104          
  3.05                  0.00080956            7.6e-13               3.2e-13               -0.00080914          
  3.1                   0.00081738            6.6e-13               -1.2e-13              -0.00081696          
  3.15                  0.00082494            7.4e-13               1.16e-12              -0.00082454          
  3.2                   0.00083222            7.2e-13               -3e-13                -0.0008318           
  3.25                  0.00083928            7.2e-13               -2.8e-13              -0.00083892          
  3.3                   0.00084612            7.4e-13               -6e-13                -0.0008457           
  3.35                  0.00085264            6.4e-13               1.2e-13               -0.00085222          
  3.4                   0.00085892            6.4e-13               6.2e-13               -0.00085854          
  3.45                  0.00086502            8.2e-13               -1.6e-13              -0.0008646           
