! VERSION = 6.00
BEGIN_HEADER
 ICCAP_INPUTS
  vd         V  D GROUND SMU1 0.1 LIN        1    0          3.6        37   0.1       
  vg         V  G GROUND SMU2 0.001 LIN        2    0.812      3.6        5    0.697     
  vb         V  B GROUND SMU4 0.1 CON        0
  vs         V  S GROUND SMU3 0.1 CON        0
 ICCAP_OUTPUTS
  id         I  D GROUND SMU1 B
  ig         I  G GROUND SMU2 B
  ib         I  B GROUND SMU4 B
  is         I  S GROUND SMU3 B
 ICCAP_VALUES
  MASTER_SETUP_TYPE "~dc_idvd~"
  LINVT_VALUE "|idvg|100.0n|100.0m|1.000m|5|3.600|"
  LISTVT_VALUE ""
  TYPE "1"
  TEMP " 27.0000 "
  IS_TNOM " 1.00000 "
  MAIN.W "10.00u"
  MAIN.L "500.0n"
  MAIN.AD "3.400p"
  MAIN.AS "3.400p"
  MAIN.PD "20.68u"
  MAIN.PS "20.68u"
  MAIN.NF "1.000"
  MAIN.M "1"
  MAIN.NRD "0.000"
  MAIN.NRS "0.000"
  MAIN.LDRIFT1 "1E-06"
  MAIN.LDRIFT2 "1E-06"
  MAIN.SA "0.000"
  MAIN.SB "0.000"
  MAIN.SD "0.000"
  MAIN.SCA "0.000"
  MAIN.SCB "0.000"
  MAIN.SCC "0.000"
  MAIN.SC "0.000"
  MODULE "S556"
  PIN_D "14"
  PIN_G "7"
  PIN_S "8"
  PIN_B "13"
  PIN_E ""
  PIN_6 ""
  XY_ID ""
  FUNC "Short"
  STI "SA ref"
  WPE "WPE ref"
  COMMENT ""
  DIS_MEAS ""
  TypeTCI "10"
END_HEADER

BEGIN_DB
 ICCAP_VAR vg         0.812          
 ICCAP_VAR vb         0              
 ICCAP_VAR vs         0              

 #vd                    id                    ig                    ib                    is                   
  0                     3.3314e-09            4e-14                 2.396e-11             -3.8842e-09          
  0.1                   5.4488e-06            -1.2e-13              2.104e-11             -5.4452e-06          
  0.2                   6.4742e-06            -6e-14                2.034e-11             -6.4692e-06          
  0.3                   6.8828e-06            -2e-14                1.922e-11             -6.8768e-06          
  0.4                   7.1798e-06            1e-13                 1.846e-11             -7.1774e-06          
  0.5                   7.431e-06             -1.6e-13              1.81e-11              -7.426e-06           
  0.6                   7.6608e-06            -1.2e-13              1.806e-11             -7.6664e-06          
  0.7                   7.886e-06             -2e-13                1.68e-11              -7.885e-06           
  0.8                   8.0978e-06            -2e-13                1.718e-11             -8.0906e-06          
  0.9                   8.2948e-06            -1.4e-13              1.636e-11             -8.2888e-06          
  1                     8.4864e-06            -4e-14                1.476e-11             -8.4872e-06          
  1.1                   8.6826e-06            -2e-14                1.622e-11             -8.6816e-06          
  1.2                   8.8728e-06            -3.4e-13              1.506e-11             -8.8744e-06          
  1.3                   9.0642e-06            -8e-14                1.16e-11              -9.055e-06           
  1.4                   9.2404e-06            1e-13                 5.4e-12               -9.2436e-06          
  1.5                   9.42e-06              -1.2e-13              -1.746e-11            -9.4196e-06          
  1.6                   9.6014e-06            -3.2e-13              -7.796e-11            -9.602e-06           
  1.7                   9.7908e-06            -6e-14                -2.1358e-10           -9.811e-06           
  1.8                   9.9826e-06            2.4e-13               -4.8716e-10           -9.9836e-06          
  1.9                   1.01408e-05           -2e-13                -9.89e-10             -1.0138e-05          
  2                     1.03568e-05           -4e-13                -1.8456e-09           -1.0346e-05          
  2.1                   1.0552e-05            4e-14                 -3.222e-09            -1.0522e-05          
  2.2                   1.0728e-05            4e-14                 -5.323e-09            -1.0702e-05          
  2.3                   1.0908e-05            -1.6e-13              -8.4306e-09           -1.0884e-05          
  2.4                   1.1102e-05            8e-14                 -1.2824e-08           -1.1072e-05          
  2.5                   1.1262e-05            -1.2e-13              -1.8994e-08           -1.1224e-05          
  2.6                   1.1452e-05            8e-14                 -2.7504e-08           -1.1408e-05          
  2.7                   1.1646e-05            1e-13                 -3.9004e-08           -1.1598e-05          
  2.8                   1.1854e-05            -1.6e-13              -5.4476e-08           -1.1804e-05          
  2.9                   1.2088e-05            -1.2e-13              -7.4772e-08           -1.1996e-05          
  3                     1.2304e-05            -1.8e-13              -1.01312e-07          -1.218e-05           
  3.1                   1.2532e-05            -2.6e-13              -1.354e-07            -1.2374e-05          
  3.2                   1.2756e-05            -1.6e-13              -1.7902e-07           -1.2564e-05          
  3.3                   1.3004e-05            6e-14                 -2.3346e-07           -1.2752e-05          
  3.4                   1.3268e-05            -2.4e-13              -3.0086e-07           -1.2946e-05          
  3.5                   1.3548e-05            -2.8e-13              -3.8344e-07           -1.3148e-05          
  3.6                   1.3854e-05            -6e-14                -4.8186e-07           -1.3348e-05          
END_DB

BEGIN_DB
 ICCAP_VAR vg         1.509          
 ICCAP_VAR vb         0              
 ICCAP_VAR vs         0              

 #vd                    id                    ig                    ib                    is                   
  0                     1.12616e-07           4e-13                 7.78e-12              -9.773e-08           
  0.1                   0.00021532            1.6e-13               7.58e-12              -0.00021492          
  0.2                   0.00038292            3.6e-13               7.5e-12               -0.00038244          
  0.3                   0.00050298            2.4e-13               7.06e-12              -0.00050256          
  0.4                   0.00058242            4e-13                 7.54e-12              -0.00058212          
  0.5                   0.00063174            1.4e-13               7.38e-12              -0.00063128          
  0.6                   0.00066128            2.2e-13               6.24e-12              -0.00066094          
  0.7                   0.00067988            1.2e-13               6.78e-12              -0.00067956          
  0.8                   0.00069256            2e-13                 7.68e-12              -0.00069208          
  0.9                   0.000702              0                     6.74e-12              -0.00070166          
  1                     0.00070978            0                     7e-12                 -0.00070936          
  1.1                   0.00071638            4e-13                 6.9e-12               -0.0007161           
  1.2                   0.00072236            3.6e-13               5.66e-12              -0.00072182          
  1.3                   0.00072756            2e-14                 6.52e-12              -0.00072714          
  1.4                   0.00073246            1.2e-13               2.04e-12              -0.00073206          
  1.5                   0.00073714            2e-13                 -1.828e-11            -0.00073668          
  1.6                   0.0007415             1.6e-13               -9.644e-11            -0.00074112          
  1.7                   0.00074584            2.2e-13               -3.7346e-10           -0.00074528          
  1.8                   0.00074956            2e-14                 -1.2064e-09           -0.00074932          
  1.9                   0.00075356            2e-14                 -3.3876e-09           -0.00075316          
  2                     0.00075738            1.6e-13               -8.4264e-09           -0.00075694          
  2.1                   0.00076094            8e-14                 -1.895e-08            -0.00076058          
  2.2                   0.00076468            8e-14                 -3.8972e-08           -0.0007643           
  2.3                   0.0007684             2.2e-13               -7.431e-08            -0.00076768          
  2.4                   0.0007716             1.2e-13               -1.3272e-07           -0.00077126          
  2.5                   0.00077536            -6e-14                -2.2496e-07           -0.00077452          
  2.6                   0.00077888            6e-14                 -3.6408e-07           -0.00077798          
  2.7                   0.00078242            1.2e-13               -5.662e-07            -0.00078152          
  2.8                   0.00078614            -8e-14                -8.5216e-07           -0.00078476          
  2.9                   0.00078972            -2.8e-13              -1.2466e-06           -0.00078788          
  3                     0.0007934             -1.2e-13              -1.7848e-06           -0.00079126          
  3.1                   0.00079726            4e-14                 -2.5052e-06           -0.00079444          
  3.2                   0.00080158            1.2e-13               -3.4566e-06           -0.00079772          
  3.3                   0.000806              -2e-13                -4.698e-06            -0.00080112          
  3.4                   0.00081116            -2e-14                -6.2992e-06           -0.00080446          
  3.5                   0.00081668            4e-14                 -8.343e-06            -0.00080784          
  3.6                   0.0008227             2e-14                 -1.09114e-05          -0.00081146          
END_DB

BEGIN_DB
 ICCAP_VAR vg         2.206          
 ICCAP_VAR vb         0              
 ICCAP_VAR vs         0              

 #vd                    id                    ig                    ib                    is                   
  0                     1.6378e-07            4.6e-13               4.5e-12               -1.4324e-07          
  0.1                   0.00041384            3e-13                 4.72e-12              -0.00041344          
  0.2                   0.00078546            4.2e-13               5.56e-12              -0.00078508          
  0.3                   0.00110538            2.6e-13               3.9e-12               -0.00110504          
  0.4                   0.0013718             3.8e-13               4.42e-12              -0.0013698           
  0.5                   0.0015834             3.2e-13               3.4e-12               -0.0015814           
  0.6                   0.001746              5.2e-13               4.82e-12              -0.001744            
  0.7                   0.0018668             2.8e-13               4.72e-12              -0.0018648           
  0.8                   0.0019542             6e-14                 4.12e-12              -0.001952            
  0.9                   0.002016              2.6e-13               4.6e-12               -0.002014            
  1                     0.0020598             4e-13                 4.72e-12              -0.0020576           
  1.1                   0.0020912             4.2e-13               4.16e-12              -0.002089            
  1.2                   0.0021144             2.8e-13               5.32e-12              -0.0021124           
  1.3                   0.0021326             2e-13                 4.16e-12              -0.0021304           
  1.4                   0.0021468             1.2e-13               3.86e-12              -0.0021448           
  1.5                   0.002159              4e-14                 2.24e-12              -0.0021568           
  1.6                   0.0021692             2.6e-13               -9.28e-12             -0.0021672           
  1.7                   0.0021784             3e-13                 -5.278e-11            -0.0021764           
  1.8                   0.0021866             2e-13                 -2.076e-10            -0.0021846           
  1.9                   0.0021944             1e-13                 -6.9282e-10           -0.0021926           
  2                     0.0022016             1.6e-13               -2.0404e-09           -0.0021994           
  2.1                   0.002208              3e-13                 -5.4298e-09           -0.0022058           
  2.2                   0.002214              1.8e-13               -1.3152e-08           -0.0022122           
  2.3                   0.00222               1.8e-13               -2.9278e-08           -0.0022178           
  2.4                   0.0022256             1e-13                 -6.0418e-08           -0.0022236           
  2.5                   0.002231              8e-14                 -1.1682e-07           -0.0022288           
  2.6                   0.0022362             2e-13                 -2.1284e-07           -0.002234            
  2.7                   0.0022416             2e-14                 -3.6828e-07           -0.002239            
  2.8                   0.0022466             2.8e-13               -6.0938e-07           -0.002244            
  2.9                   0.0022516             3e-13                 -9.6872e-07           -0.0022488           
  3                     0.002257              -1e-13                -1.489e-06            -0.0022536           
  3.1                   0.0022624             1.6e-13               -2.2252e-06           -0.0022584           
  3.2                   0.0022682             8e-14                 -3.241e-06            -0.0022628           
  3.3                   0.0022742             2e-13                 -4.6148e-06           -0.0022674           
  3.4                   0.0022804             2e-13                 -6.4546e-06           -0.002272            
  3.5                   0.0022874             1.8e-13               -8.8788e-06           -0.0022766           
  3.6                   0.0022958             -2e-14                -1.2018e-05           -0.0022814           
END_DB

BEGIN_DB
 ICCAP_VAR vg         2.903          
 ICCAP_VAR vb         0              
 ICCAP_VAR vs         0              

 #vd                    id                    ig                    ib                    is                   
  0                     1.837e-07             2.4e-13               3.78e-12              -1.7324e-07          
  0.1                   0.00054468            3.6e-13               3.8e-12               -0.0005443           
  0.2                   0.00105532            2.8e-13               3.88e-12              -0.0010549           
  0.3                   0.0015204             2.4e-13               3.66e-12              -0.0015184           
  0.4                   0.0019326             3.4e-13               3.14e-12              -0.0019306           
  0.5                   0.0022892             3.6e-13               2.44e-12              -0.0022872           
  0.6                   0.0025904             1.6e-13               3.52e-12              -0.0025884           
  0.7                   0.0028406             3.2e-13               3.5e-12               -0.0028386           
  0.8                   0.0030438             3.6e-13               2.7e-12               -0.0030418           
  0.9                   0.0032058             4.4e-13               3.38e-12              -0.0032038           
  1                     0.0033332             2e-13                 3.26e-12              -0.0033312           
  1.1                   0.0034316             1.4e-13               3.26e-12              -0.0034296           
  1.2                   0.0035068             3.4e-13               3.72e-12              -0.0035046           
  1.3                   0.0035642             3.8e-13               3.8e-12               -0.0035622           
  1.4                   0.003608              2.2e-13               3.02e-12              -0.003606            
  1.5                   0.0036418             2.8e-13               5.26e-12              -0.0036398           
  1.6                   0.0036684             4.6e-13               1.1e-12               -0.0036666           
  1.7                   0.0036898             2.6e-13               -2.78e-12             -0.0036878           
  1.8                   0.0037072             1e-13                 -2.362e-11            -0.0037054           
  1.9                   0.003722              2.2e-13               -1.0002e-10           -0.0037202           
  2                     0.0037346             4.6e-13               -3.3864e-10           -0.0037324           
  2.1                   0.0037458             3.4e-13               -1.026e-09            -0.0037436           
  2.2                   0.0037552             2e-14                 -2.8144e-09           -0.0037532           
  2.3                   0.003764              1.6e-13               -7.0642e-09           -0.003762            
  2.4                   0.003772              1e-13                 -1.6332e-08           -0.0037698           
  2.5                   0.0037792             2e-14                 -3.5184e-08           -0.003777            
  2.6                   0.0037858             3.2e-13               -7.0986e-08           -0.0037838           
  2.7                   0.0037922             1.8e-13               -1.3494e-07           -0.00379             
  2.8                   0.003798              3e-13                 -2.4392e-07           -0.0037954           
  2.9                   0.0038034             4e-14                 -4.2038e-07           -0.003801            
  3                     0.0038088             0                     -6.9638e-07           -0.003806            
  3.1                   0.0038142             3.6e-13               -1.1123e-06           -0.003811            
  3.2                   0.0038196             1e-13                 -1.7186e-06           -0.0038158           
  3.3                   0.003825              0                     -2.5816e-06           -0.0038204           
  3.4                   0.0038306             6e-14                 -3.7876e-06           -0.0038248           
  3.5                   0.0038364             4e-13                 -5.4358e-06           -0.003829            
  3.6                   0.003843              2.8e-13               -7.6502e-06           -0.0038334           
END_DB

BEGIN_DB
 ICCAP_VAR vg         3.6            
 ICCAP_VAR vb         0              
 ICCAP_VAR vs         0              

 #vd                    id                    ig                    ib                    is                   
  0                     1.8936e-07            5.2e-13               3.84e-12              -1.8874e-07          
  0.1                   0.0006248             4.8e-13               3e-12                 -0.0006244           
  0.2                   0.001224              3e-13                 3.02e-12              -0.0012218           
  0.3                   0.0017832             3.6e-13               2.58e-12              -0.0017812           
  0.4                   0.0022974             2.2e-13               2.4e-12               -0.0022954           
  0.5                   0.002761              3.4e-13               2.6e-12               -0.002759            
  0.6                   0.0031716             5.4e-13               2.26e-12              -0.0031696           
  0.7                   0.0035314             3.8e-13               2.9e-12               -0.0035294           
  0.8                   0.0038422             2.6e-13               2.6e-12               -0.00384             
