! VERSION = 6.00
BEGIN_HEADER
 ICCAP_INPUTS
  vd         V  D GROUND SMU1 0.1 LIN        1    0          3.6        37   0.1       
  vg         V  G GROUND SMU2 0.001 LIN        2    0.692      3.6        5    0.727     
  vb         V  B GROUND SMU4 0.1 CON        0
  vs         V  S GROUND SMU3 0.1 CON        0
 ICCAP_OUTPUTS
  id         I  D GROUND SMU1 B
  ig         I  G GROUND SMU2 B
  ib         I  B GROUND SMU4 B
  is         I  S GROUND SMU3 B
 ICCAP_VALUES
  MASTER_SETUP_TYPE "~dc_idvd~"
  LINVT_VALUE "|idvg|100.0n|100.0m|1.000m|5|3.600|"
  LISTVT_VALUE ""
  TYPE "1"
  TEMP " 27.0000 "
  IS_TNOM " 1.00000 "
  MAIN.W "5.000u"
  MAIN.L "10.00u"
  MAIN.AD "1.700p"
  MAIN.AS "1.700p"
  MAIN.PD "10.68u"
  MAIN.PS "10.68u"
  MAIN.NF "1.000"
  MAIN.M "1"
  MAIN.NRD "0.000"
  MAIN.NRS "0.000"
  MAIN.LDRIFT1 "1E-06"
  MAIN.LDRIFT2 "1E-06"
  MAIN.SA "0.000"
  MAIN.SB "0.000"
  MAIN.SD "0.000"
  MAIN.SCA "0.000"
  MAIN.SCB "0.000"
  MAIN.SCC "0.000"
  MAIN.SC "0.000"
  MODULE "S558"
  PIN_D "20"
  PIN_G "1"
  PIN_S "2"
  PIN_B "19"
  PIN_E ""
  PIN_6 ""
  XY_ID ""
  FUNC "W Scale"
  STI "SA ref"
  WPE "WPE ref"
  COMMENT ""
  DIS_MEAS ""
  TypeTCI "10"
END_HEADER

BEGIN_DB
 ICCAP_VAR vg         0.692          
 ICCAP_VAR vb         0              
 ICCAP_VAR vs         0              

 #vd                    id                    ig                    ib                    is                   
  0                     3.451e-10             -2e-14                2.57e-11              -2.8032e-10          
  0.1                   2.314e-07             0                     2.338e-11             -2.3124e-07          
  0.2                   2.5512e-07            -2e-14                2.16e-11              -2.5502e-07          
  0.3                   2.567e-07             0                     2.008e-11             -2.5654e-07          
  0.4                   2.5724e-07            6e-14                 1.95e-11              -2.571e-07           
  0.5                   2.5768e-07            -2e-14                1.978e-11             -2.5754e-07          
  0.6                   2.5804e-07            -4e-14                1.838e-11             -2.579e-07           
  0.7                   2.5838e-07            2e-14                 1.76e-11              -2.5822e-07          
  0.8                   2.5864e-07            -4e-14                1.684e-11             -2.5854e-07          
  0.9                   2.5896e-07            -8e-14                1.832e-11             -2.5878e-07          
  1                     2.5916e-07            -2e-14                1.63e-11              -2.59e-07            
  1.1                   2.5938e-07            -8e-14                1.582e-11             -2.5924e-07          
  1.2                   2.596e-07             0                     1.606e-11             -2.5948e-07          
  1.3                   2.598e-07             6e-14                 1.654e-11             -2.5966e-07          
  1.4                   2.6002e-07            0                     1.544e-11             -2.5984e-07          
  1.5                   2.6018e-07            0                     1.46e-11              -2.6004e-07          
  1.6                   2.604e-07             0                     1.256e-11             -2.6028e-07          
  1.7                   2.606e-07             6e-14                 1.102e-11             -2.6046e-07          
  1.8                   2.608e-07             -4e-14                3.86e-12              -2.6064e-07          
  1.9                   2.6096e-07            2e-14                 -8.1e-12              -2.6078e-07          
  2                     2.611e-07             4e-14                 -2.51e-11             -2.609e-07           
  2.1                   2.6124e-07            0                     -5.35e-11             -2.611e-07           
  2.2                   2.6148e-07            1e-13                 -9.896e-11            -2.6122e-07          
  2.3                   2.617e-07             0                     -1.632e-10            -2.6142e-07          
  2.4                   2.6194e-07            8e-14                 -2.5424e-10           -2.6152e-07          
  2.5                   2.6216e-07            8e-14                 -3.7926e-10           -2.6168e-07          
  2.6                   2.6252e-07            4e-14                 -5.5112e-10           -2.618e-07           
  2.7                   2.6286e-07            1.2e-13               -7.7884e-10           -2.6188e-07          
  2.8                   2.6332e-07            4e-14                 -1.0772e-09           -2.6206e-07          
  2.9                   2.6384e-07            6e-14                 -1.4698e-09           -2.6218e-07          
  3                     2.6446e-07            0                     -1.9748e-09           -2.6232e-07          
  3.1                   2.6518e-07            0                     -2.6172e-09           -2.624e-07           
  3.2                   2.6606e-07            4e-14                 -3.4238e-09           -2.625e-07           
  3.3                   2.672e-07             2e-14                 -4.421e-09            -2.626e-07           
  3.4                   2.6858e-07            6e-14                 -5.6436e-09           -2.6276e-07          
  3.5                   2.7008e-07            6e-14                 -7.1114e-09           -2.6282e-07          
  3.6                   2.7194e-07            -2e-14                -8.8482e-09           -2.6292e-07          
END_DB

BEGIN_DB
 ICCAP_VAR vg         1.419          
 ICCAP_VAR vb         0              
 ICCAP_VAR vs         0              

 #vd                    id                    ig                    ib                    is                   
  0                     2.2906e-09            3.6e-13               8.98e-12              -2.2728e-09          
  0.1                   5.0828e-06            2.6e-13               8.1e-12               -5.0786e-06          
  0.2                   9.127e-06             1.4e-13               6.86e-12              -9.123e-06           
  0.3                   1.2168e-05            2e-13                 6.8e-12               -1.2148e-05          
  0.4                   1.4246e-05            2.2e-13               8.02e-12              -1.4226e-05          
  0.5                   1.5446e-05            2.2e-13               7.92e-12              -1.5426e-05          
  0.6                   1.595e-05             1.6e-13               6.68e-12              -1.593e-05           
  0.7                   1.609e-05             1.8e-13               7.76e-12              -1.607e-05           
  0.8                   1.613e-05             2e-13                 7.78e-12              -1.611e-05           
  0.9                   1.6148e-05            2.4e-13               6.34e-12              -1.6126e-05          
  1                     1.616e-05             1.8e-13               7.76e-12              -1.6138e-05          
  1.1                   1.6168e-05            2.4e-13               7.68e-12              -1.6148e-05          
  1.2                   1.6176e-05            2e-13                 6.14e-12              -1.6156e-05          
  1.3                   1.6184e-05            2.2e-13               7.26e-12              -1.6164e-05          
  1.4                   1.6192e-05            2.6e-13               6.4e-12               -1.6172e-05          
  1.5                   1.6198e-05            2.4e-13               5.88e-12              -1.6178e-05          
  1.6                   1.6202e-05            2.6e-13               7.58e-12              -1.6184e-05          
  1.7                   1.6208e-05            1e-13                 6.42e-12              -1.6188e-05          
  1.8                   1.6214e-05            2e-13                 4.82e-12              -1.6194e-05          
  1.9                   1.6218e-05            2.6e-13               4.12e-12              -1.62e-05            
  2                     1.6224e-05            2e-13                 -3.92e-12             -1.6204e-05          
  2.1                   1.6228e-05            1.2e-13               -2.952e-11            -1.6208e-05          
  2.2                   1.6232e-05            1.6e-13               -9.766e-11            -1.6212e-05          
  2.3                   1.6236e-05            2.8e-13               -2.5828e-10           -1.6218e-05          
  2.4                   1.6242e-05            1.8e-13               -5.886e-10            -1.622e-05           
  2.5                   1.6246e-05            1.2e-13               -1.2054e-09           -1.6224e-05          
  2.6                   1.6252e-05            1.6e-13               -2.2696e-09           -1.6228e-05          
  2.7                   1.6256e-05            2.2e-13               -3.985e-09            -1.6232e-05          
  2.8                   1.6264e-05            1.8e-13               -6.6154e-09           -1.6236e-05          
  2.9                   1.627e-05             2.2e-13               -1.04738e-08          -1.624e-05           
  3                     1.628e-05             1e-13                 -1.5988e-08           -1.6244e-05          
  3.1                   1.629e-05             1.8e-13               -2.3628e-08           -1.6246e-05          
  3.2                   1.6304e-05            2.4e-13               -3.4054e-08           -1.625e-05           
  3.3                   1.6322e-05            2e-13                 -4.7996e-08           -1.6254e-05          
  3.4                   1.6344e-05            1.4e-13               -6.6454e-08           -1.6258e-05          
  3.5                   1.6372e-05            1.8e-13               -9.0578e-08           -1.6262e-05          
  3.6                   1.6408e-05            1.6e-13               -1.216e-07            -1.6264e-05          
END_DB

BEGIN_DB
 ICCAP_VAR vg         2.146          
 ICCAP_VAR vb         0              
 ICCAP_VAR vs         0              

 #vd                    id                    ig                    ib                    is                   
  0                     3.099e-09             4.8e-13               6.26e-12              -3.8284e-09          
  0.1                   1.0378e-05            3.8e-13               5.28e-12              -1.0358e-05          
  0.2                   1.9808e-05            3e-13                 4.34e-12              -1.9788e-05          
  0.3                   2.8274e-05            3.4e-13               4.44e-12              -2.8252e-05          
  0.4                   3.5794e-05            2.6e-13               4.2e-12               -3.5774e-05          
  0.5                   4.2348e-05            2.8e-13               4.2e-12               -4.233e-05           
  0.6                   4.7924e-05            3.4e-13               5.56e-12              -4.7904e-05          
  0.7                   5.2538e-05            2.4e-13               3.94e-12              -5.2518e-05          
  0.8                   5.6196e-05            2e-13                 3.4e-12               -5.6176e-05          
  0.9                   5.8912e-05            2.4e-13               4.6e-12               -5.8892e-05          
  1                     6.0748e-05            3e-13                 3.94e-12              -6.073e-05           
  1.1                   6.1812e-05            2.2e-13               4e-12                 -6.1794e-05          
  1.2                   6.2312e-05            3e-13                 4.9e-12               -6.2294e-05          
  1.3                   6.2516e-05            2.8e-13               3.74e-12              -6.2496e-05          
  1.4                   6.2602e-05            3.8e-13               3.98e-12              -6.2584e-05          
  1.5                   6.265e-05             2.8e-13               4.66e-12              -6.2632e-05          
  1.6                   6.2686e-05            2.4e-13               3.46e-12              -6.2666e-05          
  1.7                   6.2714e-05            2.6e-13               4.8e-12               -6.2694e-05          
  1.8                   6.2736e-05            2.2e-13               5e-12                 -6.2718e-05          
  1.9                   6.276e-05             2.4e-13               4.34e-12              -6.274e-05           
  2                     6.2776e-05            2.6e-13               3.66e-12              -6.2758e-05          
  2.1                   6.2796e-05            2.8e-13               4.88e-12              -6.2776e-05          
  2.2                   6.2814e-05            3.6e-13               3.9e-12               -6.2794e-05          
  2.3                   6.2828e-05            2.4e-13               3.78e-12              -6.281e-05           
  2.4                   6.2844e-05            3.4e-13               2.36e-12              -6.2822e-05          
  2.5                   6.2856e-05            3.2e-13               -7.26e-12             -6.2838e-05          
  2.6                   6.2872e-05            2.8e-13               -3.708e-11            -6.285e-05           
  2.7                   6.2882e-05            3e-13                 -1.2912e-10           -6.2864e-05          
  2.8                   6.2894e-05            2.8e-13               -3.7806e-10           -6.2874e-05          
  2.9                   6.291e-05             2.2e-13               -9.464e-10            -6.2888e-05          
  3                     6.292e-05             2.6e-13               -2.1202e-09           -6.29e-05            
  3.1                   6.2936e-05            2.6e-13               -4.3126e-09           -6.2912e-05          
  3.2                   6.2952e-05            3.6e-13               -8.114e-09            -6.292e-05           
  3.3                   6.2968e-05            1.4e-13               -1.4274e-08           -6.2932e-05          
  3.4                   6.2986e-05            3e-13                 -2.3792e-08           -6.2942e-05          
  3.5                   6.3008e-05            2.6e-13               -3.7868e-08           -6.2952e-05          
  3.6                   6.304e-05             2.8e-13               -5.7996e-08           -6.2962e-05          
END_DB

BEGIN_DB
 ICCAP_VAR vg         2.873          
 ICCAP_VAR vb         0              
 ICCAP_VAR vs         0              

 #vd                    id                    ig                    ib                    is                   
  0                     9.04e-09              4e-13                 4.52e-12              -2.469e-09           
  0.1                   1.4422e-05            3.4e-13               4.58e-12              -1.44e-05            
  0.2                   2.8106e-05            3.6e-13               3.2e-12               -2.8084e-05          
  0.3                   4.102e-05             4e-13                 2.98e-12              -4.1e-05             
  0.4                   5.3188e-05            3.4e-13               4e-12                 -5.317e-05           
  0.5                   6.457e-05             3e-13                 2.92e-12              -6.455e-05           
  0.6                   7.5122e-05            3.6e-13               2.82e-12              -7.5102e-05          
  0.7                   8.4854e-05            3.8e-13               3.46e-12              -8.4836e-05          
  0.8                   9.373e-05             2.6e-13               2.88e-12              -9.3714e-05          
  0.9                   0.000101714           3.4e-13               3.14e-12              -0.000101698         
  1                     0.000108822           2.4e-13               3.82e-12              -0.000108804         
  1.1                   0.00011516            3.2e-13               3.7e-12               -0.000115004         
  1.2                   0.00012044            2.6e-13               3.58e-12              -0.00012004          
  1.3                   0.00012482            1.6e-13               2.88e-12              -0.0001244           
  1.4                   0.00012828            3.2e-13               3.9e-12               -0.00012788          
  1.5                   0.00013088            3.4e-13               3.46e-12              -0.00013048          
  1.6                   0.00013268            3.2e-13               2.2e-12               -0.00013228          
  1.7                   0.00013376            2.2e-13               3.92e-12              -0.00013336          
  1.8                   0.00013436            3e-13                 2.72e-12              -0.00013396          
  1.9                   0.00013464            3.6e-13               2.36e-12              -0.00013426          
  2                     0.0001348             3e-13                 4.08e-12              -0.0001344           
  2.1                   0.0001349             3e-13                 2.6e-12               -0.0001345           
  2.2                   0.00013496            3.6e-13               3.16e-12              -0.00013456          
  2.3                   0.000135              3.4e-13               3.88e-12              -0.0001346           
  2.4                   0.00013504            3.6e-13               3.32e-12              -0.00013464          
  2.5                   0.00013508            2.2e-13               1.4e-13               -0.00013468          
  2.6                   0.00013512            3e-13                 3.66e-12              -0.00013472          
  2.7                   0.00013514            3.6e-13               2.48e-12              -0.00013474          
  2.8                   0.00013518            3.6e-13               2.66e-12              -0.00013478          
  2.9                   0.0001352             2.8e-13               3.2e-12               -0.0001348           
  3                     0.00013522            3.6e-13               -2.68e-12             -0.00013484          
  3.1                   0.00013526            3e-13                 -2.146e-11            -0.00013486          
  3.2                   0.00013528            3.8e-13               -8.486e-11            -0.00013488          
  3.3                   0.0001353             2.4e-13               -2.7668e-10           -0.0001349           
  3.4                   0.00013532            2e-13                 -7.6648e-10           -0.00013492          
  3.5                   0.00013534            1.6e-13               -1.8812e-09           -0.00013494          
  3.6                   0.00013536            2.6e-13               -4.1592e-09           -0.00013496          
END_DB

BEGIN_DB
 ICCAP_VAR vg         3.6            
 ICCAP_VAR vb         0              
 ICCAP_VAR vs         0              

 #vd                    id                    ig                    ib                    is                   
  0                     1.0514e-08            5.2e-13               2.9e-12               -1.022e-08           
  0.1                   1.7024e-05            4.2e-13               4.1e-12               -1.7002e-05          
  0.2                   3.3514e-05            3.6e-13               2.44e-12              -3.3494e-05          
  0.3                   4.9438e-05            4.2e-13               1.84e-12              -4.9418e-05          
  0.4                   6.4836e-05            4.6e-13               3.46e-12              -6.4816e-05          
  0.5                   7.9658e-05            3.6e-13               1.96e-12              -7.964e-05           
  0.6                   9.386e-05             3.4e-13               2.4e-12               -9.3842e-05          
  0.7                   0.00010746            4.4e-13               3.4e-12               -0.000107444         
  0.8                   0.00012056            3.2e-13               2.56e-12              -0.00012016          
