! VERSION = 6.00
BEGIN_HEADER
 ICCAP_INPUTS
  vd         V  D GROUND SMU1 0.1 LIN        1    0          3.6        37   0.1       
  vg         V  G GROUND SMU2 0.001 LIN        2    1.256      3.6        5    0.586     
  vb         V  B GROUND SMU4 0.1 CON        -3.6
  vs         V  S GROUND SMU3 0.1 CON        0
 ICCAP_OUTPUTS
  id         I  D GROUND SMU1 B
  ig         I  G GROUND SMU2 B
  ib         I  B GROUND SMU4 B
  is         I  S GROUND SMU3 B
 ICCAP_VALUES
  MASTER_SETUP_TYPE "~dc_idvd~"
  LINVT_VALUE "|idvg|100.0n|100.0m|1.000m|5|3.600|"
  LISTVT_VALUE ""
  TYPE "1"
  TEMP " 125.000 "
  IS_TNOM " 0.00000 "
  MAIN.W "300.0n"
  MAIN.L "500.0n"
  MAIN.AD "102.0f"
  MAIN.AS "102.0f"
  MAIN.PD "1.280u"
  MAIN.PS "1.280u"
  MAIN.NF "1.000"
  MAIN.M "1"
  MAIN.NRD "0.000"
  MAIN.NRS "0.000"
  MAIN.LDRIFT1 "1E-06"
  MAIN.LDRIFT2 "1E-06"
  MAIN.SA "0.000"
  MAIN.SB "0.000"
  MAIN.SD "0.000"
  MAIN.SCA "0.000"
  MAIN.SCB "0.000"
  MAIN.SCC "0.000"
  MAIN.SC "0.000"
  MODULE "S560"
  PIN_D "14"
  PIN_G "7"
  PIN_S "8"
  PIN_B "13"
  PIN_E ""
  PIN_6 ""
  XY_ID ""
  FUNC "Small"
  STI "SA ref"
  WPE "WPE ref"
  COMMENT ""
  DIS_MEAS ""
  TypeTCI "10"
END_HEADER

BEGIN_DB
 ICCAP_VAR vg         1.256          
 ICCAP_VAR vb         -3.6           
 ICCAP_VAR vs         0              

 #vd                    id                    ig                    ib                    is                   
  0                     9.808e-11             1.24e-12              -1.3762e-10           -6.616e-11           
  0.1                   1.1098e-07            8.6e-13               -1.186e-10            -1.1098e-07          
  0.2                   1.4162e-07            6e-13                 -1.126e-10            -1.4156e-07          
  0.3                   1.6038e-07            6e-13                 -1.0676e-10           -1.6062e-07          
  0.4                   1.7696e-07            5.6e-13               -1.002e-10            -1.7696e-07          
  0.5                   1.9236e-07            7e-13                 -9.606e-11            -1.923e-07           
  0.6                   2.0704e-07            6.6e-13               -9.148e-11            -2.069e-07           
  0.7                   2.214e-07             6.6e-13               -8.818e-11            -2.2158e-07          
  0.8                   2.3594e-07            5.8e-13               -8.59e-11             -2.358e-07           
  0.9                   2.5006e-07            2.6e-13               -8.298e-11            -2.5002e-07          
  1                     2.6428e-07            4.6e-13               -8.016e-11            -2.6424e-07          
  1.1                   2.7812e-07            3.6e-13               -7.59e-11             -2.7828e-07          
  1.2                   2.923e-07             3.6e-13               -7.456e-11            -2.9256e-07          
  1.3                   3.0684e-07            5.2e-13               -7.274e-11            -3.0686e-07          
  1.4                   3.2102e-07            4.8e-13               -7.096e-11            -3.2112e-07          
  1.5                   3.3578e-07            4.6e-13               -6.8e-11              -3.3568e-07          
  1.6                   3.5028e-07            5.6e-13               -6.75e-11             -3.5044e-07          
  1.7                   3.6496e-07            3.4e-13               -6.886e-11            -3.6484e-07          
  1.8                   3.7994e-07            3.6e-13               -7.212e-11            -3.7992e-07          
  1.9                   3.9488e-07            5.6e-13               -8.018e-11            -3.9468e-07          
  2                     4.098e-07             3.4e-13               -9.884e-11            -4.0992e-07          
  2.1                   4.2528e-07            2.8e-13               -1.305e-10            -4.2484e-07          
  2.2                   4.4108e-07            5.4e-13               -1.7968e-10           -4.4028e-07          
  2.3                   4.5646e-07            4.2e-13               -2.6004e-10           -4.5654e-07          
  2.4                   4.726e-07             2.4e-13               -3.8242e-10           -4.7234e-07          
  2.5                   4.8896e-07            2.8e-13               -5.594e-10            -4.8852e-07          
  2.6                   5.0552e-07            2.8e-13               -8.1604e-10           -5.0472e-07          
  2.7                   5.2216e-07            3.2e-13               -1.1738e-09           -5.2124e-07          
  2.8                   5.3952e-07            3.8e-13               -1.6686e-09           -5.3764e-07          
  2.9                   5.5688e-07            5.8e-13               -2.3428e-09           -5.5466e-07          
  3                     5.7508e-07            3.6e-13               -3.245e-09            -5.7196e-07          
  3.1                   5.9372e-07            6e-14                 -4.4406e-09           -5.8948e-07          
  3.2                   6.1284e-07            2.8e-13               -6.0016e-09           -6.069e-07           
  3.3                   6.3274e-07            3.6e-13               -8.0196e-09           -6.2448e-07          
  3.4                   6.528e-07             1.2e-13               -1.06014e-08          -6.4218e-07          
  3.5                   6.7416e-07            3.8e-13               -1.3882e-08           -6.6026e-07          
  3.6                   6.965e-07             4.2e-13               -1.7938e-08           -6.7872e-07          
END_DB

BEGIN_DB
 ICCAP_VAR vg         1.842          
 ICCAP_VAR vb         -3.6           
 ICCAP_VAR vs         0              

 #vd                    id                    ig                    ib                    is                   
  0                     9.1288e-10            7.4e-13               -3.51e-11             -8.5474e-10          
  0.1                   3.1736e-06            7e-13                 -3.434e-11            -3.176e-06           
  0.2                   5.6644e-06            8e-13                 -3.346e-11            -5.6534e-06          
  0.3                   7.489e-06             5.8e-13               -3.326e-11            -7.4872e-06          
  0.4                   8.7392e-06            4.6e-13               -3.344e-11            -8.743e-06           
  0.5                   9.5794e-06            5.2e-13               -3.274e-11            -9.5446e-06          
  0.6                   1.01152e-05           6.6e-13               -3.204e-11            -1.01334e-05         
  0.7                   1.05278e-05           7e-13                 -3.206e-11            -1.05244e-05         
  0.8                   1.0818e-05            4e-13                 -3.254e-11            -1.08224e-05         
  0.9                   1.1072e-05            4e-13                 -3.222e-11            -1.10672e-05         
  1                     1.1278e-05            5.4e-13               -3.044e-11            -1.12794e-05         
  1.1                   1.148e-05             4.6e-13               -3.132e-11            -1.14746e-05         
  1.2                   1.166e-05             4.4e-13               -3.096e-11            -1.16548e-05         
  1.3                   1.1822e-05            3.4e-13               -3.116e-11            -1.1822e-05          
  1.4                   1.199e-05             3.2e-13               -3.068e-11            -1.1984e-05          
  1.5                   1.2146e-05            2.6e-13               -2.982e-11            -1.2136e-05          
  1.6                   1.2292e-05            2.6e-13               -3.186e-11            -1.2288e-05          
  1.7                   1.2412e-05            3.4e-13               -3.444e-11            -1.2432e-05          
  1.8                   1.258e-05             4.4e-13               -4.06e-11             -1.257e-05           
  1.9                   1.2716e-05            4.6e-13               -6.368e-11            -1.2708e-05          
  2                     1.2852e-05            4.6e-13               -1.0878e-10           -1.2842e-05          
  2.1                   1.2976e-05            3.2e-13               -2.0368e-10           -1.295e-05           
  2.2                   1.311e-05             2e-13                 -3.8868e-10           -1.3104e-05          
  2.3                   1.3238e-05            3.4e-13               -7.2232e-10           -1.3206e-05          
  2.4                   1.3364e-05            4.4e-13               -1.294e-09            -1.3352e-05          
  2.5                   1.3462e-05            4.4e-13               -2.2304e-09           -1.3462e-05          
  2.6                   1.3612e-05            2e-13                 -3.7024e-09           -1.36e-05            
  2.7                   1.3736e-05            4e-13                 -5.9184e-09           -1.3724e-05          
  2.8                   1.386e-05             4.8e-13               -9.1632e-09           -1.3844e-05          
  2.9                   1.3986e-05            8e-14                 -1.379e-08            -1.3938e-05          
  3                     1.4088e-05            3.2e-13               -2.0232e-08           -1.4086e-05          
  3.1                   1.424e-05             3.2e-13               -2.9024e-08           -1.4204e-05          
  3.2                   1.4366e-05            3.6e-13               -4.0754e-08           -1.428e-05           
  3.3                   1.447e-05             3.2e-13               -5.6404e-08           -1.4386e-05          
  3.4                   1.4608e-05            3.8e-13               -7.6896e-08           -1.4524e-05          
  3.5                   1.4748e-05            2e-13                 -1.0332e-07           -1.4642e-05          
  3.6                   1.4858e-05            4.6e-13               -1.3694e-07           -1.474e-05           
END_DB

BEGIN_DB
 ICCAP_VAR vg         2.428          
 ICCAP_VAR vb         -3.6           
 ICCAP_VAR vs         0              

 #vd                    id                    ig                    ib                    is                   
  0                     1.452e-09             8.8e-13               -2.296e-11            -1.258e-09           
  0.1                   6.4064e-06            7.8e-13               -2.258e-11            -6.4032e-06          
  0.2                   1.219e-05             7.4e-13               -2.362e-11            -1.2184e-05          
  0.3                   1.7252e-05            5.6e-13               -2.198e-11            -1.725e-05           
  0.4                   2.1606e-05            6.6e-13               -2.206e-11            -2.16e-05            
  0.5                   2.5238e-05            5.4e-13               -2.286e-11            -2.5226e-05          
  0.6                   2.8118e-05            3.6e-13               -2.224e-11            -2.8124e-05          
  0.7                   3.0398e-05            5.8e-13               -2.194e-11            -3.0392e-05          
  0.8                   3.2136e-05            5e-13                 -2.208e-11            -3.2114e-05          
  0.9                   3.3416e-05            5.8e-13               -2.148e-11            -3.3446e-05          
  1                     3.4448e-05            5.4e-13               -2.1e-11              -3.439e-05           
  1.1                   3.5182e-05            5e-13                 -2.174e-11            -3.5148e-05          
  1.2                   3.5738e-05            4e-13                 -2.064e-11            -3.5756e-05          
  1.3                   3.6232e-05            4.8e-13               -2.114e-11            -3.6264e-05          
  1.4                   3.667e-05             4.6e-13               -2.086e-11            -3.6702e-05          
  1.5                   3.7106e-05            5.4e-13               -2.078e-11            -3.7046e-05          
  1.6                   3.7452e-05            5.8e-13               -2.158e-11            -3.7382e-05          
  1.7                   3.7724e-05            6.2e-13               -2.118e-11            -3.7712e-05          
  1.8                   3.8008e-05            4.4e-13               -2.46e-11             -3.8056e-05          
  1.9                   3.8292e-05            4.4e-13               -3.232e-11            -3.8238e-05          
  2                     3.851e-05             5.6e-13               -4.864e-11            -3.8538e-05          
  2.1                   3.8812e-05            4.6e-13               -8.928e-11            -3.8816e-05          
  2.2                   3.9054e-05            4.2e-13               -1.7542e-10           -3.9024e-05          
  2.3                   3.9274e-05            4.4e-13               -3.4916e-10           -3.9316e-05          
  2.4                   3.9508e-05            5.4e-13               -6.8076e-10           -3.9488e-05          
  2.5                   3.9806e-05            5.4e-13               -1.2826e-09           -3.973e-05           
  2.6                   4.0008e-05            4.6e-13               -2.3212e-09           -3.9942e-05          
  2.7                   4.0154e-05            3.8e-13               -4.0372e-09           -4.0208e-05          
  2.8                   4.0408e-05            5.2e-13               -6.7392e-09           -4.0326e-05          
  2.9                   4.0624e-05            4e-13                 -1.08872e-08          -4.0528e-05          
  3                     4.077e-05             4.8e-13               -1.7116e-08           -4.074e-05           
  3.1                   4.1016e-05            5.2e-13               -2.5994e-08           -4.0916e-05          
  3.2                   4.12e-05              3e-13                 -3.8368e-08           -4.106e-05           
  3.3                   4.1266e-05            2.2e-13               -5.569e-08            -4.1236e-05          
  3.4                   4.148e-05             4.2e-13               -7.9316e-08           -4.143e-05           
  3.5                   4.1796e-05            4.4e-13               -1.11002e-07          -4.1678e-05          
  3.6                   4.1986e-05            4.6e-13               -1.5262e-07           -4.182e-05           
END_DB

BEGIN_DB
 ICCAP_VAR vg         3.014          
 ICCAP_VAR vb         -3.6           
 ICCAP_VAR vs         0              

 #vd                    id                    ig                    ib                    is                   
  0                     1.6786e-09            9e-13                 -1.756e-11            -1.7654e-09          
  0.1                   8.9564e-06            7.4e-13               -1.698e-11            -8.9548e-06          
  0.2                   1.7392e-05            6.8e-13               -1.708e-11            -1.7382e-05          
  0.3                   2.518e-05             5.2e-13               -1.884e-11            -2.5174e-05          
  0.4                   3.2292e-05            7.4e-13               -1.74e-11             -3.2288e-05          
  0.5                   3.8642e-05            7.2e-13               -1.688e-11            -3.8628e-05          
  0.6                   4.4218e-05            7e-13                 -1.766e-11            -4.419e-05           
  0.7                   4.9022e-05            6e-13                 -1.644e-11            -4.9024e-05          
  0.8                   5.3096e-05            7.4e-13               -1.688e-11            -5.3082e-05          
  0.9                   5.6428e-05            8e-13                 -1.728e-11            -5.6456e-05          
  1                     5.9202e-05            5.8e-13               -1.58e-11             -5.9164e-05          
  1.1                   6.1396e-05            5.6e-13               -1.654e-11            -6.1416e-05          
  1.2                   6.3154e-05            6.4e-13               -1.76e-11             -6.312e-05           
  1.3                   6.4532e-05            4.2e-13               -1.734e-11            -6.4554e-05          
  1.4                   6.565e-05             6e-13                 -1.698e-11            -6.5658e-05          
  1.5                   6.6564e-05            7e-13                 -1.73e-11             -6.6524e-05          
  1.6                   6.7304e-05            5.4e-13               -1.642e-11            -6.7296e-05          
  1.7                   6.7926e-05            5.2e-13               -1.774e-11            -6.7912e-05          
  1.8                   6.8498e-05            5.6e-13               -1.71e-11             -6.8466e-05          
  1.9                   6.9008e-05            5.6e-13               -1.934e-11            -6.9004e-05          
  2                     6.9452e-05            4.8e-13               -2.602e-11            -6.9412e-05          
  2.1                   6.9856e-05            5e-13                 -3.864e-11            -6.9868e-05          
  2.2                   7.0192e-05            3e-13                 -7.078e-11            -7.0188e-05          
  2.3                   7.0562e-05            5.6e-13               -1.4024e-10           -7.0568e-05          
  2.4                   7.0914e-05            4.4e-13               -2.8002e-10           -7.0884e-05          
  2.5                   7.1242e-05            5e-13                 -5.5386e-10           -7.1214e-05          
  2.6                   7.161e-05             3.8e-13               -1.061e-09            -7.154e-05           
  2.7                   7.1852e-05            4e-13                 -1.9258e-09           -7.1854e-05          
  2.8                   7.2174e-05            4.2e-13               -3.4132e-09           -7.218e-05           
  2.9                   7.2452e-05            4.8e-13               -5.809e-09            -7.2444e-05          
  3                     7.2728e-05            3.2e-13               -9.5774e-09           -7.2674e-05          
  3.1                   7.2996e-05            4.4e-13               -1.5536e-08           -7.297e-05           
  3.2                   7.326e-05             5.4e-13               -2.3846e-08           -7.3204e-05          
  3.3                   7.3468e-05            4.8e-13               -3.5954e-08           -7.3404e-05          
  3.4                   7.3712e-05            6.6e-13               -5.3362e-08           -7.3652e-05          
  3.5                   7.402e-05             5.4e-13               -7.7288e-08           -7.389e-05           
  3.6                   7.4276e-05            4.4e-13               -1.09932e-07          -7.4186e-05          
END_DB

BEGIN_DB
 ICCAP_VAR vg         3.6            
 ICCAP_VAR vb         -3.6           
 ICCAP_VAR vs         0              

 #vd                    id                    ig                    ib                    is                   
  0                     1.5706e-09            9.6e-13               -1.55e-11             -1.898e-09           
  0.1                   1.0908e-05            1.02e-12              -1.45e-11             -1.0902e-05          
  0.2                   2.1374e-05            8.2e-13               -1.406e-11            -2.1368e-05          
  0.3                   3.1272e-05            6.4e-13               -1.602e-11            -3.1266e-05          
  0.4                   4.0562e-05            8.4e-13               -1.456e-11            -4.056e-05           
  0.5                   4.9156e-05            7.2e-13               -1.468e-11            -4.916e-05           
  0.6                   5.6988e-05            7e-13                 -1.548e-11            -5.6976e-05          
  0.7                   6.406e-05             7.2e-13               -1.48e-11             -6.4056e-05          
  0.8                   7.0354e-05            8e-13                 -1.482e-11            -7.0354e-05          
