! VERSION = 6.00
BEGIN_HEADER
 ICCAP_INPUTS
  vd         V  D GROUND SMU1 0.1 LIN        1    0          3.6        37   0.1       
  vg         V  G GROUND SMU2 0.001 LIN        2    0.684      3.6        5    0.729     
  vb         V  B GROUND SMU4 0.1 CON        -3.6
  vs         V  S GROUND SMU3 0.1 CON        0
 ICCAP_OUTPUTS
  id         I  D GROUND SMU1 B
  ig         I  G GROUND SMU2 B
  ib         I  B GROUND SMU4 B
  is         I  S GROUND SMU3 B
 ICCAP_VALUES
  MASTER_SETUP_TYPE "~dc_idvd~"
  LINVT_VALUE "|idvg|100.0n|100.0m|1.000m|5|3.600|"
  LISTVT_VALUE ""
  TYPE "1"
  TEMP " 27.0000 "
  IS_TNOM " 1.00000 "
  MAIN.W "300.0n"
  MAIN.L "300.0n"
  MAIN.AD "102.0f"
  MAIN.AS "102.0f"
  MAIN.PD "1.280u"
  MAIN.PS "1.280u"
  MAIN.NF "1.000"
  MAIN.M "1"
  MAIN.NRD "0.000"
  MAIN.NRS "0.000"
  MAIN.LDRIFT1 "1E-06"
  MAIN.LDRIFT2 "1E-06"
  MAIN.SA "0.000"
  MAIN.SB "0.000"
  MAIN.SD "0.000"
  MAIN.SCA "0.000"
  MAIN.SCB "0.000"
  MAIN.SCC "0.000"
  MAIN.SC "0.000"
  MODULE "S560"
  PIN_D "20"
  PIN_G "1"
  PIN_S "2"
  PIN_B "19"
  PIN_E ""
  PIN_6 ""
  XY_ID ""
  FUNC "Additional"
  STI "SA ref"
  WPE "WPE ref"
  COMMENT ""
  DIS_MEAS ""
  TypeTCI "10"
END_HEADER

BEGIN_DB
 ICCAP_VAR vg         0.684          
 ICCAP_VAR vb         -3.6           
 ICCAP_VAR vs         0              

 #vd                    id                    ig                    ib                    is                   
  0                     6.68e-11              2.8e-13               -4.278e-11            -4.56e-11            
  0.1                   3.492e-08             1.6e-13               -3.482e-11            -3.4942e-08          
  0.2                   5.4606e-08            2e-13                 -3.368e-11            -5.4572e-08          
  0.3                   7.7814e-08            2.2e-13               -3.308e-11            -7.7728e-08          
  0.4                   1.05986e-07           2.4e-13               -3.152e-11            -1.05892e-07         
  0.5                   1.3898e-07            2.2e-13               -2.998e-11            -1.3886e-07          
  0.6                   1.7744e-07            2e-13                 -2.908e-11            -1.7726e-07          
  0.7                   2.2128e-07            3.2e-13               -2.76e-11             -2.213e-07           
  0.8                   2.7084e-07            1.8e-13               -2.58e-11             -2.7084e-07          
  0.9                   3.2716e-07            2.6e-13               -2.488e-11            -3.2696e-07          
  1                     3.894e-07             2.6e-13               -2.516e-11            -3.8906e-07          
  1.1                   4.5756e-07            2.4e-13               -2.378e-11            -4.5876e-07          
  1.2                   5.3476e-07            2e-13                 -2.218e-11            -5.3436e-07          
  1.3                   6.1798e-07            2e-13                 -2.348e-11            -6.1674e-07          
  1.4                   7.0768e-07            2.6e-13               -2.54e-11             -7.0806e-07          
  1.5                   8.057e-07             2e-13                 -3.342e-11            -8.0642e-07          
  1.6                   9.137e-07             2.4e-13               -5.112e-11            -9.1388e-07          
  1.7                   1.026e-06             2.4e-13               -9.308e-11            -1.0261e-06          
  1.8                   1.1479e-06            1.8e-13               -1.7616e-10           -1.14752e-06         
  1.9                   1.2754e-06            2e-13                 -3.245e-10            -1.2704e-06          
  2                     1.4104e-06            1.4e-13               -5.867e-10            -1.4106e-06          
  2.1                   1.5566e-06            2.4e-13               -1.0128e-09           -1.5558e-06          
  2.2                   1.713e-06             2e-13                 -1.6886e-09           -1.7076e-06          
  2.3                   1.8756e-06            2.4e-13               -2.715e-09            -1.864e-06           
  2.4                   2.0442e-06            1.8e-13               -4.2588e-09           -2.0362e-06          
  2.5                   2.2232e-06            2e-13                 -6.4954e-09           -2.207e-06           
  2.6                   2.4086e-06            3e-13                 -9.7356e-09           -2.3914e-06          
  2.7                   2.6026e-06            2.2e-13               -1.4298e-08           -2.5818e-06          
  2.8                   2.8062e-06            2.6e-13               -2.0692e-08           -2.7794e-06          
  2.9                   3.0226e-06            1.8e-13               -2.9518e-08           -2.99e-06            
  3                     3.2516e-06            2e-13                 -4.145e-08            -3.2038e-06          
  3.1                   3.4918e-06            2.4e-13               -5.7454e-08           -3.4284e-06          
  3.2                   3.7452e-06            2.6e-13               -7.8532e-08           -3.6618e-06          
  3.3                   4.0132e-06            3e-13                 -1.0581e-07           -3.901e-06           
  3.4                   4.2958e-06            1.8e-13               -1.4068e-07           -4.151e-06           
  3.5                   4.5984e-06            2.8e-13               -1.847e-07            -4.4098e-06          
  3.6                   4.9212e-06            2.6e-13               -2.3934e-07           -4.6776e-06          
END_DB

BEGIN_DB
 ICCAP_VAR vg         1.413          
 ICCAP_VAR vb         -3.6           
 ICCAP_VAR vs         0              

 #vd                    id                    ig                    ib                    is                   
  0                     3.3124e-09            4.4e-13               -9.3e-12              -3.9828e-09          
  0.1                   9.4106e-06            3.2e-13               -8.96e-12             -9.4066e-06          
  0.2                   1.6838e-05            2.6e-13               -8.38e-12             -1.6818e-05          
  0.3                   2.225e-05             2.8e-13               -9.78e-12             -2.2226e-05          
  0.4                   2.6066e-05            1.6e-13               -9.48e-12             -2.6044e-05          
  0.5                   2.8818e-05            3.2e-13               -8.52e-12             -2.8798e-05          
  0.6                   3.0942e-05            3e-13                 -9.72e-12             -3.092e-05           
  0.7                   3.2676e-05            3.2e-13               -9.62e-12             -3.2658e-05          
  0.8                   3.4164e-05            3.4e-13               -8.86e-12             -3.4142e-05          
  0.9                   3.5476e-05            3.2e-13               -9.24e-12             -3.5458e-05          
  1                     3.666e-05             2.6e-13               -9.46e-12             -3.6638e-05          
  1.1                   3.7754e-05            2.6e-13               -8.34e-12             -3.7736e-05          
  1.2                   3.877e-05             3.2e-13               -9.08e-12             -3.875e-05           
  1.3                   3.9714e-05            3.6e-13               -1.102e-11            -3.9684e-05          
  1.4                   4.0612e-05            3.4e-13               -1.864e-11            -4.0616e-05          
  1.5                   4.15e-05              3e-13                 -4.594e-11            -4.1486e-05          
  1.6                   4.2352e-05            3e-13                 -1.2448e-10           -4.235e-05           
  1.7                   4.3182e-05            2.6e-13               -3.2418e-10           -4.316e-05           
  1.8                   4.3994e-05            2e-13                 -7.777e-10            -4.3986e-05          
  1.9                   4.4782e-05            2e-13                 -1.6992e-09           -4.4768e-05          
  2                     4.5568e-05            2e-13                 -3.4108e-09           -4.5536e-05          
  2.1                   4.6338e-05            3e-13                 -6.3844e-09           -4.6308e-05          
  2.2                   4.7092e-05            2.6e-13               -1.12494e-08          -4.7064e-05          
  2.3                   4.785e-05             2.8e-13               -1.8832e-08           -4.7812e-05          
  2.4                   4.8598e-05            2.4e-13               -3.0164e-08           -4.8542e-05          
  2.5                   4.9342e-05            2.6e-13               -4.6672e-08           -4.9278e-05          
  2.6                   5.0098e-05            3.2e-13               -7.0086e-08           -5.0008e-05          
  2.7                   5.0848e-05            2.6e-13               -1.02548e-07          -5.0728e-05          
  2.8                   5.1614e-05            2e-13                 -1.4692e-07           -5.145e-05           
  2.9                   5.24e-05              2.2e-13               -2.0674e-07           -5.2168e-05          
  3                     5.3208e-05            1.6e-13               -2.8662e-07           -5.2902e-05          
  3.1                   5.4048e-05            2.6e-13               -3.9168e-07           -5.3642e-05          
  3.2                   5.4932e-05            3e-13                 -5.2818e-07           -5.4382e-05          
  3.3                   5.5862e-05            2.2e-13               -7.0302e-07           -5.5136e-05          
  3.4                   5.6856e-05            3e-13                 -9.2488e-07           -5.591e-05           
  3.5                   5.7922e-05            2e-13                 -1.201e-06            -5.6698e-05          
  3.6                   5.907e-05             3.6e-13               -1.5418e-06           -5.7512e-05          
END_DB

BEGIN_DB
 ICCAP_VAR vg         2.142          
 ICCAP_VAR vb         -3.6           
 ICCAP_VAR vs         0              

 #vd                    id                    ig                    ib                    is                   
  0                     1.287e-08             3.8e-13               -4.64e-12             -1.2126e-08          
  0.1                   1.88e-05              4e-13                 -4.9e-12              -1.878e-05           
  0.2                   3.564e-05             3.8e-13               -7.24e-12             -3.562e-05           
  0.3                   4.9874e-05            3.2e-13               -5.36e-12             -4.985e-05           
  0.4                   6.1366e-05            3.8e-13               -6.62e-12             -6.1346e-05          
  0.5                   7.0316e-05            3.2e-13               -6.72e-12             -7.0292e-05          
  0.6                   7.714e-05             3.2e-13               -4.8e-12              -7.7124e-05          
  0.7                   8.2386e-05            3.2e-13               -6.26e-12             -8.2338e-05          
  0.8                   8.645e-05             3.4e-13               -6.24e-12             -8.6434e-05          
  0.9                   8.9738e-05            4e-13                 -4.84e-12             -8.9712e-05          
  1                     9.2462e-05            4.4e-13               -6.82e-12             -9.2456e-05          
  1.1                   9.4774e-05            3.2e-13               -6.1e-12              -9.4756e-05          
  1.2                   9.6778e-05            3.8e-13               -5.56e-12             -9.6752e-05          
  1.3                   9.856e-05             3.4e-13               -7.62e-12             -9.8548e-05          
  1.4                   0.000100166           3.4e-13               -1.194e-11            -0.000100148         
  1.5                   0.000101628           2.8e-13               -2.55e-11             -0.000101608         
  1.6                   0.000102988           3.2e-13               -7.108e-11            -0.000102968         
  1.7                   0.00010425            3.8e-13               -1.899e-10            -0.000104244         
  1.8                   0.000105448           3.4e-13               -4.7794e-10           -0.000105422         
  1.9                   0.000106586           3e-13                 -1.106e-09            -0.00010632          
  2                     0.000107686           3.8e-13               -2.369e-09            -0.0001074           
  2.1                   0.000108732           3.8e-13               -4.7216e-09           -0.00010846          
  2.2                   0.000109754           3.6e-13               -8.8424e-09           -0.00010948          
  2.3                   0.000110756           2.2e-13               -1.5674e-08           -0.00011048          
  2.4                   0.000111742           3e-13                 -2.6446e-08           -0.00011144          
  2.5                   0.00011286            2.4e-13               -4.2868e-08           -0.0001124           
  2.6                   0.00011382            2.6e-13               -6.7082e-08           -0.00011336          
  2.7                   0.00011478            3.4e-13               -1.01786e-07          -0.0001143           
  2.8                   0.00011578            2.2e-13               -1.505e-07            -0.00011522          
  2.9                   0.00011674            3e-13                 -2.1768e-07           -0.00011612          
  3                     0.00011776            2.4e-13               -3.0902e-07           -0.00011704          
  3.1                   0.00011878            2.8e-13               -4.3128e-07           -0.00011796          
  3.2                   0.00011988            2.4e-13               -5.926e-07            -0.0001189           
  3.3                   0.00012102            2.4e-13               -8.0304e-07           -0.00011982          
  3.4                   0.00012224            2.6e-13               -1.07474e-06          -0.00012076          
  3.5                   0.0001235             3e-13                 -1.42e-06             -0.00012174          
  3.6                   0.00012498            2.4e-13               -1.8544e-06           -0.0001227           
END_DB

BEGIN_DB
 ICCAP_VAR vg         2.871          
 ICCAP_VAR vb         -3.6           
 ICCAP_VAR vs         0              

 #vd                    id                    ig                    ib                    is                   
  0                     1.6342e-08            4.2e-13               -3.04e-12             -1.548e-08           
  0.1                   2.5082e-05            3.6e-13               -4.44e-12             -2.506e-05           
  0.2                   4.8512e-05            2.8e-13               -5.28e-12             -4.8492e-05          
  0.3                   6.9486e-05            4.2e-13               -4.04e-12             -6.9468e-05          
  0.4                   8.7642e-05            4.2e-13               -5.46e-12             -8.7618e-05          
  0.5                   0.000102846           4.2e-13               -5.34e-12             -0.00010281          
  0.6                   0.00011536            2.2e-13               -4.7e-12              -0.00011494          
  0.7                   0.00012534            3.2e-13               -3.78e-12             -0.00012492          
  0.8                   0.00013336            4.4e-13               -4.56e-12             -0.00013294          
  0.9                   0.00013974            4.4e-13               -4.08e-12             -0.00013934          
  1                     0.00014496            3.8e-13               -4.66e-12             -0.00014456          
  1.1                   0.00014924            3.8e-13               -4.28e-12             -0.00014888          
  1.2                   0.00015286            2.6e-13               -3.86e-12             -0.00015246          
  1.3                   0.00015596            3.6e-13               -5.02e-12             -0.00015554          
  1.4                   0.00015862            2.8e-13               -7.44e-12             -0.0001582           
  1.5                   0.000161              3.6e-13               -1.302e-11            -0.00016058          
  1.6                   0.0001631             4.6e-13               -3.57e-11             -0.0001627           
  1.7                   0.000165              3.8e-13               -9.9e-11              -0.0001646           
  1.8                   0.00016674            3.8e-13               -2.5618e-10           -0.00016634          
  1.9                   0.00016836            3.2e-13               -6.2302e-10           -0.00016796          
  2                     0.00016986            1.8e-13               -1.3892e-09           -0.00016946          
  2.1                   0.00017124            3e-13                 -2.8866e-09           -0.00017086          
  2.2                   0.00017258            3.2e-13               -5.6222e-09           -0.00017218          
  2.3                   0.00017384            2.8e-13               -1.03424e-08          -0.00017342          
  2.4                   0.00017504            3.2e-13               -1.8118e-08           -0.00017436          
  2.5                   0.00017592            4.4e-13               -3.0338e-08           -0.00017552          
  2.6                   0.00017706            3.4e-13               -4.8908e-08           -0.00017662          
  2.7                   0.00017818            3.2e-13               -7.6156e-08           -0.0001777           
  2.8                   0.00017928            3.4e-13               -1.1524e-07           -0.00017876          
  2.9                   0.00018036            4.4e-13               -1.703e-07            -0.0001798           
  3                     0.00018146            3e-13                 -2.4644e-07           -0.00018082          
  3.1                   0.00018258            3.2e-13               -3.5012e-07           -0.00018184          
  3.2                   0.00018374            3.4e-13               -4.8888e-07           -0.00018284          
  3.3                   0.00018494            3.8e-13               -6.7256e-07           -0.00018386          
  3.4                   0.00018618            4.2e-13               -9.1362e-07           -0.00018486          
  3.5                   0.00018754            3.6e-13               -1.2236e-06           -0.00018592          
  3.6                   0.000189              3.6e-13               -1.6198e-06           -0.000187            
END_DB

BEGIN_DB
 ICCAP_VAR vg         3.6            
 ICCAP_VAR vb         -3.6           
 ICCAP_VAR vs         0              

 #vd                    id                    ig                    ib                    is                   
  0                     1.9168e-08            5.8e-13               -4.12e-12             -1.7962e-08          
  0.1                   2.9222e-05            4e-13                 -2.48e-12             -2.9204e-05          
  0.2                   5.7088e-05            3.6e-13               -3.92e-12             -5.7066e-05          
  0.3                   8.279e-05             4.8e-13               -3.98e-12             -8.277e-05           
  0.4                   0.000105886           3.8e-13               -3.94e-12             -0.000105886         
  0.5                   0.00012624            3.6e-13               -2.78e-12             -0.00012584          
  0.6                   0.00014354            3.2e-13               -3.72e-12             -0.00014316          
  0.7                   0.00015816            4.2e-13               -3.74e-12             -0.00015776          
  0.8                   0.00017034            4.2e-13               -3.08e-12             -0.00016994          
