! VERSION = 6.00
BEGIN_HEADER
 ICCAP_INPUTS
  vd         V  D GROUND SMU1 0.1 LIN        1    0          3.6        37   0.1       
  vg         V  G GROUND SMU2 0.001 LIN        2    0.744      3.6        5    0.714     
  vb         V  B GROUND SMU4 0.1 CON        0
  vs         V  S GROUND SMU3 0.1 CON        0
 ICCAP_OUTPUTS
  id         I  D GROUND SMU1 B
  ig         I  G GROUND SMU2 B
  ib         I  B GROUND SMU4 B
  is         I  S GROUND SMU3 B
 ICCAP_VALUES
  MASTER_SETUP_TYPE "~dc_idvd~"
  LINVT_VALUE "|idvg|100.0n|100.0m|1.000m|5|3.600|"
  LISTVT_VALUE ""
  TYPE "1"
  TEMP "-40.0000 "
  IS_TNOM " 0.00000 "
  MAIN.W "300.0n"
  MAIN.L "10.00u"
  MAIN.AD "102.0f"
  MAIN.AS "102.0f"
  MAIN.PD "1.280u"
  MAIN.PS "1.280u"
  MAIN.NF "1.000"
  MAIN.M "1"
  MAIN.NRD "0.000"
  MAIN.NRS "0.000"
  MAIN.LDRIFT1 "1E-06"
  MAIN.LDRIFT2 "1E-06"
  MAIN.SA "0.000"
  MAIN.SB "0.000"
  MAIN.SD "0.000"
  MAIN.SCA "0.000"
  MAIN.SCB "0.000"
  MAIN.SCC "0.000"
  MAIN.SC "0.000"
  MODULE "S547"
  PIN_D "14"
  PIN_G "7"
  PIN_S "8"
  PIN_B "13"
  PIN_E ""
  PIN_6 ""
  XY_ID ""
  FUNC "Narrow"
  STI "SA ref"
  WPE "WPE ref"
  COMMENT ""
  DIS_MEAS ""
  TypeTCI "10"
END_HEADER

BEGIN_DB
 ICCAP_VAR vg         0.744          
 ICCAP_VAR vb         0              
 ICCAP_VAR vs         0              

 #vd                    id                    ig                    ib                    is                   
  0                     2.644e-11             2e-14                 1.498e-11             -2.026e-11           
  0.1                   1.8174e-08            2e-14                 1.248e-11             -1.8216e-08          
  0.2                   1.982e-08             0                     1.136e-11             -1.9802e-08          
  0.3                   1.9886e-08            -4e-14                1.192e-11             -1.987e-08           
  0.4                   1.99e-08              -1e-13                1.19e-11              -1.9874e-08          
  0.5                   1.9846e-08            -1e-13                1.028e-11             -1.9818e-08          
  0.6                   1.9848e-08            -2.8e-13              1.01e-11              -1.9824e-08          
  0.7                   1.9856e-08            -1.4e-13              1.018e-11             -1.9836e-08          
  0.8                   1.986e-08             -2e-14                1.136e-11             -1.9834e-08          
  0.9                   1.9864e-08            0                     9.96e-12              -1.9832e-08          
  1                     1.9868e-08            8e-14                 8.96e-12              -1.9856e-08          
  1.1                   1.9892e-08            -1.4e-13              8.84e-12              -1.9864e-08          
  1.2                   1.9892e-08            -6e-14                8.98e-12              -1.9854e-08          
  1.3                   1.988e-08             -2e-14                9.64e-12              -1.9844e-08          
  1.4                   1.9882e-08            -6e-14                8.16e-12              -1.986e-08           
  1.5                   1.988e-08             -4e-14                8.2e-12               -1.9868e-08          
  1.6                   1.9894e-08            -4e-14                8.48e-12              -1.9872e-08          
  1.7                   1.9896e-08            -8e-14                8.52e-12              -1.9864e-08          
  1.8                   1.9906e-08            8e-14                 7.36e-12              -1.9874e-08          
  1.9                   1.9904e-08            -1e-13                6.28e-12              -1.9876e-08          
  2                     1.9916e-08            -1.2e-13              5.12e-12              -1.989e-08           
  2.1                   1.9926e-08            8e-14                 4.74e-12              -1.9898e-08          
  2.2                   1.994e-08             2e-14                 6.8e-13               -1.9898e-08          
  2.3                   1.9956e-08            1.6e-13               -4.2e-12              -1.9986e-08          
  2.4                   2.0024e-08            1e-13                 -9.06e-12             -1.9982e-08          
  2.5                   1.9958e-08            4e-14                 -1.734e-11            -1.9912e-08          
  2.6                   1.9974e-08            -2e-14                -2.854e-11            -1.9908e-08          
  2.7                   1.9986e-08            -1.8e-13              -4.494e-11            -1.9908e-08          
  2.8                   2.002e-08             0                     -6.64e-11             -1.9914e-08          
  2.9                   2.0046e-08            -6e-14                -9.18e-11             -1.9916e-08          
  3                     2.0132e-08            -1.8e-13              -1.272e-10            -2.0008e-08          
  3.1                   2.0224e-08            -1.2e-13              -1.7522e-10           -2.0014e-08          
  3.2                   2.0294e-08            -6e-14                -2.329e-10            -2.0034e-08          
  3.3                   2.037e-08             -2e-14                -3.0688e-10           -2.0042e-08          
  3.4                   2.0472e-08            -1e-13                -3.9606e-10           -2.0044e-08          
  3.5                   2.059e-08             -1e-13                -5.0682e-10           -2.0052e-08          
  3.6                   2.0718e-08            -2e-14                -6.3794e-10           -2.0034e-08          
END_DB

BEGIN_DB
 ICCAP_VAR vg         1.458          
 ICCAP_VAR vb         0              
 ICCAP_VAR vs         0              

 #vd                    id                    ig                    ib                    is                   
  0                     2.3646e-10            3.6e-13               5.4e-12               -2.4602e-10          
  0.1                   4.0134e-07            2.6e-13               4.68e-12              -4.0122e-07          
  0.2                   7.1818e-07            2.4e-13               4.7e-12               -7.1814e-07          
  0.3                   9.5382e-07            2.6e-13               4.88e-12              -9.5384e-07          
  0.4                   1.11414e-06           3e-13                 3.24e-12              -1.11404e-06         
  0.5                   1.208e-06             1.6e-13               5.46e-12              -1.2042e-06          
  0.6                   1.2482e-06            1.8e-13               3.58e-12              -1.244e-06           
  0.7                   1.2608e-06            1.4e-13               3.62e-12              -1.2572e-06          
  0.8                   1.265e-06             3.8e-13               4.62e-12              -1.2614e-06          
  0.9                   1.2672e-06            2.8e-13               3.8e-12               -1.2634e-06          
  1                     1.2684e-06            1.2e-13               4.06e-12              -1.2646e-06          
  1.1                   1.2694e-06            4e-14                 3.42e-12              -1.2656e-06          
  1.2                   1.2702e-06            2e-13                 3.94e-12              -1.2662e-06          
  1.3                   1.2706e-06            0                     3.48e-12              -1.267e-06           
  1.4                   1.2712e-06            1.4e-13               4.12e-12              -1.2676e-06          
  1.5                   1.272e-06             2.6e-13               3.68e-12              -1.268e-06           
  1.6                   1.2724e-06            1.6e-13               4.04e-12              -1.2686e-06          
  1.7                   1.2728e-06            2.8e-13               3.42e-12              -1.269e-06           
  1.8                   1.2732e-06            2.8e-13               3.78e-12              -1.2694e-06          
  1.9                   1.2734e-06            1.8e-13               3.32e-12              -1.2698e-06          
  2                     1.2738e-06            6e-14                 4.12e-12              -1.2702e-06          
  2.1                   1.2744e-06            1.6e-13               1.74e-12              -1.2704e-06          
  2.2                   1.2748e-06            2e-14                 -1.78e-12             -1.2706e-06          
  2.3                   1.275e-06             1.2e-13               -1.194e-11            -1.2712e-06          
  2.4                   1.2752e-06            6e-14                 -3.332e-11            -1.2714e-06          
  2.5                   1.2754e-06            6e-14                 -7.4e-11              -1.2716e-06          
  2.6                   1.276e-06             8e-14                 -1.467e-10            -1.2722e-06          
  2.7                   1.2762e-06            4e-14                 -2.6632e-10           -1.2724e-06          
  2.8                   1.2768e-06            1.8e-13               -4.5186e-10           -1.2726e-06          
  2.9                   1.2774e-06            -2e-14                -7.279e-10            -1.2728e-06          
  3                     1.2778e-06            1.4e-13               -1.1234e-09           -1.2732e-06          
  3.1                   1.279e-06             4e-14                 -1.6814e-09           -1.273e-06           
  3.2                   1.2798e-06            2.4e-13               -2.4414e-09           -1.2738e-06          
  3.3                   1.2812e-06            6e-14                 -3.4738e-09           -1.2738e-06          
  3.4                   1.2826e-06            2e-14                 -4.8554e-09           -1.2742e-06          
  3.5                   1.2846e-06            2e-14                 -6.6786e-09           -1.2742e-06          
  3.6                   1.2876e-06            6e-14                 -9.0472e-09           -1.2744e-06          
END_DB

BEGIN_DB
 ICCAP_VAR vg         2.172          
 ICCAP_VAR vb         0              
 ICCAP_VAR vs         0              

 #vd                    id                    ig                    ib                    is                   
  0                     4.4946e-10            5.2e-13               3.62e-12              -4.5668e-10          
  0.1                   8.0834e-07            3.8e-13               3.86e-12              -8.0828e-07          
  0.2                   1.5416e-06            4.6e-13               2.28e-12              -1.5376e-06          
  0.3                   2.1948e-06            4e-13                 2.52e-12              -2.191e-06           
  0.4                   2.7718e-06            3.6e-13               2.32e-12              -2.768e-06           
  0.5                   3.2718e-06            3.8e-13               1.86e-12              -3.2676e-06          
  0.6                   3.6936e-06            3.8e-13               2.76e-12              -3.69e-06            
  0.7                   4.0406e-06            2.6e-13               2.42e-12              -4.0368e-06          
  0.8                   4.3136e-06            1e-13                 1.68e-12              -4.3098e-06          
  0.9                   4.514e-06             2.6e-13               2.86e-12              -4.5102e-06          
  1                     4.6494e-06            2e-13                 2.5e-12               -4.646e-06           
  1.1                   4.7292e-06            8e-14                 1.56e-12              -4.7254e-06          
  1.2                   4.768e-06             3.2e-13               3e-12                 -4.764e-06           
  1.3                   4.7854e-06            2e-13                 1.96e-12              -4.7818e-06          
  1.4                   4.794e-06             1.6e-13               1.32e-12              -4.7904e-06          
  1.5                   4.7994e-06            1.2e-13               2.86e-12              -4.7952e-06          
  1.6                   4.8022e-06            6e-14                 2.16e-12              -4.7986e-06          
  1.7                   4.8048e-06            1.4e-13               1.56e-12              -4.8012e-06          
  1.8                   4.8068e-06            2e-13                 3.02e-12              -4.8032e-06          
  1.9                   4.8092e-06            2.2e-13               2.48e-12              -4.8052e-06          
  2                     4.8108e-06            1e-13                 1.96e-12              -4.8072e-06          
  2.1                   4.8126e-06            1.6e-13               3.5e-12               -4.8086e-06          
  2.2                   4.8136e-06            1.6e-13               2.06e-12              -4.81e-06            
  2.3                   4.8154e-06            1.4e-13               1.32e-12              -4.8116e-06          
  2.4                   4.8162e-06            1e-13                 3.44e-12              -4.8122e-06          
  2.5                   4.8174e-06            1.6e-13               1.4e-12               -4.814e-06           
  2.6                   4.8188e-06            1.2e-13               -8.8e-13              -4.8152e-06          
  2.7                   4.82e-06              1.4e-13               -5.44e-12             -4.8164e-06          
  2.8                   4.821e-06             3.4e-13               -2.334e-11            -4.8172e-06          
  2.9                   4.822e-06             2.8e-13               -6.348e-11            -4.8184e-06          
  3                     4.8236e-06            2.2e-13               -1.4776e-10           -4.819e-06           
  3.1                   4.8244e-06            2.2e-13               -3.119e-10            -4.8206e-06          
  3.2                   4.8252e-06            1.2e-13               -5.9344e-10           -4.8212e-06          
  3.3                   4.8268e-06            8e-14                 -1.053e-09            -4.8222e-06          
  3.4                   4.8284e-06            2.4e-13               -1.7684e-09           -4.8226e-06          
  3.5                   4.8304e-06            2e-14                 -2.8294e-09           -4.8242e-06          
  3.6                   4.8328e-06            -1.2e-13              -4.3514e-09           -4.8248e-06          
END_DB

BEGIN_DB
 ICCAP_VAR vg         2.886          
 ICCAP_VAR vb         0              
 ICCAP_VAR vs         0              

 #vd                    id                    ig                    ib                    is                   
  0                     6.28e-10              6.6e-13               3.72e-12              -6.2134e-10          
  0.1                   1.11088e-06           5e-13                 1.94e-12              -1.11092e-06         
  0.2                   2.1638e-06            3.2e-13               2.3e-12               -2.16e-06            
  0.3                   3.1522e-06            4e-13                 9.8e-13               -3.1484e-06          
  0.4                   4.08e-06              3.6e-13               2.2e-12               -4.0762e-06          
  0.5                   4.944e-06             4.2e-13               1.98e-12              -4.9398e-06          
  0.6                   5.7408e-06            2e-13                 1.66e-12              -5.737e-06           
  0.7                   6.4726e-06            2.6e-13               2.46e-12              -6.4692e-06          
  0.8                   7.1372e-06            3.4e-13               1.86e-12              -7.1338e-06          
  0.9                   7.7314e-06            2.2e-13               1.84e-12              -7.727e-06           
  1                     8.2568e-06            3e-13                 2.24e-12              -8.2534e-06          
  1.1                   8.7126e-06            3.2e-13               8e-13                 -8.7086e-06          
  1.2                   9.0976e-06            3.4e-13               1.02e-12              -9.0938e-06          
  1.3                   9.4144e-06            2.4e-13               2.4e-12               -9.4108e-06          
  1.4                   9.6642e-06            3.6e-13               1.48e-12              -9.6602e-06          
  1.5                   9.8506e-06            1.8e-13               2.14e-12              -9.8464e-06          
  1.6                   9.9778e-06            3e-13                 3.08e-12              -9.9738e-06          
  1.7                   1.00558e-05           2.2e-13               1.2e-12               -1.00526e-05         
  1.8                   1.00998e-05           2e-13                 1.58e-12              -1.00966e-05         
  1.9                   1.01244e-05           2.6e-13               1.86e-12              -1.012e-05           
  2                     1.01368e-05           1.8e-13               1.52e-12              -1.01334e-05         
  2.1                   1.01456e-05           1.4e-13               1.54e-12              -1.01418e-05         
  2.2                   1.01522e-05           1.6e-13               1.72e-12              -1.01482e-05         
  2.3                   1.01566e-05           2.6e-13               1.36e-12              -1.0153e-05          
  2.4                   1.01606e-05           2.8e-13               1.34e-12              -1.01564e-05         
  2.5                   1.01632e-05           3.2e-13               1.7e-12               -1.01598e-05         
  2.6                   1.01678e-05           3e-13                 1.94e-12              -1.01642e-05         
  2.7                   1.01704e-05           8e-14                 1.74e-12              -1.0166e-05          
  2.8                   1.01734e-05           1.4e-13               1.94e-12              -1.0169e-05          
  2.9                   1.01756e-05           2.4e-13               1.4e-12               -1.01718e-05         
  3                     1.01772e-05           1.8e-13               1.08e-12              -1.01736e-05         
  3.1                   1.01794e-05           2.8e-13               5e-13                 -1.01762e-05         
  3.2                   1.01822e-05           2.4e-13               -4.56e-12             -1.01778e-05         
  3.3                   1.01838e-05           1.8e-13               -1.914e-11            -1.0181e-05          
  3.4                   1.01858e-05           2e-13                 -5.578e-11            -1.01818e-05         
  3.5                   1.0188e-05            2.2e-13               -1.4394e-10           -1.0184e-05          
  3.6                   1.01898e-05           1.6e-13               -3.253e-10            -1.0186e-05          
END_DB

BEGIN_DB
 ICCAP_VAR vg         3.6            
 ICCAP_VAR vb         0              
 ICCAP_VAR vs         0              

 #vd                    id                    ig                    ib                    is                   
  0                     7.1298e-10            5.4e-13               1.46e-12              -6.8378e-10          
  0.1                   1.3018e-06            5.6e-13               2.76e-12              -1.2978e-06          
  0.2                   2.558e-06             5e-13                 1.5e-12               -2.5542e-06          
  0.3                   3.7674e-06            3e-13                 9.8e-13               -3.7634e-06          
  0.4                   4.9322e-06            2.6e-13               1.78e-12              -4.9286e-06          
  0.5                   6.05e-06              3.2e-13               1.16e-12              -6.0464e-06          
  0.6                   7.1174e-06            2.8e-13               1.02e-12              -7.1128e-06          
  0.7                   8.1352e-06            2e-13                 1.68e-12              -8.1312e-06          
  0.8                   9.1008e-06            3.2e-13               1.76e-12              -9.0974e-06          
