! VERSION = 6.00
BEGIN_HEADER
 ICCAP_INPUTS
  vd         V  D GROUND SMU1 0.1 LIN        1    0          3.6        37   0.1       
  vg         V  G GROUND SMU2 0.001 LIN        2    0.704      3.6        5    0.724     
  vb         V  B GROUND SMU4 0.1 CON        0
  vs         V  S GROUND SMU3 0.1 CON        0
 ICCAP_OUTPUTS
  id         I  D GROUND SMU1 B
  ig         I  G GROUND SMU2 B
  ib         I  B GROUND SMU4 B
  is         I  S GROUND SMU3 B
 ICCAP_VALUES
  MASTER_SETUP_TYPE "~dc_idvd~"
  LINVT_VALUE "|idvg|100.0n|100.0m|1.000m|5|3.600|"
  LISTVT_VALUE ""
  TYPE "1"
  TEMP " 27.0000 "
  IS_TNOM " 1.00000 "
  MAIN.W "2.000u"
  MAIN.L "3.000u"
  MAIN.AD "680.0f"
  MAIN.AS "680.0f"
  MAIN.PD "4.680u"
  MAIN.PS "4.680u"
  MAIN.NF "1.000"
  MAIN.M "1"
  MAIN.NRD "0.000"
  MAIN.NRS "0.000"
  MAIN.LDRIFT1 "1E-06"
  MAIN.LDRIFT2 "1E-06"
  MAIN.SA "0.000"
  MAIN.SB "0.000"
  MAIN.SD "0.000"
  MAIN.SCA "0.000"
  MAIN.SCB "0.000"
  MAIN.SCC "0.000"
  MAIN.SC "0.000"
  MODULE "S558"
  PIN_D "14"
  PIN_G "7"
  PIN_S "8"
  PIN_B "13"
  PIN_E ""
  PIN_6 ""
  XY_ID ""
  FUNC "LW Scale"
  STI "SA ref"
  WPE "WPE ref"
  COMMENT ""
  DIS_MEAS ""
  TypeTCI "10"
END_HEADER

BEGIN_DB
 ICCAP_VAR vg         0.704          
 ICCAP_VAR vb         0              
 ICCAP_VAR vs         0              

 #vd                    id                    ig                    ib                    is                   
  0                     4.4054e-10            1e-13                 2.38e-11              -3.5042e-10          
  0.1                   3.1212e-07            -4e-14                2.328e-11             -3.1196e-07          
  0.2                   3.4734e-07            -2.8e-13              2.082e-11             -3.4722e-07          
  0.3                   3.5174e-07            -2.6e-13              2.042e-11             -3.5158e-07          
  0.4                   3.5388e-07            -2e-13                1.98e-11              -3.5366e-07          
  0.5                   3.5544e-07            -1.2e-13              1.934e-11             -3.5552e-07          
  0.6                   3.572e-07             -4e-14                1.766e-11             -3.5682e-07          
  0.7                   3.5828e-07            2e-14                 1.708e-11             -3.5824e-07          
  0.8                   3.5926e-07            -2e-14                1.798e-11             -3.5924e-07          
  0.9                   3.6044e-07            8e-14                 1.744e-11             -3.6038e-07          
  1                     3.6148e-07            -8e-14                1.624e-11             -3.6132e-07          
  1.1                   3.6238e-07            -1.6e-13              1.602e-11             -3.6208e-07          
  1.2                   3.6348e-07            -1.6e-13              1.64e-11              -3.6326e-07          
  1.3                   3.6418e-07            -6e-14                1.608e-11             -3.6384e-07          
  1.4                   3.6484e-07            -2e-14                1.47e-11              -3.6466e-07          
  1.5                   3.656e-07             -1.6e-13              1.352e-11             -3.6544e-07          
  1.6                   3.6644e-07            -2.6e-13              1.268e-11             -3.663e-07           
  1.7                   3.672e-07             -1.6e-13              9.62e-12              -3.6664e-07          
  1.8                   3.6758e-07            -1.2e-13              1.8e-13               -3.6746e-07          
  1.9                   3.6876e-07            -1.8e-13              -1.382e-11            -3.6852e-07          
  2                     3.6928e-07            -8e-14                -3.69e-11             -3.6932e-07          
  2.1                   3.702e-07             0                     -7.57e-11             -3.6992e-07          
  2.2                   3.7064e-07            2e-14                 -1.3534e-10           -3.7046e-07          
  2.3                   3.715e-07             -1e-13                -2.2198e-10           -3.7088e-07          
  2.4                   3.7208e-07            -3.4e-13              -3.4568e-10           -3.715e-07           
  2.5                   3.7262e-07            -4e-14                -5.1742e-10           -3.719e-07           
  2.6                   3.7336e-07            -2.2e-13              -7.5274e-10           -3.7246e-07          
  2.7                   3.7422e-07            -4e-13                -1.0644e-09           -3.7296e-07          
  2.8                   3.7506e-07            4e-14                 -1.4814e-09           -3.7358e-07          
  2.9                   3.762e-07             -2e-14                -2.024e-09            -3.74e-07            
  3                     3.7736e-07            0                     -2.724e-09            -3.7442e-07          
  3.1                   3.787e-07             -1.8e-13              -3.618e-09            -3.7496e-07          
  3.2                   3.8022e-07            -1.8e-13              -4.7458e-09           -3.756e-07           
  3.3                   3.8198e-07            -8e-14                -6.1416e-09           -3.7576e-07          
  3.4                   3.8422e-07            -1.8e-13              -7.8658e-09           -3.7656e-07          
  3.5                   3.8696e-07            -1e-13                -9.9286e-09           -3.7664e-07          
  3.6                   3.8966e-07            -2.6e-13              -1.2394e-08           -3.7716e-07          
END_DB

BEGIN_DB
 ICCAP_VAR vg         1.428          
 ICCAP_VAR vb         0              
 ICCAP_VAR vs         0              

 #vd                    id                    ig                    ib                    is                   
  0                     2.5614e-09            2.8e-13               7.74e-12              -2.7468e-09          
  0.1                   6.7522e-06            2.6e-13               7.22e-12              -6.7472e-06          
  0.2                   1.2144e-05            1.4e-13               8.16e-12              -1.2124e-05          
  0.3                   1.6192e-05            -8e-14                6.78e-12              -1.6172e-05          
  0.4                   1.8992e-05            8e-14                 6.78e-12              -1.8972e-05          
  0.5                   2.0662e-05            4e-13                 7.5e-12               -2.0644e-05          
  0.6                   2.1464e-05            1.8e-13               6.5e-12               -2.144e-05           
  0.7                   2.178e-05             8e-14                 7.08e-12              -2.176e-05           
  0.8                   2.1912e-05            0                     7.12e-12              -2.1894e-05          
  0.9                   2.1986e-05            2e-14                 6.24e-12              -2.1964e-05          
  1                     2.2032e-05            6e-14                 6.5e-12               -2.2008e-05          
  1.1                   2.207e-05             3.6e-13               6.74e-12              -2.2052e-05          
  1.2                   2.2104e-05            1e-13                 6.3e-12               -2.2086e-05          
  1.3                   2.2134e-05            1e-13                 6.9e-12               -2.2114e-05          
  1.4                   2.216e-05             0                     6.84e-12              -2.2142e-05          
  1.5                   2.2186e-05            6e-14                 5.98e-12              -2.2164e-05          
  1.6                   2.2204e-05            4e-14                 6.6e-12               -2.2188e-05          
  1.7                   2.2232e-05            -4e-14                5.86e-12              -2.221e-05           
  1.8                   2.2248e-05            -4e-14                5.02e-12              -2.223e-05           
  1.9                   2.2268e-05            -1e-13                2.14e-12              -2.225e-05           
  2                     2.2288e-05            3.2e-13               -1.338e-11            -2.2268e-05          
  2.1                   2.2304e-05            3.4e-13               -5.598e-11            -2.2286e-05          
  2.2                   2.2322e-05            4e-14                 -1.636e-10            -2.2304e-05          
  2.3                   2.2342e-05            -1.4e-13              -4.1038e-10           -2.2324e-05          
  2.4                   2.2358e-05            6e-14                 -9.0256e-10           -2.2336e-05          
  2.5                   2.2378e-05            1.2e-13               -1.8078e-09           -2.2356e-05          
  2.6                   2.2394e-05            2e-13                 -3.354e-09            -2.2368e-05          
  2.7                   2.2412e-05            1e-13                 -5.8234e-09           -2.2388e-05          
  2.8                   2.2434e-05            2e-14                 -9.591e-09            -2.2402e-05          
  2.9                   2.245e-05             1.6e-13               -1.5108e-08           -2.2416e-05          
  3                     2.2474e-05            -8e-14                -2.2956e-08           -2.243e-05           
  3.1                   2.25e-05              1.2e-13               -3.3842e-08           -2.2446e-05          
  3.2                   2.2532e-05            2e-13                 -4.865e-08            -2.2462e-05          
  3.3                   2.2566e-05            1.8e-13               -6.8434e-08           -2.2476e-05          
  3.4                   2.2606e-05            -2e-14                -9.466e-08            -2.2494e-05          
  3.5                   2.2652e-05            2e-14                 -1.2876e-07           -2.2502e-05          
  3.6                   2.271e-05             4e-14                 -1.7282e-07           -2.2516e-05          
END_DB

BEGIN_DB
 ICCAP_VAR vg         2.152          
 ICCAP_VAR vb         0              
 ICCAP_VAR vs         0              

 #vd                    id                    ig                    ib                    is                   
  0                     8.048e-09             6.4e-13               4.68e-12              -2.6718e-09          
  0.1                   1.3636e-05            4.6e-13               5.3e-12               -1.3616e-05          
  0.2                   2.604e-05             3.8e-13               5.12e-12              -2.6022e-05          
  0.3                   3.718e-05             4.4e-13               4.1e-12               -3.7162e-05          
  0.4                   4.708e-05             3e-13                 4.6e-12               -4.706e-05           
  0.5                   5.5702e-05            2e-13                 5.08e-12              -5.5684e-05          
  0.6                   6.3038e-05            2e-13                 3.84e-12              -6.3018e-05          
  0.7                   6.9112e-05            3.6e-13               3.84e-12              -6.9092e-05          
  0.8                   7.3944e-05            2.8e-13               4.92e-12              -7.3922e-05          
  0.9                   7.7564e-05            1.6e-13               3.82e-12              -7.755e-05           
  1                     8.0106e-05            2.2e-13               3.5e-12               -8.0086e-05          
  1.1                   8.1704e-05            2.4e-13               5.02e-12              -8.1696e-05          
  1.2                   8.2624e-05            3e-13                 4.4e-12               -8.2602e-05          
  1.3                   8.3124e-05            6e-14                 4.08e-12              -8.3104e-05          
  1.4                   8.3416e-05            2.4e-13               4.76e-12              -8.3396e-05          
  1.5                   8.3606e-05            4.2e-13               4.34e-12              -8.3582e-05          
  1.6                   8.3734e-05            1.2e-13               4.3e-12               -8.3712e-05          
  1.7                   8.3834e-05            1.6e-13               4.06e-12              -8.3822e-05          
  1.8                   8.3934e-05            2.4e-13               3.96e-12              -8.3924e-05          
  1.9                   8.4014e-05            -1.2e-13              3.84e-12              -8.3992e-05          
  2                     8.4072e-05            -2e-14                4.06e-12              -8.406e-05           
  2.1                   8.4156e-05            8e-14                 3.56e-12              -8.4134e-05          
  2.2                   8.4214e-05            1.4e-13               3.5e-12               -8.4188e-05          
  2.3                   8.4272e-05            2.2e-13               2.14e-12              -8.4252e-05          
  2.4                   8.4328e-05            2e-14                 -8.06e-12             -8.4306e-05          
  2.5                   8.4382e-05            8e-14                 -4.026e-11            -8.4368e-05          
  2.6                   8.4432e-05            1.8e-13               -1.3888e-10           -8.4412e-05          
  2.7                   8.4478e-05            1.8e-13               -3.9616e-10           -8.4466e-05          
  2.8                   8.453e-05             8e-14                 -9.904e-10            -8.4508e-05          
  2.9                   8.4578e-05            1.6e-13               -2.2246e-09           -8.4562e-05          
  3                     8.4628e-05            6e-14                 -4.5734e-09           -8.461e-05           
  3.1                   8.4682e-05            -2e-14                -8.7084e-09           -8.464e-05           
  3.2                   8.4718e-05            4e-14                 -1.5536e-08           -8.4686e-05          
  3.3                   8.4772e-05            1.8e-13               -2.6196e-08           -8.472e-05           
  3.4                   8.482e-05             1.8e-13               -4.2236e-08           -8.4764e-05          
  3.5                   8.4884e-05            2.2e-13               -6.5476e-08           -8.4802e-05          
  3.6                   8.4962e-05            1e-13                 -9.8152e-08           -8.4834e-05          
END_DB

BEGIN_DB
 ICCAP_VAR vg         2.876          
 ICCAP_VAR vb         0              
 ICCAP_VAR vs         0              

 #vd                    id                    ig                    ib                    is                   
  0                     1.07e-08              6.2e-13               4.12e-12              -1.057e-08           
  0.1                   1.8804e-05            3.4e-13               3.52e-12              -1.8784e-05          
  0.2                   3.6656e-05            4e-13                 4.04e-12              -3.6634e-05          
  0.3                   5.349e-05             4e-13                 3.16e-12              -5.3472e-05          
  0.4                   6.9338e-05            2.4e-13               2.82e-12              -6.9322e-05          
  0.5                   8.4134e-05            5e-13                 3.9e-12               -8.4116e-05          
  0.6                   9.7814e-05            3e-13                 3.06e-12              -9.7792e-05          
  0.7                   0.000110388           2.2e-13               3.3e-12               -0.000110372         
  0.8                   0.00012194            2.4e-13               2.68e-12              -0.00012156          
  0.9                   0.00013218            2e-13                 4.24e-12              -0.00013178          
  1                     0.00014124            2.2e-13               3.46e-12              -0.00014084          
  1.1                   0.00014908            1.8e-13               2.54e-12              -0.00014868          
  1.2                   0.00015572            2.8e-13               3.84e-12              -0.00015532          
  1.3                   0.0001612             5e-13                 3e-12                 -0.0001608           
  1.4                   0.00016554            2.8e-13               2.66e-12              -0.00016514          
  1.5                   0.00016882            8e-14                 4.28e-12              -0.00016842          
  1.6                   0.00017116            2e-13                 3.16e-12              -0.00017074          
  1.7                   0.00017272            3.6e-13               2.96e-12              -0.00017232          
  1.8                   0.00017372            4.6e-13               4.66e-12              -0.00017332          
  1.9                   0.00017434            2.4e-13               5.3e-12               -0.00017394          
  2                     0.00017476            2.6e-13               2.74e-12              -0.00017436          
  2.1                   0.00017504            3e-13                 4.28e-12              -0.00017464          
  2.2                   0.00017526            2.6e-13               3.16e-12              -0.00017486          
  2.3                   0.00017544            1e-13                 3.2e-12               -0.00017504          
  2.4                   0.00017558            1.4e-13               3.9e-12               -0.00017518          
  2.5                   0.0001757             3e-13                 2.46e-12              -0.0001753           
  2.6                   0.00017582            2.2e-13               2.6e-12               -0.00017542          
  2.7                   0.00017594            8e-14                 2.38e-12              -0.00017554          
  2.8                   0.00017604            1e-13                 -3.06e-12             -0.00017564          
  2.9                   0.00017614            3.4e-13               -1.914e-11            -0.00017574          
  3                     0.00017622            1.6e-13               -7.466e-11            -0.00017582          
  3.1                   0.0001763             1.8e-13               -2.3352e-10           -0.00017592          
  3.2                   0.00017636            1.2e-13               -6.3604e-10           -0.00017598          
  3.3                   0.00017646            2.2e-13               -1.556e-09            -0.00017606          
  3.4                   0.00017654            8e-14                 -3.4772e-09           -0.00017614          
  3.5                   0.00017662            1e-13                 -7.1608e-09           -0.0001762           
  3.6                   0.00017668            1e-13                 -1.3732e-08           -0.00017628          
END_DB

BEGIN_DB
 ICCAP_VAR vg         3.6            
 ICCAP_VAR vb         0              
 ICCAP_VAR vs         0              

 #vd                    id                    ig                    ib                    is                   
  0                     1.2354e-08            6.6e-13               2.48e-12              -1.2062e-08          
  0.1                   2.2114e-05            4.6e-13               2.38e-12              -2.2092e-05          
  0.2                   4.3534e-05            2e-13                 2.32e-12              -4.3514e-05          
  0.3                   6.4196e-05            2.8e-13               3.1e-12               -6.418e-05           
  0.4                   8.4146e-05            4.4e-13               1.72e-12              -8.4128e-05          
  0.5                   0.000103302           4.8e-13               2.88e-12              -0.000103286         
  0.6                   0.00012174            2.8e-13               2.44e-12              -0.00012134          
  0.7                   0.00013918            3.6e-13               3.36e-12              -0.0001388           
  0.8                   0.00015574            4.6e-13               3.02e-12              -0.00015534          
