! VERSION = 6.00
BEGIN_HEADER
 ICCAP_INPUTS
  vd         V  D GROUND SMU1 0.1 LIN        1    0          3.6        37   0.1       
  vg         V  G GROUND SMU2 0.001 LIST       2 3 0.444 0.644 0.844
  vb         V  B GROUND SMU4 0.1 CON        -3.6
  vs         V  S GROUND SMU3 0.1 CON        0
 ICCAP_OUTPUTS
  id         I  D GROUND SMU1 B
  ig         I  G GROUND SMU2 B
  ib         I  B GROUND SMU4 B
  is         I  S GROUND SMU3 B
 ICCAP_VALUES
  MASTER_SETUP_TYPE "~dc_idvd~"
  LINVT_VALUE ""
  LISTVT_VALUE "|idvg|100.0n|-200.0m|1.000m|3|200.0m|200.0m|"
  TYPE "1"
  TEMP " 27.0000 "
  IS_TNOM " 1.00000 "
  MAIN.W "2.000u"
  MAIN.L "330.0n"
  MAIN.AD "680.0f"
  MAIN.AS "680.0f"
  MAIN.PD "4.680u"
  MAIN.PS "4.680u"
  MAIN.NF "1.000"
  MAIN.M "1"
  MAIN.NRD "0.000"
  MAIN.NRS "0.000"
  MAIN.LDRIFT1 "1E-06"
  MAIN.LDRIFT2 "1E-06"
  MAIN.SA "0.000"
  MAIN.SB "0.000"
  MAIN.SD "0.000"
  MAIN.SCA "0.000"
  MAIN.SCB "0.000"
  MAIN.SCC "0.000"
  MAIN.SC "0.000"
  MODULE "S558"
  PIN_D "18"
  PIN_G "3"
  PIN_S "4"
  PIN_B "17"
  PIN_E ""
  PIN_6 ""
  XY_ID ""
  FUNC "Additional"
  STI "SA ref"
  WPE "WPE ref"
  COMMENT ""
  DIS_MEAS ""
  TypeTCI "10"
END_HEADER

BEGIN_DB
 ICCAP_VAR vg         0.444          
 ICCAP_VAR vb         -3.6           
 ICCAP_VAR vs         0              

 #vd                    id                    ig                    ib                    is                   
  0                     2.6e-13               -2.6e-13              -2.156e-11            2e-14                
  0.1                   9.392e-11             -2.2e-13              -2.056e-11            -9.32e-11            
  0.2                   1.329e-10             -2.8e-13              -1.59e-11             -1.323e-10           
  0.3                   1.8082e-10            -2.6e-13              -1.444e-11            -1.8026e-10          
  0.4                   2.4338e-10            -2.2e-13              -1.344e-11            -2.4266e-10          
  0.5                   3.2454e-10            -2e-13                -1.13e-11             -3.2392e-10          
  0.6                   4.2808e-10            -2e-13                -1.056e-11            -4.276e-10           
  0.7                   5.6074e-10            -3.2e-13              -9.46e-12             -5.596e-10           
  0.8                   7.2782e-10            -2.4e-13              -9.78e-12             -7.2654e-10          
  0.9                   9.3816e-10            -1.2e-13              -8.02e-12             -9.3712e-10          
  1                     1.2024e-09            -2.2e-13              -8.18e-12             -1.2e-09             
  1.1                   1.5302e-09            -1.2e-13              -7.7e-12              -1.5278e-09          
  1.2                   1.9346e-09            -2e-13                -7.82e-12             -1.9318e-09          
  1.3                   2.4328e-09            -1e-13                -6.74e-12             -2.4308e-09          
  1.4                   3.0436e-09            -2.8e-13              -5.92e-12             -3.04e-09            
  1.5                   3.7896e-09            -1.8e-13              -6.98e-12             -3.785e-09           
  1.6                   4.6948e-09            -1.8e-13              -7.08e-12             -4.6908e-09          
  1.7                   5.7876e-09            -2e-13                -7.66e-12             -5.7804e-09          
  1.8                   7.1e-09               -1.4e-13              -8.32e-12             -7.0946e-09          
  1.9                   8.6748e-09            -2e-13                -1.034e-11            -8.6664e-09          
  2                     1.05472e-08           -1.6e-13              -1.64e-11             -1.05386e-08         
  2.1                   1.279e-08             -2.2e-13              -2.296e-11            -1.2746e-08          
  2.2                   1.5428e-08            -2e-13                -3.58e-11             -1.5374e-08          
  2.3                   1.8518e-08            -1.6e-13              -5.816e-11            -1.8432e-08          
  2.4                   2.2178e-08            -1.2e-13              -9.416e-11            -2.2062e-08          
  2.5                   2.6446e-08            -2.6e-13              -1.4942e-10           -2.6274e-08          
  2.6                   3.1406e-08            -2.4e-13              -2.36e-10             -3.1146e-08          
  2.7                   3.7162e-08            -1.8e-13              -3.6648e-10           -3.6772e-08          
  2.8                   4.3848e-08            -1.4e-13              -5.6582e-10           -4.326e-08           
  2.9                   5.1556e-08            -8e-14                -8.5784e-10           -5.0688e-08          
  3                     6.048e-08             -2.4e-13              -1.2842e-09           -5.9184e-08          
  3.1                   7.0748e-08            -1.4e-13              -1.8962e-09           -6.8866e-08          
  3.2                   8.2586e-08            -2e-14                -2.7552e-09           -7.9808e-08          
  3.3                   9.612e-08             -1.2e-13              -3.9388e-09           -9.2156e-08          
  3.4                   1.1176e-07            4e-14                 -5.552e-09            -1.06094e-07         
  3.5                   1.2952e-07            -1.8e-13              -7.7112e-09           -1.2166e-07          
  3.6                   1.4984e-07            -6e-14                -1.05548e-08          -1.3912e-07          
END_DB

BEGIN_DB
 ICCAP_VAR vg         0.644          
 ICCAP_VAR vb         -3.6           
 ICCAP_VAR vs         0              

 #vd                    id                    ig                    ib                    is                   
  0                     3.152e-11             4e-14                 -1.92e-12             -3.348e-11           
  0.1                   2.9686e-08            0                     -3.2e-12              -2.9656e-08          
  0.2                   4.3354e-08            -2e-14                -3.68e-12             -4.3324e-08          
  0.3                   5.9008e-08            2e-14                 -2.2e-12              -5.8982e-08          
  0.4                   7.7912e-08            6e-14                 -3.5e-12              -7.7902e-08          
  0.5                   1.00572e-07           2e-14                 -4.46e-12             -1.00562e-07         
  0.6                   1.2758e-07            -4e-14                -2.92e-12             -1.2744e-07          
  0.7                   1.594e-07             2e-14                 -3.26e-12             -1.5926e-07          
  0.8                   1.963e-07             -6e-14                -3.74e-12             -1.9614e-07          
  0.9                   2.3864e-07            -4e-14                -3.38e-12             -2.3848e-07          
  1                     2.8704e-07            -4e-14                -2.44e-12             -2.8686e-07          
  1.1                   3.4178e-07            0                     -3.86e-12             -3.4166e-07          
  1.2                   4.0326e-07            0                     -4.12e-12             -4.0308e-07          
  1.3                   4.7206e-07            2e-14                 -4.48e-12             -4.719e-07           
  1.4                   5.485e-07             6e-14                 -6.58e-12             -5.4842e-07          
  1.5                   6.3358e-07            0                     -1.404e-11            -6.3356e-07          
  1.6                   7.2748e-07            -4e-14                -3.118e-11            -7.2746e-07          
  1.7                   8.3048e-07            -1.2e-13              -6.874e-11            -8.3048e-07          
  1.8                   9.4402e-07            -4e-14                -1.4322e-10           -9.438e-07           
  1.9                   1.06788e-06           -2e-14                -2.8762e-10           -1.06756e-06         
  2                     1.2046e-06            0                     -5.386e-10            -1.1996e-06          
  2.1                   1.351e-06             -1.8e-13              -9.554e-10            -1.3466e-06          
  2.2                   1.5104e-06            -2e-14                -1.6332e-09           -1.505e-06           
  2.3                   1.6826e-06            2e-14                 -2.6932e-09           -1.676e-06           
  2.4                   1.8678e-06            -4e-14                -4.3084e-09           -1.8592e-06          
  2.5                   2.0676e-06            -8e-14                -6.7272e-09           -2.0566e-06          
  2.6                   2.2818e-06            0                     -1.0281e-08           -2.268e-06           
  2.7                   2.519e-06             -1e-13                -1.5416e-08           -2.4928e-06          
  2.8                   2.759e-06             2e-14                 -2.2742e-08           -2.7326e-06          
  2.9                   3.0242e-06            -4e-14                -3.301e-08            -2.987e-06           
  3                     3.3082e-06            -8e-14                -4.7242e-08           -3.257e-06           
  3.1                   3.6146e-06            -6e-14                -6.6628e-08           -3.5436e-06          
  3.2                   3.9424e-06            -2e-14                -9.2584e-08           -3.8456e-06          
  3.3                   4.2956e-06            -1e-13                -1.2664e-07           -4.1874e-06          
  3.4                   4.676e-06             -1.2e-13              -1.7158e-07           -4.5378e-06          
  3.5                   5.0842e-06            -6e-14                -2.299e-07            -4.9014e-06          
  3.6                   5.5518e-06            -1.4e-13              -3.0064e-07           -5.2742e-06          
END_DB

BEGIN_DB
 ICCAP_VAR vg         0.844          
 ICCAP_VAR vb         -3.6           
 ICCAP_VAR vs         0              

 #vd                    id                    ig                    ib                    is                   
  0                     1.6504e-09            8e-14                 -2.44e-12             -1.3694e-09          
  0.1                   1.8466e-06            4e-14                 -1.62e-12             -1.8422e-06          
  0.2                   2.692e-06             0                     -2.4e-12              -2.6884e-06          
  0.3                   3.371e-06             4e-14                 -3.28e-12             -3.367e-06           
  0.4                   4.0214e-06            6e-14                 -3.16e-12             -4.0178e-06          
  0.5                   4.6736e-06            4e-14                 -3.02e-12             -4.6698e-06          
  0.6                   5.3402e-06            2e-14                 -5.38e-12             -5.336e-06           
  0.7                   6.0256e-06            0                     -2.96e-12             -6.022e-06           
  0.8                   6.7362e-06            1.2e-13               -2.76e-12             -6.7292e-06          
  0.9                   7.4692e-06            6e-14                 -3.3e-12              -7.4654e-06          
  1                     8.2272e-06            0                     -2.84e-12             -8.224e-06           
  1.1                   9.0148e-06            2e-14                 -2.34e-12             -9.0116e-06          
  1.2                   9.8262e-06            -4e-14                -4.2e-12              -9.82e-06            
  1.3                   1.06566e-05           -4e-14                -7.14e-12             -1.06558e-05         
  1.4                   1.1536e-05            0                     -2.046e-11            -1.15222e-05         
  1.5                   1.2422e-05            -6e-14                -6.016e-11            -1.2402e-05          
  1.6                   1.3338e-05            6e-14                 -1.738e-10            -1.3322e-05          
  1.7                   1.4276e-05            2e-14                 -4.3622e-10           -1.4254e-05          
  1.8                   1.5246e-05            1.4e-13               -9.858e-10            -1.5224e-05          
  1.9                   1.624e-05             -2e-14                -2.0414e-09           -1.6214e-05          
  2                     1.726e-05             0                     -3.9064e-09           -1.7238e-05          
  2.1                   1.83e-05              -2e-14                -7.0324e-09           -1.8278e-05          
  2.2                   1.9378e-05            -2e-14                -1.2008e-08           -1.935e-05           
  2.3                   2.0484e-05            -8e-14                -1.9644e-08           -2.044e-05           
  2.4                   2.162e-05             0                     -3.0976e-08           -2.1564e-05          
  2.5                   2.2784e-05            0                     -4.7488e-08           -2.271e-05           
  2.6                   2.3974e-05            -8e-14                -7.1042e-08           -2.3884e-05          
  2.7                   2.5202e-05            -4e-14                -1.0404e-07           -2.5076e-05          
  2.8                   2.6468e-05            0                     -1.4964e-07           -2.6296e-05          
  2.9                   2.7774e-05            0                     -2.12e-07             -2.7546e-05          
  3                     2.9126e-05            -2e-14                -2.9608e-07           -2.881e-05           
  3.1                   3.0556e-05            6e-14                 -4.0796e-07           -3.016e-05           
  3.2                   3.2084e-05            -4e-14                -5.5438e-07           -3.148e-05           
  3.3                   3.3598e-05            1e-13                 -7.4244e-07           -3.2804e-05          
  3.4                   3.5164e-05            -6e-14                -9.8256e-07           -3.4198e-05          
  3.5                   3.688e-05             2e-14                 -1.2832e-06           -3.555e-05           
  3.6                   3.8698e-05            1e-13                 -1.6512e-06           -3.707e-05           
END_DB

