! VERSION = 6.00
BEGIN_HEADER
 ICCAP_INPUTS
  vd         V  D GROUND SMU1 0.1 LIN        1    0          3.6        37   0.1       
  vg         V  G GROUND SMU2 0.001 LIST       2 3 1.085 1.285 1.485
  vb         V  B GROUND SMU4 0.1 CON        -3.6
  vs         V  S GROUND SMU3 0.1 CON        0
 ICCAP_OUTPUTS
  id         I  D GROUND SMU1 B
  ig         I  G GROUND SMU2 B
  ib         I  B GROUND SMU4 B
  is         I  S GROUND SMU3 B
 ICCAP_VALUES
  MASTER_SETUP_TYPE "~dc_idvd~"
  LINVT_VALUE ""
  LISTVT_VALUE "|idvg|100.0n|-200.0m|1.000m|3|200.0m|200.0m|"
  TYPE "1"
  TEMP " 125.000 "
  IS_TNOM " 0.00000 "
  MAIN.W "10.00u"
  MAIN.L "10.00u"
  MAIN.AD "3.400p"
  MAIN.AS "3.400p"
  MAIN.PD "20.68u"
  MAIN.PS "20.68u"
  MAIN.NF "1.000"
  MAIN.M "1"
  MAIN.NRD "0.000"
  MAIN.NRS "0.000"
  MAIN.LDRIFT1 "1E-06"
  MAIN.LDRIFT2 "1E-06"
  MAIN.SA "0.000"
  MAIN.SB "0.000"
  MAIN.SD "0.000"
  MAIN.SCA "0.000"
  MAIN.SCB "0.000"
  MAIN.SCC "0.000"
  MAIN.SC "0.000"
  MODULE "S557"
  PIN_D "16"
  PIN_G "5"
  PIN_S "6"
  PIN_B "15"
  PIN_E ""
  PIN_6 ""
  XY_ID ""
  FUNC "Large"
  STI "SA ref"
  WPE "WPE ref"
  COMMENT ""
  DIS_MEAS ""
  TypeTCI "10"
END_HEADER

BEGIN_DB
 ICCAP_VAR vg         1.085          
 ICCAP_VAR vb         -3.6           
 ICCAP_VAR vs         0              

 #vd                    id                    ig                    ib                    is                   
  0                     7.76e-12              1e-13                 -9.286e-11            6.84e-12             
  0.1                   1.2606e-09            0                     -8.346e-11            -1.246e-09           
  0.2                   1.333e-09             -6e-14                -8.052e-11            -1.3178e-09          
  0.3                   1.3388e-09            -1.2e-13              -7.632e-11            -1.3234e-09          
  0.4                   1.3404e-09            -1e-13                -7.214e-11            -1.325e-09           
  0.5                   1.3422e-09            -1.4e-13              -7.088e-11            -1.3258e-09          
  0.6                   1.3436e-09            -6e-14                -6.982e-11            -1.3272e-09          
  0.7                   1.3446e-09            -2e-14                -6.824e-11            -1.3284e-09          
  0.8                   1.3462e-09            -8e-14                -6.492e-11            -1.3294e-09          
  0.9                   1.3472e-09            -1.2e-13              -6.422e-11            -1.33e-09            
  1                     1.3482e-09            -2e-14                -6.366e-11            -1.331e-09           
  1.1                   1.3492e-09            -1.2e-13              -6.302e-11            -1.3318e-09          
  1.2                   1.35e-09              -8e-14                -6.086e-11            -1.3328e-09          
  1.3                   1.3512e-09            -3e-13                -6.084e-11            -1.3336e-09          
  1.4                   1.3522e-09            6e-14                 -5.986e-11            -1.3342e-09          
  1.5                   1.3534e-09            -1.2e-13              -5.856e-11            -1.3348e-09          
  1.6                   1.3544e-09            -8e-14                -5.89e-11             -1.3358e-09          
  1.7                   1.3552e-09            -1.4e-13              -5.974e-11            -1.3364e-09          
  1.8                   1.3562e-09            -8e-14                -5.882e-11            -1.3372e-09          
  1.9                   1.3568e-09            -2e-14                -5.768e-11            -1.3378e-09          
  2                     1.3578e-09            -1e-13                -5.694e-11            -1.338e-09           
  2.1                   1.359e-09             2e-14                 -5.796e-11            -1.3386e-09          
  2.2                   1.36e-09              0                     -5.792e-11            -1.3392e-09          
  2.3                   1.361e-09             0                     -5.764e-11            -1.3396e-09          
  2.4                   1.3622e-09            0                     -5.812e-11            -1.3406e-09          
  2.5                   1.3638e-09            -2e-14                -5.852e-11            -1.3408e-09          
  2.6                   1.3654e-09            -4e-14                -5.81e-11             -1.342e-09           
  2.7                   1.3674e-09            0                     -6.068e-11            -1.3422e-09          
  2.8                   1.3698e-09            -2e-14                -6.22e-11             -1.3432e-09          
  2.9                   1.3724e-09            2e-14                 -6.392e-11            -1.3432e-09          
  3                     1.3758e-09            -4e-14                -6.488e-11            -1.3442e-09          
  3.1                   1.3796e-09            4e-14                 -6.81e-11             -1.3442e-09          
  3.2                   1.3842e-09            -4e-14                -7.302e-11            -1.3448e-09          
  3.3                   1.3904e-09            4e-14                 -7.918e-11            -1.3454e-09          
  3.4                   1.3974e-09            0                     -8.564e-11            -1.3464e-09          
  3.5                   1.4048e-09            -8e-14                -9.092e-11            -1.3464e-09          
  3.6                   1.4146e-09            -2e-13                -9.96e-11             -1.3468e-09          
END_DB

BEGIN_DB
 ICCAP_VAR vg         1.285          
 ICCAP_VAR vb         -3.6           
 ICCAP_VAR vs         0              

 #vd                    id                    ig                    ib                    is                   
  0                     8.854e-11             1.4e-13               -4.596e-11            -7.58e-11            
  0.1                   9.401e-08             2.4e-13               -4.658e-11            -9.3988e-08          
  0.2                   1.0318e-07            2.2e-13               -4.636e-11            -1.03132e-07         
  0.3                   1.0392e-07            1.8e-13               -4.808e-11            -1.03864e-07         
  0.4                   1.0406e-07            1.6e-13               -4.758e-11            -1.04032e-07         
  0.5                   1.042e-07             1.4e-13               -4.678e-11            -1.04142e-07         
  0.6                   1.0428e-07            2.4e-13               -4.936e-11            -1.04248e-07         
  0.7                   1.0436e-07            8e-14                 -4.832e-11            -1.0433e-07          
  0.8                   1.0444e-07            1.6e-13               -4.742e-11            -1.044e-07           
  0.9                   1.0452e-07            2.2e-13               -4.792e-11            -1.04466e-07         
  1                     1.0456e-07            2.4e-13               -4.882e-11            -1.0453e-07          
  1.1                   1.0464e-07            1e-13                 -4.846e-11            -1.0459e-07          
  1.2                   1.0468e-07            8e-14                 -4.834e-11            -1.04634e-07         
  1.3                   1.0474e-07            1e-13                 -4.838e-11            -1.04696e-07         
  1.4                   1.048e-07             1.8e-13               -4.924e-11            -1.04752e-07         
  1.5                   1.0484e-07            1.2e-13               -4.906e-11            -1.048e-07           
  1.6                   1.049e-07             2e-13                 -4.848e-11            -1.04868e-07         
  1.7                   1.0494e-07            1.6e-13               -5.062e-11            -1.04912e-07         
  1.8                   1.05e-07              1e-13                 -5.142e-11            -1.04956e-07         
  1.9                   1.0504e-07            1.6e-13               -5.196e-11            -1.04998e-07         
  2                     1.051e-07             6e-14                 -5.456e-11            -1.05042e-07         
  2.1                   1.0514e-07            0                     -5.934e-11            -1.05078e-07         
  2.2                   1.0518e-07            0                     -6.654e-11            -1.05112e-07         
  2.3                   1.0524e-07            1.2e-13               -7.672e-11            -1.05164e-07         
  2.4                   1.053e-07             8e-14                 -9.65e-11             -1.05216e-07         
  2.5                   1.0538e-07            2e-14                 -1.2222e-10           -1.05262e-07         
  2.6                   1.0544e-07            1e-13                 -1.5896e-10           -1.05278e-07         
  2.7                   1.0554e-07            8e-14                 -2.086e-10            -1.0533e-07          
  2.8                   1.0566e-07            1.8e-13               -2.7736e-10           -1.05358e-07         
  2.9                   1.0576e-07            4e-14                 -3.69e-10             -1.05408e-07         
  3                     1.0592e-07            8e-14                 -4.8808e-10           -1.05446e-07         
  3.1                   1.0612e-07            2e-14                 -6.4154e-10           -1.05472e-07         
  3.2                   1.0636e-07            2e-13                 -8.4316e-10           -1.0552e-07          
  3.3                   1.0664e-07            1e-13                 -1.0962e-09           -1.0555e-07          
  3.4                   1.07e-07              1e-13                 -1.4166e-09           -1.05592e-07         
  3.5                   1.0744e-07            8e-14                 -1.8156e-09           -1.05616e-07         
  3.6                   1.0796e-07            2e-13                 -2.3048e-09           -1.05664e-07         
END_DB

BEGIN_DB
 ICCAP_VAR vg         1.485          
 ICCAP_VAR vb         -3.6           
 ICCAP_VAR vs         0              

 #vd                    id                    ig                    ib                    is                   
  0                     5.3282e-10            4e-13                 -4.334e-11            -5.3152e-10          
  0.1                   8.6952e-07            3.6e-13               -4.416e-11            -8.696e-07           
  0.2                   1.1688e-06            3.2e-13               -4.482e-11            -1.16758e-06         
  0.3                   1.2202e-06            4e-13                 -4.454e-11            -1.217e-06           
  0.4                   1.2266e-06            2.6e-13               -4.422e-11            -1.2234e-06          
  0.5                   1.2284e-06            3e-13                 -4.424e-11            -1.2252e-06          
  0.6                   1.2296e-06            1.2e-13               -4.512e-11            -1.2262e-06          
  0.7                   1.2306e-06            2.2e-13               -4.368e-11            -1.2272e-06          
  0.8                   1.2312e-06            2.4e-13               -4.454e-11            -1.2282e-06          
  0.9                   1.232e-06             1.4e-13               -4.546e-11            -1.2288e-06          
  1                     1.2326e-06            2.2e-13               -4.41e-11             -1.2294e-06          
  1.1                   1.2332e-06            1e-13                 -4.624e-11            -1.23e-06            
  1.2                   1.2338e-06            2e-13                 -4.648e-11            -1.2306e-06          
  1.3                   1.2344e-06            3e-13                 -4.44e-11             -1.231e-06           
  1.4                   1.2348e-06            2e-13                 -4.62e-11             -1.2316e-06          
  1.5                   1.2352e-06            1.6e-13               -4.702e-11            -1.2322e-06          
  1.6                   1.236e-06             1.6e-13               -4.674e-11            -1.2326e-06          
  1.7                   1.2362e-06            1.8e-13               -4.796e-11            -1.233e-06           
  1.8                   1.2368e-06            1.4e-13               -4.914e-11            -1.2336e-06          
  1.9                   1.2372e-06            1.4e-13               -5.222e-11            -1.234e-06           
  2                     1.2378e-06            1.8e-13               -6.206e-11            -1.2344e-06          
  2.1                   1.238e-06             6e-14                 -7.916e-11            -1.2348e-06          
  2.2                   1.2386e-06            1.8e-13               -1.1108e-10           -1.2354e-06          
  2.3                   1.239e-06             2e-13                 -1.6774e-10           -1.2358e-06          
  2.4                   1.2394e-06            1.6e-13               -2.6014e-10           -1.2362e-06          
  2.5                   1.2402e-06            3.2e-13               -4.0666e-10           -1.2366e-06          
  2.6                   1.2408e-06            1.4e-13               -6.2726e-10           -1.237e-06           
  2.7                   1.2414e-06            1.4e-13               -9.4568e-10           -1.2372e-06          
  2.8                   1.2422e-06            1e-13                 -1.3996e-09           -1.2376e-06          
  2.9                   1.2432e-06            8e-14                 -2.02e-09             -1.238e-06           
  3                     1.2444e-06            0                     -2.866e-09            -1.2384e-06          
  3.1                   1.246e-06             2.2e-13               -3.9908e-09           -1.2388e-06          
  3.2                   1.2478e-06            2.4e-13               -5.4656e-09           -1.239e-06           
  3.3                   1.25e-06              2.8e-13               -7.3766e-09           -1.2394e-06          
  3.4                   1.2528e-06            6e-14                 -9.836e-09            -1.2398e-06          
  3.5                   1.2562e-06            2.8e-13               -1.2966e-08           -1.24e-06            
  3.6                   1.2604e-06            2e-13                 -1.6886e-08           -1.2404e-06          
END_DB

