! VERSION = 6.00
BEGIN_HEADER
 ICCAP_INPUTS
  vd         V  D GROUND SMU1 0.1 LIN        1    0          3.6        37   0.1       
  vg         V  G GROUND SMU2 0.001 LIST       2 3 1.15 1.35 1.55
  vb         V  B GROUND SMU4 0.1 CON        -3.6
  vs         V  S GROUND SMU3 0.1 CON        0
 ICCAP_OUTPUTS
  id         I  D GROUND SMU1 B
  ig         I  G GROUND SMU2 B
  ib         I  B GROUND SMU4 B
  is         I  S GROUND SMU3 B
 ICCAP_VALUES
  MASTER_SETUP_TYPE "~dc_idvd~"
  LINVT_VALUE ""
  LISTVT_VALUE "|idvg|100.0n|-200.0m|1.000m|3|200.0m|200.0m|"
  TYPE "1"
  TEMP " 27.0000 "
  IS_TNOM " 1.00000 "
  MAIN.W "10.00u"
  MAIN.L "10.00u"
  MAIN.AD "3.400p"
  MAIN.AS "3.400p"
  MAIN.PD "20.68u"
  MAIN.PS "20.68u"
  MAIN.NF "1.000"
  MAIN.M "1"
  MAIN.NRD "0.000"
  MAIN.NRS "0.000"
  MAIN.LDRIFT1 "1E-06"
  MAIN.LDRIFT2 "1E-06"
  MAIN.SA "0.000"
  MAIN.SB "0.000"
  MAIN.SD "0.000"
  MAIN.SCA "0.000"
  MAIN.SCB "0.000"
  MAIN.SCC "0.000"
  MAIN.SC "0.000"
  MODULE "S557"
  PIN_D "16"
  PIN_G "5"
  PIN_S "6"
  PIN_B "15"
  PIN_E ""
  PIN_6 ""
  XY_ID ""
  FUNC "Large"
  STI "SA ref"
  WPE "WPE ref"
  COMMENT ""
  DIS_MEAS ""
  TypeTCI "10"
END_HEADER

BEGIN_DB
 ICCAP_VAR vg         1.15           
 ICCAP_VAR vb         -3.6           
 ICCAP_VAR vs         0              

 #vd                    id                    ig                    ib                    is                   
  0                     9.8e-13               1.2e-13               -2.008e-11            -1.4e-13             
  0.1                   3.5636e-10            -2e-14                -1.794e-11            -3.5562e-10          
  0.2                   3.6502e-10            -1.2e-13              -1.472e-11            -3.6436e-10          
  0.3                   3.6578e-10            -1.2e-13              -1.326e-11            -3.652e-10           
  0.4                   3.6664e-10            -8e-14                -1.23e-11             -3.6576e-10          
  0.5                   3.6688e-10            2e-14                 -1.008e-11            -3.6632e-10          
  0.6                   3.676e-10             -8e-14                -1.066e-11            -3.6672e-10          
  0.7                   3.6782e-10            -1e-13                -8.9e-12              -3.672e-10           
  0.8                   3.6826e-10            0                     -9.68e-12             -3.6744e-10          
  0.9                   3.6864e-10            -1e-13                -7.66e-12             -3.6744e-10          
  1                     3.6874e-10            -6e-14                -8.04e-12             -3.6778e-10          
  1.1                   3.694e-10             -1.6e-13              -7.88e-12             -3.6802e-10          
  1.2                   3.6958e-10            -6e-14                -6.34e-12             -3.683e-10           
  1.3                   3.6986e-10            -2e-14                -4.22e-12             -3.6892e-10          
  1.4                   3.702e-10             -1e-13                -5.84e-12             -3.6896e-10          
  1.5                   3.7042e-10            -8e-14                -6.24e-12             -3.695e-10           
  1.6                   3.7064e-10            0                     -5.28e-12             -3.6948e-10          
  1.7                   3.71e-10              -8e-14                -6.72e-12             -3.698e-10           
  1.8                   3.7126e-10            -1e-13                -5.4e-12              -3.702e-10           
  1.9                   3.7128e-10            1e-13                 -4.92e-12             -3.7022e-10          
  2                     3.7164e-10            -1e-13                -5.26e-12             -3.7034e-10          
  2.1                   3.7192e-10            -8e-14                -5.06e-12             -3.7064e-10          
  2.2                   3.722e-10             -2e-14                -5.04e-12             -3.7084e-10          
  2.3                   3.726e-10             -4e-14                -4.18e-12             -3.7114e-10          
  2.4                   3.729e-10             -6e-14                -5.74e-12             -3.714e-10           
  2.5                   3.734e-10             -4e-14                -4.66e-12             -3.7154e-10          
  2.6                   3.737e-10             -2e-14                -5.44e-12             -3.7158e-10          
  2.7                   3.7432e-10            -8e-14                -6.4e-12              -3.718e-10           
  2.8                   3.7482e-10            -6e-14                -5.78e-12             -3.7208e-10          
  2.9                   3.755e-10             -4e-14                -6.48e-12             -3.7198e-10          
  3                     3.7656e-10            0                     -7.14e-12             -3.723e-10           
  3.1                   3.776e-10             0                     -7.82e-12             -3.7274e-10          
  3.2                   3.7908e-10            -1.2e-13              -9.18e-12             -3.7262e-10          
  3.3                   3.807e-10             -6e-14                -9.86e-12             -3.73e-10            
  3.4                   3.8276e-10            2e-14                 -1.202e-11            -3.7354e-10          
  3.5                   3.8522e-10            0                     -1.41e-11             -3.7352e-10          
  3.6                   3.8814e-10            -1.6e-13              -1.766e-11            -3.7332e-10          
END_DB

BEGIN_DB
 ICCAP_VAR vg         1.35           
 ICCAP_VAR vb         -3.6           
 ICCAP_VAR vs         0              

 #vd                    id                    ig                    ib                    is                   
  0                     9.018e-11             1e-13                 -2.5e-12              -9.76e-11            
  0.1                   9.462e-08             1.6e-13               -2.98e-12             -9.4592e-08          
  0.2                   9.9668e-08            -2e-14                -3.54e-12             -9.9658e-08          
  0.3                   1.00056e-07           2e-14                 -3.42e-12             -1.00008e-07         
  0.4                   1.003e-07             8e-14                 -4.24e-12             -1.00178e-07         
  0.5                   1.0042e-07            0                     -3.66e-12             -1.00306e-07         
  0.6                   1.0052e-07            4e-14                 -3.14e-12             -1.00422e-07         
  0.7                   1.0062e-07            1e-13                 -4.48e-12             -1.00524e-07         
  0.8                   1.0072e-07            6e-14                 -4.4e-12              -1.00632e-07         
  0.9                   1.0082e-07            -4e-14                -3.84e-12             -1.00722e-07         
  1                     1.009e-07             -2e-14                -3.88e-12             -1.00796e-07         
  1.1                   1.0098e-07            2e-14                 -3.96e-12             -1.00852e-07         
  1.2                   1.0104e-07            6e-14                 -4.8e-12              -1.00936e-07         
  1.3                   1.011e-07             1e-13                 -3.32e-12             -1.01e-07            
  1.4                   1.0116e-07            -6e-14                -2.96e-12             -1.01052e-07         
  1.5                   1.0122e-07            6e-14                 -4.24e-12             -1.01094e-07         
  1.6                   1.0128e-07            8e-14                 -4.16e-12             -1.01188e-07         
  1.7                   1.0136e-07            -6e-14                -3.82e-12             -1.01244e-07         
  1.8                   1.014e-07             2e-14                 -4.46e-12             -1.01282e-07         
  1.9                   1.0144e-07            4e-14                 -5.48e-12             -1.01344e-07         
  2                     1.015e-07             4e-14                 -7.58e-12             -1.01412e-07         
  2.1                   1.0156e-07            -4e-14                -9.66e-12             -1.0143e-07          
  2.2                   1.016e-07             6e-14                 -1.544e-11            -1.01508e-07         
  2.3                   1.0168e-07            -4e-14                -2.656e-11            -1.01554e-07         
  2.4                   1.0174e-07            -4e-14                -4.208e-11            -1.0162e-07          
  2.5                   1.018e-07             8e-14                 -6.374e-11            -1.01644e-07         
  2.6                   1.0186e-07            4e-14                 -9.59e-11             -1.01682e-07         
  2.7                   1.0198e-07            -1e-13                -1.4342e-10           -1.01726e-07         
  2.8                   1.0208e-07            -1.4e-13              -2.0814e-10           -1.01754e-07         
  2.9                   1.0222e-07            -6e-14                -2.942e-10            -1.01796e-07         
  3                     1.0236e-07            6e-14                 -4.106e-10            -1.01832e-07         
  3.1                   1.0256e-07            -2e-14                -5.6676e-10           -1.01908e-07         
  3.2                   1.028e-07             -4e-14                -7.681e-10            -1.0193e-07          
  3.3                   1.0312e-07            4e-14                 -1.028e-09            -1.0198e-07          
  3.4                   1.0348e-07            2e-14                 -1.3646e-09           -1.02024e-07         
  3.5                   1.0394e-07            8e-14                 -1.787e-09            -1.02052e-07         
  3.6                   1.045e-07             0                     -2.31e-09             -1.02094e-07         
END_DB

BEGIN_DB
 ICCAP_VAR vg         1.55           
 ICCAP_VAR vb         -3.6           
 ICCAP_VAR vs         0              

 #vd                    id                    ig                    ib                    is                   
  0                     8.3726e-10            1e-13                 -1.68e-12             -7.9328e-10          
  0.1                   1.2204e-06            8e-14                 -3.2e-12              -1.216e-06           
  0.2                   1.5894e-06            1.4e-13               -2.7e-12              -1.5856e-06          
  0.3                   1.6368e-06            2e-14                 -2.34e-12             -1.6328e-06          
  0.4                   1.6424e-06            1e-13                 -3.72e-12             -1.6386e-06          
  0.5                   1.6448e-06            6e-14                 -3.7e-12              -1.6408e-06          
  0.6                   1.6466e-06            1.4e-13               -2.6e-12              -1.6424e-06          
  0.7                   1.648e-06             8e-14                 -3.72e-12             -1.644e-06           
  0.8                   1.649e-06             0                     -2.84e-12             -1.645e-06           
  0.9                   1.6502e-06            1.2e-13               -2.54e-12             -1.6462e-06          
  1                     1.6512e-06            6e-14                 -3.24e-12             -1.6472e-06          
  1.1                   1.652e-06             6e-14                 -2.88e-12             -1.648e-06           
  1.2                   1.653e-06             1.8e-13               -2.78e-12             -1.649e-06           
  1.3                   1.6538e-06            1e-13                 -3.34e-12             -1.6498e-06          
  1.4                   1.6544e-06            0                     -2.92e-12             -1.6506e-06          
  1.5                   1.6554e-06            2e-14                 -2.72e-12             -1.6516e-06          
  1.6                   1.6562e-06            2e-14                 -3.26e-12             -1.6522e-06          
  1.7                   1.657e-06             6e-14                 -3.24e-12             -1.653e-06           
  1.8                   1.6576e-06            -2e-14                -4.1e-12              -1.6536e-06          
  1.9                   1.658e-06             4e-14                 -8.18e-12             -1.6542e-06          
  2                     1.6588e-06            1.8e-13               -1.55e-11             -1.6548e-06          
  2.1                   1.6592e-06            6e-14                 -3.16e-11             -1.6554e-06          
  2.2                   1.66e-06              -4e-14                -6.576e-11            -1.656e-06           
  2.3                   1.6606e-06            -2e-14                -1.2682e-10           -1.6566e-06          
  2.4                   1.6614e-06            -4e-14                -2.3192e-10           -1.6572e-06          
  2.5                   1.662e-06             -1e-13                -4.0602e-10           -1.6576e-06          
  2.6                   1.6628e-06            0                     -6.7304e-10           -1.6584e-06          
  2.7                   1.6638e-06            1e-13                 -1.0678e-09           -1.6588e-06          
  2.8                   1.6648e-06            -2e-14                -1.6398e-09           -1.6592e-06          
  2.9                   1.6662e-06            0                     -2.4452e-09           -1.66e-06            
  3                     1.668e-06             8e-14                 -3.5576e-09           -1.6604e-06          
  3.1                   1.67e-06              0                     -5.0662e-09           -1.661e-06           
  3.2                   1.6722e-06            8e-14                 -7.0828e-09           -1.6612e-06          
  3.3                   1.6756e-06            2e-14                 -9.7456e-09           -1.6616e-06          
  3.4                   1.6796e-06            -4e-14                -1.3238e-08           -1.6624e-06          
  3.5                   1.6846e-06            -6e-14                -1.7734e-08           -1.6628e-06          
  3.6                   1.6908e-06            -4e-14                -2.3462e-08           -1.6632e-06          
END_DB

