! VERSION = 6.00
BEGIN_HEADER
 ICCAP_INPUTS
  vd         V  D GROUND SMU1 0.1 LIN        1    0          3.6        37   0.1       
  vg         V  G GROUND SMU2 0.001 LIN        2    1.464      3.6        5    0.534     
  vb         V  B GROUND SMU4 0.1 CON        -3.6
  vs         V  S GROUND SMU3 0.1 CON        0
 ICCAP_OUTPUTS
  id         I  D GROUND SMU1 B
  ig         I  G GROUND SMU2 B
  ib         I  B GROUND SMU4 B
  is         I  S GROUND SMU3 B
 ICCAP_VALUES
  MASTER_SETUP_TYPE "~dc_idvd~"
  LINVT_VALUE "|idvg|100.0n|100.0m|1.000m|5|3.600|"
  LISTVT_VALUE ""
  TYPE "1"
  TEMP " 27.0000 "
  IS_TNOM " 1.00000 "
  MAIN.W "5.000u"
  MAIN.L "5.000u"
  MAIN.AD "1.700p"
  MAIN.AS "1.700p"
  MAIN.PD "10.68u"
  MAIN.PS "10.68u"
  MAIN.NF "1.000"
  MAIN.M "1"
  MAIN.NRD "0.000"
  MAIN.NRS "0.000"
  MAIN.LDRIFT1 "1E-06"
  MAIN.LDRIFT2 "1E-06"
  MAIN.SA "0.000"
  MAIN.SB "0.000"
  MAIN.SD "0.000"
  MAIN.SCA "0.000"
  MAIN.SCB "0.000"
  MAIN.SCC "0.000"
  MAIN.SC "0.000"
  MODULE "S557"
  PIN_D "12"
  PIN_G "9"
  PIN_S "10"
  PIN_B "11"
  PIN_E ""
  PIN_6 ""
  XY_ID ""
  FUNC "LW Scale"
  STI "SA ref"
  WPE "WPE ref"
  COMMENT ""
  DIS_MEAS ""
  TypeTCI "10"
END_HEADER

BEGIN_DB
 ICCAP_VAR vg         1.464          
 ICCAP_VAR vb         -3.6           
 ICCAP_VAR vs         0              

 #vd                    id                    ig                    ib                    is                   
  0                     6.4664e-10            8.2e-13               -4.426e-11            -5.228e-10           
  0.1                   4.7242e-07            5.4e-13               -3.86e-11             -4.723e-07           
  0.2                   5.3996e-07            5e-13                 -3.746e-11            -5.3996e-07          
  0.3                   5.4662e-07            4.2e-13               -3.434e-11            -5.4658e-07          
  0.4                   5.4896e-07            2.8e-13               -3.58e-11             -5.4894e-07          
  0.5                   5.5064e-07            3.8e-13               -3.288e-11            -5.5058e-07          
  0.6                   5.5208e-07            3.4e-13               -3.068e-11            -5.5202e-07          
  0.7                   5.5326e-07            4e-13                 -2.812e-11            -5.532e-07           
  0.8                   5.5426e-07            4.4e-13               -2.8e-11              -5.5418e-07          
  0.9                   5.5518e-07            3.8e-13               -2.792e-11            -5.5506e-07          
  1                     5.56e-07              4.4e-13               -2.56e-11             -5.5598e-07          
  1.1                   5.5688e-07            3.8e-13               -2.324e-11            -5.5678e-07          
  1.2                   5.577e-07             3e-13                 -2.416e-11            -5.5778e-07          
  1.3                   5.5858e-07            4.2e-13               -2.426e-11            -5.584e-07           
  1.4                   5.5938e-07            3.2e-13               -2.292e-11            -5.5922e-07          
  1.5                   5.5988e-07            2e-13                 -2.142e-11            -5.5992e-07          
  1.6                   5.6068e-07            3e-13                 -2.122e-11            -5.6062e-07          
  1.7                   5.613e-07             2.6e-13               -2.14e-11             -5.6126e-07          
  1.8                   5.6198e-07            3.6e-13               -2.174e-11            -5.6186e-07          
  1.9                   5.6262e-07            2.4e-13               -2.322e-11            -5.6244e-07          
  2                     5.6316e-07            2.6e-13               -2.89e-11             -5.631e-07           
  2.1                   5.6376e-07            1.8e-13               -3.97e-11             -5.6374e-07          
  2.2                   5.6442e-07            2.8e-13               -5.896e-11            -5.6424e-07          
  2.3                   5.6508e-07            2.4e-13               -9.38e-11             -5.6494e-07          
  2.4                   5.6566e-07            1.6e-13               -1.5102e-10           -5.6538e-07          
  2.5                   5.6614e-07            2.6e-13               -2.395e-10            -5.6568e-07          
  2.6                   5.6686e-07            3.4e-13               -3.712e-10            -5.6634e-07          
  2.7                   5.6744e-07            2.4e-13               -5.6002e-10           -5.669e-07           
  2.8                   5.6812e-07            8e-14                 -8.2882e-10           -5.6732e-07          
  2.9                   5.6906e-07            1.8e-13               -1.1974e-09           -5.6768e-07          
  3                     5.7e-07               1.6e-13               -1.7024e-09           -5.6834e-07          
  3.1                   5.7104e-07            1.8e-13               -2.3786e-09           -5.6874e-07          
  3.2                   5.7252e-07            2.4e-13               -3.2706e-09           -5.6908e-07          
  3.3                   5.742e-07             2.6e-13               -4.4342e-09           -5.6948e-07          
  3.4                   5.7592e-07            -4e-14                -5.9384e-09           -5.699e-07           
  3.5                   5.7828e-07            8e-14                 -7.8594e-09           -5.7036e-07          
  3.6                   5.8104e-07            1e-13                 -1.02756e-08          -5.7086e-07          
END_DB

BEGIN_DB
 ICCAP_VAR vg         1.998          
 ICCAP_VAR vb         -3.6           
 ICCAP_VAR vs         0              

 #vd                    id                    ig                    ib                    is                   
  0                     2.9354e-09            3.6e-13               -8.86e-12             -3.1224e-09          
  0.1                   6.6128e-06            2.4e-13               -9.1e-12              -6.6084e-06          
  0.2                   1.1638e-05            2.6e-13               -9.86e-12             -1.1616e-05          
  0.3                   1.512e-05             3e-13                 -1.008e-11            -1.51e-05            
  0.4                   1.7224e-05            3e-13                 -9.56e-12             -1.7204e-05          
  0.5                   1.8216e-05            1.8e-13               -1.05e-11             -1.8194e-05          
  0.6                   1.8556e-05            2.6e-13               -9.58e-12             -1.8536e-05          
  0.7                   1.8666e-05            4e-13                 -9.74e-12             -1.8646e-05          
  0.8                   1.8718e-05            1.6e-13               -1.016e-11            -1.8696e-05          
  0.9                   1.8748e-05            2e-13                 -8.88e-12             -1.873e-05           
  1                     1.8774e-05            4e-13                 -9.3e-12              -1.8754e-05          
  1.1                   1.8796e-05            3e-13                 -1.086e-11            -1.8774e-05          
  1.2                   1.8812e-05            2.2e-13               -8.32e-12             -1.8792e-05          
  1.3                   1.8828e-05            3e-13                 -8.98e-12             -1.8806e-05          
  1.4                   1.884e-05             2.8e-13               -9.8e-12              -1.8822e-05          
  1.5                   1.8856e-05            2.6e-13               -9.78e-12             -1.8836e-05          
  1.6                   1.8868e-05            1.6e-13               -9.32e-12             -1.8848e-05          
  1.7                   1.8882e-05            6e-14                 -1.016e-11            -1.886e-05           
  1.8                   1.8892e-05            6e-14                 -8.92e-12             -1.8872e-05          
  1.9                   1.8902e-05            1e-13                 -9.44e-12             -1.8882e-05          
  2                     1.8912e-05            1.8e-13               -1.146e-11            -1.8894e-05          
  2.1                   1.8924e-05            1e-13                 -1.548e-11            -1.8902e-05          
  2.2                   1.8934e-05            1.6e-13               -3.302e-11            -1.8914e-05          
  2.3                   1.8944e-05            1.6e-13               -7.732e-11            -1.8922e-05          
  2.4                   1.8952e-05            2.2e-13               -1.7962e-10           -1.8932e-05          
  2.5                   1.8962e-05            2.8e-13               -4.0272e-10           -1.894e-05           
  2.6                   1.8974e-05            1.2e-13               -8.3814e-10           -1.895e-05           
  2.7                   1.8984e-05            1.2e-13               -1.6232e-09           -1.8962e-05          
  2.8                   1.8994e-05            1.6e-13               -2.9576e-09           -1.8972e-05          
  2.9                   1.9002e-05            1.8e-13               -5.0906e-09           -1.8978e-05          
  3                     1.9014e-05            2e-13                 -8.3732e-09           -1.8986e-05          
  3.1                   1.9026e-05            2e-13                 -1.3226e-08           -1.8994e-05          
  3.2                   1.9042e-05            2.4e-13               -2.0196e-08           -1.9002e-05          
  3.3                   1.906e-05             2.6e-13               -2.9956e-08           -1.901e-05           
  3.4                   1.9082e-05            2.4e-13               -4.3394e-08           -1.9018e-05          
  3.5                   1.9106e-05            3.4e-13               -6.1616e-08           -1.9026e-05          
  3.6                   1.9138e-05            4e-13                 -8.5942e-08           -1.9034e-05          
END_DB

BEGIN_DB
 ICCAP_VAR vg         2.532          
 ICCAP_VAR vb         -3.6           
 ICCAP_VAR vs         0              

 #vd                    id                    ig                    ib                    is                   
  0                     1.016e-08             3.8e-13               -5.28e-12             -9.88e-09            
  0.1                   1.3686e-05            3e-13                 -4.98e-12             -1.3666e-05          
  0.2                   2.5852e-05            3e-13                 -6.8e-12              -2.5832e-05          
  0.3                   3.6458e-05            3e-13                 -7.14e-12             -3.6438e-05          
  0.4                   4.5514e-05            2.4e-13               -5.9e-12              -4.5496e-05          
  0.5                   5.2998e-05            3.4e-13               -6.96e-12             -5.2978e-05          
  0.6                   5.8912e-05            4.4e-13               -6.9e-12              -5.8892e-05          
  0.7                   6.3322e-05            1.8e-13               -7e-12                -6.3304e-05          
  0.8                   6.6324e-05            2.2e-13               -6.54e-12             -6.6306e-05          
  0.9                   6.812e-05             1.6e-13               -6.76e-12             -6.81e-05            
  1                     6.9042e-05            2.8e-13               -6e-12                -6.9024e-05          
  1.1                   6.9474e-05            2.6e-13               -6.48e-12             -6.9454e-05          
  1.2                   6.9686e-05            1.8e-13               -6.02e-12             -6.9666e-05          
  1.3                   6.981e-05             2e-13                 -6.32e-12             -6.979e-05           
  1.4                   6.9892e-05            1.8e-13               -7.12e-12             -6.987e-05           
  1.5                   6.9954e-05            1.4e-13               -6.74e-12             -6.9938e-05          
  1.6                   7.0016e-05            2.2e-13               -5.2e-12              -6.9994e-05          
  1.7                   7.006e-05             2.2e-13               -6.72e-12             -7.0044e-05          
  1.8                   7.0106e-05            2e-13                 -6.36e-12             -7.0088e-05          
  1.9                   7.0146e-05            2.2e-13               -5.84e-12             -7.0124e-05          
  2                     7.018e-05             2.4e-13               -6.38e-12             -7.0162e-05          
  2.1                   7.0214e-05            2.8e-13               -6.32e-12             -7.0198e-05          
  2.2                   7.025e-05             2.6e-13               -4.8e-12              -7.023e-05           
  2.3                   7.0278e-05            1.4e-13               -7.42e-12             -7.0262e-05          
  2.4                   7.0312e-05            2e-13                 -9.94e-12             -7.0292e-05          
  2.5                   7.0338e-05            2.8e-13               -2.076e-11            -7.0322e-05          
  2.6                   7.0368e-05            1.6e-13               -5.732e-11            -7.0348e-05          
  2.7                   7.0396e-05            1e-13                 -1.536e-10            -7.0376e-05          
  2.8                   7.0422e-05            2e-13                 -3.9262e-10           -7.04e-05            
  2.9                   7.0448e-05            1.2e-13               -9.228e-10            -7.0426e-05          
  3                     7.0474e-05            2.8e-13               -2.005e-09            -7.045e-05           
  3.1                   7.0498e-05            2.4e-13               -4.0328e-09           -7.0476e-05          
  3.2                   7.053e-05             2.2e-13               -7.591e-09            -7.0502e-05          
  3.3                   7.056e-05             3.4e-13               -1.3494e-08           -7.0526e-05          
  3.4                   7.0592e-05            2.6e-13               -2.2768e-08           -7.0548e-05          
  3.5                   7.0624e-05            3.8e-13               -3.6804e-08           -7.057e-05           
  3.6                   7.0666e-05            4e-13                 -5.7338e-08           -7.059e-05           
END_DB

BEGIN_DB
 ICCAP_VAR vg         3.066          
 ICCAP_VAR vb         -3.6           
 ICCAP_VAR vs         0              

 #vd                    id                    ig                    ib                    is                   
  0                     1.3826e-08            3.8e-13               -4.98e-12             -1.3568e-08          
  0.1                   1.9532e-05            2.8e-13               -4.48e-12             -1.951e-05           
  0.2                   3.7826e-05            3e-13                 -5.26e-12             -3.7806e-05          
  0.3                   5.481e-05             2.8e-13               -4.64e-12             -5.479e-05           
  0.4                   7.049e-05             2.2e-13               -4.9e-12              -7.047e-05           
  0.5                   8.478e-05             2.4e-13               -5.82e-12             -8.4764e-05          
  0.6                   9.7616e-05            2.8e-13               -3.9e-12              -9.76e-05            
  0.7                   0.000109              2.6e-13               -5.6e-12              -0.00010898          
  0.8                   0.00011902            3.2e-13               -4.4e-12              -0.0001186           
  0.9                   0.00012736            3.2e-13               -5.46e-12             -0.00012694          
  1                     0.00013418            1.8e-13               -5.1e-12              -0.00013378          
  1.1                   0.00013954            1e-13                 -4.88e-12             -0.00013914          
  1.2                   0.00014348            1.8e-13               -5.08e-12             -0.00014308          
  1.3                   0.00014618            1.8e-13               -4.44e-12             -0.00014578          
  1.4                   0.00014786            2.8e-13               -4.68e-12             -0.00014746          
  1.5                   0.0001488             1.2e-13               -4.94e-12             -0.0001484           
  1.6                   0.00014934            2.8e-13               -4.04e-12             -0.00014894          
  1.7                   0.00014964            2.2e-13               -4.66e-12             -0.00014924          
  1.8                   0.00014984            1.8e-13               -5.26e-12             -0.00014944          
  1.9                   0.00015               1.4e-13               -3.98e-12             -0.00014958          
  2                     0.0001501             2.8e-13               -5.44e-12             -0.0001497           
  2.1                   0.0001502             1.4e-13               -5.2e-12              -0.0001498           
  2.2                   0.00015028            1.6e-13               -4.02e-12             -0.00014988          
  2.3                   0.00015036            2.6e-13               -5e-12                -0.00014996          
  2.4                   0.00015044            1.2e-13               -5.42e-12             -0.00015002          
  2.5                   0.0001505             2.6e-13               -3.76e-12             -0.0001501           
  2.6                   0.00015056            2.4e-13               -5.02e-12             -0.00015016          
  2.7                   0.0001506             3.2e-13               -5.68e-12             -0.00015022          
  2.8                   0.00015066            1.8e-13               -9.68e-12             -0.00015026          
  2.9                   0.00015072            1.8e-13               -2.578e-11            -0.00015032          
  3                     0.00015076            1.2e-13               -7.524e-11            -0.00015038          
  3.1                   0.00015082            2.4e-13               -2.1398e-10           -0.00015042          
  3.2                   0.00015086            1.4e-13               -5.598e-10            -0.00015046          
  3.3                   0.00015092            2.8e-13               -1.3404e-09           -0.00015052          
  3.4                   0.00015096            8e-14                 -2.9794e-09           -0.00015056          
  3.5                   0.000151              1.8e-13               -6.1328e-09           -0.0001506           
  3.6                   0.00015104            3.4e-13               -1.1806e-08           -0.00015064          
END_DB

BEGIN_DB
 ICCAP_VAR vg         3.6            
 ICCAP_VAR vb         -3.6           
 ICCAP_VAR vs         0              

 #vd                    id                    ig                    ib                    is                   
  0                     1.625e-08             4.2e-13               -2.28e-12             -1.5266e-08          
  0.1                   2.3866e-05            4e-13                 -3.86e-12             -2.3846e-05          
  0.2                   4.6792e-05            1.8e-13               -3.28e-12             -4.6772e-05          
  0.3                   6.8688e-05            3e-13                 -3.94e-12             -6.8668e-05          
  0.4                   8.9582e-05            4.4e-13               -4.64e-12             -8.9562e-05          
  0.5                   0.00010938            2.2e-13               -4.08e-12             -0.000109362         
  0.6                   0.00012814            2.8e-13               -4.18e-12             -0.00012774          
  0.7                   0.00014556            3e-13                 -3.02e-12             -0.00014516          
  0.8                   0.00016172            3e-13                 -7.7e-12              -0.00016132          
