! VERSION = 6.00
BEGIN_HEADER
 ICCAP_INPUTS
  vd         V  D GROUND SMU1 0.1 LIN        1    0          3.6        37   0.1       
  vg         V  G GROUND SMU2 0.001 LIN        2    1.464      3.6        5    0.534     
  vb         V  B GROUND SMU4 0.1 CON        -3.6
  vs         V  S GROUND SMU3 0.1 CON        0
 ICCAP_OUTPUTS
  id         I  D GROUND SMU1 B
  ig         I  G GROUND SMU2 B
  ib         I  B GROUND SMU4 B
  is         I  S GROUND SMU3 B
 ICCAP_VALUES
  MASTER_SETUP_TYPE "~dc_idvd~"
  LINVT_VALUE "|idvg|100.0n|100.0m|1.000m|5|3.600|"
  LISTVT_VALUE ""
  TYPE "1"
  TEMP " 27.0000 "
  IS_TNOM " 1.00000 "
  MAIN.W "2.000u"
  MAIN.L "3.000u"
  MAIN.AD "680.0f"
  MAIN.AS "680.0f"
  MAIN.PD "4.680u"
  MAIN.PS "4.680u"
  MAIN.NF "1.000"
  MAIN.M "1"
  MAIN.NRD "0.000"
  MAIN.NRS "0.000"
  MAIN.LDRIFT1 "1E-06"
  MAIN.LDRIFT2 "1E-06"
  MAIN.SA "0.000"
  MAIN.SB "0.000"
  MAIN.SD "0.000"
  MAIN.SCA "0.000"
  MAIN.SCB "0.000"
  MAIN.SCC "0.000"
  MAIN.SC "0.000"
  MODULE "S558"
  PIN_D "14"
  PIN_G "7"
  PIN_S "8"
  PIN_B "13"
  PIN_E ""
  PIN_6 ""
  XY_ID ""
  FUNC "LW Scale"
  STI "SA ref"
  WPE "WPE ref"
  COMMENT ""
  DIS_MEAS ""
  TypeTCI "10"
END_HEADER

BEGIN_DB
 ICCAP_VAR vg         1.464          
 ICCAP_VAR vb         -3.6           
 ICCAP_VAR vs         0              

 #vd                    id                    ig                    ib                    is                   
  0                     4.1742e-10            7e-13                 -4.248e-11            -3.4476e-10          
  0.1                   3.1736e-07            5.6e-13               -3.582e-11            -3.1704e-07          
  0.2                   3.6702e-07            5.2e-13               -3.432e-11            -3.668e-07           
  0.3                   3.7206e-07            3e-13                 -3.414e-11            -3.7206e-07          
  0.4                   3.737e-07             2.8e-13               -3.17e-11             -3.7348e-07          
  0.5                   3.7482e-07            5.4e-13               -2.9e-11              -3.748e-07           
  0.6                   3.7602e-07            4.6e-13               -2.914e-11            -3.7542e-07          
  0.7                   3.7668e-07            4.2e-13               -2.774e-11            -3.7652e-07          
  0.8                   3.7722e-07            3.2e-13               -2.576e-11            -3.771e-07           
  0.9                   3.7766e-07            6.4e-13               -2.43e-11             -3.7774e-07          
  1                     3.7848e-07            2.2e-13               -2.46e-11             -3.7844e-07          
  1.1                   3.79e-07              4.4e-13               -2.408e-11            -3.7896e-07          
  1.2                   3.7922e-07            1.6e-13               -2.256e-11            -3.7936e-07          
  1.3                   3.7992e-07            1e-13                 -2.224e-11            -3.798e-07           
  1.4                   3.8026e-07            3e-13                 -2.25e-11             -3.8014e-07          
  1.5                   3.8056e-07            1.8e-13               -2.2e-11              -3.8064e-07          
  1.6                   3.8106e-07            4e-14                 -1.992e-11            -3.8108e-07          
  1.7                   3.8144e-07            2.2e-13               -1.958e-11            -3.8124e-07          
  1.8                   3.8188e-07            4.2e-13               -2.068e-11            -3.8168e-07          
  1.9                   3.8238e-07            3.8e-13               -2.208e-11            -3.8188e-07          
  2                     3.8238e-07            3.2e-13               -2.356e-11            -3.8236e-07          
  2.1                   3.8296e-07            1.4e-13               -2.996e-11            -3.829e-07           
  2.2                   3.8296e-07            8e-14                 -4.276e-11            -3.8278e-07          
  2.3                   3.8376e-07            2.4e-13               -6.388e-11            -3.8318e-07          
  2.4                   3.8368e-07            1.6e-13               -9.924e-11            -3.8374e-07          
  2.5                   3.8448e-07            1.2e-13               -1.5448e-10           -3.8408e-07          
  2.6                   3.8466e-07            6e-14                 -2.4034e-10           -3.8424e-07          
  2.7                   3.849e-07             2.8e-13               -3.6356e-10           -3.8468e-07          
  2.8                   3.8568e-07            4e-14                 -5.3594e-10           -3.85e-07            
  2.9                   3.8662e-07            2e-13                 -7.7714e-10           -3.852e-07           
  3                     3.865e-07             2.6e-13               -1.104e-09            -3.8564e-07          
  3.1                   3.877e-07             8e-14                 -1.546e-09            -3.8608e-07          
  3.2                   3.8812e-07            4e-14                 -2.1328e-09           -3.8586e-07          
  3.3                   3.8858e-07            1.2e-13               -2.8996e-09           -3.8596e-07          
  3.4                   3.9014e-07            6e-14                 -3.8952e-09           -3.8614e-07          
  3.5                   3.9188e-07            3.2e-13               -5.1684e-09           -3.8666e-07          
  3.6                   3.9376e-07            2e-13                 -6.7694e-09           -3.8692e-07          
END_DB

BEGIN_DB
 ICCAP_VAR vg         1.998          
 ICCAP_VAR vb         -3.6           
 ICCAP_VAR vs         0              

 #vd                    id                    ig                    ib                    is                   
  0                     2.117e-09             5e-13                 -1.044e-11            -1.9836e-09          
  0.1                   4.3286e-06            4.4e-13               -8.5e-12              -4.3246e-06          
  0.2                   7.6272e-06            3.4e-13               -9.58e-12             -7.6234e-06          
  0.3                   9.9438e-06            4.2e-13               -1.044e-11            -9.9394e-06          
  0.4                   1.1392e-05            5.2e-13               -9.56e-12             -1.13802e-05         
  0.5                   1.213e-05             4e-14                 -8.42e-12             -1.211e-05           
  0.6                   1.2424e-05            4.2e-13               -9.22e-12             -1.2404e-05          
  0.7                   1.2532e-05            2.4e-13               -9.56e-12             -1.2514e-05          
  0.8                   1.2582e-05            2.6e-13               -8.42e-12             -1.2564e-05          
  0.9                   1.261e-05             1.6e-13               -9.1e-12              -1.2592e-05          
  1                     1.2632e-05            2.4e-13               -9.08e-12             -1.2612e-05          
  1.1                   1.2652e-05            2.2e-13               -8.02e-12             -1.2632e-05          
  1.2                   1.2666e-05            1e-13                 -8.98e-12             -1.2646e-05          
  1.3                   1.268e-05             2e-13                 -9e-12                -1.2662e-05          
  1.4                   1.2694e-05            2.8e-13               -7.5e-12              -1.2674e-05          
  1.5                   1.2706e-05            1e-13                 -8.12e-12             -1.2688e-05          
  1.6                   1.2718e-05            1.8e-13               -9.04e-12             -1.27e-05            
  1.7                   1.2728e-05            3.8e-13               -7.94e-12             -1.271e-05           
  1.8                   1.274e-05             1.8e-13               -8e-12                -1.2716e-05          
  1.9                   1.2746e-05            2.2e-13               -8.98e-12             -1.2726e-05          
  2                     1.2756e-05            4.2e-13               -8.74e-12             -1.2736e-05          
  2.1                   1.2764e-05            1.2e-13               -1.284e-11            -1.2744e-05          
  2.2                   1.2774e-05            0                     -2.384e-11            -1.2754e-05          
  2.3                   1.2782e-05            6e-14                 -4.954e-11            -1.2764e-05          
  2.4                   1.2792e-05            1.2e-13               -1.1588e-10           -1.277e-05           
  2.5                   1.2796e-05            1.8e-13               -2.565e-10            -1.2776e-05          
  2.6                   1.2806e-05            1.4e-13               -5.3018e-10           -1.2784e-05          
  2.7                   1.2814e-05            1e-13                 -1.0294e-09           -1.279e-05           
  2.8                   1.2822e-05            2.2e-13               -1.882e-09            -1.28e-05            
  2.9                   1.2832e-05            8e-14                 -3.2584e-09           -1.2808e-05          
  3                     1.284e-05             6e-14                 -5.3852e-09           -1.2814e-05          
  3.1                   1.2854e-05            4e-14                 -8.5434e-09           -1.2824e-05          
  3.2                   1.2862e-05            3.4e-13               -1.3106e-08           -1.283e-05           
  3.3                   1.2876e-05            3e-13                 -1.9508e-08           -1.2836e-05          
  3.4                   1.2892e-05            2.6e-13               -2.837e-08            -1.2844e-05          
  3.5                   1.291e-05             2.2e-13               -4.0386e-08           -1.2852e-05          
  3.6                   1.2934e-05            2.2e-13               -5.6476e-08           -1.2858e-05          
END_DB

BEGIN_DB
 ICCAP_VAR vg         2.532          
 ICCAP_VAR vb         -3.6           
 ICCAP_VAR vs         0              

 #vd                    id                    ig                    ib                    is                   
  0                     3.0324e-09            5.4e-13               -6.24e-12             -3.4278e-09          
  0.1                   8.8698e-06            2.8e-13               -4.9e-12              -8.8652e-06          
  0.2                   1.6784e-05            4e-13                 -5.92e-12             -1.6762e-05          
  0.3                   2.369e-05             2.8e-13               -5.18e-12             -2.3672e-05          
  0.4                   2.9606e-05            2.6e-13               -6.6e-12              -2.9586e-05          
  0.5                   3.452e-05             3.2e-13               -6.24e-12             -3.4498e-05          
  0.6                   3.843e-05             4.8e-13               -5.4e-12              -3.8408e-05          
  0.7                   4.1388e-05            1.8e-13               -6.68e-12             -4.137e-05           
  0.8                   4.347e-05             1.8e-13               -5.56e-12             -4.3446e-05          
  0.9                   4.4788e-05            2.6e-13               -5.32e-12             -4.4778e-05          
  1                     4.555e-05             1.2e-13               -6.3e-12              -4.5534e-05          
  1.1                   4.5938e-05            1.2e-13               -5.2e-12              -4.592e-05           
  1.2                   4.615e-05             3.4e-13               -5.64e-12             -4.613e-05           
  1.3                   4.6274e-05            2.8e-13               -6.38e-12             -4.6254e-05          
  1.4                   4.6358e-05            1.2e-13               -5.3e-12              -4.634e-05           
  1.5                   4.6428e-05            1.6e-13               -5.38e-12             -4.6406e-05          
  1.6                   4.648e-05             2.6e-13               -6.34e-12             -4.646e-05           
  1.7                   4.6528e-05            1.6e-13               -4.72e-12             -4.6508e-05          
  1.8                   4.657e-05             2.4e-13               -5.1e-12              -4.6548e-05          
  1.9                   4.661e-05             1.2e-13               -5.78e-12             -4.659e-05           
  2                     4.6646e-05            2e-13                 -4.8e-12              -4.6626e-05          
  2.1                   4.6678e-05            4.8e-13               -5.32e-12             -4.6662e-05          
  2.2                   4.6708e-05            2e-13                 -6.26e-12             -4.67e-05            
  2.3                   4.6746e-05            1e-13                 -5.42e-12             -4.6722e-05          
  2.4                   4.6772e-05            2e-13                 -8.86e-12             -4.6752e-05          
  2.5                   4.6798e-05            4e-14                 -1.754e-11            -4.6778e-05          
  2.6                   4.6824e-05            2e-13                 -4.34e-11             -4.6804e-05          
  2.7                   4.6852e-05            2.6e-13               -1.1502e-10           -4.6832e-05          
  2.8                   4.6878e-05            5e-13                 -2.8562e-10           -4.6862e-05          
  2.9                   4.6906e-05            1e-13                 -6.549e-10            -4.6884e-05          
  3                     4.693e-05             3.8e-13               -1.399e-09            -4.6916e-05          
  3.1                   4.696e-05             2e-13                 -2.782e-09            -4.6936e-05          
  3.2                   4.6976e-05            2.2e-13               -5.1988e-09           -4.6954e-05          
  3.3                   4.7008e-05            2.6e-13               -9.1636e-09           -4.6974e-05          
  3.4                   4.7032e-05            2.4e-13               -1.5428e-08           -4.6996e-05          
  3.5                   4.7064e-05            4.8e-13               -2.4898e-08           -4.7024e-05          
  3.6                   4.7104e-05            3.4e-13               -3.8768e-08           -4.704e-05           
END_DB

BEGIN_DB
 ICCAP_VAR vg         3.066          
 ICCAP_VAR vb         -3.6           
 ICCAP_VAR vs         0              

 #vd                    id                    ig                    ib                    is                   
  0                     2.7794e-09            4.6e-13               -4.58e-12             -4.2634e-09          
  0.1                   1.2602e-05            5.2e-13               -2.34e-12             -1.258e-05           
  0.2                   2.4412e-05            3.2e-13               -4.76e-12             -2.4392e-05          
  0.3                   3.5382e-05            4.8e-13               -3.9e-12              -3.536e-05           
  0.4                   4.5514e-05            4.4e-13               -4.02e-12             -4.5494e-05          
  0.5                   5.4756e-05            2.6e-13               -5e-12                -5.4736e-05          
  0.6                   6.3064e-05            3.2e-13               -4.56e-12             -6.3046e-05          
  0.7                   7.0436e-05            3.6e-13               -3.32e-12             -7.0418e-05          
  0.8                   7.6842e-05            2.4e-13               -5.12e-12             -7.6828e-05          
  0.9                   8.2276e-05            2.2e-13               -5e-12                -8.226e-05           
  1                     8.6758e-05            3e-13                 -3.72e-12             -8.674e-05           
  1.1                   9.031e-05             1.4e-13               -4.66e-12             -9.0292e-05          
  1.2                   9.2982e-05            1.8e-13               -4.68e-12             -9.2966e-05          
  1.3                   9.4888e-05            3.4e-13               -4.08e-12             -9.4868e-05          
  1.4                   9.6142e-05            2.8e-13               -4.74e-12             -9.6128e-05          
  1.5                   9.692e-05             2e-14                 -4.36e-12             -9.6912e-05          
  1.6                   9.74e-05              2.4e-13               -3.68e-12             -9.7384e-05          
  1.7                   9.77e-05              2.4e-13               -4.62e-12             -9.7668e-05          
  1.8                   9.7888e-05            1.6e-13               -4.66e-12             -9.7878e-05          
  1.9                   9.8042e-05            1.8e-13               -3.78e-12             -9.8026e-05          
  2                     9.8156e-05            1e-13                 -5.12e-12             -9.8134e-05          
  2.1                   9.8254e-05            2.4e-13               -4.78e-12             -9.823e-05           
  2.2                   9.833e-05             2.2e-13               -3.38e-12             -9.8306e-05          
  2.3                   9.8398e-05            6e-14                 -4e-12                -9.8388e-05          
  2.4                   9.847e-05             2e-13                 -4e-12                -9.8458e-05          
  2.5                   9.8536e-05            4.2e-13               -4.8e-12              -9.8522e-05          
  2.6                   9.86e-05              3e-13                 -4.9e-12              -9.8586e-05          
  2.7                   9.8656e-05            1.6e-13               -5.24e-12             -9.8638e-05          
  2.8                   9.8706e-05            1.2e-13               -1.074e-11            -9.8684e-05          
  2.9                   9.8756e-05            3.2e-13               -2.73e-11             -9.874e-05           
  3                     9.8804e-05            2e-13                 -7.546e-11            -9.8788e-05          
  3.1                   9.8858e-05            8e-14                 -2.0218e-10           -9.8838e-05          
  3.2                   9.8902e-05            3.4e-13               -5.022e-10            -9.8876e-05          
  3.3                   9.8938e-05            2e-13                 -1.1448e-09           -9.8928e-05          
  3.4                   9.899e-05             4.2e-13               -2.4404e-09           -9.8968e-05          
  3.5                   9.9034e-05            3.6e-13               -4.8682e-09           -9.901e-05           
  3.6                   9.9076e-05            2e-13                 -9.128e-09            -9.9048e-05          
END_DB

BEGIN_DB
 ICCAP_VAR vg         3.6            
 ICCAP_VAR vb         -3.6           
 ICCAP_VAR vs         0              

 #vd                    id                    ig                    ib                    is                   
  0                     9.07e-09              5.4e-13               -3.7e-12              -8.984e-09           
  0.1                   1.536e-05             4.6e-13               -2.98e-12             -1.534e-05           
  0.2                   3.0112e-05            3e-13                 -4.32e-12             -3.0092e-05          
  0.3                   4.4204e-05            3.2e-13               -4.06e-12             -4.4184e-05          
  0.4                   5.7644e-05            2e-13                 -3.24e-12             -5.7624e-05          
  0.5                   7.0368e-05            4.2e-13               -3.24e-12             -7.0352e-05          
  0.6                   8.2326e-05            2.2e-13               -4.24e-12             -8.2304e-05          
  0.7                   9.3504e-05            2.6e-13               -2.42e-12             -9.3484e-05          
  0.8                   0.00010386            2.8e-13               -3.44e-12             -0.000103842         
