! VERSION = 6.00
BEGIN_HEADER
 ICCAP_INPUTS
  vd         V  D GROUND SMU1 0.1 LIN        1    0          3.6        37   0.1       
  vg         V  G GROUND SMU2 0.001 LIST       2 3 0.397 0.597 0.797
  vb         V  B GROUND SMU4 0.1 CON        0
  vs         V  S GROUND SMU3 0.1 CON        0
 ICCAP_OUTPUTS
  id         I  D GROUND SMU1 B
  ig         I  G GROUND SMU2 B
  ib         I  B GROUND SMU4 B
  is         I  S GROUND SMU3 B
 ICCAP_VALUES
  MASTER_SETUP_TYPE "~dc_idvd~"
  LINVT_VALUE ""
  LISTVT_VALUE "|idvg|100.0n|-200.0m|1.000m|3|200.0m|200.0m|"
  TYPE "1"
  TEMP " 27.0000 "
  IS_TNOM " 1.00000 "
  MAIN.W "2.000u"
  MAIN.L "10.00u"
  MAIN.AD "680.0f"
  MAIN.AS "680.0f"
  MAIN.PD "4.680u"
  MAIN.PS "4.680u"
  MAIN.NF "1.000"
  MAIN.M "1"
  MAIN.NRD "0.000"
  MAIN.NRS "0.000"
  MAIN.LDRIFT1 "1E-06"
  MAIN.LDRIFT2 "1E-06"
  MAIN.SA "0.000"
  MAIN.SB "0.000"
  MAIN.SD "0.000"
  MAIN.SCA "0.000"
  MAIN.SCB "0.000"
  MAIN.SCC "0.000"
  MAIN.SC "0.000"
  MODULE "S558"
  PIN_D "12"
  PIN_G "9"
  PIN_S "10"
  PIN_B "11"
  PIN_E ""
  PIN_6 ""
  XY_ID ""
  FUNC "W Scale"
  STI "SA ref"
  WPE "WPE ref"
  COMMENT ""
  DIS_MEAS ""
  TypeTCI "10"
END_HEADER

BEGIN_DB
 ICCAP_VAR vg         0.397          
 ICCAP_VAR vb         0              
 ICCAP_VAR vs         0              

 #vd                    id                    ig                    ib                    is                   
  0                     1.8e-13               -3.8e-13              4.16e-12              -1.2e-13             
  0.1                   1.2726e-10            -5.2e-13              2.16e-12              -1.2726e-10          
  0.2                   1.3086e-10            -4.4e-13              2.12e-12              -1.3072e-10          
  0.3                   1.3146e-10            -4.2e-13              2.1e-12               -1.3106e-10          
  0.4                   1.317e-10             -3.8e-13              1.74e-12              -1.3148e-10          
  0.5                   1.3216e-10            -3e-13                2.78e-12              -1.3174e-10          
  0.6                   1.3264e-10            -3.6e-13              2.44e-12              -1.3194e-10          
  0.7                   1.328e-10             -4e-13                2.54e-12              -1.3216e-10          
  0.8                   1.3322e-10            -3.6e-13              1.3e-12               -1.3256e-10          
  0.9                   1.336e-10             -3.6e-13              2.44e-12              -1.3284e-10          
  1                     1.337e-10             -3.4e-13              2.12e-12              -1.3302e-10          
  1.1                   1.3394e-10            -2.2e-13              1.96e-12              -1.3346e-10          
  1.2                   1.3438e-10            -3.2e-13              1.84e-12              -1.3348e-10          
  1.3                   1.345e-10             -1.8e-13              1.9e-12               -1.3382e-10          
  1.4                   1.347e-10             -2.6e-13              2.8e-12               -1.3386e-10          
  1.5                   1.3482e-10            -1e-13                1.7e-12               -1.341e-10           
  1.6                   1.3492e-10            -1e-13                2.68e-12              -1.342e-10           
  1.7                   1.3504e-10            -1.6e-13              1.58e-12              -1.3434e-10          
  1.8                   1.354e-10             -1.8e-13              2.16e-12              -1.3454e-10          
  1.9                   1.355e-10             -2e-13                2.38e-12              -1.3458e-10          
  2                     1.3586e-10            -8e-14                1.78e-12              -1.3498e-10          
  2.1                   1.3588e-10            -2e-13                2.1e-12               -1.3492e-10          
  2.2                   1.36e-10              -2.2e-13              1.54e-12              -1.3522e-10          
  2.3                   1.3646e-10            -4e-14                2.24e-12              -1.3536e-10          
  2.4                   1.3658e-10            -1.4e-13              7.2e-13               -1.3532e-10          
  2.5                   1.3686e-10            -1e-13                1.42e-12              -1.3544e-10          
  2.6                   1.3734e-10            -1.4e-13              8.4e-13               -1.3542e-10          
  2.7                   1.3742e-10            -2.2e-13              5.2e-13               -1.356e-10           
  2.8                   1.3798e-10            -1.4e-13              6e-13                 -1.3574e-10          
  2.9                   1.3848e-10            4e-14                 -2.94e-12             -1.361e-10           
  3                     1.3912e-10            -1e-13                5e-13                 -1.3612e-10          
  3.1                   1.3984e-10            -2.4e-13              -1.46e-12             -1.3602e-10          
  3.2                   1.405e-10             -8e-14                -6.6e-13              -1.3622e-10          
  3.3                   1.4138e-10            -1.6e-13              -2.58e-12             -1.3622e-10          
  3.4                   1.4248e-10            -1e-13                -2.76e-12             -1.3634e-10          
  3.5                   1.4356e-10            -8e-14                -3.56e-12             -1.3662e-10          
  3.6                   1.4496e-10            -1.2e-13              -5.9e-12              -1.3652e-10          
END_DB

BEGIN_DB
 ICCAP_VAR vg         0.597          
 ICCAP_VAR vb         0              
 ICCAP_VAR vs         0              

 #vd                    id                    ig                    ib                    is                   
  0                     2.646e-11             -6e-14                2.88e-12              -2.79e-11            
  0.1                   1.8814e-08            -2e-14                2.2e-12               -1.8794e-08          
  0.2                   1.9702e-08            -1.6e-13              1.58e-12              -1.9684e-08          
  0.3                   1.9808e-08            2e-14                 2.08e-12              -1.9784e-08          
  0.4                   1.987e-08             -8e-14                1e-12                 -1.985e-08           
  0.5                   1.992e-08             -1e-13                1.32e-12              -1.9898e-08          
  0.6                   1.9974e-08            -6e-14                1.2e-12               -1.9948e-08          
  0.7                   2.001e-08             -1e-13                1.88e-12              -1.998e-08           
  0.8                   2.0046e-08            -2e-14                1.8e-12               -2.0024e-08          
  0.9                   2.008e-08             0                     1.12e-12              -2.0052e-08          
  1                     2.0108e-08            -2e-14                4.8e-13               -2.008e-08           
  1.1                   2.0138e-08            -8e-14                1.66e-12              -2.0114e-08          
  1.2                   2.016e-08             1e-13                 1.9e-12               -2.0142e-08          
  1.3                   2.0194e-08            0                     1.02e-12              -2.0174e-08          
  1.4                   2.022e-08             4e-14                 9.6e-13               -2.0198e-08          
  1.5                   2.0246e-08            -2e-14                7.8e-13               -2.0222e-08          
  1.6                   2.0272e-08            -4e-14                2.02e-12              -2.0244e-08          
  1.7                   2.0286e-08            -8e-14                8e-13                 -2.026e-08           
  1.8                   2.0308e-08            -6e-14                9.6e-13               -2.028e-08           
  1.9                   2.0328e-08            2e-14                 -2.2e-12              -2.0302e-08          
  2                     2.0352e-08            1e-13                 -3.12e-12             -2.0326e-08          
  2.1                   2.0376e-08            2e-14                 -7.28e-12             -2.0346e-08          
  2.2                   2.0406e-08            6e-14                 -1.224e-11            -2.0372e-08          
  2.3                   2.0432e-08            6e-14                 -1.922e-11            -2.0394e-08          
  2.4                   2.046e-08             2e-14                 -2.886e-11            -2.0398e-08          
  2.5                   2.0488e-08            1.2e-13               -4.054e-11            -2.0414e-08          
  2.6                   2.0516e-08            1e-13                 -5.772e-11            -2.043e-08           
  2.7                   2.0552e-08            -2e-14                -8.17e-11             -2.045e-08           
  2.8                   2.0606e-08            4e-14                 -1.1104e-10           -2.0474e-08          
  2.9                   2.066e-08             0                     -1.481e-10            -2.0488e-08          
  3                     2.0728e-08            6e-14                 -1.9698e-10           -2.0498e-08          
  3.1                   2.08e-08              0                     -2.586e-10            -2.0518e-08          
  3.2                   2.089e-08             -1.4e-13              -3.3478e-10           -2.0524e-08          
  3.3                   2.0996e-08            -1e-13                -4.2638e-10           -2.0544e-08          
  3.4                   2.112e-08             -1e-13                -5.3606e-10           -2.0556e-08          
  3.5                   2.1272e-08            1.6e-13               -6.6936e-10           -2.0576e-08          
  3.6                   2.1432e-08            1.4e-13               -8.2302e-10           -2.0582e-08          
END_DB

BEGIN_DB
 ICCAP_VAR vg         0.797          
 ICCAP_VAR vb         0              
 ICCAP_VAR vs         0              

 #vd                    id                    ig                    ib                    is                   
  0                     2.0426e-10            8e-14                 2.02e-12              -2.2148e-10          
  0.1                   2.4268e-07            -2e-14                2.32e-12              -2.425e-07           
  0.2                   2.9892e-07            1.8e-13               1.26e-12              -2.988e-07           
  0.3                   3.044e-07             6e-14                 1.12e-12              -3.0424e-07          
  0.4                   3.0552e-07            4e-14                 3.74e-12              -3.0544e-07          
  0.5                   3.0626e-07            -4e-14                1.82e-12              -3.0612e-07          
  0.6                   3.068e-07             1e-13                 7.8e-13               -3.0668e-07          
  0.7                   3.0728e-07            1.2e-13               1.64e-12              -3.0712e-07          
  0.8                   3.0774e-07            -2e-14                1.58e-12              -3.076e-07           
  0.9                   3.0808e-07            0                     8.6e-13               -3.0798e-07          
  1                     3.085e-07             -2e-14                8e-13                 -3.0838e-07          
  1.1                   3.0886e-07            0                     2.6e-13               -3.087e-07           
  1.2                   3.0918e-07            4e-14                 1.8e-12               -3.09e-07            
  1.3                   3.0946e-07            -1e-13                1.44e-12              -3.0936e-07          
  1.4                   3.0976e-07            -6e-14                8.4e-13               -3.0964e-07          
  1.5                   3.1004e-07            4e-14                 7.6e-13               -3.0994e-07          
  1.6                   3.1036e-07            4e-14                 8.2e-13               -3.1024e-07          
  1.7                   3.1062e-07            -2e-14                -2.9e-12              -3.105e-07           
  1.8                   3.1088e-07            6e-14                 -5.98e-12             -3.1074e-07          
  1.9                   3.1114e-07            1.2e-13               -1.434e-11            -3.11e-07            
  2                     3.1134e-07            8e-14                 -2.866e-11            -3.1116e-07          
  2.1                   3.1152e-07            6e-14                 -5.472e-11            -3.1134e-07          
  2.2                   3.1184e-07            4e-14                 -9.44e-11             -3.116e-07           
  2.3                   3.121e-07             -4e-14                -1.528e-10            -3.1178e-07          
  2.4                   3.1236e-07            0                     -2.367e-10            -3.1202e-07          
  2.5                   3.1276e-07            4e-14                 -3.5658e-10           -3.1226e-07          
  2.6                   3.1308e-07            -2e-14                -5.1992e-10           -3.1238e-07          
  2.7                   3.1352e-07            -2e-14                -7.3876e-10           -3.127e-07           
  2.8                   3.1406e-07            -4e-14                -1.0294e-09           -3.1282e-07          
  2.9                   3.1456e-07            0                     -1.4142e-09           -3.13e-07            
  3                     3.1528e-07            2e-14                 -1.9132e-09           -3.1324e-07          
  3.1                   3.1608e-07            -4e-14                -2.5524e-09           -3.134e-07           
  3.2                   3.1702e-07            1e-13                 -3.3648e-09           -3.1352e-07          
  3.3                   3.1822e-07            0                     -4.3776e-09           -3.137e-07           
  3.4                   3.1962e-07            1.8e-13               -5.6302e-09           -3.1388e-07          
  3.5                   3.2132e-07            1.8e-13               -7.151e-09            -3.1404e-07          
  3.6                   3.2328e-07            2e-14                 -8.9738e-09           -3.1416e-07          
END_DB

