! VERSION = 6.00
BEGIN_HEADER
 ICCAP_INPUTS
  vg         V  G GROUND SMU2 0.001 LIN        1    -0.5       3.6        83   0.05      
  vb         V  B GROUND SMU4 0.1 LIN        2    0          -3.6       5    -0.9      
  vd         V  D GROUND SMU1 0.1 LIN        3    0.1        3.3        3    1.6       
  vs         V  S GROUND SMU3 0.1 CON        0
 ICCAP_OUTPUTS
  id         I  D GROUND SMU1 B
  ig         I  G GROUND SMU2 B
  ib         I  B GROUND SMU4 B
  is         I  S GROUND SMU3 B
 ICCAP_VALUES
  MASTER_SETUP_TYPE "~dc_idvg~"
  LINVT_VALUE ""
  LISTVT_VALUE ""
  TYPE "1"
  TEMP " 27.0000 "
  IS_TNOM " 1.00000 "
  MAIN.W "300.0n"
  MAIN.L "500.0n"
  MAIN.AD "102.0f"
  MAIN.AS "102.0f"
  MAIN.PD "1.280u"
  MAIN.PS "1.280u"
  MAIN.NF "1.000"
  MAIN.M "1"
  MAIN.NRD "0.000"
  MAIN.NRS "0.000"
  MAIN.LDRIFT1 "1E-06"
  MAIN.LDRIFT2 "1E-06"
  MAIN.SA "0.000"
  MAIN.SB "0.000"
  MAIN.SD "0.000"
  MAIN.SCA "0.000"
  MAIN.SCB "0.000"
  MAIN.SCC "0.000"
  MAIN.SC "0.000"
  MODULE "S560"
  PIN_D "14"
  PIN_G "7"
  PIN_S "8"
  PIN_B "13"
  PIN_E ""
  PIN_6 ""
  XY_ID ""
  FUNC "Small"
  STI "SA ref"
  WPE "WPE ref"
  COMMENT ""
  DIS_MEAS ""
  TypeTCI "10"
END_HEADER

BEGIN_DB
 ICCAP_VAR vb         0              
 ICCAP_VAR vd         0.1            
 ICCAP_VAR vs         0              

 #vg                    id                    ig                    ib                    is                   
  -0.5                  -2e-14                -4.362e-11            5.168e-11             -1.4e-13             
  -0.45                 -4e-14                -6.56e-12             1.556e-11             -2e-14               
  -0.4                  6e-14                 -1.1e-12              1.03e-11              -8e-14               
  -0.35                 6e-14                 -1e-13                8.56e-12              1.6e-13              
  -0.3                  0                     1e-13                 8.4e-12               -2e-14               
  -0.25                 6e-14                 1.6e-13               7.46e-12              1e-13                
  -0.2                  -4e-14                2.6e-13               8.22e-12              -2e-14               
  -0.15                 -2e-14                1.6e-13               8.8e-12               1e-13                
  -0.1                  -2e-14                3.4e-13               7.88e-12              1.6e-13              
  -0.05                 -2e-14                2.8e-13               7.24e-12              2e-14                
  0                     -4e-14                2e-13                 6.92e-12              4e-14                
  0.05                  -2e-14                6e-13                 7.14e-12              8e-14                
  0.1                   6e-14                 3e-13                 7.92e-12              2e-13                
  0.15                  2e-14                 5e-13                 7.84e-12              0                    
  0.2                   2e-13                 1.8e-13               7.02e-12              -6e-14               
  0.25                  8e-13                 5e-13                 6.42e-12              -9e-13               
  0.3                   3.46e-12              6.4e-13               6.66e-12              -3.26e-12            
  0.35                  1.328e-11             4.6e-13               7.48e-12              -1.308e-11           
  0.4                   5.15e-11              6.6e-13               7.68e-12              -5.14e-11            
  0.45                  2.0228e-10            5.6e-13               6.82e-12              -2.0226e-10          
  0.5                   7.8868e-10            6.4e-13               6.76e-12              -7.8862e-10          
  0.55                  3.0528e-09            4.2e-13               6e-12                 -3.0436e-09          
  0.6                   1.12034e-08           4e-13                 6.76e-12              -1.11976e-08         
  0.65                  3.7384e-08            4.6e-13               7.88e-12              -3.735e-08           
  0.7                   1.04798e-07           6.8e-13               6.66e-12              -1.04814e-07         
  0.75                  2.4092e-07            5.8e-13               5.98e-12              -2.407e-07           
  0.8                   4.5864e-07            7.8e-13               6.24e-12              -4.5896e-07          
  0.85                  7.5742e-07            7e-13                 6.82e-12              -7.587e-07           
  0.9                   1.11644e-06           5.8e-13               6e-12                 -1.11634e-06         
  0.95                  1.5172e-06            4.6e-13               6.4e-12               -1.5128e-06          
  1                     1.9432e-06            6.6e-13               6.9e-12               -1.9396e-06          
  1.05                  2.3896e-06            6.4e-13               5.48e-12              -2.3776e-06          
  1.1                   2.8466e-06            5.4e-13               5.44e-12              -2.8436e-06          
  1.15                  3.3116e-06            8.6e-13               5.8e-12               -3.2986e-06          
  1.2                   3.777e-06             5.2e-13               4.08e-12              -3.7796e-06          
  1.25                  4.2554e-06            7.8e-13               6.08e-12              -4.2484e-06          
  1.3                   4.7242e-06            6e-13                 4.6e-12               -4.7158e-06          
  1.35                  5.1936e-06            8.8e-13               5.38e-12              -5.1842e-06          
  1.4                   5.6534e-06            6.4e-13               5.66e-12              -5.661e-06           
  1.45                  6.1192e-06            6.2e-13               6.3e-12               -6.115e-06           
  1.5                   6.5742e-06            8.6e-13               4.7e-12               -6.5718e-06          
  1.55                  7.0224e-06            9.4e-13               5.18e-12              -7.0194e-06          
  1.6                   7.468e-06             8.2e-13               5.6e-12               -7.4622e-06          
  1.65                  7.8998e-06            8.6e-13               5.7e-12               -7.8982e-06          
  1.7                   8.3346e-06            7.8e-13               5e-12                 -8.3244e-06          
  1.75                  8.7468e-06            9.8e-13               5e-12                 -8.7426e-06          
  1.8                   9.1578e-06            9e-13                 5.1e-12               -9.1536e-06          
  1.85                  9.561e-06             9.6e-13               5.94e-12              -9.5616e-06          
  1.9                   9.953e-06             7.2e-13               5.1e-12               -9.9506e-06          
  1.95                  1.03418e-05           9e-13                 4.5e-12               -1.03346e-05         
  2                     1.0717e-05            8.4e-13               4.38e-12              -1.07108e-05         
  2.05                  1.10828e-05           9.4e-13               5.18e-12              -1.10792e-05         
  2.1                   1.14406e-05           7.2e-13               5.26e-12              -1.14408e-05         
  2.15                  1.1804e-05            6.2e-13               4.46e-12              -1.1786e-05          
  2.2                   1.2146e-05            7.8e-13               4.14e-12              -1.2124e-05          
  2.25                  1.248e-05             8.2e-13               4.98e-12              -1.246e-05           
  2.3                   1.2808e-05            9.8e-13               5.6e-12               -1.2788e-05          
  2.35                  1.3128e-05            7.4e-13               4.14e-12              -1.311e-05           
  2.4                   1.344e-05             9.4e-13               4.82e-12              -1.342e-05           
  2.45                  1.3742e-05            1.08e-12              4.34e-12              -1.372e-05           
  2.5                   1.4042e-05            8.2e-13               5.64e-12              -1.402e-05           
  2.55                  1.4328e-05            1.02e-12              4.2e-12               -1.4306e-05          
  2.6                   1.4606e-05            8.4e-13               4.04e-12              -1.4588e-05          
  2.65                  1.4882e-05            1.1e-12               4.92e-12              -1.4862e-05          
  2.7                   1.515e-05             1.02e-12              5.24e-12              -1.5128e-05          
  2.75                  1.5408e-05            8.6e-13               5.24e-12              -1.5388e-05          
  2.8                   1.5662e-05            9e-13                 3.8e-12               -1.5642e-05          
  2.85                  1.5908e-05            1.06e-12              5.74e-12              -1.5888e-05          
  2.9                   1.6146e-05            7.8e-13               4.04e-12              -1.6126e-05          
  2.95                  1.6378e-05            1.06e-12              4.7e-12               -1.6358e-05          
  3                     1.6604e-05            9.6e-13               3.62e-12              -1.6586e-05          
  3.05                  1.6822e-05            8.6e-13               4.42e-12              -1.6804e-05          
  3.1                   1.7038e-05            9.6e-13               4.08e-12              -1.7016e-05          
  3.15                  1.7246e-05            8.8e-13               4.96e-12              -1.7226e-05          
  3.2                   1.7448e-05            1.06e-12              3.24e-12              -1.7428e-05          
  3.25                  1.7644e-05            1.02e-12              3.82e-12              -1.7624e-05          
  3.3                   1.7836e-05            1.1e-12               4.1e-12               -1.7816e-05          
  3.35                  1.8016e-05            9.8e-13               4.66e-12              -1.7996e-05          
  3.4                   1.8198e-05            1.1e-12               4.86e-12              -1.8176e-05          
  3.45                  1.837e-05             1.02e-12              3.92e-12              -1.835e-05           
  3.5                   1.854e-05             1.14e-12              3e-12                 -1.852e-05           
  3.55                  1.8706e-05            9e-13                 4.88e-12              -1.8686e-05          
  3.6                   1.8864e-05            1.24e-12              5.3e-12               -1.8846e-05          
END_DB

BEGIN_DB
 ICCAP_VAR vb         -0.9           
 ICCAP_VAR vd         0.1            
 ICCAP_VAR vs         0              

 #vg                    id                    ig                    ib                    is                   
  -0.5                  -8e-14                -8.4e-13              -9.66e-12             2.2e-13              
  -0.45                 -6e-14                -4.6e-13              -9.06e-12             8e-14                
  -0.4                  -1e-13                -1.8e-13              -7.92e-12             1.6e-13              
  -0.35                 2e-14                 -8e-14                -6.56e-12             2e-13                
  -0.3                  -6e-14                -8e-14                -5.04e-12             -6e-14               
  -0.25                 4e-14                 0                     -5.62e-12             1.8e-13              
  -0.2                  -4e-14                -1e-13                -5.68e-12             8e-14                
  -0.15                 4e-14                 1.2e-13               -4.82e-12             6e-14                
  -0.1                  0                     1.2e-13               -4.94e-12             1.2e-13              
  -0.05                 -4e-14                3.8e-13               -3.22e-12             1.4e-13              
  0                     6e-14                 1.6e-13               -3.78e-12             2.4e-13              
  0.05                  -4e-14                4.8e-13               -3.22e-12             2e-14                
  0.1                   6e-14                 2e-13                 -4.02e-12             1.6e-13              
  0.15                  0                     3e-13                 -2.8e-12              1.4e-13              
  0.2                   1e-13                 4.8e-13               -1.1e-12              1.2e-13              
  0.25                  -2e-14                1.8e-13               -1.74e-12             8e-14                
  0.3                   0                     4.4e-13               -2.62e-12             1.4e-13              
  0.35                  -2e-14                5.4e-13               -2.36e-12             1.6e-13              
  0.4                   1e-13                 2e-13                 -1.8e-12              1.8e-13              
  0.45                  1.2e-13               5.2e-13               -1.64e-12             -4e-14               
  0.5                   5.8e-13               3.8e-13               -1.08e-12             -4.8e-13             
  0.55                  2.44e-12              5e-13                 -1.24e-12             -2.26e-12            
  0.6                   1.084e-11             3.4e-13               -2.3e-12              -1.06e-11            
  0.65                  4.778e-11             6.2e-13               -1.58e-12             -4.778e-11           
  0.7                   2.0878e-10            4.6e-13               -1.32e-12             -2.0822e-10          
  0.75                  9.1566e-10            5.6e-13               -4.6e-13              -9.1514e-10          
  0.8                   3.8856e-09            5.4e-13               -8.8e-13              -3.8814e-09          
  0.85                  1.5152e-08            4.8e-13               -1.72e-12             -1.5116e-08          
  0.9                   5.213e-08             4.4e-13               -7.6e-13              -5.189e-08           
  0.95                  1.4478e-07            4.4e-13               -2.2e-13              -1.4438e-07          
  1                     3.1902e-07            5.8e-13               -1.26e-12             -3.1892e-07          
  1.05                  5.7928e-07            5.6e-13               -1.38e-12             -5.7906e-07          
  1.1                   8.9928e-07            6.6e-13               -9e-13                -8.9932e-07          
  1.15                  1.2872e-06            5.2e-13               -6e-14                -1.2828e-06          
  1.2                   1.6958e-06            5.4e-13               -8e-13                -1.6914e-06          
  1.25                  2.1262e-06            5.2e-13               -1.14e-12             -2.1224e-06          
  1.3                   2.5714e-06            7e-13                 4.8e-13               -2.5674e-06          
  1.35                  3.0128e-06            7.2e-13               -3.2e-13              -3.0114e-06          
  1.4                   3.4726e-06            5.4e-13               -8.4e-13              -3.4664e-06          
  1.45                  3.9306e-06            9e-13                 -4.2e-13              -3.9312e-06          
  1.5                   4.386e-06             6.8e-13               4e-13                 -4.3862e-06          
  1.55                  4.8418e-06            9.2e-13               3e-13                 -4.842e-06           
  1.6                   5.2946e-06            6.8e-13               -9.6e-13              -5.2898e-06          
  1.65                  5.7446e-06            8.8e-13               -8e-14                -5.7392e-06          
  1.7                   6.1908e-06            8e-13                 4e-14                 -6.1828e-06          
  1.75                  6.6248e-06            7e-13                 9.2e-13               -6.6202e-06          
  1.8                   7.0496e-06            7.8e-13               -1e-13                -7.0454e-06          
  1.85                  7.4756e-06            7e-13                 -3.8e-13              -7.4736e-06          
  1.9                   7.8918e-06            6.6e-13               3e-13                 -7.884e-06           
  1.95                  8.2908e-06            8.2e-13               1.4e-13               -8.2872e-06          
  2                     8.6922e-06            6.4e-13               -1.8e-13              -8.6854e-06          
  2.05                  9.081e-06             1e-12                 -5.6e-13              -9.0774e-06          
  2.1                   9.4654e-06            6.4e-13               -1.6e-13              -9.4672e-06          
  2.15                  9.8428e-06            8.4e-13               4.8e-13               -9.8364e-06          
  2.2                   1.0196e-05            8.4e-13               -3.2e-13              -1.01952e-05         
  2.25                  1.05552e-05           7.4e-13               -1.6e-13              -1.05496e-05         
  2.3                   1.08988e-05           9e-13                 -6.6e-13              -1.0895e-05          
  2.35                  1.12344e-05           9.2e-13               1.6e-13               -1.123e-05           
  2.4                   1.1572e-05            6.2e-13               2.4e-13               -1.1552e-05          
  2.45                  1.1892e-05            7.6e-13               1.4e-12               -1.1872e-05          
  2.5                   1.2206e-05            7.6e-13               -1.32e-12             -1.2186e-05          
  2.55                  1.251e-05             9.2e-13               -4e-14                -1.249e-05           
  2.6                   1.2808e-05            8.6e-13               -8e-14                -1.2786e-05          
  2.65                  1.3094e-05            8.2e-13               7.4e-13               -1.3076e-05          
  2.7                   1.3376e-05            9.8e-13               5.2e-13               -1.3356e-05          
  2.75                  1.3652e-05            7.2e-13               1.2e-13               -1.3634e-05          
  2.8                   1.3918e-05            8.8e-13               2e-14                 -1.3898e-05          
  2.85                  1.4174e-05            9e-13                 4.8e-13               -1.4154e-05          
  2.9                   1.4426e-05            8.4e-13               1.34e-12              -1.4406e-05          
  2.95                  1.4672e-05            9e-13                 3.4e-13               -1.4652e-05          
  3                     1.491e-05             1.02e-12              -1.8e-13              -1.489e-05           
  3.05                  1.514e-05             1.06e-12              5e-13                 -1.512e-05           
  3.1                   1.5364e-05            1.08e-12              1.18e-12              -1.5344e-05          
  3.15                  1.5584e-05            1e-12                 3.4e-13               -1.5564e-05          
  3.2                   1.5796e-05            1.04e-12              1.8e-13               -1.5774e-05          
  3.25                  1.6002e-05            1e-12                 -3.6e-13              -1.5982e-05          
  3.3                   1.6196e-05            9.6e-13               9.4e-13               -1.6182e-05          
  3.35                  1.6394e-05            8.6e-13               4.2e-13               -1.6376e-05          
  3.4                   1.6588e-05            8.8e-13               3.02e-12              -1.6568e-05          
  3.45                  1.6772e-05            1.02e-12              -2e-14                -1.6752e-05          
