! VERSION = 6.00
BEGIN_HEADER
 ICCAP_INPUTS
  vd         V  D GROUND SMU1 0.1 LIN        1    0          3.6        37   0.1       
  vg         V  G GROUND SMU2 0.001 LIN        2    0.772      3.6        5    0.707     
  vb         V  B GROUND SMU4 0.1 CON        -3.6
  vs         V  S GROUND SMU3 0.1 CON        0
 ICCAP_OUTPUTS
  id         I  D GROUND SMU1 B
  ig         I  G GROUND SMU2 B
  ib         I  B GROUND SMU4 B
  is         I  S GROUND SMU3 B
 ICCAP_VALUES
  MASTER_SETUP_TYPE "~dc_idvd~"
  LINVT_VALUE "|idvg|100.0n|100.0m|1.000m|5|3.600|"
  LISTVT_VALUE ""
  TYPE "1"
  TEMP " 27.0000 "
  IS_TNOM " 1.00000 "
  MAIN.W "300.0n"
  MAIN.L "330.0n"
  MAIN.AD "102.0f"
  MAIN.AS "102.0f"
  MAIN.PD "1.280u"
  MAIN.PS "1.280u"
  MAIN.NF "1.000"
  MAIN.M "1"
  MAIN.NRD "0.000"
  MAIN.NRS "0.000"
  MAIN.LDRIFT1 "1E-06"
  MAIN.LDRIFT2 "1E-06"
  MAIN.SA "0.000"
  MAIN.SB "0.000"
  MAIN.SD "0.000"
  MAIN.SCA "0.000"
  MAIN.SCB "0.000"
  MAIN.SCC "0.000"
  MAIN.SC "0.000"
  MODULE "S560"
  PIN_D "18"
  PIN_G "3"
  PIN_S "4"
  PIN_B "17"
  PIN_E ""
  PIN_6 ""
  XY_ID ""
  FUNC "Additional"
  STI "SA ref"
  WPE "WPE ref"
  COMMENT ""
  DIS_MEAS ""
  TypeTCI "10"
END_HEADER

BEGIN_DB
 ICCAP_VAR vg         0.772          
 ICCAP_VAR vb         -3.6           
 ICCAP_VAR vs         0              

 #vd                    id                    ig                    ib                    is                   
  0                     8.248e-11             2.8e-13               -4.24e-11             -4.694e-11           
  0.1                   5.9068e-08            3.2e-13               -3.412e-11            -5.8974e-08          
  0.2                   8.3978e-08            2.6e-13               -3.516e-11            -8.351e-08           
  0.3                   1.08606e-07           2.2e-13               -3.358e-11            -1.08644e-07         
  0.4                   1.3742e-07            2.6e-13               -3.018e-11            -1.372e-07           
  0.5                   1.7058e-07            2.6e-13               -2.952e-11            -1.7038e-07          
  0.6                   2.0662e-07            2.8e-13               -2.908e-11            -2.0632e-07          
  0.7                   2.4768e-07            2.4e-13               -2.688e-11            -2.4788e-07          
  0.8                   2.9404e-07            1.8e-13               -2.61e-11             -2.939e-07           
  0.9                   3.439e-07             1.6e-13               -2.562e-11            -3.4356e-07          
  1                     3.9814e-07            8e-14                 -2.53e-11             -3.9784e-07          
  1.1                   4.5656e-07            1.6e-13               -2.302e-11            -4.5524e-07          
  1.2                   5.1724e-07            1.8e-13               -2.294e-11            -5.1418e-07          
  1.3                   5.8304e-07            1.6e-13               -2.254e-11            -5.8258e-07          
  1.4                   6.5334e-07            1.4e-13               -2.38e-11             -6.5304e-07          
  1.5                   7.2662e-07            1e-13                 -2.8e-11              -7.2774e-07          
  1.6                   8.0738e-07            2e-13                 -4.01e-11             -8.0754e-07          
  1.7                   8.9156e-07            8e-14                 -7.01e-11             -8.913e-07           
  1.8                   9.793e-07             2.2e-13               -1.2668e-10           -9.7914e-07          
  1.9                   1.06988e-06           2e-13                 -2.3356e-10           -1.06972e-06         
  2                     1.1666e-06            1e-13                 -4.2038e-10           -1.16534e-06         
  2.1                   1.2684e-06            2.4e-13               -7.2994e-10           -1.2674e-06          
  2.2                   1.3802e-06            1.2e-13               -1.224e-09            -1.3756e-06          
  2.3                   1.4878e-06            1.8e-13               -1.9806e-09           -1.4824e-06          
  2.4                   1.602e-06             0                     -3.095e-09            -1.591e-06           
  2.5                   1.7176e-06            6e-14                 -4.7408e-09           -1.7108e-06          
  2.6                   1.839e-06             4e-14                 -7.0822e-09           -1.8258e-06          
  2.7                   1.9642e-06            0                     -1.0413e-08           -1.953e-06           
  2.8                   2.0954e-06            1.6e-13               -1.504e-08            -2.083e-06           
  2.9                   2.2334e-06            0                     -2.133e-08            -2.2076e-06          
  3                     2.376e-06             1.6e-13               -2.9976e-08           -2.35e-06            
  3.1                   2.5334e-06            1e-13                 -4.1402e-08           -2.4874e-06          
  3.2                   2.6896e-06            8e-14                 -5.6406e-08           -2.6284e-06          
  3.3                   2.8546e-06            6e-14                 -7.5748e-08           -2.7752e-06          
  3.4                   3.0278e-06            2e-14                 -1.004e-07            -2.9236e-06          
  3.5                   3.2126e-06            1e-13                 -1.3112e-07           -3.0754e-06          
  3.6                   3.407e-06             6e-14                 -1.6926e-07           -3.2306e-06          
END_DB

BEGIN_DB
 ICCAP_VAR vg         1.479          
 ICCAP_VAR vb         -3.6           
 ICCAP_VAR vs         0              

 #vd                    id                    ig                    ib                    is                   
  0                     2.3334e-09            4.6e-13               -9.08e-12             -2.6558e-09          
  0.1                   8.6958e-06            3.2e-13               -1e-11                -8.69e-06            
  0.2                   1.5592e-05            3e-13                 -1.012e-11            -1.5594e-05          
  0.3                   2.0598e-05            2e-13                 -9.72e-12             -2.0576e-05          
  0.4                   2.4028e-05            2.8e-13               -9.54e-12             -2.4e-05             
  0.5                   2.6336e-05            1.8e-13               -1.002e-11            -2.6314e-05          
  0.6                   2.798e-05             2.2e-13               -9.28e-12             -2.796e-05           
  0.7                   2.9264e-05            3e-13                 -8.36e-12             -2.9264e-05          
  0.8                   3.0356e-05            2.4e-13               -9.82e-12             -3.0332e-05          
  0.9                   3.13e-05              1.8e-13               -9.7e-12              -3.1288e-05          
  1                     3.2166e-05            2.4e-13               -8.16e-12             -3.2146e-05          
  1.1                   3.297e-05             1.6e-13               -9.34e-12             -3.2962e-05          
  1.2                   3.3734e-05            2.2e-13               -9.04e-12             -3.3702e-05          
  1.3                   3.4452e-05            1.8e-13               -9.4e-12              -3.4436e-05          
  1.4                   3.5146e-05            1.6e-13               -1.358e-11            -3.5122e-05          
  1.5                   3.5812e-05            1.6e-13               -2.538e-11            -3.5796e-05          
  1.6                   3.6476e-05            1.6e-13               -6.196e-11            -3.6444e-05          
  1.7                   3.709e-05             2e-13                 -1.6508e-10           -3.7104e-05          
  1.8                   3.7804e-05            4e-14                 -4.1836e-10           -3.7732e-05          
  1.9                   3.8362e-05            2e-13                 -9.582e-10            -3.834e-05           
  2                     3.8948e-05            2.2e-13               -2.0214e-09           -3.8996e-05          
  2.1                   3.9552e-05            2.2e-13               -3.9518e-09           -3.9526e-05          
  2.2                   4.0116e-05            1.2e-13               -7.2276e-09           -4.0074e-05          
  2.3                   4.0692e-05            2e-13                 -1.2498e-08           -4.066e-05           
  2.4                   4.129e-05             1e-13                 -2.0576e-08           -4.1226e-05          
  2.5                   4.1854e-05            1.4e-13               -3.2588e-08           -4.1792e-05          
  2.6                   4.2504e-05            1.2e-13               -4.9908e-08           -4.2348e-05          
  2.7                   4.3004e-05            1.2e-13               -7.4228e-08           -4.2952e-05          
  2.8                   4.3656e-05            2e-14                 -1.07798e-07          -4.3498e-05          
  2.9                   4.4276e-05            1e-13                 -1.534e-07            -4.4096e-05          
  3                     4.4866e-05            1e-13                 -2.1462e-07           -4.4656e-05          
  3.1                   4.5516e-05            1.8e-13               -2.9556e-07           -4.5214e-05          
  3.2                   4.613e-05             4e-14                 -4.0108e-07           -4.5726e-05          
  3.3                   4.6816e-05            8e-14                 -5.3772e-07           -4.6308e-05          
  3.4                   4.7592e-05            1.4e-13               -7.119e-07            -4.6876e-05          
  3.5                   4.8372e-05            1.8e-13               -9.3052e-07           -4.7448e-05          
  3.6                   4.9268e-05            1.8e-13               -1.201e-06            -4.807e-05           
END_DB

BEGIN_DB
 ICCAP_VAR vg         2.186          
 ICCAP_VAR vb         -3.6           
 ICCAP_VAR vs         0              

 #vd                    id                    ig                    ib                    is                   
  0                     2.6182e-09            5e-13                 -5.6e-12              -3.9462e-09          
  0.1                   1.7072e-05            3.8e-13               -6.38e-12             -1.705e-05           
  0.2                   3.2438e-05            3.6e-13               -6.02e-12             -3.2418e-05          
  0.3                   4.5556e-05            3.2e-13               -5.7e-12              -4.5546e-05          
  0.4                   5.626e-05             3.4e-13               -6.5e-12              -5.6232e-05          
  0.5                   6.457e-05             2.6e-13               -5.94e-12             -6.4558e-05          
  0.6                   7.084e-05             3.2e-13               -5.46e-12             -7.0818e-05          
  0.7                   7.5496e-05            2.8e-13               -6.96e-12             -7.5478e-05          
  0.8                   7.8974e-05            2.6e-13               -5.72e-12             -7.8954e-05          
  0.9                   8.1618e-05            2.8e-13               -6.66e-12             -8.162e-05           
  1                     8.3734e-05            2.6e-13               -6.08e-12             -8.3728e-05          
  1.1                   8.5494e-05            2.4e-13               -5.44e-12             -8.5474e-05          
  1.2                   8.6994e-05            2.2e-13               -6.44e-12             -8.698e-05           
  1.3                   8.8336e-05            2.4e-13               -7.32e-12             -8.832e-05           
  1.4                   8.9552e-05            1.6e-13               -6.8e-12              -8.952e-05           
  1.5                   9.0642e-05            1.8e-13               -1.384e-11            -9.0626e-05          
  1.6                   9.1682e-05            2e-13                 -3.188e-11            -9.1658e-05          
  1.7                   9.265e-05             2.2e-13               -8.17e-11             -9.2624e-05          
  1.8                   9.3564e-05            1e-13                 -2.1726e-10           -9.355e-05           
  1.9                   9.4452e-05            1.6e-13               -5.3208e-10           -9.444e-05           
  2                     9.5324e-05            8e-14                 -1.1998e-09           -9.5256e-05          
  2.1                   9.6096e-05            2e-13                 -2.5258e-09           -9.6078e-05          
  2.2                   9.689e-05             1.2e-13               -4.963e-09            -9.6846e-05          
  2.3                   9.7654e-05            2e-13                 -9.1916e-09           -9.7624e-05          
  2.4                   9.8486e-05            1.2e-13               -1.6178e-08           -9.8456e-05          
  2.5                   9.9216e-05            1.6e-13               -2.7064e-08           -9.9126e-05          
  2.6                   9.9924e-05            2e-13                 -4.3706e-08           -9.9914e-05          
  2.7                   0.000100698           1.8e-13               -6.7998e-08           -0.000100614         
  2.8                   0.000101418           2.6e-13               -1.02662e-07          -0.000101276         
  2.9                   0.000102148           1e-13                 -1.5106e-07           -0.00010198          
  3                     0.0001029             8e-14                 -2.1798e-07           -0.000102662         
  3.1                   0.000103672           8e-14                 -3.0816e-07           -0.000103346         
  3.2                   0.00010448            8e-14                 -4.284e-07            -0.000104044         
  3.3                   0.000105346           1.2e-13               -5.8636e-07           -0.000104718         
  3.4                   0.000106228           8e-14                 -7.9258e-07           -0.000105468         
  3.5                   0.000107228           2e-13                 -1.05702e-06          -0.000106166         
  3.6                   0.00010844            1.6e-13               -1.3932e-06           -0.000106854         
END_DB

BEGIN_DB
 ICCAP_VAR vg         2.893          
 ICCAP_VAR vb         -3.6           
 ICCAP_VAR vs         0              

 #vd                    id                    ig                    ib                    is                   
  0                     1.0588e-08            5.2e-13               -3.3e-12              -1.0202e-08          
  0.1                   2.2676e-05            3.2e-13               -3.8e-12              -2.266e-05           
  0.2                   4.3906e-05            2.6e-13               -3.44e-12             -4.389e-05           
  0.3                   6.306e-05             3.4e-13               -4.94e-12             -6.3016e-05          
  0.4                   7.9718e-05            4.4e-13               -5.58e-12             -7.9716e-05          
  0.5                   9.383e-05             2e-13                 -3.52e-12             -9.3838e-05          
  0.6                   0.00010544            2.6e-13               -4.96e-12             -0.00010541          
  0.7                   0.000114752           3.6e-13               -5.82e-12             -0.000114738         
  0.8                   0.00012228            2e-13                 -5.2e-12              -0.00012188          
  0.9                   0.0001281             2.4e-13               -3.5e-12              -0.00012768          
  1                     0.00013268            3e-13                 -4.62e-12             -0.00013228          
  1.1                   0.00013634            1e-13                 -4.96e-12             -0.00013594          
  1.2                   0.0001393             1.4e-13               -4.08e-12             -0.0001389           
  1.3                   0.00014178            2.2e-13               -5.1e-12              -0.00014138          
  1.4                   0.0001439             2.8e-13               -5.64e-12             -0.00014348          
  1.5                   0.00014574            2e-13                 -6.48e-12             -0.00014534          
  1.6                   0.00014736            1.8e-13               -1.224e-11            -0.00014696          
  1.7                   0.00014882            2e-13                 -3.568e-11            -0.00014842          
  1.8                   0.00015018            1.2e-13               -9.476e-11            -0.00014976          
  1.9                   0.00015142            1.8e-13               -2.4586e-10           -0.00015104          
  2                     0.00015256            3e-13                 -5.8784e-10           -0.00015216          
  2.1                   0.00015364            1.6e-13               -1.3092e-09           -0.00015326          
  2.2                   0.00015468            1.4e-13               -2.7154e-09           -0.00015426          
  2.3                   0.00015566            2e-13                 -5.2844e-09           -0.00015524          
  2.4                   0.00015658            2e-13                 -9.7096e-09           -0.00015618          
  2.5                   0.00015748            1.6e-13               -1.6998e-08           -0.00015708          
  2.6                   0.00015842            3.2e-13               -2.8456e-08           -0.00015794          
  2.7                   0.0001592             8e-14                 -4.5866e-08           -0.00015876          
  2.8                   0.00016006            1e-13                 -7.1694e-08           -0.0001596           
  2.9                   0.0001609             1.6e-13               -1.0858e-07           -0.00016042          
  3                     0.00016174            6e-14                 -1.603e-07            -0.00016118          
  3.1                   0.00016254            1.8e-13               -2.323e-07            -0.00016198          
  3.2                   0.00016352            1.8e-13               -3.2982e-07           -0.00016268          
  3.3                   0.00016432            1.6e-13               -4.601e-07            -0.0001635           
  3.4                   0.0001653             2.2e-13               -6.3288e-07           -0.0001642           
  3.5                   0.00016626            3.2e-13               -8.6002e-07           -0.00016498          
  3.6                   0.00016732            1e-13                 -1.15e-06             -0.00016574          
END_DB

BEGIN_DB
 ICCAP_VAR vg         3.6            
 ICCAP_VAR vb         -3.6           
 ICCAP_VAR vs         0              

 #vd                    id                    ig                    ib                    is                   
  0                     1.1394e-08            4.8e-13               -3.74e-12             -1.1294e-08          
  0.1                   2.6386e-05            4e-13                 -2.6e-12              -2.637e-05           
  0.2                   5.1594e-05            4.2e-13               -4.08e-12             -5.1574e-05          
  0.3                   7.4938e-05            3.4e-13               -4.48e-12             -7.4904e-05          
  0.4                   9.6048e-05            3e-13                 -3.82e-12             -9.6008e-05          
  0.5                   0.000114672           2.2e-13               -4.78e-12             -0.000114658         
  0.6                   0.0001309             2.6e-13               -2.6e-12              -0.0001305           
  0.7                   0.00014456            2.2e-13               -4.4e-12              -0.0001442           
  0.8                   0.00015604            2.4e-13               -3.46e-12             -0.00015566          
