! VERSION = 6.00
BEGIN_HEADER
 ICCAP_INPUTS
  vd         V  D GROUND SMU1 0.1 LIN        1    0          3.6        37   0.1       
  vg         V  G GROUND SMU2 0.001 LIN        2    0.564      3.6        5    0.759     
  vb         V  B GROUND SMU4 0.1 CON        0
  vs         V  S GROUND SMU3 0.1 CON        0
 ICCAP_OUTPUTS
  id         I  D GROUND SMU1 B
  ig         I  G GROUND SMU2 B
  ib         I  B GROUND SMU4 B
  is         I  S GROUND SMU3 B
 ICCAP_VALUES
  MASTER_SETUP_TYPE "~dc_idvd~"
  LINVT_VALUE "|idvg|100.0n|100.0m|1.000m|5|3.600|"
  LISTVT_VALUE ""
  TYPE "1"
  TEMP " 125.000 "
  IS_TNOM " 0.00000 "
  MAIN.W "300.0n"
  MAIN.L "10.00u"
  MAIN.AD "102.0f"
  MAIN.AS "102.0f"
  MAIN.PD "1.280u"
  MAIN.PS "1.280u"
  MAIN.NF "1.000"
  MAIN.M "1"
  MAIN.NRD "0.000"
  MAIN.NRS "0.000"
  MAIN.LDRIFT1 "1E-06"
  MAIN.LDRIFT2 "1E-06"
  MAIN.SA "0.000"
  MAIN.SB "0.000"
  MAIN.SD "0.000"
  MAIN.SCA "0.000"
  MAIN.SCB "0.000"
  MAIN.SCC "0.000"
  MAIN.SC "0.000"
  MODULE "S547"
  PIN_D "14"
  PIN_G "7"
  PIN_S "8"
  PIN_B "13"
  PIN_E ""
  PIN_6 ""
  XY_ID ""
  FUNC "Narrow"
  STI "SA ref"
  WPE "WPE ref"
  COMMENT ""
  DIS_MEAS ""
  TypeTCI "10"
END_HEADER

BEGIN_DB
 ICCAP_VAR vg         0.564          
 ICCAP_VAR vb         0              
 ICCAP_VAR vs         0              

 #vd                    id                    ig                    ib                    is                   
  0                     1.024e-11             -2.2e-13              7.602e-11             -8.94e-12            
  0.1                   1.1256e-08            -1.6e-13              6.816e-11             -1.124e-08           
  0.2                   1.286e-08             -2.2e-13              6.422e-11             -1.2846e-08          
  0.3                   1.2992e-08            -3e-13                6.328e-11             -1.2976e-08          
  0.4                   1.3014e-08            -1.4e-13              6.082e-11             -1.3002e-08          
  0.5                   1.3024e-08            -2.4e-13              5.848e-11             -1.301e-08           
  0.6                   1.303e-08             -2.2e-13              5.598e-11             -1.3012e-08          
  0.7                   1.3026e-08            -2.2e-13              5.502e-11             -1.3008e-08          
  0.8                   1.3032e-08            -1.4e-13              5.342e-11             -1.3022e-08          
  0.9                   1.3046e-08            -2e-13                5.092e-11             -1.3028e-08          
  1                     1.305e-08             -2e-13                4.956e-11             -1.303e-08           
  1.1                   1.305e-08             -1.6e-13              4.852e-11             -1.3022e-08          
  1.2                   1.3046e-08            -2.4e-13              4.702e-11             -1.3024e-08          
  1.3                   1.3056e-08            -1e-13                4.526e-11             -1.3032e-08          
  1.4                   1.3062e-08            -3.8e-13              4.356e-11             -1.3046e-08          
  1.5                   1.3066e-08            -3.2e-13              4.348e-11             -1.305e-08           
  1.6                   1.307e-08             -2.4e-13              4.264e-11             -1.3046e-08          
  1.7                   1.3066e-08            -2.8e-13              3.996e-11             -1.3054e-08          
  1.8                   1.3074e-08            -1.2e-13              3.942e-11             -1.3054e-08          
  1.9                   1.3078e-08            -6e-14                3.828e-11             -1.3056e-08          
  2                     1.3082e-08            -1.8e-13              3.594e-11             -1.3056e-08          
  2.1                   1.309e-08             -2.8e-13              3.338e-11             -1.3064e-08          
  2.2                   1.3082e-08            -1e-13                2.906e-11             -1.3056e-08          
  2.3                   1.3096e-08            -2e-13                2.584e-11             -1.3062e-08          
  2.4                   1.3096e-08            -4e-14                2.098e-11             -1.307e-08           
  2.5                   1.3112e-08            -1.2e-13              1.228e-11             -1.307e-08           
  2.6                   1.3122e-08            -1.4e-13              3.22e-12              -1.3074e-08          
  2.7                   1.3138e-08            0                     -8.8e-12              -1.3074e-08          
  2.8                   1.315e-08             -1.2e-13              -2.44e-11             -1.3078e-08          
  2.9                   1.3176e-08            -1.6e-13              -4.27e-11             -1.3084e-08          
  3                     1.3202e-08            -1e-13                -6.7e-11              -1.3084e-08          
  3.1                   1.3232e-08            -2e-13                -9.7e-11              -1.3078e-08          
  3.2                   1.3272e-08            -2.4e-13              -1.3312e-10           -1.3086e-08          
  3.3                   1.3316e-08            -2.2e-13              -1.792e-10            -1.3094e-08          
  3.4                   1.3378e-08            -2e-13                -2.3386e-10           -1.3092e-08          
  3.5                   1.3446e-08            -4e-14                -2.9792e-10           -1.3094e-08          
  3.6                   1.3518e-08            -2.2e-13              -3.7428e-10           -1.3096e-08          
END_DB

BEGIN_DB
 ICCAP_VAR vg         1.323          
 ICCAP_VAR vb         0              
 ICCAP_VAR vs         0              

 #vd                    id                    ig                    ib                    is                   
  0                     8.216e-11             7.4e-13               2.334e-11             -9.242e-11           
  0.1                   2.1124e-07            5.6e-13               2.246e-11             -2.1122e-07          
  0.2                   3.8106e-07            1.8e-13               2.21e-11              -3.811e-07           
  0.3                   5.1044e-07            1.2e-13               2.162e-11             -5.1042e-07          
  0.4                   6.016e-07             3.2e-13               2.114e-11             -6.0162e-07          
  0.5                   6.575e-07             2.6e-13               2.046e-11             -6.5748e-07          
  0.6                   6.8442e-07            4.4e-13               2.184e-11             -6.845e-07           
  0.7                   6.9378e-07            3.6e-13               2.002e-11             -6.938e-07           
  0.8                   6.9638e-07            2.4e-13               1.924e-11             -6.9646e-07          
  0.9                   6.974e-07             3e-13                 2.014e-11             -6.975e-07           
  1                     6.9794e-07            1.8e-13               1.996e-11             -6.9788e-07          
  1.1                   6.9836e-07            2e-13                 1.858e-11             -6.9834e-07          
  1.2                   6.9862e-07            2e-13                 1.824e-11             -6.9868e-07          
  1.3                   6.989e-07             3.4e-13               1.86e-11              -6.9898e-07          
  1.4                   6.9916e-07            1.8e-13               1.842e-11             -6.9918e-07          
  1.5                   6.994e-07             2.6e-13               1.796e-11             -6.994e-07           
  1.6                   6.9956e-07            2.2e-13               1.724e-11             -6.9954e-07          
  1.7                   6.9966e-07            1e-13                 1.858e-11             -6.9962e-07          
  1.8                   6.9988e-07            1.8e-13               1.72e-11              -6.9994e-07          
  1.9                   7.0002e-07            -8e-14                1.588e-11             -7.0008e-07          
  2                     7.0016e-07            6e-14                 1.556e-11             -7.003e-07           
  2.1                   7.0036e-07            1.2e-13               1.39e-11              -7.0052e-07          
  2.2                   7.0062e-07            4e-14                 7.48e-12              -7.0068e-07          
  2.3                   7.0084e-07            1e-13                 -1.96e-12             -7.0084e-07          
  2.4                   7.0096e-07            2.4e-13               -1.956e-11            -7.0094e-07          
  2.5                   7.0108e-07            1.6e-13               -5.168e-11            -7.0106e-07          
  2.6                   7.0126e-07            2e-13                 -1.058e-10            -7.0108e-07          
  2.7                   7.0142e-07            2.8e-13               -1.8794e-10           -7.0132e-07          
  2.8                   7.017e-07             2e-13                 -3.0904e-10           -7.0138e-07          
  2.9                   7.0192e-07            1.4e-13               -4.83e-10             -7.0148e-07          
  3                     7.0234e-07            -1.4e-13              -7.2542e-10           -7.0158e-07          
  3.1                   7.0274e-07            1e-13                 -1.0526e-09           -7.0162e-07          
  3.2                   7.0322e-07            1e-13                 -1.4924e-09           -7.019e-07           
  3.3                   7.0386e-07            2e-13                 -2.0646e-09           -7.019e-07           
  3.4                   7.0476e-07            8e-14                 -2.808e-09            -7.0198e-07          
  3.5                   7.0586e-07            1.2e-13               -3.761e-09            -7.0208e-07          
  3.6                   7.0706e-07            6e-14                 -4.9692e-09           -7.0214e-07          
END_DB

BEGIN_DB
 ICCAP_VAR vg         2.082          
 ICCAP_VAR vb         0              
 ICCAP_VAR vs         0              

 #vd                    id                    ig                    ib                    is                   
  0                     1.3442e-10            7.8e-13               1.366e-11             -1.4384e-10          
  0.1                   4.1166e-07            5.2e-13               1.316e-11             -4.1166e-07          
  0.2                   7.8658e-07            5e-13                 1.268e-11             -7.8664e-07          
  0.3                   1.1241e-06            4.6e-13               1.192e-11             -1.12422e-06         
  0.4                   1.4268e-06            5e-13                 1.258e-11             -1.4234e-06          
  0.5                   1.6916e-06            2.6e-13               1.054e-11             -1.6882e-06          
  0.6                   1.9192e-06            3.8e-13               1.17e-11              -1.916e-06           
  0.7                   2.1108e-06            4.4e-13               1.246e-11             -2.1074e-06          
  0.8                   2.266e-06             4.2e-13               1.06e-11              -2.2628e-06          
  0.9                   2.3858e-06            4.2e-13               1.126e-11             -2.3826e-06          
  1                     2.4722e-06            4.6e-13               1.196e-11             -2.4688e-06          
  1.1                   2.5276e-06            4.4e-13               1.048e-11             -2.5242e-06          
  1.2                   2.5576e-06            3e-13                 1.162e-11             -2.5546e-06          
  1.3                   2.5714e-06            5.2e-13               1.14e-11              -2.568e-06           
  1.4                   2.5772e-06            4e-13                 9.94e-12              -2.574e-06           
  1.5                   2.5802e-06            2.8e-13               1.116e-11             -2.577e-06           
  1.6                   2.5818e-06            6.8e-13               1.118e-11             -2.5784e-06          
  1.7                   2.5834e-06            3.8e-13               1.014e-11             -2.5802e-06          
  1.8                   2.5844e-06            4e-13                 1.124e-11             -2.581e-06           
  1.9                   2.585e-06             3.2e-13               1.07e-11              -2.5818e-06          
  2                     2.5862e-06            2.2e-13               9.38e-12              -2.5828e-06          
  2.1                   2.587e-06             2.6e-13               1.078e-11             -2.5836e-06          
  2.2                   2.5874e-06            1.8e-13               8.96e-12              -2.5844e-06          
  2.3                   2.588e-06             2.8e-13               9.52e-12              -2.5848e-06          
  2.4                   2.5888e-06            1.4e-13               1.01e-11              -2.5856e-06          
  2.5                   2.5896e-06            2.2e-13               8.08e-12              -2.5864e-06          
  2.6                   2.59e-06              2e-13                 6.46e-12              -2.5866e-06          
  2.7                   2.5904e-06            1.6e-13               1.68e-12              -2.5872e-06          
  2.8                   2.591e-06             2.4e-13               -1.296e-11            -2.5876e-06          
  2.9                   2.5916e-06            2.6e-13               -3.892e-11            -2.5882e-06          
  3                     2.592e-06             2.4e-13               -9.158e-11            -2.5886e-06          
  3.1                   2.5926e-06            2.4e-13               -1.8634e-10           -2.5892e-06          
  3.2                   2.5932e-06            2.8e-13               -3.439e-10            -2.5898e-06          
  3.3                   2.594e-06             2.6e-13               -5.9406e-10           -2.5898e-06          
  3.4                   2.5946e-06            2e-13                 -9.722e-10            -2.5904e-06          
  3.5                   2.5956e-06            4e-13                 -1.5236e-09           -2.5904e-06          
  3.6                   2.5966e-06            1.8e-13               -2.2988e-09           -2.591e-06           
END_DB

BEGIN_DB
 ICCAP_VAR vg         2.841          
 ICCAP_VAR vb         0              
 ICCAP_VAR vs         0              

 #vd                    id                    ig                    ib                    is                   
  0                     2.0664e-10            9.8e-13               8.42e-12              -2.1278e-10          
  0.1                   5.7014e-07            6.2e-13               8.62e-12              -5.7016e-07          
  0.2                   1.10958e-06           6e-13                 7.52e-12              -1.10968e-06         
  0.3                   1.6184e-06            5.4e-13               7.94e-12              -1.6152e-06          
  0.4                   2.096e-06             5e-13                 7.04e-12              -2.0926e-06          
  0.5                   2.542e-06             5e-13                 8.92e-12              -2.5388e-06          
  0.6                   2.9564e-06            5.2e-13               7.54e-12              -2.953e-06           
  0.7                   3.3392e-06            5.4e-13               6.88e-12              -3.336e-06           
  0.8                   3.6896e-06            5e-13                 8.86e-12              -3.6862e-06          
  0.9                   4.007e-06             4e-13                 7.4e-12               -4.0038e-06          
  1                     4.292e-06             5.8e-13               6.84e-12              -4.2888e-06          
  1.1                   4.544e-06             6.2e-13               8.62e-12              -4.5406e-06          
  1.2                   4.762e-06             3.4e-13               6.28e-12              -4.7588e-06          
  1.3                   4.9476e-06            5.8e-13               7.04e-12              -4.944e-06           
  1.4                   5.0998e-06            5e-13                 8.4e-12               -5.0964e-06          
  1.5                   5.2196e-06            3.4e-13               6.4e-12               -5.2164e-06          
  1.6                   5.309e-06             4.8e-13               7.24e-12              -5.3056e-06          
  1.7                   5.3702e-06            5e-13                 7.64e-12              -5.367e-06           
  1.8                   5.4082e-06            3.2e-13               6.9e-12               -5.405e-06           
  1.9                   5.4292e-06            4.8e-13               7.16e-12              -5.4256e-06          
  2                     5.4398e-06            6.8e-13               7.28e-12              -5.4366e-06          
  2.1                   5.4458e-06            4.8e-13               6.4e-12               -5.4428e-06          
  2.2                   5.4498e-06            3e-13                 7.22e-12              -5.4464e-06          
  2.3                   5.453e-06             2.4e-13               6.46e-12              -5.449e-06           
  2.4                   5.4548e-06            3.4e-13               6.4e-12               -5.4518e-06          
  2.5                   5.4568e-06            2.4e-13               7.46e-12              -5.4536e-06          
  2.6                   5.4586e-06            5e-13                 6.92e-12              -5.4556e-06          
  2.7                   5.46e-06              4.2e-13               6.14e-12              -5.4568e-06          
  2.8                   5.461e-06             2.6e-13               7.22e-12              -5.4576e-06          
  2.9                   5.4624e-06            3.8e-13               5.98e-12              -5.4592e-06          
  3                     5.4636e-06            4.8e-13               5.9e-12               -5.4606e-06          
  3.1                   5.465e-06             3.6e-13               5.62e-12              -5.4616e-06          
  3.2                   5.466e-06             3e-13                 1.48e-12              -5.4628e-06          
  3.3                   5.467e-06             4.8e-13               -5.26e-12             -5.4638e-06          
  3.4                   5.468e-06             3.4e-13               -2.308e-11            -5.4646e-06          
  3.5                   5.4688e-06            4e-13                 -6.518e-11            -5.4656e-06          
  3.6                   5.4698e-06            5.4e-13               -1.446e-10            -5.4666e-06          
END_DB

BEGIN_DB
 ICCAP_VAR vg         3.6            
 ICCAP_VAR vb         0              
 ICCAP_VAR vs         0              

 #vd                    id                    ig                    ib                    is                   
  0                     2.4308e-10            1e-12                 6.32e-12              -2.3988e-10          
  0.1                   6.8844e-07            7.2e-13               5.9e-12               -6.8848e-07          
  0.2                   1.3528e-06            7.4e-13               5.84e-12              -1.3494e-06          
  0.3                   1.9892e-06            7.2e-13               5.4e-12               -1.986e-06           
  0.4                   2.6012e-06            6.2e-13               6.3e-12               -2.5982e-06          
  0.5                   3.188e-06             7.8e-13               5.46e-12              -3.1848e-06          
  0.6                   3.7478e-06            6.2e-13               5.64e-12              -3.7446e-06          
  0.7                   4.2822e-06            6.4e-13               6.28e-12              -4.2788e-06          
  0.8                   4.7896e-06            6.4e-13               5.64e-12              -4.7866e-06          
