! VERSION = 6.00
BEGIN_HEADER
 ICCAP_INPUTS
  vd         V  D GROUND SMU1 0.1 LIN        1    0          3.6        37   0.1       
  vg         V  G GROUND SMU2 0.001 LIN        2    1.324      3.6        5    0.569     
  vb         V  B GROUND SMU4 0.1 CON        -3.6
  vs         V  S GROUND SMU3 0.1 CON        0
 ICCAP_OUTPUTS
  id         I  D GROUND SMU1 B
  ig         I  G GROUND SMU2 B
  ib         I  B GROUND SMU4 B
  is         I  S GROUND SMU3 B
 ICCAP_VALUES
  MASTER_SETUP_TYPE "~dc_idvd~"
  LINVT_VALUE "|idvg|100.0n|100.0m|1.000m|5|3.600|"
  LISTVT_VALUE ""
  TYPE "1"
  TEMP " 27.0000 "
  IS_TNOM " 1.00000 "
  MAIN.W "300.0n"
  MAIN.L "500.0n"
  MAIN.AD "102.0f"
  MAIN.AS "102.0f"
  MAIN.PD "1.280u"
  MAIN.PS "1.280u"
  MAIN.NF "1.000"
  MAIN.M "1"
  MAIN.NRD "0.000"
  MAIN.NRS "0.000"
  MAIN.LDRIFT1 "1E-06"
  MAIN.LDRIFT2 "1E-06"
  MAIN.SA "0.000"
  MAIN.SB "0.000"
  MAIN.SD "0.000"
  MAIN.SCA "0.000"
  MAIN.SCB "0.000"
  MAIN.SCC "0.000"
  MAIN.SC "0.000"
  MODULE "S560"
  PIN_D "14"
  PIN_G "7"
  PIN_S "8"
  PIN_B "13"
  PIN_E ""
  PIN_6 ""
  XY_ID ""
  FUNC "Small"
  STI "SA ref"
  WPE "WPE ref"
  COMMENT ""
  DIS_MEAS ""
  TypeTCI "10"
END_HEADER

BEGIN_DB
 ICCAP_VAR vg         1.324          
 ICCAP_VAR vb         -3.6           
 ICCAP_VAR vs         0              

 #vd                    id                    ig                    ib                    is                   
  0                     2.013e-10             5.4e-13               -4.222e-11            -1.4348e-10          
  0.1                   1.1676e-07            6e-13                 -3.59e-11             -1.1806e-07          
  0.2                   1.5266e-07            4.6e-13               -3.474e-11            -1.5252e-07          
  0.3                   1.7556e-07            5e-13                 -3.328e-11            -1.7566e-07          
  0.4                   2.0116e-07            4.2e-13               -3.232e-11            -1.9818e-07          
  0.5                   2.1824e-07            2.6e-13               -2.976e-11            -2.1948e-07          
  0.6                   2.4224e-07            1.6e-13               -2.762e-11            -2.4134e-07          
  0.7                   2.631e-07             4e-13                 -2.736e-11            -2.6178e-07          
  0.8                   2.8212e-07            2e-13                 -2.698e-11            -2.8246e-07          
  0.9                   3.0256e-07            3.4e-13               -2.494e-11            -3.0238e-07          
  1                     3.199e-07             4.4e-13               -2.332e-11            -3.2108e-07          
  1.1                   3.426e-07             4.4e-13               -2.37e-11             -3.3992e-07          
  1.2                   3.6016e-07            4e-13                 -2.304e-11            -3.6292e-07          
  1.3                   3.8458e-07            1.8e-13               -2.124e-11            -3.8364e-07          
  1.4                   4.0538e-07            1.2e-13               -2.138e-11            -4.002e-07           
  1.5                   4.22e-07              3.2e-13               -2.054e-11            -4.2132e-07          
  1.6                   4.439e-07             4.2e-13               -2.174e-11            -4.4234e-07          
  1.7                   4.6414e-07            2.8e-13               -2.244e-11            -4.6838e-07          
  1.8                   4.8912e-07            3.2e-13               -2.648e-11            -4.8628e-07          
  1.9                   5.0878e-07            1.8e-13               -3.728e-11            -5.1054e-07          
  2                     5.303e-07             8e-14                 -5.608e-11            -5.2844e-07          
  2.1                   5.541e-07             2e-14                 -8.784e-11            -5.5038e-07          
  2.2                   5.7732e-07            0                     -1.4574e-10           -5.7576e-07          
  2.3                   5.9496e-07            8e-14                 -2.4154e-10           -5.9886e-07          
  2.4                   6.2148e-07            3e-13                 -3.862e-10            -6.175e-07           
  2.5                   6.443e-07             2e-14                 -6.0438e-10           -6.4228e-07          
  2.6                   6.6958e-07            2.8e-13               -9.2756e-10           -6.6624e-07          
  2.7                   6.9438e-07            1.2e-13               -1.3876e-09           -6.945e-07           
  2.8                   7.1726e-07            6e-14                 -2.027e-09            -7.1882e-07          
  2.9                   7.4338e-07            2.2e-13               -2.9388e-09           -7.431e-07           
  3                     7.6996e-07            0                     -4.1552e-09           -7.653e-07           
  3.1                   7.955e-07             -2e-14                -5.798e-09            -7.898e-07           
  3.2                   8.2402e-07            6e-14                 -8.0212e-09           -8.1396e-07          
  3.3                   8.5066e-07            3.2e-13               -1.09094e-08          -8.4162e-07          
  3.4                   8.829e-07             1.6e-13               -1.4716e-08           -8.667e-07           
  3.5                   9.119e-07             -1.2e-13              -1.9546e-08           -8.9158e-07          
  3.6                   9.419e-07             -1e-13                -2.5662e-08           -9.1906e-07          
END_DB

BEGIN_DB
 ICCAP_VAR vg         1.893          
 ICCAP_VAR vb         -3.6           
 ICCAP_VAR vs         0              

 #vd                    id                    ig                    ib                    is                   
  0                     2.1616e-09            6e-13                 -8.78e-12             -2.0386e-09          
  0.1                   4.293e-06             2.4e-13               -8.5e-12              -4.2876e-06          
  0.2                   7.5848e-06            6e-13                 -1.07e-11             -7.5788e-06          
  0.3                   9.9214e-06            3e-13                 -1.054e-11            -9.922e-06           
  0.4                   1.151e-05             1e-13                 -9.86e-12             -1.1507e-05          
  0.5                   1.251e-05             3.4e-13               -9.22e-12             -1.2488e-05          
  0.6                   1.3196e-05            2.8e-13               -8.88e-12             -1.3176e-05          
  0.7                   1.3684e-05            4e-13                 -9.58e-12             -1.3654e-05          
  0.8                   1.405e-05             1.4e-13               -9.32e-12             -1.405e-05           
  0.9                   1.4394e-05            -4e-14                -8.28e-12             -1.438e-05           
  1                     1.4686e-05            2.6e-13               -9.36e-12             -1.4658e-05          
  1.1                   1.4908e-05            4.2e-13               -8.52e-12             -1.488e-05           
  1.2                   1.5152e-05            1.2e-13               -8.22e-12             -1.5138e-05          
  1.3                   1.5356e-05            6e-14                 -9.26e-12             -1.5326e-05          
  1.4                   1.556e-05             2e-13                 -8.24e-12             -1.554e-05           
  1.5                   1.5742e-05            2.2e-13               -8.64e-12             -1.5768e-05          
  1.6                   1.5982e-05            8e-14                 -9.54e-12             -1.5954e-05          
  1.7                   1.6124e-05            1e-13                 -1.15e-11             -1.611e-05           
  1.8                   1.6338e-05            2.8e-13               -1.978e-11            -1.6326e-05          
  1.9                   1.6522e-05            2.6e-13               -4.26e-11             -1.6502e-05          
  2                     1.6664e-05            4e-13                 -9.084e-11            -1.6678e-05          
  2.1                   1.6866e-05            2.2e-13               -2.0424e-10           -1.6838e-05          
  2.2                   1.7018e-05            3e-13                 -4.2924e-10           -1.7004e-05          
  2.3                   1.7186e-05            2e-13                 -8.5204e-10           -1.7156e-05          
  2.4                   1.7348e-05            1.8e-13               -1.5874e-09           -1.7338e-05          
  2.5                   1.751e-05             3.6e-13               -2.8102e-09           -1.7478e-05          
  2.6                   1.766e-05             3.2e-13               -4.7584e-09           -1.7622e-05          
  2.7                   1.7834e-05            1.4e-13               -7.7354e-09           -1.7794e-05          
  2.8                   1.7962e-05            2e-13                 -1.2112e-08           -1.7912e-05          
  2.9                   1.8128e-05            1.6e-13               -1.842e-08            -1.8066e-05          
  3                     1.8252e-05            3.6e-13               -2.7294e-08           -1.8208e-05          
  3.1                   1.8432e-05            6e-14                 -3.949e-08            -1.8338e-05          
  3.2                   1.854e-05             -1e-13                -5.6218e-08           -1.8454e-05          
  3.3                   1.8694e-05            1.6e-13               -7.8738e-08           -1.8574e-05          
  3.4                   1.8856e-05            3.6e-13               -1.08312e-07          -1.8734e-05          
  3.5                   1.9048e-05            4.4e-13               -1.4738e-07           -1.8856e-05          
  3.6                   1.9222e-05            1.6e-13               -1.9756e-07           -1.8992e-05          
END_DB

BEGIN_DB
 ICCAP_VAR vg         2.462          
 ICCAP_VAR vb         -3.6           
 ICCAP_VAR vs         0              

 #vd                    id                    ig                    ib                    is                   
  0                     3.0924e-09            6e-13                 -4.9e-12              -3.555e-09           
  0.1                   8.7648e-06            2.2e-13               -4.66e-12             -8.7606e-06          
  0.2                   1.6568e-05            2.8e-13               -5.76e-12             -1.6548e-05          
  0.3                   2.325e-05             2.6e-13               -5.66e-12             -2.3234e-05          
  0.4                   2.8798e-05            1.6e-13               -6.88e-12             -2.8768e-05          
  0.5                   3.3212e-05            2e-13                 -5.54e-12             -3.3168e-05          
  0.6                   3.6548e-05            2.6e-13               -6.14e-12             -3.6528e-05          
  0.7                   3.9072e-05            3.8e-13               -6.76e-12             -3.9046e-05          
  0.8                   4.092e-05             1.4e-13               -4.98e-12             -4.0894e-05          
  0.9                   4.2308e-05            1.4e-13               -5.86e-12             -4.2262e-05          
  1                     4.3332e-05            1.6e-13               -4.92e-12             -4.3296e-05          
  1.1                   4.4108e-05            3e-13                 -4.78e-12             -4.4084e-05          
  1.2                   4.4764e-05            3.8e-13               -4.96e-12             -4.4738e-05          
  1.3                   4.531e-05             4.4e-13               -6.16e-12             -4.5306e-05          
  1.4                   4.5796e-05            1.8e-13               -4.72e-12             -4.5788e-05          
  1.5                   4.6252e-05            1.6e-13               -5.56e-12             -4.6206e-05          
  1.6                   4.6622e-05            1.4e-13               -6.72e-12             -4.6592e-05          
  1.7                   4.6966e-05            2.8e-13               -6.14e-12             -4.6952e-05          
  1.8                   4.7316e-05            2.4e-13               -9.3e-12              -4.7296e-05          
  1.9                   4.7662e-05            3e-13                 -1.836e-11            -4.7644e-05          
  2                     4.7952e-05            1.2e-13               -3.966e-11            -4.7988e-05          
  2.1                   4.8254e-05            1.8e-13               -9.402e-11            -4.8248e-05          
  2.2                   4.8548e-05            1.4e-13               -2.1444e-10           -4.8508e-05          
  2.3                   4.8804e-05            3e-13                 -4.6516e-10           -4.8786e-05          
  2.4                   4.913e-05             2.4e-13               -9.504e-10            -4.907e-05           
  2.5                   4.9434e-05            8e-14                 -1.8236e-09           -4.9348e-05          
  2.6                   4.9626e-05            2.2e-13               -3.3722e-09           -4.9624e-05          
  2.7                   4.9898e-05            2.6e-13               -5.9e-09              -4.989e-05           
  2.8                   5.014e-05             1e-13                 -9.8898e-09           -5.0134e-05          
  2.9                   5.0438e-05            8e-14                 -1.599e-08            -5.0362e-05          
  3                     5.0624e-05            2.4e-13               -2.4998e-08           -5.0532e-05          
  3.1                   5.0778e-05            2e-13                 -3.822e-08            -5.0804e-05          
  3.2                   5.1046e-05            2.2e-13               -5.6978e-08           -5.0892e-05          
  3.3                   5.1276e-05            1.4e-13               -8.3216e-08           -5.1112e-05          
  3.4                   5.1374e-05            1.2e-13               -1.1736e-07           -5.1184e-05          
  3.5                   5.1576e-05            4e-13                 -1.638e-07            -5.1276e-05          
  3.6                   5.1782e-05            3.2e-13               -2.2754e-07           -5.1506e-05          
END_DB

BEGIN_DB
 ICCAP_VAR vg         3.031          
 ICCAP_VAR vb         -3.6           
 ICCAP_VAR vs         0              

 #vd                    id                    ig                    ib                    is                   
  0                     2.9608e-09            4.4e-13               -3.76e-12             -4.508e-09           
  0.1                   1.22e-05              4.8e-13               -4.54e-12             -1.218e-05           
  0.2                   2.3572e-05            2.2e-13               -5.2e-12              -2.355e-05           
  0.3                   3.39e-05              4.2e-13               -5.02e-12             -3.388e-05           
  0.4                   4.308e-05             4.4e-13               -4.88e-12             -4.3056e-05          
  0.5                   5.1026e-05            1.8e-13               -4.42e-12             -5.1006e-05          
  0.6                   5.7736e-05            4e-14                 -3.7e-12              -5.7712e-05          
  0.7                   6.3284e-05            1.2e-13               -5.16e-12             -6.3258e-05          
  0.8                   6.775e-05             2.6e-13               -4.52e-12             -6.773e-05           
  0.9                   7.1288e-05            4.2e-13               -3.8e-12              -7.1262e-05          
  1                     7.4056e-05            3.4e-13               -4.9e-12              -7.404e-05           
  1.1                   7.6176e-05            1.4e-13               -4.52e-12             -7.618e-05           
  1.2                   7.7856e-05            2.2e-13               -3.98e-12             -7.7862e-05          
  1.3                   7.9188e-05            2.4e-13               -5.18e-12             -7.916e-05           
  1.4                   8.025e-05             3.2e-13               -5.08e-12             -8.0236e-05          
  1.5                   8.1132e-05            1.6e-13               -3.82e-12             -8.1106e-05          
  1.6                   8.1874e-05            1.6e-13               -4.38e-12             -8.1848e-05          
  1.7                   8.2516e-05            1.2e-13               -4.54e-12             -8.249e-05           
  1.8                   8.308e-05             2.2e-13               -4.36e-12             -8.3072e-05          
  1.9                   8.3626e-05            2.4e-13               -7.76e-12             -8.3604e-05          
  2                     8.4096e-05            4.8e-13               -1.532e-11            -8.4078e-05          
  2.1                   8.456e-05             4e-13                 -3.488e-11            -8.4524e-05          
  2.2                   8.497e-05             2e-13                 -8.524e-11            -8.4962e-05          
  2.3                   8.5366e-05            3.4e-13               -1.9614e-10           -8.5344e-05          
  2.4                   8.5736e-05            3.8e-13               -4.263e-10            -8.572e-05           
  2.5                   8.609e-05             6e-14                 -8.8104e-10           -8.6092e-05          
  2.6                   8.6468e-05            1e-13                 -1.7118e-09           -8.641e-05           
  2.7                   8.6906e-05            2.8e-13               -3.182e-09            -8.6852e-05          
  2.8                   8.7178e-05            8e-14                 -5.5958e-09           -8.7098e-05          
  2.9                   8.7464e-05            -8e-14                -9.5976e-09           -8.7478e-05          
  3                     8.7804e-05            3.2e-13               -1.573e-08            -8.7722e-05          
  3.1                   8.8028e-05            2.4e-13               -2.5198e-08           -8.801e-05           
  3.2                   8.8336e-05            1.4e-13               -3.8714e-08           -8.829e-05           
  3.3                   8.862e-05             3e-13                 -5.8386e-08           -8.8484e-05          
  3.4                   8.8824e-05            3.6e-13               -8.6108e-08           -8.8698e-05          
  3.5                   8.9056e-05            3.4e-13               -1.2298e-07           -8.8876e-05          
  3.6                   8.9226e-05            6.2e-13               -1.7498e-07           -8.8872e-05          
END_DB

BEGIN_DB
 ICCAP_VAR vg         3.6            
 ICCAP_VAR vb         -3.6           
 ICCAP_VAR vs         0              

 #vd                    id                    ig                    ib                    is                   
  0                     8.9e-09               6e-13                 -3.6e-12              -2.497e-09           
  0.1                   1.4686e-05            4.6e-13               -3.36e-12             -1.4666e-05          
  0.2                   2.8688e-05            3.8e-13               -3.1e-12              -2.8666e-05          
  0.3                   4.1756e-05            4.6e-13               -3.44e-12             -4.1734e-05          
  0.4                   5.3782e-05            2.6e-13               -3.76e-12             -5.376e-05           
  0.5                   6.4632e-05            3e-13                 -3.8e-12              -6.4612e-05          
  0.6                   7.4224e-05            2.2e-13               -4.1e-12              -7.4206e-05          
  0.7                   8.2606e-05            2.4e-13               -3.64e-12             -8.2606e-05          
  0.8                   8.9818e-05            1.4e-13               -2.52e-12             -8.9804e-05          
