! VERSION = 6.00
BEGIN_HEADER
 ICCAP_INPUTS
  vd         V  D GROUND SMU1 0.1 LIN        1    0          3.6        37   0.1       
  vg         V  G GROUND SMU2 0.001 LIN        2    0.704      3.6        5    0.724     
  vb         V  B GROUND SMU4 0.1 CON        0
  vs         V  S GROUND SMU3 0.1 CON        0
 ICCAP_OUTPUTS
  id         I  D GROUND SMU1 B
  ig         I  G GROUND SMU2 B
  ib         I  B GROUND SMU4 B
  is         I  S GROUND SMU3 B
 ICCAP_VALUES
  MASTER_SETUP_TYPE "~dc_idvd~"
  LINVT_VALUE "|idvg|100.0n|100.0m|1.000m|5|3.600|"
  LISTVT_VALUE ""
  TYPE "1"
  TEMP " 27.0000 "
  IS_TNOM " 1.00000 "
  MAIN.W "300.0n"
  MAIN.L "1.200u"
  MAIN.AD "102.0f"
  MAIN.AS "102.0f"
  MAIN.PD "1.280u"
  MAIN.PS "1.280u"
  MAIN.NF "1.000"
  MAIN.M "1"
  MAIN.NRD "0.000"
  MAIN.NRS "0.000"
  MAIN.LDRIFT1 "1E-06"
  MAIN.LDRIFT2 "1E-06"
  MAIN.SA "0.000"
  MAIN.SB "0.000"
  MAIN.SD "0.000"
  MAIN.SCA "0.000"
  MAIN.SCB "0.000"
  MAIN.SCC "0.000"
  MAIN.SC "0.000"
  MODULE "S560"
  PIN_D "12"
  PIN_G "9"
  PIN_S "10"
  PIN_B "11"
  PIN_E ""
  PIN_6 ""
  XY_ID ""
  FUNC "LW Scale"
  STI "SA ref"
  WPE "WPE ref"
  COMMENT ""
  DIS_MEAS ""
  TypeTCI "10"
END_HEADER

BEGIN_DB
 ICCAP_VAR vg         0.704          
 ICCAP_VAR vb         0              
 ICCAP_VAR vs         0              

 #vd                    id                    ig                    ib                    is                   
  0                     1.6264e-10            -2e-14                2.472e-11             -1.262e-10           
  0.1                   1.1234e-07            0                     2.396e-11             -1.1218e-07          
  0.2                   1.2478e-07            -1.4e-13              2.212e-11             -1.246e-07           
  0.3                   1.275e-07             -2.4e-13              2.038e-11             -1.2726e-07          
  0.4                   1.2934e-07            -1.8e-13              1.98e-11              -1.2926e-07          
  0.5                   1.3096e-07            -2.2e-13              2.004e-11             -1.3078e-07          
  0.6                   1.3232e-07            -1.8e-13              1.878e-11             -1.3218e-07          
  0.7                   1.3358e-07            -1e-13                1.722e-11             -1.3342e-07          
  0.8                   1.3472e-07            -2.6e-13              1.722e-11             -1.3452e-07          
  0.9                   1.3576e-07            -2e-13                1.788e-11             -1.3558e-07          
  1                     1.3674e-07            -1.4e-13              1.668e-11             -1.3658e-07          
  1.1                   1.3764e-07            -1e-13                1.584e-11             -1.3748e-07          
  1.2                   1.3852e-07            -1.2e-13              1.534e-11             -1.3834e-07          
  1.3                   1.3942e-07            0                     1.852e-11             -1.3924e-07          
  1.4                   1.4016e-07            -1.8e-13              1.456e-11             -1.3998e-07          
  1.5                   1.4092e-07            -8e-14                1.332e-11             -1.4078e-07          
  1.6                   1.417e-07             -6e-14                1.314e-11             -1.4148e-07          
  1.7                   1.4236e-07            -6e-14                1.12e-11              -1.422e-07           
  1.8                   1.43e-07              1.4e-13               6e-12                 -1.4284e-07          
  1.9                   1.4368e-07            -4e-14                -2.02e-12             -1.4356e-07          
  2                     1.4436e-07            -1.8e-13              -1.384e-11            -1.4416e-07          
  2.1                   1.45e-07              -1e-13                -3.15e-11             -1.4482e-07          
  2.2                   1.4566e-07            -1.8e-13              -6.096e-11            -1.4542e-07          
  2.3                   1.4624e-07            -1.4e-13              -1.0288e-10           -1.4598e-07          
  2.4                   1.4686e-07            -1.4e-13              -1.5934e-10           -1.4652e-07          
  2.5                   1.4746e-07            -2e-13                -2.3636e-10           -1.4702e-07          
  2.6                   1.4806e-07            -8e-14                -3.4176e-10           -1.4756e-07          
  2.7                   1.4866e-07            -1.4e-13              -4.8004e-10           -1.4802e-07          
  2.8                   1.4932e-07            -2e-14                -6.6118e-10           -1.4854e-07          
  2.9                   1.5008e-07            -1.8e-13              -8.9576e-10           -1.4902e-07          
  3                     1.5088e-07            -4e-14                -1.1984e-09           -1.4944e-07          
  3.1                   1.517e-07             -4e-14                -1.5806e-09           -1.4992e-07          
  3.2                   1.5262e-07            2e-14                 -2.0614e-09           -1.5038e-07          
  3.3                   1.5364e-07            -6e-14                -2.6544e-09           -1.5074e-07          
  3.4                   1.5484e-07            -6e-14                -3.3778e-09           -1.513e-07           
  3.5                   1.5614e-07            2e-14                 -4.2484e-09           -1.5174e-07          
  3.6                   1.5758e-07            -6e-14                -5.2744e-09           -1.5208e-07          
END_DB

BEGIN_DB
 ICCAP_VAR vg         1.428          
 ICCAP_VAR vb         0              
 ICCAP_VAR vs         0              

 #vd                    id                    ig                    ib                    is                   
  0                     1.539e-09             2.6e-13               8.26e-12              -1.4008e-09          
  0.1                   2.552e-06             2.6e-13               8.46e-12              -2.548e-06           
  0.2                   4.592e-06             2.8e-13               7.32e-12              -4.5876e-06          
  0.3                   6.1322e-06            1.4e-13               6.76e-12              -6.1288e-06          
  0.4                   7.211e-06             2.2e-13               7.34e-12              -7.2072e-06          
  0.5                   7.8796e-06            2.2e-13               4.64e-12              -7.8754e-06          
  0.6                   8.2336e-06            2.2e-13               6.26e-12              -8.2304e-06          
  0.7                   8.4028e-06            2e-13                 7.2e-12               -8.3994e-06          
  0.8                   8.4902e-06            1.6e-13               6.72e-12              -8.4878e-06          
  0.9                   8.5468e-06            1.6e-13               6.16e-12              -8.544e-06           
  1                     8.5902e-06            1.4e-13               7.18e-12              -8.586e-06           
  1.1                   8.6248e-06            3.2e-13               6.36e-12              -8.622e-06           
  1.2                   8.6572e-06            8e-14                 5.96e-12              -8.6526e-06          
  1.3                   8.6846e-06            0                     6.58e-12              -8.6804e-06          
  1.4                   8.7098e-06            2.2e-13               5.96e-12              -8.7058e-06          
  1.5                   8.7338e-06            1.2e-13               5.26e-12              -8.7306e-06          
  1.6                   8.7572e-06            6e-14                 6.3e-12               -8.7544e-06          
  1.7                   8.7788e-06            2.2e-13               5.42e-12              -8.7748e-06          
  1.8                   8.7998e-06            1e-13                 3.66e-12              -8.795e-06           
  1.9                   8.8188e-06            4e-14                 -7.6e-13              -8.8138e-06          
  2                     8.8366e-06            1.4e-13               -1.566e-11            -8.833e-06           
  2.1                   8.8558e-06            6e-14                 -5.562e-11            -8.8514e-06          
  2.2                   8.8748e-06            2e-14                 -1.4348e-10           -8.87e-06            
  2.3                   8.8916e-06            1.4e-13               -3.2248e-10           -8.8876e-06          
  2.4                   8.9102e-06            6e-14                 -6.5074e-10           -8.9064e-06          
  2.5                   8.928e-06             4e-14                 -1.2106e-09           -8.9228e-06          
  2.6                   8.946e-06             4e-14                 -2.1082e-09           -8.9396e-06          
  2.7                   8.9626e-06            8e-14                 -3.4736e-09           -8.9558e-06          
  2.8                   8.981e-06             6e-14                 -5.4816e-09           -8.9704e-06          
  2.9                   8.9988e-06            2.2e-13               -8.3238e-09           -8.9868e-06          
  3                     9.0172e-06            6e-14                 -1.2266e-08           -9.001e-06           
  3.1                   9.0388e-06            1e-13                 -1.7628e-08           -9.016e-06           
  3.2                   9.0602e-06            1e-13                 -2.4794e-08           -9.032e-06           
  3.3                   9.0854e-06            1.4e-13               -3.424e-08            -9.0466e-06          
  3.4                   9.1114e-06            8e-14                 -4.6594e-08           -9.0618e-06          
  3.5                   9.1428e-06            8e-14                 -6.2538e-08           -9.0754e-06          
  3.6                   9.177e-06             0                     -8.2832e-08           -9.0914e-06          
END_DB

BEGIN_DB
 ICCAP_VAR vg         2.152          
 ICCAP_VAR vb         0              
 ICCAP_VAR vs         0              

 #vd                    id                    ig                    ib                    is                   
  0                     2.4904e-09            4.2e-13               4.92e-12              -2.2212e-09          
  0.1                   4.9672e-06            4e-13                 4.58e-12              -4.9636e-06          
  0.2                   9.4784e-06            2.6e-13               5.32e-12              -9.476e-06           
  0.3                   1.3524e-05            2.8e-13               4.18e-12              -1.3504e-05          
  0.4                   1.7086e-05            2.4e-13               4.34e-12              -1.7064e-05          
  0.5                   2.0162e-05            2.8e-13               4e-12                 -2.014e-05           
  0.6                   2.2746e-05            2.4e-13               4.18e-12              -2.273e-05           
  0.7                   2.4862e-05            1e-13                 4.56e-12              -2.4844e-05          
  0.8                   2.6524e-05            2.6e-13               3.5e-12               -2.6504e-05          
  0.9                   2.7764e-05            3e-13                 3.96e-12              -2.7742e-05          
  1                     2.8632e-05            1.2e-13               4.42e-12              -2.8612e-05          
  1.1                   2.921e-05             2.4e-13               4.04e-12              -2.9192e-05          
  1.2                   2.9576e-05            3e-13                 4.42e-12              -2.9558e-05          
  1.3                   2.9816e-05            4e-14                 3.92e-12              -2.9794e-05          
  1.4                   2.9976e-05            1.6e-13               3.3e-12               -2.9958e-05          
  1.5                   3.0098e-05            2.2e-13               4.04e-12              -3.0082e-05          
  1.6                   3.0202e-05            2.4e-13               3e-12                 -3.0184e-05          
  1.7                   3.0288e-05            8e-14                 3.5e-12               -3.0268e-05          
  1.8                   3.0364e-05            3.4e-13               4.84e-12              -3.0342e-05          
  1.9                   3.0432e-05            3e-13                 3.54e-12              -3.041e-05           
  2                     3.0492e-05            2.2e-13               3.06e-12              -3.0474e-05          
  2.1                   3.0548e-05            1.6e-13               3.96e-12              -3.053e-05           
  2.2                   3.0606e-05            2.6e-13               -8.8e-13              -3.0584e-05          
  2.3                   3.0654e-05            3e-13                 -1.222e-11            -3.0634e-05          
  2.4                   3.0702e-05            2.4e-13               -4.108e-11            -3.0686e-05          
  2.5                   3.0752e-05            1.6e-13               -1.224e-10            -3.0732e-05          
  2.6                   3.0798e-05            2.8e-13               -3.0422e-10           -3.0778e-05          
  2.7                   3.0844e-05            2e-13                 -6.7946e-10           -3.0822e-05          
  2.8                   3.0886e-05            2.4e-13               -1.3934e-09           -3.0864e-05          
  2.9                   3.0928e-05            2.6e-13               -2.6514e-09           -3.0906e-05          
  3                     3.0974e-05            2.4e-13               -4.7392e-09           -3.0948e-05          
  3.1                   3.1016e-05            8e-14                 -8.0148e-09           -3.0986e-05          
  3.2                   3.1058e-05            1.8e-13               -1.2952e-08           -3.1026e-05          
  3.3                   3.1102e-05            2.4e-13               -2.0102e-08           -3.1064e-05          
  3.4                   3.1152e-05            6e-14                 -3.0226e-08           -3.1102e-05          
  3.5                   3.1204e-05            1.2e-13               -4.4176e-08           -3.114e-05           
  3.6                   3.126e-05             1.4e-13               -6.3042e-08           -3.1172e-05          
END_DB

BEGIN_DB
 ICCAP_VAR vg         2.876          
 ICCAP_VAR vb         0              
 ICCAP_VAR vs         0              

 #vd                    id                    ig                    ib                    is                   
  0                     2.9338e-09            5.4e-13               4.48e-12              -3.031e-09           
  0.1                   6.7666e-06            3.6e-13               3.9e-12               -6.7608e-06          
  0.2                   1.3176e-05            4.6e-13               3.98e-12              -1.3158e-05          
  0.3                   1.9178e-05            3e-13                 3e-12                 -1.9156e-05          
  0.4                   2.4774e-05            4e-13                 3.08e-12              -2.4754e-05          
  0.5                   2.9928e-05            2.2e-13               3.52e-12              -2.9914e-05          
  0.6                   3.4642e-05            2.8e-13               2.34e-12              -3.4622e-05          
  0.7                   3.8896e-05            3.2e-13               3.52e-12              -3.8874e-05          
  0.8                   4.2678e-05            2.6e-13               3.18e-12              -4.2658e-05          
  0.9                   4.5964e-05            2.2e-13               2.54e-12              -4.5968e-05          
  1                     4.8844e-05            2.8e-13               3.82e-12              -4.8822e-05          
  1.1                   5.1244e-05            2.6e-13               2.24e-12              -5.1222e-05          
  1.2                   5.321e-05             3.2e-13               1.82e-12              -5.3192e-05          
  1.3                   5.478e-05             2.2e-13               3.32e-12              -5.476e-05           
  1.4                   5.5986e-05            3e-13                 2.56e-12              -5.5968e-05          
  1.5                   5.6886e-05            1.8e-13               2.9e-12               -5.6864e-05          
  1.6                   5.7536e-05            3e-13                 3.4e-12               -5.751e-05           
  1.7                   5.7994e-05            3.4e-13               2.44e-12              -5.7972e-05          
  1.8                   5.8326e-05            2.2e-13               2.28e-12              -5.8308e-05          
  1.9                   5.8578e-05            2.8e-13               3.4e-12               -5.8558e-05          
  2                     5.8774e-05            2.8e-13               2.72e-12              -5.8752e-05          
  2.1                   5.8932e-05            1.4e-13               2e-12                 -5.8908e-05          
  2.2                   5.9068e-05            2.6e-13               3.18e-12              -5.9046e-05          
  2.3                   5.9188e-05            2.4e-13               2.6e-12               -5.917e-05           
  2.4                   5.9292e-05            1.4e-13               2.96e-12              -5.9276e-05          
  2.5                   5.9392e-05            6e-14                 -5.8e-13              -5.937e-05           
  2.6                   5.948e-05             1.8e-13               -8.58e-12             -5.946e-05           
  2.7                   5.9562e-05            1.8e-13               -2.99e-11             -5.9542e-05          
  2.8                   5.964e-05             1e-13                 -8.432e-11            -5.9618e-05          
  2.9                   5.9716e-05            1e-13                 -2.1678e-10           -5.9694e-05          
  3                     5.9784e-05            2.4e-13               -5.0484e-10           -5.9766e-05          
  3.1                   5.9852e-05            1.6e-13               -1.083e-09            -5.9832e-05          
  3.2                   5.9918e-05            3e-13                 -2.169e-09            -5.99e-05            
  3.3                   5.999e-05             3.6e-13               -4.0732e-09           -5.9962e-05          
  3.4                   6.005e-05             1e-13                 -7.2432e-09           -6.0024e-05          
  3.5                   6.011e-05             1.8e-13               -1.2252e-08           -6.0078e-05          
  3.6                   6.018e-05             2.2e-13               -1.9852e-08           -6.0134e-05          
END_DB

BEGIN_DB
 ICCAP_VAR vg         3.6            
 ICCAP_VAR vb         0              
 ICCAP_VAR vs         0              

 #vd                    id                    ig                    ib                    is                   
  0                     3.0796e-09            5e-13                 4e-12                 -3.357e-09           
  0.1                   7.9738e-06            4.6e-13               3.7e-12               -7.9688e-06          
  0.2                   1.5672e-05            2.6e-13               1.88e-12              -1.5648e-05          
  0.3                   2.3034e-05            4.4e-13               2.92e-12              -2.3014e-05          
  0.4                   3.0066e-05            3.4e-13               2.02e-12              -3.0056e-05          
  0.5                   3.6752e-05            2.4e-13               1.94e-12              -3.672e-05           
  0.6                   4.3026e-05            3e-13                 3.38e-12              -4.3002e-05          
  0.7                   4.8916e-05            3.8e-13               1.4e-12               -4.8912e-05          
  0.8                   5.4408e-05            3.2e-13               1.96e-12              -5.4376e-05          
