! VERSION = 6.00
BEGIN_HEADER
 ICCAP_INPUTS
  vd         V  D GROUND SMU1 0.1 LIN        1    0          3.6        37   0.1       
  vg         V  G GROUND SMU2 0.001 LIST       2 3 0.26 0.46 0.66
  vb         V  B GROUND SMU4 0.1 CON        0
  vs         V  S GROUND SMU3 0.1 CON        0
 ICCAP_OUTPUTS
  id         I  D GROUND SMU1 B
  ig         I  G GROUND SMU2 B
  ib         I  B GROUND SMU4 B
  is         I  S GROUND SMU3 B
 ICCAP_VALUES
  MASTER_SETUP_TYPE "~dc_idvd~"
  LINVT_VALUE ""
  LISTVT_VALUE "|idvg|100.0n|-200.0m|1.000m|3|200.0m|200.0m|"
  TYPE "1"
  TEMP " 27.0000 "
  IS_TNOM " 1.00000 "
  MAIN.W "600.0n"
  MAIN.L "350.0n"
  MAIN.AD "204.0f"
  MAIN.AS "204.0f"
  MAIN.PD "1.880u"
  MAIN.PS "1.880u"
  MAIN.NF "1.000"
  MAIN.M "1"
  MAIN.NRD "0.000"
  MAIN.NRS "0.000"
  MAIN.LDRIFT1 "1E-06"
  MAIN.LDRIFT2 "1E-06"
  MAIN.SA "0.000"
  MAIN.SB "0.000"
  MAIN.SD "0.000"
  MAIN.SCA "0.000"
  MAIN.SCB "0.000"
  MAIN.SCC "0.000"
  MAIN.SC "0.000"
  MODULE "S559"
  PIN_D "18"
  PIN_G "3"
  PIN_S "4"
  PIN_B "17"
  PIN_E ""
  PIN_6 ""
  XY_ID ""
  FUNC "Additional"
  STI "SA ref"
  WPE "WPE ref"
  COMMENT ""
  DIS_MEAS ""
  TypeTCI "10"
END_HEADER

BEGIN_DB
 ICCAP_VAR vg         0.26           
 ICCAP_VAR vb         0              
 ICCAP_VAR vs         0              

 #vd                    id                    ig                    ib                    is                   
  0                     -2e-14                -5e-13                2.2e-12               -4e-14               
  0.1                   1.798e-10             -3.2e-13              1.12e-12              -1.7958e-10          
  0.2                   2.2986e-10            -4.2e-13              2.76e-12              -2.2968e-10          
  0.3                   2.8034e-10            -2.8e-13              1.54e-12              -2.7988e-10          
  0.4                   3.3682e-10            -3e-13                2.88e-12              -3.3406e-10          
  0.5                   3.9692e-10            -3.2e-13              1.36e-12              -3.9634e-10          
  0.6                   4.6712e-10            -3.2e-13              2.36e-12              -4.6624e-10          
  0.7                   5.4564e-10            -2.4e-13              1.9e-12               -5.449e-10           
  0.8                   6.3322e-10            -1.6e-13              1.82e-12              -6.3234e-10          
  0.9                   7.3268e-10            -8e-14                2.3e-12               -7.3206e-10          
  1                     8.4406e-10            -3.2e-13              1.48e-12              -8.4326e-10          
  1.1                   9.688e-10             -2.4e-13              2.06e-12              -9.6818e-10          
  1.2                   1.1096e-09            -2e-13                1.44e-12              -1.10714e-09         
  1.3                   1.265e-09             -2.2e-13              2.54e-12              -1.2628e-09          
  1.4                   1.4412e-09            -2e-13                1.62e-12              -1.4382e-09          
  1.5                   1.6376e-09            -3.2e-13              1.34e-12              -1.634e-09           
  1.6                   1.8574e-09            -2.4e-13              1.14e-12              -1.8534e-09          
  1.7                   2.1064e-09            -3e-13                1.14e-12              -2.102e-09           
  1.8                   2.3826e-09            -2e-13                1.94e-12              -2.3794e-09          
  1.9                   2.6938e-09            -1.6e-13              -6e-14                -2.6886e-09          
  2                     3.041e-09             -2.6e-13              -1.52e-12             -3.0384e-09          
  2.1                   3.4346e-09            -2e-13                -2.74e-12             -3.4296e-09          
  2.2                   3.8794e-09            -1.8e-13              -4.28e-12             -3.8704e-09          
  2.3                   4.377e-09             -1.6e-13              -6.44e-12             -4.3668e-09          
  2.4                   4.937e-09             -6e-14                -1.54e-11             -4.919e-09           
  2.5                   5.571e-09             -2.4e-13              -2.414e-11            -5.5432e-09          
  2.6                   6.2844e-09            -3e-13                -3.686e-11            -5.92e-09            
  2.7                   7.0862e-09            0                     -5.562e-11            -7.0246e-09          
  2.8                   7.999e-09             -2e-13                -8.262e-11            -7.9068e-09          
  2.9                   9.0168e-09            -2e-13                -1.2144e-10           -8.8958e-09          
  3                     1.01896e-08           -1.2e-13              -1.7586e-10           -1.00042e-08         
  3.1                   1.151e-08             -1.6e-13              -2.461e-10            -1.12538e-08         
  3.2                   1.2994e-08            -1.6e-13              -3.5142e-10           -1.2606e-08          
  3.3                   1.4688e-08            -1.2e-13              -4.8686e-10           -1.416e-08           
  3.4                   1.659e-08             -1e-13                -6.6626e-10           -1.5904e-08          
  3.5                   1.8752e-08            -1.2e-13              -9.0502e-10           -1.7832e-08          
  3.6                   2.1222e-08            0                     -1.2096e-09           -2e-08               
END_DB

BEGIN_DB
 ICCAP_VAR vg         0.46           
 ICCAP_VAR vb         0              
 ICCAP_VAR vs         0              

 #vd                    id                    ig                    ib                    is                   
  0                     2.134e-11             4e-14                 3.22e-12              -2.602e-11           
  0.1                   2.1426e-08            0                     1.84e-12              -2.1338e-08          
  0.2                   2.7e-08               -6e-14                1.56e-12              -3.004e-08           
  0.3                   3.1812e-08            -2e-14                2.14e-12              -3.176e-08           
  0.4                   3.6746e-08            -1.2e-13              2.42e-12              -6.308e-08           
  0.5                   4.2122e-08            -2e-14                1.94e-12              -4.214e-08           
  0.6                   4.7874e-08            1e-13                 1.44e-12              -4.7902e-08          
  0.7                   5.4298e-08            2e-14                 9e-13                 -6.1042e-08          
  0.8                   6.0742e-08            -6e-14                1.54e-12              -6.1316e-08          
  0.9                   6.918e-08             -1.6e-13              2.24e-12              -6.906e-08           
  1                     7.73e-08              -4e-14                2.14e-12              -7.6932e-08          
  1.1                   8.4826e-08            -2e-14                1.9e-12               -8.4652e-08          
  1.2                   9.4814e-08            -4e-14                8.2e-13               -9.3314e-08          
  1.3                   1.0376e-07            -6e-14                1.34e-12              -1.04684e-07         
  1.4                   1.1508e-07            8e-14                 4e-13                 -1.16518e-07         
  1.5                   1.2432e-07            8e-14                 -1.26e-12             -1.2576e-07          
  1.6                   1.4012e-07            0                     -4.12e-12             -1.4064e-07          
  1.7                   1.4944e-07            -1.4e-13              -1.176e-11            -1.5098e-07          
  1.8                   1.6516e-07            -6e-14                -2.612e-11            -1.8472e-07          
  1.9                   2.6822e-07            -4e-14                -6.068e-11            -1.8492e-07          
  2                     2.2562e-07            -6e-14                -1.1012e-10           -1.9484e-07          
  2.1                   3.5508e-07            -2e-14                -1.7726e-10           -2.4086e-07          
  2.2                   3.763e-07             -1.6e-13              -2.6548e-10           -3.5794e-07          
  2.3                   2.8652e-07            -4e-14                -6.046e-10            -3.7262e-07          
  2.4                   3.2126e-07            -2e-14                -9.086e-10            -4.1624e-07          
  2.5                   4.4354e-07            1.2e-13               -1.3008e-09           -4.533e-07           
  2.6                   4.9502e-07            -2e-14                -1.9662e-09           -4.7698e-07          
  2.7                   5.169e-07             0                     -2.7792e-09           -5.0414e-07          
  2.8                   5.568e-07             0                     -4.0472e-09           -5.3222e-07          
  2.9                   5.831e-07             -8e-14                -5.7002e-09           -5.68e-07            
  3                     6.394e-07             -1.2e-13              -7.9036e-09           -6.312e-07           
  3.1                   6.7218e-07            -2e-14                -1.07394e-08          -6.7428e-07          
  3.2                   7.1676e-07            -6e-14                -1.4688e-08           -7.116e-07           
  3.3                   7.7376e-07            0                     -1.9382e-08           -7.5864e-07          
  3.4                   8.2558e-07            0                     -2.5956e-08           -8.0122e-07          
  3.5                   8.841e-07             1.2e-13               -3.3954e-08           -8.559e-07           
  3.6                   9.4836e-07            -4e-14                -4.3554e-08           -9.112e-07           
END_DB

BEGIN_DB
 ICCAP_VAR vg         0.66           
 ICCAP_VAR vb         0              
 ICCAP_VAR vs         0              

 #vd                    id                    ig                    ib                    is                   
  0                     5.7858e-10            6e-14                 1.88e-12              -6.1834e-10          
  0.1                   7.2956e-07            4e-14                 2.48e-12              -7.3188e-07          
  0.2                   9.9416e-07            4e-14                 9.6e-13               -9.9556e-07          
  0.3                   1.1646e-06            6e-14                 2.52e-12              -1.1578e-06          
  0.4                   1.297e-06             6e-14                 8.8e-13               -1.2928e-06          
  0.5                   1.4302e-06            -4e-14                9.4e-13               -1.4226e-06          
  0.6                   1.5534e-06            -4e-14                1.82e-12              -1.548e-06           
  0.7                   1.6696e-06            0                     1.56e-12              -1.6752e-06          
  0.8                   1.7982e-06            6e-14                 8.4e-13               -1.8016e-06          
  0.9                   1.9314e-06            4e-14                 1.84e-12              -1.9252e-06          
  1                     2.068e-06             4e-14                 1.36e-12              -2.0524e-06          
  1.1                   2.199e-06             4e-14                 8e-13                 -2.1902e-06          
  1.2                   2.3148e-06            -2e-14                8.6e-13               -2.314e-06           
  1.3                   2.4704e-06            -2e-14                -3.6e-13              -2.475e-06           
  1.4                   2.5922e-06            -6e-14                -4.92e-12             -2.5922e-06          
  1.5                   2.7308e-06            4e-14                 -1.544e-11            -2.7364e-06          
  1.6                   2.8948e-06            -1e-13                -4.662e-11            -2.8968e-06          
  1.7                   3.0312e-06            -2e-14                -1.1298e-10           -3.0338e-06          
  1.8                   3.1942e-06            0                     -2.4158e-10           -3.1792e-06          
  1.9                   3.3578e-06            -1e-13                -4.8108e-10           -3.4232e-06          
  2                     3.5768e-06            0                     -8.8462e-10           -3.5892e-06          
  2.1                   3.7666e-06            1.2e-13               -1.5384e-09           -3.763e-06           
  2.2                   3.9182e-06            6e-14                 -2.5874e-09           -4.03e-06            
  2.3                   4.2782e-06            8e-14                 -4.0868e-09           -4.1596e-06          
  2.4                   4.517e-06             -6e-14                -6.41e-09             -4.3836e-06          
  2.5                   4.691e-06             -6e-14                -9.6154e-09           -4.7248e-06          
  2.6                   4.898e-06             -2e-14                -1.4042e-08           -4.9404e-06          
  2.7                   5.1722e-06            -1.2e-13              -2.0162e-08           -5.165e-06           
  2.8                   5.3682e-06            -2e-14                -2.8682e-08           -5.35e-06            
  2.9                   5.6316e-06            2e-14                 -3.9828e-08           -5.5734e-06          
  3                     5.87e-06              -8e-14                -5.4806e-08           -5.7988e-06          
  3.1                   6.1474e-06            -1.2e-13              -7.4286e-08           -6.053e-06           
  3.2                   6.3954e-06            0                     -9.9866e-08           -6.3058e-06          
  3.3                   6.6932e-06            -2e-14                -1.3228e-07           -6.5548e-06          
  3.4                   6.9748e-06            -4e-14                -1.7258e-07           -6.798e-06           
  3.5                   7.2826e-06            -1e-13                -2.2344e-07           -7.0482e-06          
  3.6                   7.5968e-06            6e-14                 -2.8556e-07           -7.3272e-06          
END_DB

