! VERSION = 6.00
BEGIN_HEADER
 ICCAP_INPUTS
  vd         V  D GROUND SMU1 0.1 LIN        1    0          3.6        37   0.1       
  vg         V  G GROUND SMU2 0.001 LIN        2    0.468      3.6        5    0.783     
  vb         V  B GROUND SMU4 0.1 CON        0
  vs         V  S GROUND SMU3 0.1 CON        0
 ICCAP_OUTPUTS
  id         I  D GROUND SMU1 B
  ig         I  G GROUND SMU2 B
  ib         I  B GROUND SMU4 B
  is         I  S GROUND SMU3 B
 ICCAP_VALUES
  MASTER_SETUP_TYPE "~dc_idvd~"
  LINVT_VALUE "|idvg|100.0n|100.0m|1.000m|5|3.600|"
  LISTVT_VALUE ""
  TYPE "1"
  TEMP " 27.0000 "
  IS_TNOM " 1.00000 "
  MAIN.W "150.0n"
  MAIN.L "330.0n"
  MAIN.AD "100.5f"
  MAIN.AS "100.5f"
  MAIN.PD "1.340u"
  MAIN.PS "1.340u"
  MAIN.NF "1.000"
  MAIN.M "1"
  MAIN.NRD "0.000"
  MAIN.NRS "0.000"
  MAIN.LDRIFT1 "1E-06"
  MAIN.LDRIFT2 "1E-06"
  MAIN.SA "0.000"
  MAIN.SB "0.000"
  MAIN.SD "0.000"
  MAIN.SCA "0.000"
  MAIN.SCB "0.000"
  MAIN.SCC "0.000"
  MAIN.SC "0.000"
  MODULE "S547"
  PIN_D "12"
  PIN_G "9"
  PIN_S "10"
  PIN_B "11"
  PIN_E ""
  PIN_6 ""
  XY_ID ""
  FUNC "Additional"
  STI "SA ref"
  WPE "WPE ref"
  COMMENT ""
  DIS_MEAS ""
  TypeTCI "10"
END_HEADER

BEGIN_DB
 ICCAP_VAR vg         0.468          
 ICCAP_VAR vb         0              
 ICCAP_VAR vs         0              

 #vd                    id                    ig                    ib                    is                   
  0                     6.864e-11             -1.4e-13              2.478e-11             -4.674e-11           
  0.1                   3.7844e-08            -3.2e-13              2.296e-11             -3.786e-08           
  0.2                   5.5508e-08            -1.2e-13              2.108e-11             -5.5388e-08          
  0.3                   7.3114e-08            -1.2e-13              2.002e-11             -7.3184e-08          
  0.4                   9.1676e-08            -1.8e-13              1.992e-11             -9.1512e-08          
  0.5                   1.1068e-07            -3.6e-13              1.858e-11             -1.10664e-07         
  0.6                   1.3054e-07            -6e-14                1.866e-11             -1.3038e-07          
  0.7                   1.5152e-07            -2.6e-13              1.56e-11              -1.513e-07           
  0.8                   1.7358e-07            -1.8e-13              1.716e-11             -1.734e-07           
  0.9                   1.9682e-07            -2e-13                1.726e-11             -1.967e-07           
  1                     2.2186e-07            -1.2e-13              1.612e-11             -2.2168e-07          
  1.1                   2.4852e-07            4e-14                 1.506e-11             -2.483e-07           
  1.2                   2.769e-07             -1.2e-13              1.514e-11             -2.7676e-07          
  1.3                   3.0714e-07            -6e-14                1.514e-11             -3.0648e-07          
  1.4                   3.3904e-07            0                     1.32e-11              -3.3896e-07          
  1.5                   3.7266e-07            -1e-13                8.5e-12               -3.7274e-07          
  1.6                   4.088e-07             -2e-13                -8e-14                -4.089e-07           
  1.7                   4.4686e-07            -1e-13                -1.538e-11            -4.4656e-07          
  1.8                   4.8682e-07            -1.4e-13              -4.83e-11             -4.8622e-07          
  1.9                   5.2914e-07            0                     -1.0502e-10           -5.2898e-07          
  2                     5.7354e-07            4e-14                 -1.9866e-10           -5.7366e-07          
  2.1                   6.201e-07             -1.2e-13              -3.4862e-10           -6.2014e-07          
  2.2                   6.71e-07              -1.2e-13              -5.8198e-10           -6.7032e-07          
  2.3                   7.2326e-07            -1.4e-13              -9.3e-10              -7.2284e-07          
  2.4                   7.796e-07             -1e-13                -1.445e-09            -7.7782e-07          
  2.5                   8.3894e-07            -2e-14                -2.187e-09            -8.359e-07           
  2.6                   9.0048e-07            -6e-14                -3.239e-09            -8.9724e-07          
  2.7                   9.6616e-07            -2e-14                -4.7138e-09           -9.6158e-07          
  2.8                   1.03478e-06           1e-13                 -6.742e-09            -1.02796e-06         
  2.9                   1.10658e-06           0                     -9.5048e-09           -1.09766e-06         
  3                     1.1848e-06            -6e-14                -1.3222e-08           -1.1672e-06          
  3.1                   1.2646e-06            -8e-14                -1.8144e-08           -1.242e-06           
  3.2                   1.3492e-06            -1.6e-13              -2.455e-08            -1.3202e-06          
  3.3                   1.4382e-06            -1.4e-13              -3.276e-08            -1.4008e-06          
  3.4                   1.5328e-06            -1.6e-13              -4.318e-08            -1.4852e-06          
  3.5                   1.6324e-06            -1.2e-13              -5.6184e-08           -1.5722e-06          
  3.6                   1.739e-06             -8e-14                -7.218e-08            -1.6624e-06          
END_DB

BEGIN_DB
 ICCAP_VAR vg         1.251          
 ICCAP_VAR vb         0              
 ICCAP_VAR vs         0              

 #vd                    id                    ig                    ib                    is                   
  0                     3.1324e-09            2.2e-13               8.48e-12              -2.868e-09           
  0.1                   5.7318e-06            1.8e-13               7.14e-12              -5.7274e-06          
  0.2                   1.02312e-05           2.2e-13               7.52e-12              -1.0227e-05          
  0.3                   1.345e-05             1.6e-13               6.94e-12              -1.3428e-05          
  0.4                   1.5602e-05            1.6e-13               7.68e-12              -1.558e-05           
  0.5                   1.7056e-05            2e-13                 6.34e-12              -1.7034e-05          
  0.6                   1.8108e-05            1.4e-13               6.44e-12              -1.8088e-05          
  0.7                   1.8938e-05            2.8e-13               6.48e-12              -1.8916e-05          
  0.8                   1.9628e-05            1.6e-13               6.02e-12              -1.961e-05           
  0.9                   2.023e-05             2e-14                 6.48e-12              -2.021e-05           
  1                     2.0764e-05            1e-13                 6.5e-12               -2.0746e-05          
  1.1                   2.1258e-05            2.4e-13               5.76e-12              -2.1234e-05          
  1.2                   2.171e-05             2e-13                 6.58e-12              -2.1692e-05          
  1.3                   2.2144e-05            1.4e-13               5.4e-12               -2.2122e-05          
  1.4                   2.2552e-05            1e-13                 1.82e-12              -2.2532e-05          
  1.5                   2.295e-05             2.2e-13               -7.3e-12              -2.2934e-05          
  1.6                   2.3342e-05            1.6e-13               -3.916e-11            -2.3314e-05          
  1.7                   2.3714e-05            8e-14                 -1.221e-10            -2.3698e-05          
  1.8                   2.4096e-05            2.6e-13               -3.1342e-10           -2.4066e-05          
  1.9                   2.4464e-05            8e-14                 -7.0534e-10           -2.444e-05           
  2                     2.4836e-05            -4e-14                -1.4488e-09           -2.481e-05           
  2.1                   2.5204e-05            1.6e-13               -2.7532e-09           -2.5178e-05          
  2.2                   2.5562e-05            1.6e-13               -4.907e-09            -2.554e-05           
  2.3                   2.5928e-05            4e-14                 -8.281e-09            -2.5898e-05          
  2.4                   2.6288e-05            2e-13                 -1.3348e-08           -2.6254e-05          
  2.5                   2.665e-05             8e-14                 -2.0736e-08           -2.6608e-05          
  2.6                   2.7014e-05            1.6e-13               -3.121e-08            -2.6962e-05          
  2.7                   2.7378e-05            8e-14                 -4.5708e-08           -2.731e-05           
  2.8                   2.7748e-05            0                     -6.549e-08            -2.7662e-05          
  2.9                   2.8128e-05            1.8e-13               -9.2016e-08           -2.8016e-05          
  3                     2.8522e-05            4e-14                 -1.2716e-07           -2.8372e-05          
  3.1                   2.8928e-05            1.4e-13               -1.7332e-07           -2.8734e-05          
  3.2                   2.9358e-05            8e-14                 -2.331e-07            -2.9104e-05          
  3.3                   2.9808e-05            6e-14                 -3.0946e-07           -2.9478e-05          
  3.4                   3.0296e-05            8e-14                 -4.0612e-07           -2.9868e-05          
  3.5                   3.0818e-05            1.2e-13               -5.2674e-07           -3.027e-05           
  3.6                   3.1386e-05            0                     -6.7484e-07           -3.069e-05           
END_DB

BEGIN_DB
 ICCAP_VAR vg         2.034          
 ICCAP_VAR vb         0              
 ICCAP_VAR vs         0              

 #vd                    id                    ig                    ib                    is                   
  0                     3.2432e-09            4.6e-13               4.56e-12              -4.603e-09           
  0.1                   1.1384e-05            3.4e-13               4.48e-12              -1.1362e-05          
  0.2                   2.1486e-05            3.2e-13               4.98e-12              -2.1464e-05          
  0.3                   2.9914e-05            3.8e-13               2.06e-12              -2.9892e-05          
  0.4                   3.6604e-05            3e-13                 4.26e-12              -3.6584e-05          
  0.5                   4.1694e-05            1.8e-13               4.62e-12              -4.1676e-05          
  0.6                   4.5482e-05            2e-13                 3.56e-12              -4.546e-05           
  0.7                   4.8296e-05            1.8e-13               3.4e-12               -4.8276e-05          
  0.8                   5.0422e-05            1e-13                 4.1e-12               -5.0406e-05          
  0.9                   5.2078e-05            2e-13                 3.28e-12              -5.206e-05           
  1                     5.3434e-05            3.6e-13               3.1e-12               -5.3404e-05          
  1.1                   5.455e-05             1.8e-13               3.88e-12              -5.4538e-05          
  1.2                   5.5534e-05            2.4e-13               3.42e-12              -5.5512e-05          
  1.3                   5.6384e-05            1.6e-13               2.96e-12              -5.6362e-05          
  1.4                   5.7146e-05            2.2e-13               2.32e-12              -5.7138e-05          
  1.5                   5.7874e-05            2.4e-13               -4.64e-12             -5.7854e-05          
  1.6                   5.852e-05             2.6e-13               -2.144e-11            -5.8506e-05          
  1.7                   5.914e-05             1.8e-13               -6.81e-11             -5.9114e-05          
  1.8                   5.974e-05             1.8e-13               -1.8632e-10           -5.9724e-05          
  1.9                   6.0312e-05            2.2e-13               -4.487e-10            -6.0292e-05          
  2                     6.087e-05             2e-13                 -9.842e-10            -6.0848e-05          
  2.1                   6.1416e-05            1.4e-13               -2.0054e-09           -6.1388e-05          
  2.2                   6.1944e-05            2.8e-13               -3.8224e-09           -6.192e-05           
  2.3                   6.2468e-05            1e-13                 -6.8718e-09           -6.2442e-05          
  2.4                   6.2984e-05            2.2e-13               -1.1742e-08           -6.2948e-05          
  2.5                   6.3488e-05            1.6e-13               -1.923e-08            -6.3444e-05          
  2.6                   6.399e-05             2e-13                 -3.0338e-08           -6.394e-05           
  2.7                   6.449e-05             1.8e-13               -4.6316e-08           -6.4422e-05          
  2.8                   6.4996e-05            4e-14                 -6.8824e-08           -6.4908e-05          
  2.9                   6.551e-05             1.4e-13               -9.9778e-08           -6.5392e-05          
  3                     6.6036e-05            1.8e-13               -1.4174e-07           -6.5872e-05          
  3.1                   6.6578e-05            4e-14                 -1.98e-07             -6.636e-05           
  3.2                   6.7152e-05            1.2e-13               -2.721e-07            -6.6856e-05          
  3.3                   6.775e-05             1.6e-13               -3.6846e-07           -6.736e-05           
  3.4                   6.8394e-05            2e-13                 -4.9274e-07           -6.7882e-05          
  3.5                   6.9092e-05            2.6e-13               -6.5102e-07           -6.8422e-05          
  3.6                   6.9856e-05            1.6e-13               -8.4952e-07           -6.8982e-05          
END_DB

BEGIN_DB
 ICCAP_VAR vg         2.817          
 ICCAP_VAR vb         0              
 ICCAP_VAR vs         0              

 #vd                    id                    ig                    ib                    is                   
  0                     1.0454e-08            4.2e-13               3.08e-12              -9.914e-09           
  0.1                   1.5302e-05            5e-13                 4.72e-12              -1.5282e-05          
  0.2                   2.944e-05             3.2e-13               2.54e-12              -2.942e-05           
  0.3                   4.1892e-05            3.6e-13               2.76e-12              -4.1872e-05          
  0.4                   5.2474e-05            4e-13                 3.34e-12              -5.2458e-05          
  0.5                   6.1166e-05            3.8e-13               2.24e-12              -6.114e-05           
  0.6                   6.813e-05             4.4e-13               3.02e-12              -6.8108e-05          
  0.7                   7.3648e-05            2.8e-13               3.7e-12               -7.3628e-05          
  0.8                   7.7996e-05            3e-13                 2.14e-12              -7.798e-05           
  0.9                   8.1442e-05            3.8e-13               2.46e-12              -8.141e-05           
  1                     8.4198e-05            3.4e-13               3.62e-12              -8.4184e-05          
  1.1                   8.6462e-05            2.4e-13               2.12e-12              -8.6422e-05          
  1.2                   8.8314e-05            2.4e-13               2.42e-12              -8.8304e-05          
  1.3                   8.9914e-05            2.2e-13               2.9e-12               -8.9894e-05          
  1.4                   9.1298e-05            1.6e-13               5e-13                 -9.1284e-05          
  1.5                   9.2528e-05            3e-13                 -1.66e-12             -9.251e-05           
  1.6                   9.364e-05             2.4e-13               -1.136e-11            -9.3618e-05          
  1.7                   9.4634e-05            3.2e-13               -4.188e-11            -9.4618e-05          
  1.8                   9.5564e-05            3.4e-13               -1.1428e-10           -9.5544e-05          
  1.9                   9.6418e-05            1.6e-13               -2.8218e-10           -9.6408e-05          
  2                     9.7236e-05            2.6e-13               -6.3666e-10           -9.7208e-05          
  2.1                   9.7994e-05            2e-13                 -1.3266e-09           -9.7964e-05          
  2.2                   9.871e-05             3.4e-13               -2.5944e-09           -9.869e-05           
  2.3                   9.9406e-05            2.2e-13               -4.7868e-09           -9.9376e-05          
  2.4                   0.000100066           2.2e-13               -8.3972e-09           -0.000100044         
  2.5                   0.000100714           3.2e-13               -1.4122e-08           -0.00010042          
  2.6                   0.000101346           3e-13                 -2.2844e-08           -0.00010104          
  2.7                   0.000101964           1.8e-13               -3.5712e-08           -0.00010166          
  2.8                   0.000102578           2.8e-13               -5.4302e-08           -0.00010224          
  2.9                   0.000103194           2.2e-13               -8.0372e-08           -0.00010284          
  3                     0.000103814           2.6e-13               -1.16612e-07          -0.00010342          
  3.1                   0.000104442           2.6e-13               -1.6566e-07           -0.000104            
  3.2                   0.000105094           3.2e-13               -2.3178e-07           -0.00010458          
  3.3                   0.000105782           1.8e-13               -3.1884e-07           -0.0001052           
  3.4                   0.0001065             1.4e-13               -4.3282e-07           -0.0001058           
  3.5                   0.000107264           2.6e-13               -5.7958e-07           -0.00010642          
  3.6                   0.000108078           2.6e-13               -7.6642e-07           -0.00010704          
END_DB

BEGIN_DB
 ICCAP_VAR vg         3.6            
 ICCAP_VAR vb         0              
 ICCAP_VAR vs         0              

 #vd                    id                    ig                    ib                    is                   
  0                     1.2156e-08            5.8e-13               3.78e-12              -1.1276e-08          
  0.1                   1.7964e-05            4.4e-13               3.46e-12              -1.7942e-05          
  0.2                   3.4906e-05            4.2e-13               2.26e-12              -3.4884e-05          
  0.3                   5.029e-05             3.4e-13               2.4e-12               -5.0268e-05          
  0.4                   6.3868e-05            3.2e-13               1.72e-12              -6.3852e-05          
  0.5                   7.5528e-05            2.8e-13               1.32e-12              -7.5518e-05          
  0.6                   8.5336e-05            2.8e-13               2.52e-12              -8.5318e-05          
  0.7                   9.3508e-05            3.4e-13               1.94e-12              -9.3498e-05          
  0.8                   0.000100244           3e-13                 1.42e-12              -0.000100232         
