! VERSION = 6.00
BEGIN_HEADER
 ICCAP_INPUTS
  vd         V  D GROUND SMU1 0.1 LIN        1    0          3.6        37   0.1       
  vg         V  G GROUND SMU2 0.001 LIST       2 3 0.383 0.583 0.783
  vb         V  B GROUND SMU4 0.1 CON        0
  vs         V  S GROUND SMU3 0.1 CON        0
 ICCAP_OUTPUTS
  id         I  D GROUND SMU1 B
  ig         I  G GROUND SMU2 B
  ib         I  B GROUND SMU4 B
  is         I  S GROUND SMU3 B
 ICCAP_VALUES
  MASTER_SETUP_TYPE "~dc_idvd~"
  LINVT_VALUE ""
  LISTVT_VALUE "|idvg|100.0n|-200.0m|1.000m|3|200.0m|200.0m|"
  TYPE "1"
  TEMP " 27.0000 "
  IS_TNOM " 1.00000 "
  MAIN.W "10.00u"
  MAIN.L "10.00u"
  MAIN.AD "3.400p"
  MAIN.AS "3.400p"
  MAIN.PD "20.68u"
  MAIN.PS "20.68u"
  MAIN.NF "1.000"
  MAIN.M "1"
  MAIN.NRD "0.000"
  MAIN.NRS "0.000"
  MAIN.LDRIFT1 "1E-06"
  MAIN.LDRIFT2 "1E-06"
  MAIN.SA "0.000"
  MAIN.SB "0.000"
  MAIN.SD "0.000"
  MAIN.SCA "0.000"
  MAIN.SCB "0.000"
  MAIN.SCC "0.000"
  MAIN.SC "0.000"
  MODULE "S557"
  PIN_D "16"
  PIN_G "5"
  PIN_S "6"
  PIN_B "15"
  PIN_E ""
  PIN_6 ""
  XY_ID ""
  FUNC "Large"
  STI "SA ref"
  WPE "WPE ref"
  COMMENT ""
  DIS_MEAS ""
  TypeTCI "10"
END_HEADER

BEGIN_DB
 ICCAP_VAR vg         0.383          
 ICCAP_VAR vb         0              
 ICCAP_VAR vs         0              

 #vd                    id                    ig                    ib                    is                   
  0                     1.44e-12              -5e-13                2.64e-12              -6e-13               
  0.1                   6.2818e-10            -4.2e-13              2.24e-12              -6.2806e-10          
  0.2                   6.4476e-10            -4.2e-13              -4.4e-13              -6.4442e-10          
  0.3                   6.474e-10             -2.4e-13              3.08e-12              -6.4728e-10          
  0.4                   6.4968e-10            -4.6e-13              1.26e-12              -6.4884e-10          
  0.5                   6.5152e-10            -2.6e-13              2.26e-12              -6.5112e-10          
  0.6                   6.5324e-10            -2.8e-13              2.1e-12               -6.5268e-10          
  0.7                   6.5468e-10            -1.8e-13              1.64e-12              -6.539e-10           
  0.8                   6.5624e-10            -2e-13                2.64e-12              -6.5556e-10          
  0.9                   6.573e-10             -2.8e-13              1.36e-12              -6.5668e-10          
  1                     6.5888e-10            -2e-13                2.6e-12               -6.578e-10           
  1.1                   6.6014e-10            -2.4e-13              1.34e-12              -6.588e-10           
  1.2                   6.6102e-10            -2e-13                2.82e-12              -6.6014e-10          
  1.3                   6.6208e-10            -2e-13                7.6e-13               -6.6084e-10          
  1.4                   6.6312e-10            -3e-13                2.3e-12               -6.6198e-10          
  1.5                   6.6434e-10            -2e-13                1.3e-12               -6.6302e-10          
  1.6                   6.6502e-10            -1.8e-13              1.78e-12              -6.6408e-10          
  1.7                   6.6596e-10            -1e-13                2.02e-12              -6.6496e-10          
  1.8                   6.6714e-10            -6e-14                1.28e-12              -6.6586e-10          
  1.9                   6.6786e-10            -1.6e-13              1.54e-12              -6.6676e-10          
  2                     6.689e-10             -2.2e-13              6.8e-13               -6.6734e-10          
  2.1                   6.6994e-10            -2e-13                1.66e-12              -6.6832e-10          
  2.2                   6.7092e-10            -2.2e-13              6e-14                 -6.6896e-10          
  2.3                   6.7222e-10            -2.8e-13              5.4e-13               -6.6952e-10          
  2.4                   6.733e-10             -1.8e-13              6e-14                 -6.7036e-10          
  2.5                   6.7482e-10            -1e-13                2.04e-12              -6.7122e-10          
  2.6                   6.764e-10             -1e-13                -1.56e-12             -6.7184e-10          
  2.7                   6.7838e-10            -2.4e-13              -2.7e-12              -6.7264e-10          
  2.8                   6.8036e-10            -1.2e-13              -3.58e-12             -6.7344e-10          
  2.9                   6.8316e-10            -2.2e-13              -6.9e-12              -6.736e-10           
  3                     6.8612e-10            -3.2e-13              -8.44e-12             -6.743e-10           
  3.1                   6.8944e-10            -6e-14                -1.176e-11            -6.7488e-10          
  3.2                   6.9366e-10            -4e-14                -1.484e-11            -6.7558e-10          
  3.3                   6.9834e-10            -1.2e-13              -1.926e-11            -6.7594e-10          
  3.4                   7.0362e-10            -1e-13                -2.444e-11            -6.7672e-10          
  3.5                   7.0984e-10            -4e-14                -2.896e-11            -6.7694e-10          
  3.6                   7.169e-10             -1.6e-13              -3.688e-11            -6.7742e-10          
END_DB

BEGIN_DB
 ICCAP_VAR vg         0.583          
 ICCAP_VAR vb         0              
 ICCAP_VAR vs         0              

 #vd                    id                    ig                    ib                    is                   
  0                     1.0008e-10            4e-14                 2.34e-12              -1.0446e-10          
  0.1                   9.4912e-08            -2e-14                2.86e-12              -9.4894e-08          
  0.2                   9.9104e-08            2.2e-13               9.4e-13               -9.9092e-08          
  0.3                   9.9608e-08            -1e-13                3.6e-13               -9.9582e-08          
  0.4                   9.992e-08             2e-14                 1e-12                 -9.9908e-08          
  0.5                   1.0028e-07            -2e-14                6.2e-13               -1.0017e-07          
  0.6                   1.005e-07             0                     7.4e-13               -1.00402e-07         
  0.7                   1.0072e-07            6e-14                 2.4e-12               -1.00616e-07         
  0.8                   1.0092e-07            -2e-14                1.62e-12              -1.00812e-07         
  0.9                   1.0108e-07            0                     1.42e-12              -1.00998e-07         
  1                     1.0128e-07            -8e-14                8e-13                 -1.01182e-07         
  1.1                   1.0142e-07            -1.6e-13              1.42e-12              -1.01324e-07         
  1.2                   1.0158e-07            6e-14                 2.14e-12              -1.01488e-07         
  1.3                   1.0172e-07            0                     9e-13                 -1.01634e-07         
  1.4                   1.0186e-07            8e-14                 5.6e-13               -1.01772e-07         
  1.5                   1.02e-07              -2e-14                7.6e-13               -1.01906e-07         
  1.6                   1.0214e-07            6e-14                 1.4e-13               -1.02044e-07         
  1.7                   1.0226e-07            -4e-14                -3.06e-12             -1.02152e-07         
  1.8                   1.0238e-07            1e-13                 -7.76e-12             -1.02268e-07         
  1.9                   1.025e-07             -4e-14                -1.402e-11            -1.02386e-07         
  2                     1.0262e-07            -1.8e-13              -2.508e-11            -1.02472e-07         
  2.1                   1.0274e-07            -2e-14                -4.262e-11            -1.0259e-07          
  2.2                   1.0286e-07            -6e-14                -6.76e-11             -1.02684e-07         
  2.3                   1.03e-07              -2e-14                -1.0228e-10           -1.02794e-07         
  2.4                   1.0314e-07            6e-14                 -1.5022e-10           -1.02884e-07         
  2.5                   1.033e-07             -1.2e-13              -2.1888e-10           -1.02994e-07         
  2.6                   1.035e-07             0                     -3.0788e-10           -1.03072e-07         
  2.7                   1.037e-07             -6e-14                -4.234e-10            -1.03168e-07         
  2.8                   1.0396e-07            -2e-14                -5.7678e-10           -1.03258e-07         
  2.9                   1.0422e-07            -1.4e-13              -7.742e-10            -1.03342e-07         
  3                     1.0458e-07            -6e-14                -1.0234e-09           -1.03434e-07         
  3.1                   1.0494e-07            6e-14                 -1.3416e-09           -1.03498e-07         
  3.2                   1.054e-07             -1.4e-13              -1.735e-09            -1.03582e-07         
  3.3                   1.0598e-07            -2e-13                -2.2124e-09           -1.03652e-07         
  3.4                   1.0662e-07            -1.4e-13              -2.7888e-09           -1.0372e-07          
  3.5                   1.0736e-07            4e-14                 -3.4736e-09           -1.03794e-07         
  3.6                   1.0824e-07            -1e-13                -4.2746e-09           -1.0387e-07          
END_DB

BEGIN_DB
 ICCAP_VAR vg         0.783          
 ICCAP_VAR vb         0              
 ICCAP_VAR vs         0              

 #vd                    id                    ig                    ib                    is                   
  0                     8.8252e-10            1.6e-13               3.94e-12              -8.3722e-10          
  0.1                   1.27e-06              6e-14                 2.74e-12              -1.2658e-06          
  0.2                   1.5496e-06            1e-13                 1.36e-12              -1.546e-06           
  0.3                   1.5744e-06            -4e-14                1.56e-12              -1.5704e-06          
  0.4                   1.5794e-06            4e-14                 1.64e-12              -1.5754e-06          
  0.5                   1.5826e-06            1.4e-13               5.8e-13               -1.5786e-06          
  0.6                   1.5852e-06            4e-14                 1.42e-12              -1.5814e-06          
  0.7                   1.5876e-06            1e-13                 2.06e-12              -1.5836e-06          
  0.8                   1.5896e-06            2e-14                 5.8e-13               -1.5858e-06          
  0.9                   1.5916e-06            -4e-14                1.3e-12               -1.5876e-06          
  1                     1.5934e-06            2e-14                 1.42e-12              -1.5896e-06          
  1.1                   1.595e-06             -4e-14                -3e-13                -1.5912e-06          
  1.2                   1.5968e-06            -4e-14                1e-12                 -1.5928e-06          
  1.3                   1.5982e-06            -6e-14                1.36e-12              -1.5942e-06          
  1.4                   1.5994e-06            8e-14                 2.6e-13               -1.5956e-06          
  1.5                   1.601e-06             -1e-13                -1.04e-12             -1.597e-06           
  1.6                   1.6022e-06            -1.8e-13              -4.2e-12              -1.5982e-06          
  1.7                   1.6034e-06            -8e-14                -1.36e-11             -1.5994e-06          
  1.8                   1.6046e-06            -2e-14                -3.372e-11            -1.6006e-06          
  1.9                   1.6058e-06            6e-14                 -7.526e-11            -1.6016e-06          
  2                     1.6068e-06            2e-14                 -1.5182e-10           -1.6026e-06          
  2.1                   1.608e-06             8e-14                 -2.7908e-10           -1.6038e-06          
  2.2                   1.6092e-06            -2e-14                -4.8094e-10           -1.605e-06           
  2.3                   1.6106e-06            0                     -7.8474e-10           -1.606e-06           
  2.4                   1.6122e-06            -6e-14                -1.2234e-09           -1.607e-06           
  2.5                   1.6136e-06            -4e-14                -1.8418e-09           -1.608e-06           
  2.6                   1.6156e-06            -8e-14                -2.6952e-09           -1.6088e-06          
  2.7                   1.6174e-06            0                     -3.8444e-09           -1.6098e-06          
  2.8                   1.6198e-06            1e-13                 -5.3758e-09           -1.6106e-06          
  2.9                   1.6228e-06            8e-14                 -7.3894e-09           -1.6114e-06          
  3                     1.6264e-06            1.6e-13               -1.0011e-08           -1.6122e-06          
  3.1                   1.6304e-06            -6e-14                -1.3382e-08           -1.613e-06           
  3.2                   1.6354e-06            6e-14                 -1.7656e-08           -1.6138e-06          
  3.3                   1.6416e-06            4e-14                 -2.3002e-08           -1.6146e-06          
  3.4                   1.6492e-06            0                     -2.9608e-08           -1.6156e-06          
  3.5                   1.6576e-06            1e-13                 -3.764e-08            -1.616e-06           
  3.6                   1.668e-06             -1.6e-13              -4.7252e-08           -1.617e-06           
END_DB

