! VERSION = 6.00
BEGIN_HEADER
 ICCAP_INPUTS
  vd         V  D GROUND SMU1 0.1 LIN        1    0          3.6        37   0.1       
  vg         V  G GROUND SMU2 0.001 LIN        2    1.424      3.6        5    0.544     
  vb         V  B GROUND SMU4 0.1 CON        -3.6
  vs         V  S GROUND SMU3 0.1 CON        0
 ICCAP_OUTPUTS
  id         I  D GROUND SMU1 B
  ig         I  G GROUND SMU2 B
  ib         I  B GROUND SMU4 B
  is         I  S GROUND SMU3 B
 ICCAP_VALUES
  MASTER_SETUP_TYPE "~dc_idvd~"
  LINVT_VALUE "|idvg|100.0n|100.0m|1.000m|5|3.600|"
  LISTVT_VALUE ""
  TYPE "1"
  TEMP " 70.0000 "
  IS_TNOM " 0.00000 "
  MAIN.W "10.00u"
  MAIN.L "10.00u"
  MAIN.AD "3.400p"
  MAIN.AS "3.400p"
  MAIN.PD "20.68u"
  MAIN.PS "20.68u"
  MAIN.NF "1.000"
  MAIN.M "1"
  MAIN.NRD "0.000"
  MAIN.NRS "0.000"
  MAIN.LDRIFT1 "1E-06"
  MAIN.LDRIFT2 "1E-06"
  MAIN.SA "0.000"
  MAIN.SB "0.000"
  MAIN.SD "0.000"
  MAIN.SCA "0.000"
  MAIN.SCB "0.000"
  MAIN.SCC "0.000"
  MAIN.SC "0.000"
  MODULE "S557"
  PIN_D "16"
  PIN_G "5"
  PIN_S "6"
  PIN_B "15"
  PIN_E ""
  PIN_6 ""
  XY_ID ""
  FUNC "Large"
  STI "SA ref"
  WPE "WPE ref"
  COMMENT ""
  DIS_MEAS ""
  TypeTCI "10"
END_HEADER

BEGIN_DB
 ICCAP_VAR vg         1.424          
 ICCAP_VAR vb         -3.6           
 ICCAP_VAR vs         0              

 #vd                    id                    ig                    ib                    is                   
  0                     3.9456e-10            9.6e-13               -7.518e-11            -2.9996e-10          
  0.1                   4.3294e-07            4.8e-13               -6.61e-11             -4.3288e-07          
  0.2                   5.0452e-07            4.4e-13               -6.252e-11            -5.0462e-07          
  0.3                   5.1024e-07            4e-13                 -5.95e-11             -5.104e-07           
  0.4                   5.1136e-07            3.2e-13               -5.652e-11            -5.1144e-07          
  0.5                   5.1206e-07            4e-13                 -5.584e-11            -5.1212e-07          
  0.6                   5.1254e-07            2.2e-13               -5.348e-11            -5.125e-07           
  0.7                   5.1294e-07            3.2e-13               -5.1e-11              -5.13e-07            
  0.8                   5.1336e-07            2.2e-13               -4.86e-11             -5.1344e-07          
  0.9                   5.1374e-07            2.6e-13               -4.806e-11            -5.1374e-07          
  1                     5.1406e-07            2e-13                 -4.574e-11            -5.1406e-07          
  1.1                   5.1436e-07            2.8e-13               -4.328e-11            -5.1436e-07          
  1.2                   5.1466e-07            2.4e-13               -4.348e-11            -5.1474e-07          
  1.3                   5.1504e-07            1.6e-13               -4.278e-11            -5.1496e-07          
  1.4                   5.1522e-07            2e-13                 -4.13e-11             -5.1522e-07          
  1.5                   5.155e-07             2.4e-13               -3.98e-11             -5.1556e-07          
  1.6                   5.1576e-07            4e-14                 -3.896e-11            -5.1584e-07          
  1.7                   5.161e-07             1e-13                 -3.94e-11             -5.1604e-07          
  1.8                   5.1622e-07            2.2e-13               -3.836e-11            -5.1626e-07          
  1.9                   5.1646e-07            1e-13                 -3.954e-11            -5.165e-07           
  2                     5.1668e-07            2.4e-13               -4.562e-11            -5.167e-07           
  2.1                   5.169e-07             8e-14                 -5.492e-11            -5.1682e-07          
  2.2                   5.1708e-07            2e-14                 -7.372e-11            -5.1706e-07          
  2.3                   5.1726e-07            0                     -1.075e-10            -5.172e-07           
  2.4                   5.175e-07             0                     -1.5908e-10           -5.1744e-07          
  2.5                   5.1784e-07            1.4e-13               -2.4122e-10           -5.1768e-07          
  2.6                   5.1812e-07            -2e-14                -3.6144e-10           -5.1782e-07          
  2.7                   5.1844e-07            4e-14                 -5.3542e-10           -5.18e-07            
  2.8                   5.1888e-07            0                     -7.7896e-10           -5.1812e-07          
  2.9                   5.1934e-07            2e-14                 -1.1092e-09           -5.1828e-07          
  3                     5.1988e-07            1.2e-13               -1.5608e-09           -5.1842e-07          
  3.1                   5.2072e-07            6e-14                 -2.159e-09            -5.1858e-07          
  3.2                   5.2164e-07            -4e-14                -2.944e-09            -5.188e-07           
  3.3                   5.2286e-07            -2e-14                -3.9592e-09           -5.1892e-07          
  3.4                   5.2432e-07            0                     -5.2666e-09           -5.1914e-07          
  3.5                   5.2612e-07            2e-14                 -6.9262e-09           -5.1926e-07          
  3.6                   5.2836e-07            6e-14                 -8.9998e-09           -5.194e-07           
END_DB

BEGIN_DB
 ICCAP_VAR vg         1.968          
 ICCAP_VAR vb         -3.6           
 ICCAP_VAR vs         0              

 #vd                    id                    ig                    ib                    is                   
  0                     1.9082e-09            5.6e-13               -2.016e-11            -1.6462e-09          
  0.1                   5.5102e-06            4e-13                 -1.966e-11            -5.5068e-06          
  0.2                   9.743e-06             2.2e-13               -2.004e-11            -9.7394e-06          
  0.3                   1.2742e-05            1.8e-13               -1.928e-11            -1.2736e-05          
  0.4                   1.4602e-05            2.4e-13               -1.912e-11            -1.4596e-05          
  0.5                   1.5506e-05            2.6e-13               -2.042e-11            -1.55e-05            
  0.6                   1.5798e-05            2e-14                 -1.966e-11            -1.5792e-05          
  0.7                   1.5868e-05            1.4e-13               -1.994e-11            -1.5864e-05          
  0.8                   1.5892e-05            1.4e-13               -1.932e-11            -1.5886e-05          
  0.9                   1.5904e-05            1.2e-13               -1.874e-11            -1.59e-05            
  1                     1.5914e-05            2e-13                 -1.934e-11            -1.5908e-05          
  1.1                   1.5922e-05            1.8e-13               -1.978e-11            -1.5916e-05          
  1.2                   1.5928e-05            1.8e-13               -1.888e-11            -1.5924e-05          
  1.3                   1.5934e-05            1.4e-13               -1.888e-11            -1.593e-05           
  1.4                   1.594e-05             1e-13                 -1.936e-11            -1.5936e-05          
  1.5                   1.5946e-05            1.8e-13               -1.83e-11             -1.5942e-05          
  1.6                   1.5952e-05            8e-14                 -1.844e-11            -1.5946e-05          
  1.7                   1.5956e-05            1e-13                 -1.91e-11             -1.595e-05           
  1.8                   1.596e-05             1.8e-13               -1.73e-11             -1.5956e-05          
  1.9                   1.5964e-05            1e-13                 -1.918e-11            -1.596e-05           
  2                     1.5968e-05            1.2e-13               -2.01e-11             -1.5964e-05          
  2.1                   1.5972e-05            1.2e-13               -2.318e-11            -1.5968e-05          
  2.2                   1.5978e-05            2e-14                 -3.87e-11             -1.5972e-05          
  2.3                   1.598e-05             6e-14                 -7.112e-11            -1.5976e-05          
  2.4                   1.5986e-05            6e-14                 -1.5396e-10           -1.598e-05           
  2.5                   1.5988e-05            1e-13                 -3.2898e-10           -1.5984e-05          
  2.6                   1.5992e-05            1e-13                 -6.6804e-10           -1.5986e-05          
  2.7                   1.5996e-05            2e-14                 -1.284e-09            -1.599e-05           
  2.8                   1.6002e-05            4e-14                 -2.3298e-09           -1.5992e-05          
  2.9                   1.6006e-05            4e-14                 -4.0132e-09           -1.5996e-05          
  3                     1.6012e-05            1e-13                 -6.5994e-09           -1.6e-05             
  3.1                   1.602e-05             8e-14                 -1.04246e-08          -1.6004e-05          
  3.2                   1.6028e-05            1e-13                 -1.5932e-08           -1.6008e-05          
  3.3                   1.6038e-05            2.2e-13               -2.3596e-08           -1.601e-05           
  3.4                   1.6052e-05            0                     -3.4122e-08           -1.6012e-05          
  3.5                   1.607e-05             1.2e-13               -4.8324e-08           -1.6016e-05          
  3.6                   1.6092e-05            1.2e-13               -6.7174e-08           -1.6018e-05          
END_DB

BEGIN_DB
 ICCAP_VAR vg         2.512          
 ICCAP_VAR vb         -3.6           
 ICCAP_VAR vs         0              

 #vd                    id                    ig                    ib                    is                   
  0                     2.4394e-09            4.6e-13               -1.41e-11             -2.9394e-09          
  0.1                   1.128e-05             2.2e-13               -1.116e-11            -1.1274e-05          
  0.2                   2.1346e-05            1.8e-13               -1.46e-11             -2.134e-05           
  0.3                   3.0158e-05            3e-13                 -1.462e-11            -3.0152e-05          
  0.4                   3.7732e-05            2.6e-13               -1.23e-11             -3.7728e-05          
  0.5                   4.4046e-05            2.2e-13               -1.414e-11            -4.404e-05           
  0.6                   4.9094e-05            2.2e-13               -1.548e-11            -4.9088e-05          
  0.7                   5.2918e-05            1.8e-13               -1.38e-11             -5.2914e-05          
  0.8                   5.5568e-05            1.6e-13               -1.524e-11            -5.5564e-05          
  0.9                   5.7164e-05            1.6e-13               -1.372e-11            -5.716e-05           
  1                     5.7946e-05            2.2e-13               -1.284e-11            -5.7942e-05          
  1.1                   5.8254e-05            2e-13                 -1.398e-11            -5.825e-05           
  1.2                   5.837e-05             2.2e-13               -1.48e-11             -5.8368e-05          
  1.3                   5.8426e-05            1.6e-13               -1.326e-11            -5.8422e-05          
  1.4                   5.846e-05             2.2e-13               -1.38e-11             -5.8456e-05          
  1.5                   5.8488e-05            2e-13                 -1.306e-11            -5.8484e-05          
  1.6                   5.8508e-05            2e-13                 -1.34e-11             -5.8504e-05          
  1.7                   5.8528e-05            1.2e-13               -1.452e-11            -5.8524e-05          
  1.8                   5.8546e-05            2.2e-13               -1.282e-11            -5.8542e-05          
  1.9                   5.856e-05             4e-14                 -1.372e-11            -5.8556e-05          
  2                     5.8574e-05            -2e-14                -1.494e-11            -5.8572e-05          
  2.1                   5.8592e-05            1.2e-13               -1.21e-11             -5.8586e-05          
  2.2                   5.8604e-05            2e-13                 -1.392e-11            -5.86e-05            
  2.3                   5.8614e-05            2.4e-13               -1.56e-11             -5.861e-05           
  2.4                   5.863e-05             8e-14                 -1.442e-11            -5.8624e-05          
  2.5                   5.8642e-05            0                     -2.186e-11            -5.8638e-05          
  2.6                   5.8652e-05            0                     -4.178e-11            -5.8648e-05          
  2.7                   5.8662e-05            2.2e-13               -9.814e-11            -5.8658e-05          
  2.8                   5.8676e-05            8e-14                 -2.4412e-10           -5.867e-05           
  2.9                   5.8686e-05            -8e-14                -5.7346e-10           -5.8678e-05          
  3                     5.8696e-05            1.4e-13               -1.2646e-09           -5.869e-05           
  3.1                   5.8708e-05            1.2e-13               -2.5898e-09           -5.87e-05            
  3.2                   5.872e-05             1.2e-13               -4.9712e-09           -5.871e-05           
  3.3                   5.8734e-05            1.4e-13               -8.9764e-09           -5.872e-05           
  3.4                   5.875e-05             8e-14                 -1.5408e-08           -5.8728e-05          
  3.5                   5.8768e-05            2e-13                 -2.5236e-08           -5.8738e-05          
  3.6                   5.8792e-05            2.2e-13               -3.972e-08            -5.8746e-05          
END_DB

BEGIN_DB
 ICCAP_VAR vg         3.056          
 ICCAP_VAR vb         -3.6           
 ICCAP_VAR vs         0              

 #vd                    id                    ig                    ib                    is                   
  0                     2.133e-09             5.4e-13               -1.062e-11            -3.9156e-09          
  0.1                   1.6178e-05            3.6e-13               -1.09e-11             -1.6172e-05          
  0.2                   3.1342e-05            3.2e-13               -1.122e-11            -3.1338e-05          
  0.3                   4.543e-05             3.2e-13               -1.054e-11            -4.5424e-05          
  0.4                   5.8456e-05            2.4e-13               -1.174e-11            -5.845e-05           
  0.5                   7.0358e-05            3.2e-13               -1.044e-11            -7.0356e-05          
  0.6                   8.1092e-05            3e-13                 -1.18e-11             -8.1088e-05          
  0.7                   9.0656e-05            2e-13                 -1.248e-11            -9.0652e-05          
  0.8                   9.9016e-05            2.2e-13               -1.068e-11            -9.9012e-05          
  0.9                   0.000106134           1e-13                 -1.184e-11            -0.000106134         
  1                     0.000112042           3.2e-13               -1.174e-11            -0.00011204          
  1.1                   0.00011684            1.6e-13               -1.096e-11            -0.000116734         
  1.2                   0.00012034            1e-13                 -9.64e-12             -0.00012             
  1.3                   0.00012276            2.2e-13               -1.064e-11            -0.00012242          
  1.4                   0.00012424            1.6e-13               -1.182e-11            -0.0001239           
  1.5                   0.000125              1.4e-13               -1.032e-11            -0.00012468          
  1.6                   0.00012536            1e-13                 -1.234e-11            -0.00012504          
  1.7                   0.00012554            1.2e-13               -1.076e-11            -0.0001252           
  1.8                   0.00012564            1.6e-13               -1.004e-11            -0.0001253           
  1.9                   0.0001257             2.2e-13               -1.148e-11            -0.00012538          
  2                     0.00012576            -2e-14                -1.106e-11            -0.00012542          
  2.1                   0.0001258             0                     -1.136e-11            -0.00012546          
  2.2                   0.00012582            1.2e-13               -1.192e-11            -0.0001255           
  2.3                   0.00012586            8e-14                 -1.062e-11            -0.00012552          
  2.4                   0.00012588            2.4e-13               -1.176e-11            -0.00012556          
  2.5                   0.0001259             1e-13                 -1.158e-11            -0.00012558          
  2.6                   0.00012594            8e-14                 -1.068e-11            -0.0001256           
  2.7                   0.00012596            6e-14                 -1.202e-11            -0.00012564          
  2.8                   0.00012598            2e-13                 -1.388e-11            -0.00012566          
  2.9                   0.000126              1.2e-13               -1.742e-11            -0.00012568          
  3                     0.00012602            1.2e-13               -3.654e-11            -0.0001257           
  3.1                   0.00012604            1.8e-13               -9.082e-11            -0.00012572          
  3.2                   0.00012606            1.2e-13               -2.3998e-10           -0.00012574          
  3.3                   0.00012608            2e-14                 -6.024e-10            -0.00012576          
  3.4                   0.0001261             1.8e-13               -1.4034e-09           -0.00012578          
  3.5                   0.00012612            1e-13                 -3.0424e-09           -0.0001258           
  3.6                   0.00012614            2.6e-13               -6.132e-09            -0.00012582          
END_DB

BEGIN_DB
 ICCAP_VAR vg         3.6            
 ICCAP_VAR vb         -3.6           
 ICCAP_VAR vs         0              

 #vd                    id                    ig                    ib                    is                   
  0                     9.138e-09             6.2e-13               -9.1e-12              -8.768e-09           
  0.1                   1.997e-05             4.6e-13               -8.14e-12             -1.9964e-05          
  0.2                   3.914e-05             2.8e-13               -9.56e-12             -3.9134e-05          
  0.3                   5.744e-05             3.2e-13               -1.068e-11            -5.7434e-05          
  0.4                   7.49e-05              2.8e-13               -8.04e-12             -7.4896e-05          
  0.5                   9.1452e-05            3.2e-13               -1.018e-11            -9.1446e-05          
  0.6                   0.000107026           3.4e-13               -1.098e-11            -0.000107024         
  0.7                   0.00012174            2.4e-13               -1.052e-11            -0.00012142          
  0.8                   0.00013532            2.4e-13               -9.22e-12             -0.000135            
