! VERSION = 6.00
BEGIN_HEADER
 ICCAP_INPUTS
  vd         V  D GROUND SMU1 0.1 LIN        1    0          3.6        37   0.1       
  vg         V  G GROUND SMU2 0.001 LIN        2    1.388      3.6        5    0.553     
  vb         V  B GROUND SMU4 0.1 CON        -3.6
  vs         V  S GROUND SMU3 0.1 CON        0
 ICCAP_OUTPUTS
  id         I  D GROUND SMU1 B
  ig         I  G GROUND SMU2 B
  ib         I  B GROUND SMU4 B
  is         I  S GROUND SMU3 B
 ICCAP_VALUES
  MASTER_SETUP_TYPE "~dc_idvd~"
  LINVT_VALUE "|idvg|100.0n|100.0m|1.000m|5|3.600|"
  LISTVT_VALUE ""
  TYPE "1"
  TEMP " 125.000 "
  IS_TNOM " 0.00000 "
  MAIN.W "10.00u"
  MAIN.L "10.00u"
  MAIN.AD "3.400p"
  MAIN.AS "3.400p"
  MAIN.PD "20.68u"
  MAIN.PS "20.68u"
  MAIN.NF "1.000"
  MAIN.M "1"
  MAIN.NRD "0.000"
  MAIN.NRS "0.000"
  MAIN.LDRIFT1 "1E-06"
  MAIN.LDRIFT2 "1E-06"
  MAIN.SA "0.000"
  MAIN.SB "0.000"
  MAIN.SD "0.000"
  MAIN.SCA "0.000"
  MAIN.SCB "0.000"
  MAIN.SCC "0.000"
  MAIN.SC "0.000"
  MODULE "S557"
  PIN_D "16"
  PIN_G "5"
  PIN_S "6"
  PIN_B "15"
  PIN_E ""
  PIN_6 ""
  XY_ID ""
  FUNC "Large"
  STI "SA ref"
  WPE "WPE ref"
  COMMENT ""
  DIS_MEAS ""
  TypeTCI "10"
END_HEADER

BEGIN_DB
 ICCAP_VAR vg         1.388          
 ICCAP_VAR vb         -3.6           
 ICCAP_VAR vs         0              

 #vd                    id                    ig                    ib                    is                   
  0                     3.7368e-10            1.22e-12              -1.5866e-10           -2.5766e-10          
  0.1                   3.7722e-07            8.8e-13               -1.427e-10            -3.772e-07           
  0.2                   4.5026e-07            8.6e-13               -1.3914e-10           -4.503e-07           
  0.3                   4.5758e-07            7e-13                 -1.3514e-10           -4.5758e-07          
  0.4                   4.5872e-07            6.8e-13               -1.2968e-10           -4.587e-07           
  0.5                   4.5924e-07            6e-13                 -1.261e-10            -4.5918e-07          
  0.6                   4.5962e-07            6.8e-13               -1.234e-10            -4.5962e-07          
  0.7                   4.5992e-07            6.8e-13               -1.2028e-10           -4.5996e-07          
  0.8                   4.6022e-07            6e-13                 -1.1652e-10           -4.6026e-07          
  0.9                   4.6058e-07            5.8e-13               -1.133e-10            -4.6058e-07          
  1                     4.6084e-07            6.2e-13               -1.127e-10            -4.6082e-07          
  1.1                   4.6108e-07            5.2e-13               -1.1008e-10           -4.6106e-07          
  1.2                   4.6134e-07            4.8e-13               -1.0672e-10           -4.613e-07           
  1.3                   4.6154e-07            4e-13                 -1.0536e-10           -4.6156e-07          
  1.4                   4.6174e-07            5.2e-13               -1.0424e-10           -4.6176e-07          
  1.5                   4.6194e-07            5.2e-13               -1.0216e-10           -4.62e-07            
  1.6                   4.6216e-07            5e-13                 -1.0086e-10           -4.622e-07           
  1.7                   4.6238e-07            4.6e-13               -1e-10                -4.6234e-07          
  1.8                   4.6254e-07            4e-13                 -1e-10                -4.6254e-07          
  1.9                   4.6268e-07            4.2e-13               -1.0232e-10           -4.6262e-07          
  2                     4.6294e-07            4.2e-13               -1.0556e-10           -4.629e-07           
  2.1                   4.6308e-07            4.4e-13               -1.1776e-10           -4.6304e-07          
  2.2                   4.6328e-07            3.6e-13               -1.36e-10             -4.6324e-07          
  2.3                   4.635e-07             4.8e-13               -1.6598e-10           -4.6338e-07          
  2.4                   4.6366e-07            5e-13                 -2.1876e-10           -4.6352e-07          
  2.5                   4.6392e-07            4e-13                 -2.9666e-10           -4.637e-07           
  2.6                   4.642e-07             3.2e-13               -4.1052e-10           -4.6388e-07          
  2.7                   4.6448e-07            3e-13                 -5.7274e-10           -4.6402e-07          
  2.8                   4.6492e-07            3.8e-13               -7.9608e-10           -4.6414e-07          
  2.9                   4.6528e-07            3e-13                 -1.0984e-09           -4.6426e-07          
  3                     4.6576e-07            3.2e-13               -1.5062e-09           -4.6434e-07          
  3.1                   4.6646e-07            3e-13                 -2.0422e-09           -4.6452e-07          
  3.2                   4.6732e-07            3e-13                 -2.7368e-09           -4.6468e-07          
  3.3                   4.6836e-07            4.2e-13               -3.6272e-09           -4.648e-07           
  3.4                   4.6968e-07            3.8e-13               -4.7636e-09           -4.6492e-07          
  3.5                   4.7122e-07            4.2e-13               -6.1918e-09           -4.651e-07           
  3.6                   4.7308e-07            4e-13                 -7.9632e-09           -4.6516e-07          
END_DB

BEGIN_DB
 ICCAP_VAR vg         1.941          
 ICCAP_VAR vb         -3.6           
 ICCAP_VAR vs         0              

 #vd                    id                    ig                    ib                    is                   
  0                     1.8078e-09            8.2e-13               -6.794e-11            -1.631e-09           
  0.1                   4.4328e-06            7.6e-13               -6.624e-11            -4.4292e-06          
  0.2                   7.8712e-06            6.4e-13               -6.75e-11             -7.8682e-06          
  0.3                   1.03428e-05           6e-13                 -6.55e-11             -1.03394e-05         
  0.4                   1.192e-05             5.8e-13               -6.558e-11            -1.1914e-05          
  0.5                   1.2722e-05            6e-13                 -6.514e-11            -1.2716e-05          
  0.6                   1.3004e-05            6e-13                 -6.642e-11            -1.2998e-05          
  0.7                   1.3076e-05            4.6e-13               -6.526e-11            -1.307e-05           
  0.8                   1.3098e-05            5.8e-13               -6.476e-11            -1.3092e-05          
  0.9                   1.3108e-05            4.6e-13               -6.568e-11            -1.3102e-05          
  1                     1.3118e-05            4.8e-13               -6.448e-11            -1.311e-05           
  1.1                   1.3124e-05            5.4e-13               -6.474e-11            -1.3118e-05          
  1.2                   1.3128e-05            5.4e-13               -6.542e-11            -1.3122e-05          
  1.3                   1.3134e-05            5e-13                 -6.378e-11            -1.3128e-05          
  1.4                   1.3138e-05            4.6e-13               -6.6e-11              -1.3132e-05          
  1.5                   1.3144e-05            3.6e-13               -6.546e-11            -1.3136e-05          
  1.6                   1.3148e-05            3.4e-13               -6.42e-11             -1.314e-05           
  1.7                   1.3152e-05            4.8e-13               -6.584e-11            -1.3144e-05          
  1.8                   1.3154e-05            4.8e-13               -6.5e-11              -1.3148e-05          
  1.9                   1.3158e-05            3.4e-13               -6.582e-11            -1.3152e-05          
  2                     1.3162e-05            5.2e-13               -6.776e-11            -1.3156e-05          
  2.1                   1.3164e-05            4e-13                 -7.252e-11            -1.3158e-05          
  2.2                   1.317e-05             4.4e-13               -8.736e-11            -1.3162e-05          
  2.3                   1.3172e-05            3.8e-13               -1.2498e-10           -1.3164e-05          
  2.4                   1.3176e-05            4e-13                 -2.0276e-10           -1.3168e-05          
  2.5                   1.3178e-05            4.8e-13               -3.6642e-10           -1.317e-05           
  2.6                   1.318e-05             4e-13                 -6.7528e-10           -1.3174e-05          
  2.7                   1.3186e-05            4.2e-13               -1.2196e-09           -1.3178e-05          
  2.8                   1.3188e-05            3.4e-13               -2.127e-09            -1.318e-05           
  2.9                   1.3192e-05            4e-13                 -3.568e-09            -1.3182e-05          
  3                     1.3198e-05            3.8e-13               -5.7576e-09           -1.3186e-05          
  3.1                   1.3204e-05            3.4e-13               -8.9624e-09           -1.3188e-05          
  3.2                   1.321e-05             3.4e-13               -1.3528e-08           -1.3192e-05          
  3.3                   1.322e-05             3.2e-13               -1.983e-08            -1.3194e-05          
  3.4                   1.323e-05             4.6e-13               -2.84e-08             -1.3196e-05          
  3.5                   1.3246e-05            5e-13                 -3.9862e-08           -1.3198e-05          
  3.6                   1.3262e-05            2.8e-13               -5.4918e-08           -1.32e-05            
END_DB

BEGIN_DB
 ICCAP_VAR vg         2.494          
 ICCAP_VAR vb         -3.6           
 ICCAP_VAR vs         0              

 #vd                    id                    ig                    ib                    is                   
  0                     2.5646e-09            8.4e-13               -5.406e-11            -2.7362e-09          
  0.1                   8.9802e-06            9e-13                 -5.466e-11            -8.9766e-06          
  0.2                   1.7018e-05            6.6e-13               -5.646e-11            -1.701e-05           
  0.3                   2.408e-05             7.2e-13               -5.552e-11            -2.4074e-05          
  0.4                   3.0182e-05            7.4e-13               -5.496e-11            -3.0178e-05          
  0.5                   3.531e-05             5.6e-13               -5.57e-11             -3.5304e-05          
  0.6                   3.9454e-05            6.2e-13               -5.492e-11            -3.9446e-05          
  0.7                   4.2642e-05            6.2e-13               -5.652e-11            -4.2636e-05          
  0.8                   4.4906e-05            6.2e-13               -5.584e-11            -4.49e-05            
  0.9                   4.632e-05             5.8e-13               -5.472e-11            -4.6314e-05          
  1                     4.7056e-05            7e-13                 -5.676e-11            -4.7048e-05          
  1.1                   4.7356e-05            6.6e-13               -5.758e-11            -4.7352e-05          
  1.2                   4.747e-05             4e-13                 -5.468e-11            -4.7464e-05          
  1.3                   4.7518e-05            4.4e-13               -5.584e-11            -4.7512e-05          
  1.4                   4.7548e-05            4.4e-13               -5.578e-11            -4.7542e-05          
  1.5                   4.757e-05             4.8e-13               -5.566e-11            -4.7564e-05          
  1.6                   4.759e-05             5.4e-13               -5.63e-11             -4.7584e-05          
  1.7                   4.7606e-05            5.2e-13               -5.638e-11            -4.76e-05            
  1.8                   4.7622e-05            4.4e-13               -5.578e-11            -4.7614e-05          
  1.9                   4.7634e-05            4.2e-13               -5.764e-11            -4.7628e-05          
  2                     4.7646e-05            4.4e-13               -5.63e-11             -4.764e-05           
  2.1                   4.7656e-05            5.6e-13               -5.71e-11             -4.765e-05           
  2.2                   4.7666e-05            5.6e-13               -5.7e-11              -4.7662e-05          
  2.3                   4.7678e-05            4.6e-13               -5.716e-11            -4.7672e-05          
  2.4                   4.7688e-05            4e-13                 -6.014e-11            -4.7682e-05          
  2.5                   4.7698e-05            4.8e-13               -6.756e-11            -4.7692e-05          
  2.6                   4.7706e-05            4.6e-13               -8.732e-11            -4.77e-05            
  2.7                   4.7714e-05            4.6e-13               -1.4546e-10           -4.7708e-05          
  2.8                   4.7724e-05            4.6e-13               -2.7734e-10           -4.7716e-05          
  2.9                   4.7734e-05            4.6e-13               -5.6842e-10           -4.7726e-05          
  3                     4.7742e-05            4.2e-13               -1.1578e-09           -4.7734e-05          
  3.1                   4.7752e-05            5.4e-13               -2.2678e-09           -4.7744e-05          
  3.2                   4.7762e-05            4.8e-13               -4.2242e-09           -4.775e-05           
  3.3                   4.7772e-05            2.2e-13               -7.4726e-09           -4.776e-05           
  3.4                   4.7784e-05            4.6e-13               -1.2656e-08           -4.7764e-05          
  3.5                   4.78e-05              4e-13                 -2.0506e-08           -4.7774e-05          
  3.6                   4.7818e-05            5.8e-13               -3.1988e-08           -4.778e-05           
END_DB

BEGIN_DB
 ICCAP_VAR vg         3.047          
 ICCAP_VAR vb         -3.6           
 ICCAP_VAR vs         0              

 #vd                    id                    ig                    ib                    is                   
  0                     2.5814e-09            9.2e-13               -4.814e-11            -3.4858e-09          
  0.1                   1.2926e-05            8.6e-13               -4.882e-11            -1.292e-05           
  0.2                   2.504e-05             8.2e-13               -5.05e-11             -2.5032e-05          
  0.3                   3.6296e-05            8.4e-13               -5.038e-11            -3.629e-05           
  0.4                   4.6716e-05            6e-13                 -5.11e-11             -4.671e-05           
  0.5                   5.6258e-05            6.4e-13               -4.994e-11            -5.6252e-05          
  0.6                   6.4884e-05            7.2e-13               -5.026e-11            -6.4878e-05          
  0.7                   7.2604e-05            5.2e-13               -5.106e-11            -7.2598e-05          
  0.8                   7.9388e-05            7e-13                 -4.956e-11            -7.9382e-05          
  0.9                   8.5212e-05            6e-13                 -5.078e-11            -8.5208e-05          
  1                     9.0098e-05            6.2e-13               -5.176e-11            -9.0092e-05          
  1.1                   9.4034e-05            6.2e-13               -5.054e-11            -9.4028e-05          
  1.2                   9.7036e-05            6.4e-13               -5.258e-11            -9.7034e-05          
  1.3                   9.9174e-05            6.6e-13               -5.178e-11            -9.917e-05           
  1.4                   0.000100532           5.8e-13               -5.076e-11            -0.000100526         
  1.5                   0.00010128            6e-13                 -5.28e-11             -0.000101276         
  1.6                   0.00010164            5.2e-13               -5.158e-11            -0.000101636         
  1.7                   0.000101806           5.4e-13               -5.206e-11            -0.000101802         
  1.8                   0.000101894           5.2e-13               -5.338e-11            -0.00010189          
  1.9                   0.000101952           7e-13                 -5.292e-11            -0.000101946         
  2                     0.00010199            5.8e-13               -5.312e-11            -0.000101988         
  2.1                   0.000102024           4.8e-13               -5.306e-11            -0.00010202          
  2.2                   0.000102052           5e-13                 -5.268e-11            -0.000102048         
  2.3                   0.000102078           4.8e-13               -5.374e-11            -0.000102074         
  2.4                   0.000102104           4.8e-13               -5.4e-11              -0.000102098         
  2.5                   0.000102124           5.4e-13               -5.28e-11             -0.00010212          
  2.6                   0.000102144           6.2e-13               -5.378e-11            -0.000102144         
  2.7                   0.000102166           4.6e-13               -5.516e-11            -0.000102162         
  2.8                   0.000102184           4.6e-13               -5.63e-11             -0.00010218          
  2.9                   0.000102202           5.4e-13               -6.38e-11             -0.000102196         
  3                     0.00010222            5.6e-13               -8.124e-11            -0.000102214         
  3.1                   0.000102236           6e-13                 -1.3108e-10           -0.000102232         
  3.2                   0.000102254           4.6e-13               -2.6074e-10           -0.000102248         
  3.3                   0.000102268           5e-13                 -5.5926e-10           -0.000102262         
  3.4                   0.000102282           5.6e-13               -1.2054e-09           -0.00010204          
  3.5                   0.000102298           5.2e-13               -2.4986e-09           -0.00010206          
  3.6                   0.000102314           5.2e-13               -4.8966e-09           -0.00010208          
END_DB

BEGIN_DB
 ICCAP_VAR vg         3.6            
 ICCAP_VAR vb         -3.6           
 ICCAP_VAR vs         0              

 #vd                    id                    ig                    ib                    is                   
  0                     2.4622e-09            1e-12                 -4.472e-11            -4.101e-09           
  0.1                   1.6112e-05            9e-13                 -4.604e-11            -1.6104e-05          
  0.2                   3.1556e-05            7.6e-13               -4.784e-11            -3.155e-05           
  0.3                   4.6282e-05            8.8e-13               -4.64e-11             -4.6276e-05          
  0.4                   6.0322e-05            7.2e-13               -4.77e-11             -6.0318e-05          
  0.5                   7.3626e-05            8.4e-13               -4.9e-11              -7.362e-05           
  0.6                   8.6144e-05            7.6e-13               -4.718e-11            -8.614e-05           
  0.7                   9.7894e-05            6.6e-13               -4.932e-11            -9.789e-05           
  0.8                   0.000108832           7.4e-13               -4.852e-11            -0.000108828         
