! VERSION = 6.00
BEGIN_HEADER
 ICCAP_INPUTS
  vg         V  G GROUND SMU2 0.001 LIN        1    -0.5       3.6        83   0.05      
  vb         V  B GROUND SMU4 0.1 LIN        2    0          -3.6       5    -0.9      
  vd         V  D GROUND SMU1 0.1 LIN        3    0.1        3.3        3    1.6       
  vs         V  S GROUND SMU3 0.1 CON        0
 ICCAP_OUTPUTS
  id         I  D GROUND SMU1 B
  ig         I  G GROUND SMU2 B
  ib         I  B GROUND SMU4 B
  is         I  S GROUND SMU3 B
 ICCAP_VALUES
  MASTER_SETUP_TYPE "~dc_idvg~"
  LINVT_VALUE ""
  LISTVT_VALUE ""
  TYPE "1"
  TEMP " 27.0000 "
  IS_TNOM " 1.00000 "
  MAIN.W "300.0n"
  MAIN.L "330.0n"
  MAIN.AD "102.0f"
  MAIN.AS "102.0f"
  MAIN.PD "1.280u"
  MAIN.PS "1.280u"
  MAIN.NF "1.000"
  MAIN.M "1"
  MAIN.NRD "0.000"
  MAIN.NRS "0.000"
  MAIN.LDRIFT1 "1E-06"
  MAIN.LDRIFT2 "1E-06"
  MAIN.SA "0.000"
  MAIN.SB "0.000"
  MAIN.SD "0.000"
  MAIN.SCA "0.000"
  MAIN.SCB "0.000"
  MAIN.SCC "0.000"
  MAIN.SC "0.000"
  MODULE "S560"
  PIN_D "18"
  PIN_G "3"
  PIN_S "4"
  PIN_B "17"
  PIN_E ""
  PIN_6 ""
  XY_ID ""
  FUNC "Additional"
  STI "SA ref"
  WPE "WPE ref"
  COMMENT ""
  DIS_MEAS ""
  TypeTCI "10"
END_HEADER

BEGIN_DB
 ICCAP_VAR vb         0              
 ICCAP_VAR vd         0.1            
 ICCAP_VAR vs         0              

 #vg                    id                    ig                    ib                    is                   
  -0.5                  1.8e-13               -4.458e-11            5.24e-11              1.8e-13              
  -0.45                 -6e-14                -6.72e-12             1.512e-11             -4e-14               
  -0.4                  2.2e-13               -1.16e-12             9.86e-12              0                    
  -0.35                 8e-14                 -1e-13                8.52e-12              8e-14                
  -0.3                  4e-14                 0                     7.6e-12               -6e-14               
  -0.25                 1.8e-13               8e-14                 7.16e-12              1e-13                
  -0.2                  2e-14                 2e-14                 7.68e-12              -8e-14               
  -0.15                 1.4e-13               1.2e-13               7.7e-12               1e-13                
  -0.1                  1.2e-13               1.6e-13               8.4e-12               -2e-14               
  -0.05                 1.2e-13               0                     6.66e-12              1.2e-13              
  0                     2.6e-13               2.8e-13               6.3e-12               -1e-13               
  0.05                  4.4e-13               1.6e-13               7.18e-12              -5e-13               
  0.1                   2.18e-12              2e-13                 8.06e-12              -1.86e-12            
  0.15                  7.84e-12              3e-13                 7.3e-12               -7.54e-12            
  0.2                   3.144e-11             2.8e-13               6.14e-12              -3.146e-11           
  0.25                  1.2788e-10            4e-13                 6.64e-12              -1.278e-10           
  0.3                   5.1192e-10            3.2e-13               6.68e-12              -5.1234e-10          
  0.35                  2.0314e-09            1.4e-13               7.74e-12              -2.0276e-09          
  0.4                   7.734e-09             3e-13                 6.34e-12              -7.7286e-09          
  0.45                  2.7706e-08            3.6e-13               6.86e-12              -2.7654e-08          
  0.5                   8.769e-08             3.8e-13               5.96e-12              -8.7594e-08          
  0.55                  2.33e-07              3.6e-13               6.42e-12              -2.3282e-07          
  0.6                   5.063e-07             5.4e-13               6.68e-12              -5.0612e-07          
  0.65                  9.2174e-07            2.6e-13               6.44e-12              -9.2342e-07          
  0.7                   1.46e-06              4e-13                 6.38e-12              -1.4618e-06          
  0.75                  2.0868e-06            4e-13                 6.62e-12              -2.0832e-06          
  0.8                   2.796e-06             4.4e-13               5.9e-12               -2.7968e-06          
  0.85                  3.552e-06             5e-13                 5.62e-12              -3.5518e-06          
  0.9                   4.353e-06             4.8e-13               6.34e-12              -4.3368e-06          
  0.95                  5.1406e-06            5.4e-13               6.92e-12              -5.1388e-06          
  1                     5.9436e-06            5e-13                 5.94e-12              -5.9444e-06          
  1.05                  6.7442e-06            4.8e-13               5.3e-12               -6.7376e-06          
  1.1                   7.5282e-06            5e-13                 5.12e-12              -7.5252e-06          
  1.15                  8.3028e-06            4e-13                 5.82e-12              -8.297e-06           
  1.2                   9.0582e-06            4.6e-13               8.42e-12              -9.0548e-06          
  1.25                  9.7998e-06            4.4e-13               5.22e-12              -9.7946e-06          
  1.3                   1.05278e-05           4.4e-13               4.58e-12              -1.05228e-05         
  1.35                  1.1235e-05            5.8e-13               5.12e-12              -1.1223e-05          
  1.4                   1.1926e-05            3.6e-13               6.34e-12              -1.1906e-05          
  1.45                  1.26e-05              5e-13                 4.54e-12              -1.258e-05           
  1.5                   1.3264e-05            3.8e-13               4.8e-12               -1.3242e-05          
  1.55                  1.3906e-05            4.8e-13               5.46e-12              -1.3884e-05          
  1.6                   1.453e-05             5e-13                 5.94e-12              -1.451e-05           
  1.65                  1.5144e-05            4.2e-13               5.12e-12              -1.5124e-05          
  1.7                   1.5742e-05            5.2e-13               4.58e-12              -1.5722e-05          
  1.75                  1.6322e-05            5.8e-13               4.82e-12              -1.63e-05            
  1.8                   1.6888e-05            5.2e-13               5.6e-12               -1.6868e-05          
  1.85                  1.7438e-05            5.4e-13               4.98e-12              -1.7418e-05          
  1.9                   1.7976e-05            5.2e-13               4.88e-12              -1.7954e-05          
  1.95                  1.8496e-05            5.4e-13               3.86e-12              -1.8474e-05          
  2                     1.9004e-05            4.6e-13               5.04e-12              -1.8984e-05          
  2.05                  1.95e-05              4.4e-13               5.2e-12               -1.9478e-05          
  2.1                   1.998e-05             5.2e-13               4.28e-12              -1.9958e-05          
  2.15                  2.0446e-05            6e-13                 4.34e-12              -2.043e-05           
  2.2                   2.09e-05              5.2e-13               4.62e-12              -2.0882e-05          
  2.25                  2.1346e-05            6e-13                 5.14e-12              -2.1326e-05          
  2.3                   2.1776e-05            7.8e-13               5.16e-12              -2.1754e-05          
  2.35                  2.2194e-05            6e-13                 3.92e-12              -2.2174e-05          
  2.4                   2.2602e-05            5.8e-13               4.32e-12              -2.2576e-05          
  2.45                  2.299e-05             6.4e-13               5.36e-12              -2.2972e-05          
  2.5                   2.3378e-05            7.8e-13               4.74e-12              -2.3358e-05          
  2.55                  2.375e-05             6.6e-13               4.48e-12              -2.3732e-05          
  2.6                   2.4114e-05            7e-13                 3.9e-12               -2.4096e-05          
  2.65                  2.4466e-05            7e-13                 4.6e-12               -2.4448e-05          
  2.7                   2.4806e-05            7.6e-13               4.84e-12              -2.4796e-05          
  2.75                  2.5148e-05            7e-13                 4.14e-12              -2.513e-05           
  2.8                   2.5474e-05            6.4e-13               3.62e-12              -2.5456e-05          
  2.85                  2.5784e-05            5.6e-13               3.92e-12              -2.5766e-05          
  2.9                   2.6092e-05            6.2e-13               5.02e-12              -2.607e-05           
  2.95                  2.6394e-05            5.8e-13               4.36e-12              -2.6372e-05          
  3                     2.6684e-05            7.2e-13               3.84e-12              -2.666e-05           
  3.05                  2.6968e-05            5.8e-13               3.74e-12              -2.6946e-05          
  3.1                   2.724e-05             7.4e-13               5.3e-12               -2.722e-05           
  3.15                  2.7502e-05            7e-13                 4.3e-12               -2.7486e-05          
  3.2                   2.777e-05             6.4e-13               2.7e-12               -2.7744e-05          
  3.25                  2.8018e-05            7.8e-13               4.12e-12              -2.7998e-05          
  3.3                   2.826e-05             6.6e-13               4.1e-12               -2.824e-05           
  3.35                  2.8498e-05            6e-13                 4.72e-12              -2.8478e-05          
  3.4                   2.8724e-05            7.8e-13               3.2e-12               -2.8704e-05          
  3.45                  2.8958e-05            7.6e-13               4.46e-12              -2.8932e-05          
  3.5                   2.9172e-05            7.6e-13               3.84e-12              -2.9148e-05          
  3.55                  2.9382e-05            7e-13                 4.18e-12              -2.9358e-05          
  3.6                   2.9588e-05            6.8e-13               4.26e-12              -2.9568e-05          
END_DB

BEGIN_DB
 ICCAP_VAR vb         -0.9           
 ICCAP_VAR vd         0.1            
 ICCAP_VAR vs         0              

 #vg                    id                    ig                    ib                    is                   
  -0.5                  2.2e-13               -5.2e-13              -9.78e-12             1.8e-13              
  -0.45                 3e-13                 -3.6e-13              -7.34e-12             1.4e-13              
  -0.4                  1e-13                 -3.4e-13              -7.7e-12              1.4e-13              
  -0.35                 2.8e-13               -1.6e-13              -7.08e-12             8e-14                
  -0.3                  1.4e-13               -6e-14                -7.36e-12             1.6e-13              
  -0.25                 2e-14                 4e-14                 -5.44e-12             1.4e-13              
  -0.2                  2.2e-13               0                     -4.34e-12             1.6e-13              
  -0.15                 -2e-14                2e-14                 -4.36e-12             6e-14                
  -0.1                  2.2e-13               8e-14                 -4.26e-12             8e-14                
  -0.05                 8e-14                 1e-13                 -4.36e-12             0                    
  0                     1e-13                 2.2e-13               -4.32e-12             2e-13                
  0.05                  6e-14                 2e-13                 -2.62e-12             -2e-14               
  0.1                   6e-14                 1.2e-13               -2.82e-12             1.4e-13              
  0.15                  2.2e-13               2e-13                 -2.48e-12             -1.4e-13             
  0.2                   6.8e-13               1.4e-13               -3.24e-12             -5.8e-13             
  0.25                  3.06e-12              2.6e-13               -2.88e-12             -2.78e-12            
  0.3                   1.31e-11              2.8e-13               -1.3e-12              -1.312e-11           
  0.35                  5.886e-11             1.6e-13               -1.46e-12             -5.84e-11            
  0.4                   2.5334e-10            4.2e-13               -1.86e-12             -2.5328e-10          
  0.45                  1.08686e-09           1.4e-13               -3.06e-12             -1.08662e-09         
  0.5                   4.5132e-09            1.4e-13               -1.48e-12             -4.4832e-09          
  0.55                  1.7476e-08            2.4e-13               -1.08e-12             -1.7452e-08          
  0.6                   6.0492e-08            2.6e-13               -7.8e-13              -6.0478e-08          
  0.65                  1.773e-07             4e-13                 -1.38e-12             -1.7778e-07          
  0.7                   4.1744e-07            2.4e-13               -1.28e-12             -4.1772e-07          
  0.75                  8.048e-07             5e-13                 -7.8e-13              -8.0584e-07          
  0.8                   1.3266e-06            2.8e-13               -1.9e-12              -1.3222e-06          
  0.85                  1.9492e-06            3.2e-13               -1.34e-12             -1.9452e-06          
  0.9                   2.6294e-06            3.2e-13               -8e-14                -2.628e-06           
  0.95                  3.3808e-06            3.2e-13               -3.2e-13              -3.3694e-06          
  1                     4.167e-06             5e-13                 -1.12e-12             -4.1608e-06          
  1.05                  4.9558e-06            3.4e-13               -1.04e-12             -4.9426e-06          
  1.1                   5.7332e-06            4.2e-13               -9.4e-13              -5.7292e-06          
  1.15                  6.5188e-06            4.6e-13               4e-13                 -6.5156e-06          
  1.2                   7.2926e-06            5e-13                 -5.4e-13              -7.2874e-06          
  1.25                  8.0504e-06            5e-13                 -1.32e-12             -8.0482e-06          
  1.3                   8.7998e-06            5e-13                 -5.8e-13              -8.7954e-06          
  1.35                  9.5286e-06            5.4e-13               -5.6e-13              -9.5242e-06          
  1.4                   1.02378e-05           4.8e-13               -4e-14                -1.02378e-05         
  1.45                  1.09352e-05           4.2e-13               -7.6e-13              -1.09338e-05         
  1.5                   1.1626e-05            4e-13                 -1.02e-12             -1.1606e-05          
  1.55                  1.2292e-05            4.8e-13               9.4e-13               -1.227e-05           
  1.6                   1.2934e-05            4.8e-13               -2e-14                -1.2916e-05          
  1.65                  1.3566e-05            5e-13                 -4.8e-13              -1.3542e-05          
  1.7                   1.4178e-05            5e-13                 -5e-13                -1.4162e-05          
  1.75                  1.4776e-05            5.4e-13               -1.4e-13              -1.4756e-05          
  1.8                   1.536e-05             5.2e-13               5.2e-13               -1.534e-05           
  1.85                  1.5926e-05            5e-13                 2.2e-13               -1.5904e-05          
  1.9                   1.6478e-05            6e-13                 -4.4e-13              -1.646e-05           
  1.95                  1.7014e-05            5.4e-13               0                     -1.6994e-05          
  2                     1.7538e-05            5.8e-13               4.4e-13               -1.7518e-05          
  2.05                  1.8048e-05            5e-13                 3.2e-13               -1.8026e-05          
  2.1                   1.854e-05             6.4e-13               -1.14e-12             -1.8522e-05          
  2.15                  1.9026e-05            5.8e-13               -2.8e-13              -1.9006e-05          
  2.2                   1.9488e-05            6.2e-13               8.4e-13               -1.9472e-05          
  2.25                  1.9946e-05            6e-13                 7.4e-13               -1.9922e-05          
  2.3                   2.039e-05             6.6e-13               -1.2e-13              -2.037e-05           
  2.35                  2.0818e-05            6.8e-13               -5.4e-13              -2.0798e-05          
  2.4                   2.124e-05             6.6e-13               2.8e-13               -2.1216e-05          
  2.45                  2.1644e-05            6.4e-13               1.06e-12              -2.1616e-05          
  2.5                   2.2044e-05            6.8e-13               6e-14                 -2.2016e-05          
  2.55                  2.2412e-05            6e-13                 4.6e-13               -2.2402e-05          
  2.6                   2.2794e-05            6.6e-13               3.2e-13               -2.277e-05           
  2.65                  2.316e-05             6.6e-13               1e-12                 -2.3138e-05          
  2.7                   2.351e-05             7.4e-13               6.2e-13               -2.349e-05           
  2.75                  2.3852e-05            5.8e-13               2e-14                 -2.3826e-05          
  2.8                   2.4184e-05            6.2e-13               -5.6e-13              -2.4162e-05          
  2.85                  2.4506e-05            6.2e-13               9.8e-13               -2.448e-05           
  2.9                   2.4818e-05            5.8e-13               3e-13                 -2.4798e-05          
  2.95                  2.5128e-05            7.4e-13               -1e-13                -2.5102e-05          
  3                     2.5422e-05            5.8e-13               -7.2e-13              -2.54e-05            
  3.05                  2.5708e-05            7e-13                 9.2e-13               -2.5688e-05          
  3.1                   2.599e-05             6e-13                 8.6e-13               -2.5966e-05          
  3.15                  2.6258e-05            7.2e-13               2e-13                 -2.6242e-05          
  3.2                   2.6518e-05            7.4e-13               -2.8e-13              -2.6498e-05          
  3.25                  2.6782e-05            7.6e-13               3e-13                 -2.6758e-05          
  3.3                   2.7026e-05            7.2e-13               1.08e-12              -2.7004e-05          
  3.35                  2.727e-05             6.6e-13               7.8e-13               -2.7246e-05          
  3.4                   2.7506e-05            7.2e-13               -3.2e-13              -2.7482e-05          
  3.45                  2.7732e-05            8.2e-13               2e-13                 -2.7712e-05          
