! VERSION = 6.00
BEGIN_HEADER
 ICCAP_INPUTS
  vd         V  D GROUND SMU1 0.1 LIN        1    0          3.6        37   0.1       
  vg         V  G GROUND SMU2 0.001 LIST       2 3 0.402 0.602 0.802
  vb         V  B GROUND SMU4 0.1 CON        0
  vs         V  S GROUND SMU3 0.1 CON        0
 ICCAP_OUTPUTS
  id         I  D GROUND SMU1 B
  ig         I  G GROUND SMU2 B
  ib         I  B GROUND SMU4 B
  is         I  S GROUND SMU3 B
 ICCAP_VALUES
  MASTER_SETUP_TYPE "~dc_idvd~"
  LINVT_VALUE ""
  LISTVT_VALUE "|idvg|100.0n|-200.0m|1.000m|3|200.0m|200.0m|"
  TYPE "1"
  TEMP " 27.0000 "
  IS_TNOM " 1.00000 "
  MAIN.W "300.0n"
  MAIN.L "1.200u"
  MAIN.AD "102.0f"
  MAIN.AS "102.0f"
  MAIN.PD "1.280u"
  MAIN.PS "1.280u"
  MAIN.NF "1.000"
  MAIN.M "1"
  MAIN.NRD "0.000"
  MAIN.NRS "0.000"
  MAIN.LDRIFT1 "1E-06"
  MAIN.LDRIFT2 "1E-06"
  MAIN.SA "0.000"
  MAIN.SB "0.000"
  MAIN.SD "0.000"
  MAIN.SCA "0.000"
  MAIN.SCB "0.000"
  MAIN.SCC "0.000"
  MAIN.SC "0.000"
  MODULE "S560"
  PIN_D "12"
  PIN_G "9"
  PIN_S "10"
  PIN_B "11"
  PIN_E ""
  PIN_6 ""
  XY_ID ""
  FUNC "LW Scale"
  STI "SA ref"
  WPE "WPE ref"
  COMMENT ""
  DIS_MEAS ""
  TypeTCI "10"
END_HEADER

BEGIN_DB
 ICCAP_VAR vg         0.402          
 ICCAP_VAR vb         0              
 ICCAP_VAR vs         0              

 #vd                    id                    ig                    ib                    is                   
  0                     2.6e-13               -3.8e-13              3.2e-12               -1.4e-13             
  0.1                   1.379e-10             -3.4e-13              2.12e-12              -1.3818e-10          
  0.2                   1.45e-10              -4.2e-13              2.82e-12              -1.449e-10           
  0.3                   1.4808e-10            -3.8e-13              2.08e-12              -1.4786e-10          
  0.4                   1.5074e-10            -4.2e-13              2.3e-12               -1.5042e-10          
  0.5                   1.528e-10             -4.6e-13              2.1e-12               -1.5256e-10          
  0.6                   1.5548e-10            -3.4e-13              2.32e-12              -1.5516e-10          
  0.7                   1.573e-10             -3.2e-13              2.36e-12              -1.5708e-10          
  0.8                   1.5932e-10            -3.4e-13              1.56e-12              -1.585e-10           
  0.9                   1.6102e-10            -2.2e-13              8.2e-13               -1.6052e-10          
  1                     1.6248e-10            -2.6e-13              1.7e-12               -1.619e-10           
  1.1                   1.6394e-10            -2.2e-13              1.92e-12              -1.6342e-10          
  1.2                   1.6524e-10            -2.2e-13              2.46e-12              -1.647e-10           
  1.3                   1.6662e-10            -1.6e-13              1.68e-12              -1.6594e-10          
  1.4                   1.679e-10             -2.4e-13              1.86e-12              -1.6684e-10          
  1.5                   1.69e-10              -2.2e-13              1.96e-12              -1.6818e-10          
  1.6                   1.6998e-10            -2e-13                2.74e-12              -1.692e-10           
  1.7                   1.7122e-10            -3e-13                1.28e-12              -1.7018e-10          
  1.8                   1.7234e-10            -1.6e-13              2.74e-12              -1.7144e-10          
  1.9                   1.735e-10             -6e-14                1.64e-12              -1.725e-10           
  2                     1.7442e-10            -8e-14                1.88e-12              -1.7308e-10          
  2.1                   1.7512e-10            -1.4e-13              1.76e-12              -1.7424e-10          
  2.2                   1.7594e-10            -1.2e-13              1.38e-12              -1.7486e-10          
  2.3                   1.7686e-10            -1e-13                2.12e-12              -1.7564e-10          
  2.4                   1.779e-10             -3e-13                5.8e-13               -1.7624e-10          
  2.5                   1.79e-10              -4e-14                2.4e-12               -1.7718e-10          
  2.6                   1.7988e-10            -2e-13                2.2e-13               -1.7794e-10          
  2.7                   1.8116e-10            -1.6e-13              1.84e-12              -1.7846e-10          
  2.8                   1.8216e-10            -1.4e-13              -4e-14                -1.7902e-10          
  2.9                   1.831e-10             -1.4e-13              -6.6e-13              -1.8002e-10          
  3                     1.8424e-10            -2e-13                -1.28e-12             -1.806e-10           
  3.1                   1.8598e-10            -4e-14                -1.72e-12             -1.8152e-10          
  3.2                   1.8736e-10            -4e-14                -1.76e-12             -1.8202e-10          
  3.3                   1.8908e-10            -3e-13                -4.32e-12             -1.8242e-10          
  3.4                   1.9106e-10            -1.4e-13              -4.44e-12             -1.8306e-10          
  3.5                   1.9356e-10            -1.2e-13              -7.26e-12             -1.8364e-10          
  3.6                   1.9578e-10            -1.2e-13              -8.2e-12              -1.8436e-10          
END_DB

BEGIN_DB
 ICCAP_VAR vg         0.602          
 ICCAP_VAR vb         0              
 ICCAP_VAR vs         0              

 #vd                    id                    ig                    ib                    is                   
  0                     2.912e-11             -6e-14                2.26e-12              -3.386e-11           
  0.1                   2.0698e-08            -1.6e-13              2.36e-12              -2.0672e-08          
  0.2                   2.2046e-08            0                     9.4e-13               -2.1992e-08          
  0.3                   2.2506e-08            -8e-14                2.2e-12               -2.2522e-08          
  0.4                   2.2948e-08            -1e-13                1.56e-12              -2.294e-08           
  0.5                   2.3266e-08            -1.2e-13              8.4e-13               -2.3242e-08          
  0.6                   2.356e-08             0                     1.14e-12              -2.3534e-08          
  0.7                   2.3824e-08            -1.4e-13              1.9e-12               -2.3822e-08          
  0.8                   2.41e-08              4e-14                 1.76e-12              -2.4074e-08          
  0.9                   2.4328e-08            1.2e-13               1.16e-12              -2.428e-08           
  1                     2.4534e-08            -6e-14                4.4e-13               -2.4518e-08          
  1.1                   2.4736e-08            -6e-14                1.56e-12              -2.471e-08           
  1.2                   2.4928e-08            8e-14                 2.86e-12              -2.4866e-08          
  1.3                   2.5064e-08            0                     1.78e-12              -2.5052e-08          
  1.4                   2.5244e-08            6e-14                 1.18e-12              -2.52e-08            
  1.5                   2.5392e-08            4e-14                 9.2e-13               -2.5384e-08          
  1.6                   2.5552e-08            -4e-14                1.34e-12              -2.5526e-08          
  1.7                   2.569e-08             0                     7.4e-13               -2.5656e-08          
  1.8                   2.581e-08             -6e-14                -1.6e-12              -2.5822e-08          
  1.9                   2.5964e-08            6e-14                 -3.28e-12             -2.593e-08           
  2                     2.6078e-08            4e-14                 -5.86e-12             -2.6054e-08          
  2.1                   2.6196e-08            -2e-14                -1.034e-11            -2.617e-08           
  2.2                   2.6328e-08            -1.6e-13              -1.85e-11             -2.6288e-08          
  2.3                   2.6438e-08            -4e-14                -2.826e-11            -2.6406e-08          
  2.4                   2.6572e-08            -8e-14                -4.106e-11            -2.6488e-08          
  2.5                   2.6916e-08            -4e-14                -5.854e-11            -2.682e-08           
  2.6                   2.7016e-08            1e-13                 -8.258e-11            -2.6904e-08          
  2.7                   2.7156e-08            -1.2e-13              -1.154e-10            -2.7034e-08          
  2.8                   2.7306e-08            -1.2e-13              -1.5656e-10           -2.7108e-08          
  2.9                   2.7428e-08            4e-14                 -2.09e-10             -2.7216e-08          
  3                     2.7634e-08            2e-14                 -2.7586e-10           -2.7326e-08          
  3.1                   2.7794e-08            0                     -3.6102e-10           -2.739e-08           
  3.2                   2.7964e-08            8e-14                 -4.6508e-10           -2.7464e-08          
  3.3                   2.8238e-08            -2e-14                -5.9226e-10           -2.7554e-08          
  3.4                   2.8432e-08            1.2e-13               -7.4486e-10           -2.766e-08           
  3.5                   2.8688e-08            4e-14                 -9.2848e-10           -2.774e-08           
  3.6                   2.9016e-08            -2e-14                -1.1406e-09           -2.7828e-08          
END_DB

BEGIN_DB
 ICCAP_VAR vg         0.802          
 ICCAP_VAR vb         0              
 ICCAP_VAR vs         0              

 #vd                    id                    ig                    ib                    is                   
  0                     2.9598e-10            1e-13                 1.58e-12              -2.958e-10           
  0.1                   3.1768e-07            -4e-14                3.28e-12              -3.1764e-07          
  0.2                   3.8952e-07            6e-14                 1.22e-12              -3.895e-07           
  0.3                   4.019e-07             2e-14                 1.14e-12              -4.0178e-07          
  0.4                   4.073e-07             4e-14                 2.44e-12              -4.071e-07           
  0.5                   4.114e-07             0                     1.54e-12              -4.1126e-07          
  0.6                   4.1494e-07            -2e-14                1e-12                 -4.1484e-07          
  0.7                   4.1804e-07            4e-14                 8.6e-13               -4.1794e-07          
  0.8                   4.2088e-07            0                     1.48e-12              -4.207e-07           
  0.9                   4.235e-07             4e-14                 1.56e-12              -4.2336e-07          
  1                     4.2598e-07            1.2e-13               6e-13                 -4.2598e-07          
  1.1                   4.2844e-07            2e-14                 7.4e-13               -4.283e-07           
  1.2                   4.3068e-07            0                     1.96e-12              -4.3056e-07          
  1.3                   4.3268e-07            1e-13                 1.46e-12              -4.3258e-07          
  1.4                   4.344e-07             8e-14                 1.26e-12              -4.3242e-07          
  1.5                   4.3442e-07            8e-14                 -2.26e-12             -4.3408e-07          
  1.6                   4.3606e-07            1.6e-13               -1.8e-13              -4.361e-07           
  1.7                   4.3802e-07            6e-14                 -3.52e-12             -4.378e-07           
  1.8                   4.3962e-07            2e-13                 -1.14e-11             -4.3954e-07          
  1.9                   4.4148e-07            2e-14                 -2.548e-11            -4.4134e-07          
  2                     4.4318e-07            4e-14                 -4.838e-11            -4.4302e-07          
  2.1                   4.4478e-07            4e-14                 -9.002e-11            -4.4464e-07          
  2.2                   4.464e-07             6e-14                 -1.5292e-10           -4.4616e-07          
  2.3                   4.4794e-07            -8e-14                -2.458e-10            -4.476e-07           
  2.4                   4.4952e-07            4e-14                 -3.778e-10            -4.491e-07           
  2.5                   4.5124e-07            2e-14                 -5.6198e-10           -4.5056e-07          
  2.6                   4.5284e-07            1.2e-13               -8.1336e-10           -4.5188e-07          
  2.7                   4.5452e-07            4e-14                 -1.1472e-09           -4.5322e-07          
  2.8                   4.562e-07             1.2e-13               -1.5948e-09           -4.5448e-07          
  2.9                   4.5812e-07            4e-14                 -2.1798e-09           -4.5582e-07          
  3                     4.602e-07             4e-14                 -2.9364e-09           -4.5716e-07          
  3.1                   4.624e-07             -4e-14                -3.9058e-09           -4.5842e-07          
  3.2                   4.6488e-07            0                     -5.1326e-09           -4.5962e-07          
  3.3                   4.676e-07             -2e-14                -6.6638e-09           -4.6078e-07          
  3.4                   4.7074e-07            2e-14                 -8.5544e-09           -4.6202e-07          
  3.5                   4.7394e-07            -2e-14                -1.08476e-08          -4.6298e-07          
  3.6                   4.781e-07             0                     -1.3594e-08           -4.6428e-07          
END_DB

