! VERSION = 6.00
BEGIN_HEADER
 ICCAP_INPUTS
  vd         V  D GROUND SMU1 0.1 LIN        1    0          3.6        37   0.1       
  vg         V  G GROUND SMU2 0.001 LIN        2    0.772      3.6        5    0.707     
  vb         V  B GROUND SMU4 0.1 CON        0
  vs         V  S GROUND SMU3 0.1 CON        0
 ICCAP_OUTPUTS
  id         I  D GROUND SMU1 B
  ig         I  G GROUND SMU2 B
  ib         I  B GROUND SMU4 B
  is         I  S GROUND SMU3 B
 ICCAP_VALUES
  MASTER_SETUP_TYPE "~dc_idvd~"
  LINVT_VALUE "|idvg|100.0n|100.0m|1.000m|5|3.600|"
  LISTVT_VALUE ""
  TYPE "1"
  TEMP "-40.0000 "
  IS_TNOM " 0.00000 "
  MAIN.W "2.000u"
  MAIN.L "3.000u"
  MAIN.AD "680.0f"
  MAIN.AS "680.0f"
  MAIN.PD "4.680u"
  MAIN.PS "4.680u"
  MAIN.NF "1.000"
  MAIN.M "1"
  MAIN.NRD "0.000"
  MAIN.NRS "0.000"
  MAIN.LDRIFT1 "1E-06"
  MAIN.LDRIFT2 "1E-06"
  MAIN.SA "0.000"
  MAIN.SB "0.000"
  MAIN.SD "0.000"
  MAIN.SCA "0.000"
  MAIN.SCB "0.000"
  MAIN.SCC "0.000"
  MAIN.SC "0.000"
  MODULE "S558"
  PIN_D "14"
  PIN_G "7"
  PIN_S "8"
  PIN_B "13"
  PIN_E ""
  PIN_6 ""
  XY_ID ""
  FUNC "LW Scale"
  STI "SA ref"
  WPE "WPE ref"
  COMMENT ""
  DIS_MEAS ""
  TypeTCI "10"
END_HEADER

BEGIN_DB
 ICCAP_VAR vg         0.772          
 ICCAP_VAR vb         0              
 ICCAP_VAR vs         0              

 #vd                    id                    ig                    ib                    is                   
  0                     4.963e-10             8e-14                 1.44e-11              -3.6772e-10          
  0.1                   3.7058e-07            2e-14                 1.272e-11             -3.7074e-07          
  0.2                   4.0388e-07            -1.2e-13              1.184e-11             -4.0382e-07          
  0.3                   4.0878e-07            6e-14                 1.14e-11              -4.0892e-07          
  0.4                   4.1182e-07            -4e-14                1.204e-11             -4.1178e-07          
  0.5                   4.1432e-07            2e-14                 1.126e-11             -4.1438e-07          
  0.6                   4.1622e-07            -1.4e-13              1.044e-11             -4.1598e-07          
  0.7                   4.1798e-07            -1.4e-13              1.038e-11             -4.1786e-07          
  0.8                   4.1926e-07            -1.4e-13              1.124e-11             -4.1916e-07          
  0.9                   4.2076e-07            -1.6e-13              9.82e-12              -4.2064e-07          
  1                     4.2192e-07            -6e-14                9.48e-12              -4.2172e-07          
  1.1                   4.2302e-07            0                     9.92e-12              -4.2282e-07          
  1.2                   4.243e-07             -1.6e-13              9.4e-12               -4.2444e-07          
  1.3                   4.2558e-07            1.2e-13               9.06e-12              -4.2532e-07          
  1.4                   4.263e-07             -1.4e-13              8.94e-12              -4.2606e-07          
  1.5                   4.272e-07             -4e-14                9.02e-12              -4.2712e-07          
  1.6                   4.281e-07             1e-13                 7.82e-12              -4.2798e-07          
  1.7                   4.2924e-07            2e-14                 3.7e-12               -4.2942e-07          
  1.8                   4.3054e-07            -2e-13                -3.44e-12             -4.3024e-07          
  1.9                   4.3134e-07            -1e-13                -1.532e-11            -4.3122e-07          
  2                     4.3228e-07            -1.2e-13              -4.014e-11            -4.322e-07           
  2.1                   4.3306e-07            -6e-14                -8.044e-11            -4.3292e-07          
  2.2                   4.3384e-07            0                     -1.4248e-10           -4.3332e-07          
  2.3                   4.3452e-07            1e-13                 -2.3546e-10           -4.341e-07           
  2.4                   4.3568e-07            4e-14                 -3.7356e-10           -4.3506e-07          
  2.5                   4.366e-07             -1e-13                -5.667e-10            -4.3572e-07          
  2.6                   4.371e-07             -1.2e-13              -8.3414e-10           -4.3638e-07          
  2.7                   4.3876e-07            0                     -1.1946e-09           -4.3734e-07          
  2.8                   4.3958e-07            6e-14                 -1.6842e-09           -4.3778e-07          
  2.9                   4.409e-07             0                     -2.3288e-09           -4.383e-07           
  3                     4.4212e-07            2e-14                 -3.172e-09            -4.389e-07           
  3.1                   4.4356e-07            8e-14                 -4.2624e-09           -4.3938e-07          
  3.2                   4.4602e-07            -2e-14                -5.6518e-09           -4.4026e-07          
  3.3                   4.4808e-07            -1e-13                -7.3836e-09           -4.405e-07           
  3.4                   4.5072e-07            -1.2e-13              -9.528e-09            -4.4134e-07          
  3.5                   4.5402e-07            -8e-14                -1.2122e-08           -4.418e-07           
  3.6                   4.577e-07             -8e-14                -1.521e-08            -4.4242e-07          
END_DB

BEGIN_DB
 ICCAP_VAR vg         1.479          
 ICCAP_VAR vb         0              
 ICCAP_VAR vs         0              

 #vd                    id                    ig                    ib                    is                   
  0                     2.3726e-09            5.2e-13               5.98e-12              -2.9442e-09          
  0.1                   9.2674e-06            3.2e-13               4.98e-12              -9.264e-06           
  0.2                   1.659e-05             1.8e-13               3.74e-12              -1.6572e-05          
  0.3                   2.2008e-05            1e-13                 4.04e-12              -2.1988e-05          
  0.4                   2.5672e-05            6e-14                 4.12e-12              -2.5658e-05          
  0.5                   2.7808e-05            1.8e-13               4.36e-12              -2.7792e-05          
  0.6                   2.8808e-05            1e-13                 4e-12                 -2.8794e-05          
  0.7                   2.921e-05             2e-14                 3.56e-12              -2.919e-05           
  0.8                   2.9388e-05            1.2e-13               4e-12                 -2.9372e-05          
  0.9                   2.9482e-05            1.2e-13               4.2e-12               -2.9468e-05          
  1                     2.9552e-05            1.6e-13               3.04e-12              -2.9534e-05          
  1.1                   2.9602e-05            1.4e-13               3.96e-12              -2.9586e-05          
  1.2                   2.9646e-05            8e-14                 4.22e-12              -2.9626e-05          
  1.3                   2.9686e-05            -2e-14                3.04e-12              -2.9668e-05          
  1.4                   2.9716e-05            0                     4.08e-12              -2.9702e-05          
  1.5                   2.975e-05             8e-14                 3.96e-12              -2.9736e-05          
  1.6                   2.9788e-05            2e-14                 3.04e-12              -2.9768e-05          
  1.7                   2.9814e-05            4e-14                 4.5e-12               -2.9796e-05          
  1.8                   2.9842e-05            2.2e-13               3.84e-12              -2.9826e-05          
  1.9                   2.9872e-05            8e-14                 -6e-13                -2.985e-05           
  2                     2.9896e-05            6e-14                 -1.238e-11            -2.9878e-05          
  2.1                   2.9918e-05            1.2e-13               -5.718e-11            -2.9902e-05          
  2.2                   2.9942e-05            1.8e-13               -1.819e-10            -2.9926e-05          
  2.3                   2.997e-05             8e-14                 -4.7396e-10           -2.995e-05           
  2.4                   2.999e-05             1.8e-13               -1.0854e-09           -2.997e-05           
  2.5                   3.0016e-05            0                     -2.2372e-09           -2.9996e-05          
  2.6                   3.0038e-05            1.2e-13               -4.2358e-09           -3.0016e-05          
  2.7                   3.0062e-05            1.6e-13               -7.4792e-09           -3.0038e-05          
  2.8                   3.0094e-05            8e-14                 -1.2498e-08           -3.0062e-05          
  2.9                   3.012e-05             0                     -1.9914e-08           -3.0084e-05          
  3                     3.0156e-05            -2e-14                -3.057e-08            -3.0106e-05          
  3.1                   3.0188e-05            2e-14                 -4.5522e-08           -3.0128e-05          
  3.2                   3.0226e-05            4e-14                 -6.6078e-08           -3.0144e-05          
  3.3                   3.0276e-05            6e-14                 -9.3838e-08           -3.0162e-05          
  3.4                   3.0332e-05            1.6e-13               -1.3094e-07           -3.0184e-05          
  3.5                   3.0404e-05            0                     -1.7996e-07           -3.0204e-05          
  3.6                   3.0482e-05            6e-14                 -2.4368e-07           -3.0224e-05          
END_DB

BEGIN_DB
 ICCAP_VAR vg         2.186          
 ICCAP_VAR vb         0              
 ICCAP_VAR vs         0              

 #vd                    id                    ig                    ib                    is                   
  0                     8.934e-09             3.6e-13               2.94e-12              -2.2242e-09          
  0.1                   1.9008e-05            4.6e-13               3.42e-12              -1.8988e-05          
  0.2                   3.6282e-05            3e-13                 2.02e-12              -3.6262e-05          
  0.3                   5.174e-05             3.4e-13               3.14e-12              -5.1724e-05          
  0.4                   6.5396e-05            3.2e-13               1.96e-12              -6.5382e-05          
  0.5                   7.7192e-05            3.4e-13               1.58e-12              -7.7176e-05          
  0.6                   8.7106e-05            2.8e-13               3.28e-12              -8.709e-05           
  0.7                   9.5184e-05            2.4e-13               2.12e-12              -9.5164e-05          
  0.8                   0.000101468           4e-14                 1.98e-12              -0.000101452         
  0.9                   0.000106062           1.8e-13               3.34e-12              -0.000106046         
  1                     0.000109172           1.6e-13               2.48e-12              -0.000109152         
  1.1                   0.00011107            8e-14                 2.2e-12               -0.000111056         
  1.2                   0.000112134           4.2e-13               3.32e-12              -0.000112132         
  1.3                   0.00011288            3.8e-13               2.22e-12              -0.000112722         
  1.4                   0.00011322            1.4e-13               2.2e-12               -0.000113076         
  1.5                   0.00011344            1e-13                 3.22e-12              -0.000113304         
  1.6                   0.00011364            1.4e-13               2.32e-12              -0.000113478         
  1.7                   0.00011376            1.6e-13               2.36e-12              -0.00011362          
  1.8                   0.00011388            2.6e-13               2.3e-12               -0.000113726         
  1.9                   0.00011398            1.2e-13               2.64e-12              -0.000113826         
  2                     0.00011408            1.2e-13               2.48e-12              -0.000113922         
  2.1                   0.00011416            4e-14                 1.56e-12              -0.000114014         
  2.2                   0.00011424            1.8e-13               1.58e-12              -0.000114088         
  2.3                   0.00011432            1e-13                 -4.4e-13              -0.00011417          
  2.4                   0.0001144             1e-13                 -1.378e-11            -0.000114242         
  2.5                   0.00011448            1.6e-13               -6.032e-11            -0.000114326         
  2.6                   0.00011454            1.6e-13               -2.0706e-10           -0.000114386         
  2.7                   0.0001146             2e-14                 -6.0008e-10           -0.000114454         
  2.8                   0.00011466            1.6e-13               -1.5144e-09           -0.00011426          
  2.9                   0.00011474            1.8e-13               -3.4112e-09           -0.00011432          
  3                     0.00011478            2e-13                 -7.0084e-09           -0.00011438          
  3.1                   0.00011486            2e-13                 -1.3304e-08           -0.00011444          
  3.2                   0.0001149             -2e-14                -2.3684e-08           -0.00011448          
  3.3                   0.00011498            1.4e-13               -3.979e-08            -0.00011454          
  3.4                   0.00011506            1.2e-13               -6.4026e-08           -0.0001146           
  3.5                   0.00011516            1e-13                 -9.9088e-08           -0.00011466          
  3.6                   0.00011526            4e-14                 -1.4848e-07           -0.00011472          
END_DB

BEGIN_DB
 ICCAP_VAR vg         2.893          
 ICCAP_VAR vb         0              
 ICCAP_VAR vs         0              

 #vd                    id                    ig                    ib                    is                   
  0                     1.2376e-08            3.6e-13               2.34e-12              -1.1774e-08          
  0.1                   2.5806e-05            4e-13                 2.26e-12              -2.5788e-05          
  0.2                   5.0364e-05            3e-13                 2.58e-12              -5.0344e-05          
  0.3                   7.354e-05             3.4e-13               1.26e-12              -7.3522e-05          
  0.4                   9.5336e-05            4.6e-13               1.26e-12              -9.5318e-05          
  0.5                   0.00011576            3.2e-13               1.9e-12               -0.00011538          
  0.6                   0.00013444            3e-13                 1.82e-12              -0.00013404          
  0.7                   0.00015148            2.4e-13               1.34e-12              -0.0001511           
  0.8                   0.00016684            1.8e-13               1.78e-12              -0.00016646          
  0.9                   0.00018042            2.2e-13               2.08e-12              -0.00018004          
  1                     0.00019228            2.2e-13               1.76e-12              -0.0001919           
  1.1                   0.00020238            2.4e-13               1.2e-12               -0.000202            
  1.2                   0.00021074            2.6e-13               1.06e-12              -0.00021034          
  1.3                   0.00021738            1.8e-13               1.9e-12               -0.000217            
  1.4                   0.00022248            1.2e-13               2.56e-12              -0.0002221           
  1.5                   0.00022616            1.8e-13               1.28e-12              -0.0002258           
  1.6                   0.00022868            2.8e-13               2.42e-12              -0.0002283           
  1.7                   0.0002303             2.2e-13               2.78e-12              -0.00022992          
  1.8                   0.00023132            2.8e-13               6.4e-13               -0.00023096          
  1.9                   0.000232              2.6e-13               1.84e-12              -0.00023162          
  2                     0.00023244            3.4e-13               2.96e-12              -0.00023206          
  2.1                   0.00023276            2.8e-13               1.3e-12               -0.00023238          
  2.2                   0.00023302            2.2e-13               2.18e-12              -0.00023264          
  2.3                   0.00023322            2.6e-13               2.56e-12              -0.00023284          
  2.4                   0.0002334             1e-13                 1.86e-12              -0.00023302          
  2.5                   0.00023356            2.2e-13               2.3e-12               -0.00023318          
  2.6                   0.0002337             8e-14                 1.84e-12              -0.00023332          
  2.7                   0.00023384            1.4e-13               -1.74e-12             -0.00023346          
  2.8                   0.00023396            1.8e-13               -1.024e-11            -0.00023358          
  2.9                   0.00023408            1.4e-13               -4.748e-11            -0.0002337           
  3                     0.00023418            1e-13                 -1.6448e-10           -0.0002338           
  3.1                   0.00023428            2e-14                 -4.8936e-10           -0.0002339           
  3.2                   0.0002344             2e-13                 -1.3004e-09           -0.00023402          
  3.3                   0.00023448            8e-14                 -3.0954e-09           -0.0002341           
  3.4                   0.00023458            1.4e-13               -6.7292e-09           -0.00023418          
  3.5                   0.00023466            1e-13                 -1.3496e-08           -0.00023428          
  3.6                   0.00023476            2.6e-13               -2.5206e-08           -0.00023436          
END_DB

BEGIN_DB
 ICCAP_VAR vg         3.6            
 ICCAP_VAR vb         0              
 ICCAP_VAR vs         0              

 #vd                    id                    ig                    ib                    is                   
  0                     1.4338e-08            6e-13                 1.28e-12              -1.3368e-08          
  0.1                   2.9558e-05            3.8e-13               2e-12                 -2.9538e-05          
  0.2                   5.8282e-05            3.2e-13               2.3e-12               -5.8268e-05          
  0.3                   8.6052e-05            4e-13                 1.56e-12              -8.6038e-05          
  0.4                   0.00011289            3.4e-13               2.8e-13               -0.000112878         
  0.5                   0.0001388             3e-13                 1.66e-12              -0.00013842          
  0.6                   0.00016336            3.4e-13               9.4e-13               -0.00016298          
  0.7                   0.00018674            1.6e-13               2.7e-12               -0.00018636          
  0.8                   0.0002088             3.4e-13               1e-12                 -0.00020842          
