! VERSION = 6.00
BEGIN_HEADER
 ICCAP_INPUTS
  vd         V  D GROUND SMU1 0.1 LIN        1    0          3.6        37   0.1       
  vg         V  G GROUND SMU2 0.001 LIST       2 3 0.221 0.421 0.621
  vb         V  B GROUND SMU4 0.1 CON        0
  vs         V  S GROUND SMU3 0.1 CON        0
 ICCAP_OUTPUTS
  id         I  D GROUND SMU1 B
  ig         I  G GROUND SMU2 B
  ib         I  B GROUND SMU4 B
  is         I  S GROUND SMU3 B
 ICCAP_VALUES
  MASTER_SETUP_TYPE "~dc_idvd~"
  LINVT_VALUE ""
  LISTVT_VALUE "|idvg|100.0n|-200.0m|1.000m|3|200.0m|200.0m|"
  TYPE "1"
  TEMP " 27.0000 "
  IS_TNOM " 1.00000 "
  MAIN.W "600.0n"
  MAIN.L "330.0n"
  MAIN.AD "204.0f"
  MAIN.AS "204.0f"
  MAIN.PD "1.880u"
  MAIN.PS "1.880u"
  MAIN.NF "1.000"
  MAIN.M "1"
  MAIN.NRD "0.000"
  MAIN.NRS "0.000"
  MAIN.LDRIFT1 "1E-06"
  MAIN.LDRIFT2 "1E-06"
  MAIN.SA "0.000"
  MAIN.SB "0.000"
  MAIN.SD "0.000"
  MAIN.SCA "0.000"
  MAIN.SCB "0.000"
  MAIN.SCC "0.000"
  MAIN.SC "0.000"
  MODULE "S559"
  PIN_D "20"
  PIN_G "1"
  PIN_S "2"
  PIN_B "19"
  PIN_E ""
  PIN_6 ""
  XY_ID ""
  FUNC "Additional"
  STI "SA ref"
  WPE "WPE ref"
  COMMENT ""
  DIS_MEAS ""
  TypeTCI "10"
END_HEADER

BEGIN_DB
 ICCAP_VAR vg         0.221          
 ICCAP_VAR vb         0              
 ICCAP_VAR vs         0              

 #vd                    id                    ig                    ib                    is                   
  0                     -6e-14                -5.6e-13              2.56e-12              -2e-13               
  0.1                   1.927e-10             -4.4e-13              3.62e-12              -1.9258e-10          
  0.2                   2.4482e-10            -2.4e-13              1.68e-12              -2.4452e-10          
  0.3                   2.9462e-10            -3.2e-13              2.84e-12              -2.935e-10           
  0.4                   3.4486e-10            -4e-13                1.94e-12              -3.4446e-10          
  0.5                   3.9772e-10            -3.6e-13              2.06e-12              -3.972e-10           
  0.6                   4.5384e-10            -2.6e-13              1.96e-12              -4.5304e-10          
  0.7                   5.1142e-10            -2.6e-13              1.98e-12              -5.1052e-10          
  0.8                   5.7198e-10            -2.6e-13              2e-12                 -5.7112e-10          
  0.9                   6.3638e-10            -2.4e-13              1.48e-12              -6.3516e-10          
  1                     7.0458e-10            -2e-13                2.64e-12              -7.0376e-10          
  1.1                   7.7746e-10            -1.2e-13              1.92e-12              -7.7472e-10          
  1.2                   8.5426e-10            -1.6e-13              2.48e-12              -8.5294e-10          
  1.3                   9.39e-10              -1e-13                1.74e-12              -9.3886e-10          
  1.4                   1.032e-09             -8e-14                2.66e-12              -1.02998e-09         
  1.5                   1.129e-09             -4e-14                1.5e-12               -1.12778e-09         
  1.6                   1.2366e-09            -2e-14                2.08e-12              -1.2332e-09          
  1.7                   1.3524e-09            -1.4e-13              2.02e-12              -1.3482e-09          
  1.8                   1.478e-09             -8e-14                1.72e-12              -1.474e-09           
  1.9                   1.6146e-09            -6e-14                3.4e-13               -1.6096e-09          
  2                     1.7634e-09            0                     1e-13                 -1.7582e-09          
  2.1                   1.927e-09             -1.6e-13              -4.4e-13              -1.9194e-09          
  2.2                   2.1044e-09            -8e-14                -1.26e-12             -2.0962e-09          
  2.3                   2.2994e-09            -1.2e-13              -5.12e-12             -2.2896e-09          
  2.4                   2.5128e-09            -4e-14                -8.02e-12             -2.4988e-09          
  2.5                   2.752e-09             -6e-14                -1.232e-11            -2.7328e-09          
  2.6                   3.0128e-09            -1e-13                -1.96e-11             -2.987e-09           
  2.7                   3.3016e-09            -4e-14                -2.936e-11            -3.2652e-09          
  2.8                   3.6224e-09            -8e-14                -4.264e-11            -3.5734e-09          
  2.9                   3.979e-09             6e-14                 -6.29e-11             -3.9094e-09          
  3                     4.3762e-09            -4e-14                -8.75e-11             -4.2828e-09          
  3.1                   4.8202e-09            -8e-14                -1.2042e-10           -4.6928e-09          
  3.2                   5.317e-09             -8e-14                -1.6598e-10           -5.1464e-09          
  3.3                   5.881e-09             2e-14                 -2.2568e-10           -5.6486e-09          
  3.4                   6.5118e-09            6e-14                 -3.017e-10            -6.199e-09           
  3.5                   7.2198e-09            2e-14                 -3.9842e-10           -6.8158e-09          
  3.6                   7.9996e-09            4e-14                 -5.2e-10              -7.4726e-09          
END_DB

BEGIN_DB
 ICCAP_VAR vg         0.421          
 ICCAP_VAR vb         0              
 ICCAP_VAR vs         0              

 #vd                    id                    ig                    ib                    is                   
  0                     3.668e-11             -2e-14                2.32e-12              -3.768e-11           
  0.1                   3.6644e-08            6e-14                 1.66e-12              -3.6618e-08          
  0.2                   4.8392e-08            0                     1.54e-12              -4.8386e-08          
  0.3                   5.8186e-08            4e-14                 1.84e-12              -5.817e-08           
  0.4                   6.765e-08             0                     1.8e-12               -6.7624e-08          
  0.5                   7.7034e-08            4e-14                 1.08e-12              -7.6996e-08          
  0.6                   8.658e-08             1e-13                 1.24e-12              -8.662e-08           
  0.7                   9.6268e-08            0                     2.14e-12              -9.6078e-08          
  0.8                   1.0592e-07            1e-13                 1.28e-12              -1.05604e-07         
  0.9                   1.16e-07              8e-14                 1.84e-12              -1.15906e-07         
  1                     1.2632e-07            6e-14                 1.76e-12              -1.2638e-07          
  1.1                   1.3758e-07            1.2e-13               1.4e-12               -1.3742e-07          
  1.2                   1.4914e-07            0                     1.68e-12              -1.49e-07            
  1.3                   1.6136e-07            1.2e-13               1.58e-12              -1.612e-07           
  1.4                   1.7422e-07            1.2e-13               2.6e-13               -1.7414e-07          
  1.5                   1.879e-07             4e-14                 -2.26e-12             -1.8774e-07          
  1.6                   2.0238e-07            8e-14                 -7.76e-12             -2.0218e-07          
  1.7                   2.178e-07             4e-14                 -1.738e-11            -2.1758e-07          
  1.8                   2.34e-07              1.4e-13               -3.796e-11            -2.344e-07           
  1.9                   2.5214e-07            2.2e-13               -6.998e-11            -2.5196e-07          
  2                     2.7078e-07            1.4e-13               -1.2922e-10           -2.7058e-07          
  2.1                   2.9004e-07            1.4e-13               -2.1774e-10           -2.8964e-07          
  2.2                   3.1124e-07            0                     -3.5626e-10           -3.1066e-07          
  2.3                   3.339e-07             2e-13                 -5.6168e-10           -3.3296e-07          
  2.4                   3.5836e-07            1.4e-13               -8.6424e-10           -3.5766e-07          
  2.5                   3.8486e-07            6e-14                 -1.2976e-09           -3.8342e-07          
  2.6                   4.1276e-07            0                     -1.9152e-09           -4.1072e-07          
  2.7                   4.4268e-07            1.6e-13               -2.7794e-09           -4.3974e-07          
  2.8                   4.749e-07             1.2e-13               -3.9774e-09           -4.702e-07           
  2.9                   5.0974e-07            1.4e-13               -5.6166e-09           -5.039e-07           
  3                     5.467e-07             1.6e-13               -7.8278e-09           -5.3884e-07          
  3.1                   5.8742e-07            2.2e-13               -1.07564e-08          -5.7568e-07          
  3.2                   6.316e-07             1.2e-13               -1.4636e-08           -6.168e-07           
  3.3                   6.7834e-07            1.2e-13               -1.9622e-08           -6.5954e-07          
  3.4                   7.3106e-07            1.4e-13               -2.5936e-08           -7.0444e-07          
  3.5                   7.8624e-07            1.4e-13               -3.3942e-08           -7.5188e-07          
  3.6                   8.4812e-07            1.8e-13               -4.3892e-08           -8.0394e-07          
END_DB

BEGIN_DB
 ICCAP_VAR vg         0.621          
 ICCAP_VAR vb         0              
 ICCAP_VAR vs         0              

 #vd                    id                    ig                    ib                    is                   
  0                     7.0348e-10            0                     2.04e-12              -7.1116e-10          
  0.1                   1.10138e-06           4e-14                 2.24e-12              -1.10112e-06         
  0.2                   1.5272e-06            4e-14                 1.42e-12              -1.5226e-06          
  0.3                   1.8e-06               1.2e-13               1.36e-12              -1.796e-06           
  0.4                   2.0214e-06            1e-13                 2.12e-12              -2.0168e-06          
  0.5                   2.2206e-06            8e-14                 1.7e-12               -2.2162e-06          
  0.6                   2.4084e-06            1.2e-13               7.4e-13               -2.4048e-06          
  0.7                   2.5904e-06            8e-14                 2.36e-12              -2.586e-06           
  0.8                   2.7674e-06            8e-14                 1.16e-12              -2.764e-06           
  0.9                   2.9412e-06            2.4e-13               1.46e-12              -2.9382e-06          
  1                     3.1154e-06            2.2e-13               2.26e-12              -3.1122e-06          
  1.1                   3.289e-06             8e-14                 1.34e-12              -3.2858e-06          
  1.2                   3.4644e-06            2.6e-13               -2.68e-12             -3.4614e-06          
  1.3                   3.6404e-06            8e-14                 -1e-13                -3.6368e-06          
  1.4                   3.8204e-06            1.6e-13               -7.12e-12             -3.8176e-06          
  1.5                   4.0036e-06            2e-13                 -2.524e-11            -4e-06               
  1.6                   4.19e-06              1.8e-13               -7.012e-11            -4.185e-06           
  1.7                   4.3802e-06            1e-13                 -1.723e-10            -4.3752e-06          
  1.8                   4.5748e-06            1.4e-13               -3.7254e-10           -4.5708e-06          
  1.9                   4.7754e-06            0                     -7.35e-10             -4.77e-06            
  2                     4.979e-06             1e-13                 -1.3462e-09           -4.9734e-06          
  2.1                   5.1862e-06            -2e-14                -2.3316e-09           -5.1808e-06          
  2.2                   5.4022e-06            2e-13                 -3.8422e-09           -5.3948e-06          
  2.3                   5.6244e-06            1.4e-13               -6.09e-09             -5.6124e-06          
  2.4                   5.852e-06             2e-13                 -9.34e-09             -5.8378e-06          
  2.5                   6.0866e-06            1e-13                 -1.3956e-08           -6.0686e-06          
  2.6                   6.3262e-06            1.6e-13               -2.0396e-08           -6.3022e-06          
  2.7                   6.5776e-06            1.6e-13               -2.9248e-08           -6.5458e-06          
  2.8                   6.8412e-06            1.2e-13               -4.1286e-08           -6.7946e-06          
  2.9                   7.1176e-06            2e-13                 -5.7372e-08           -7.0534e-06          
  3                     7.3988e-06            2.4e-13               -7.8908e-08           -7.3188e-06          
  3.1                   7.712e-06             2e-13                 -1.0687e-07           -7.6054e-06          
  3.2                   8.0326e-06            1.4e-13               -1.4286e-07           -7.8864e-06          
  3.3                   8.3686e-06            1.6e-13               -1.8854e-07           -8.1794e-06          
  3.4                   8.73e-06              2.6e-13               -2.4572e-07           -8.479e-06           
  3.5                   9.1142e-06            1.8e-13               -3.1622e-07           -8.7928e-06          
  3.6                   9.5036e-06            1.4e-13               -4.0136e-07           -9.0934e-06          
END_DB

