! VERSION = 6.00
BEGIN_HEADER
 ICCAP_INPUTS
  vd         V  D GROUND SMU1 0.1 LIN        1    0          3.6        37   0.1       
  vg         V  G GROUND SMU2 0.001 LIN        2    0.848      3.6        5    0.688     
  vb         V  B GROUND SMU4 0.1 CON        0
  vs         V  S GROUND SMU3 0.1 CON        0
 ICCAP_OUTPUTS
  id         I  D GROUND SMU1 B
  ig         I  G GROUND SMU2 B
  ib         I  B GROUND SMU4 B
  is         I  S GROUND SMU3 B
 ICCAP_VALUES
  MASTER_SETUP_TYPE "~dc_idvd~"
  LINVT_VALUE "|idvg|100.0n|100.0m|1.000m|5|3.600|"
  LISTVT_VALUE ""
  TYPE "1"
  TEMP "-40.0000 "
  IS_TNOM " 0.00000 "
  MAIN.W "10.00u"
  MAIN.L "500.0n"
  MAIN.AD "3.400p"
  MAIN.AS "3.400p"
  MAIN.PD "20.68u"
  MAIN.PS "20.68u"
  MAIN.NF "1.000"
  MAIN.M "1"
  MAIN.NRD "0.000"
  MAIN.NRS "0.000"
  MAIN.LDRIFT1 "1E-06"
  MAIN.LDRIFT2 "1E-06"
  MAIN.SA "0.000"
  MAIN.SB "0.000"
  MAIN.SD "0.000"
  MAIN.SCA "0.000"
  MAIN.SCB "0.000"
  MAIN.SCC "0.000"
  MAIN.SC "0.000"
  MODULE "S556"
  PIN_D "14"
  PIN_G "7"
  PIN_S "8"
  PIN_B "13"
  PIN_E ""
  PIN_6 ""
  XY_ID ""
  FUNC "Short"
  STI "SA ref"
  WPE "WPE ref"
  COMMENT ""
  DIS_MEAS ""
  TypeTCI "10"
END_HEADER

BEGIN_DB
 ICCAP_VAR vg         0.848          
 ICCAP_VAR vb         0              
 ICCAP_VAR vs         0              

 #vd                    id                    ig                    ib                    is                   
  0                     3.7174e-09            1.8e-13               1.402e-11             -2.9314e-09          
  0.1                   3.1198e-06            8e-14                 1.262e-11             -3.1146e-06          
  0.2                   3.6466e-06            4e-14                 1.232e-11             -3.6446e-06          
  0.3                   3.9008e-06            2e-14                 1.128e-11             -3.8924e-06          
  0.4                   4.0948e-06            0                     1.06e-11              -4.0962e-06          
  0.5                   4.2788e-06            -4e-14                1.104e-11             -4.277e-06           
  0.6                   4.4506e-06            6e-14                 9.98e-12              -4.4482e-06          
  0.7                   4.6162e-06            -1e-13                1.014e-11             -4.622e-06           
  0.8                   4.7902e-06            -1e-13                1.022e-11             -4.7884e-06          
  0.9                   4.9398e-06            -4e-14                1.052e-11             -4.9488e-06          
  1                     5.1032e-06            -8e-14                9.54e-12              -5.1014e-06          
  1.1                   5.255e-06             -8e-14                1.006e-11             -5.2558e-06          
  1.2                   5.408e-06             0                     8.84e-12              -5.4026e-06          
  1.3                   5.553e-06             6e-14                 7.78e-12              -5.5524e-06          
  1.4                   5.707e-06             -2.8e-13              5.28e-12              -5.695e-06           
  1.5                   5.8484e-06            -1.6e-13              -7.24e-12             -5.8556e-06          
  1.6                   5.9972e-06            4e-14                 -4.15e-11             -6.0054e-06          
  1.7                   6.1454e-06            0                     -1.2204e-10           -6.134e-06           
  1.8                   6.2844e-06            -4e-14                -2.928e-10            -6.2782e-06          
  1.9                   6.447e-06             2e-14                 -6.222e-10            -6.443e-06           
  2                     6.6254e-06            0                     -1.1906e-09           -6.6196e-06          
  2.1                   6.7726e-06            -2e-14                -2.1176e-09           -6.7704e-06          
  2.2                   6.9238e-06            6e-14                 -3.5622e-09           -6.9194e-06          
  2.3                   7.075e-06             -2e-14                -5.7156e-09           -7.0666e-06          
  2.4                   7.2392e-06            -1.2e-13              -8.8278e-09           -7.2262e-06          
  2.5                   7.3992e-06            -2e-14                -1.3274e-08           -7.3856e-06          
  2.6                   7.5716e-06            -1e-13                -1.9454e-08           -7.5512e-06          
  2.7                   7.7274e-06            0                     -2.7978e-08           -7.7028e-06          
  2.8                   7.9136e-06            -8e-14                -3.9492e-08           -7.8674e-06          
  2.9                   8.0928e-06            -1.4e-13              -5.4958e-08           -8.0348e-06          
  3                     8.2768e-06            -1.6e-13              -7.5356e-08           -8.2044e-06          
  3.1                   8.4672e-06            4e-14                 -1.01936e-07          -8.36e-06            
  3.2                   8.6732e-06            0                     -1.3588e-07           -8.5282e-06          
  3.3                   8.8766e-06            -2e-14                -1.7878e-07           -8.6834e-06          
  3.4                   9.0948e-06            -1.4e-13              -2.3218e-07           -8.8544e-06          
  3.5                   9.3244e-06            -4e-14                -2.9792e-07           -9.0276e-06          
  3.6                   9.5722e-06            2e-14                 -3.7616e-07           -9.1946e-06          
END_DB

BEGIN_DB
 ICCAP_VAR vg         1.536          
 ICCAP_VAR vb         0              
 ICCAP_VAR vs         0              

 #vd                    id                    ig                    ib                    is                   
  0                     1.4024e-07            5.8e-13               6.18e-12              -1.1532e-07          
  0.1                   0.00026612            3.2e-13               4.46e-12              -0.00026572          
  0.2                   0.00046706            1.8e-13               4.22e-12              -0.00046664          
  0.3                   0.00060454            1.8e-13               3.48e-12              -0.00060434          
  0.4                   0.0006914             2e-13                 4.26e-12              -0.00069094          
  0.5                   0.00074314            2.6e-13               4.46e-12              -0.00074272          
  0.6                   0.00077382            2.2e-13               3.72e-12              -0.00077364          
  0.7                   0.00079352            2e-13                 4.58e-12              -0.00079312          
  0.8                   0.0008072             1.2e-13               4.46e-12              -0.0008068           
  0.9                   0.0008177             1e-13                 3.34e-12              -0.00081734          
  1                     0.00082616            1.8e-13               3.94e-12              -0.0008258           
  1.1                   0.00083384            3.4e-13               3.98e-12              -0.0008336           
  1.2                   0.00084058            6e-14                 3.54e-12              -0.0008402           
  1.3                   0.00084674            1.2e-13               3.54e-12              -0.00084644          
  1.4                   0.0008525             4e-14                 5.4e-13               -0.00085208          
  1.5                   0.00085786            2e-13                 -2.062e-11            -0.0008576           
  1.6                   0.0008631             1.4e-13               -1.1126e-10           -0.00086266          
  1.7                   0.0008679             2.2e-13               -4.5732e-10           -0.00086752          
  1.8                   0.00087282            2e-14                 -1.5496e-09           -0.00087264          
  1.9                   0.00087774            -4e-14                -4.4972e-09           -0.00087734          
  2                     0.00088222            2e-14                 -1.13776e-08          -0.00088176          
  2.1                   0.00088644            1.2e-13               -2.5814e-08           -0.00088632          
  2.2                   0.00089106            1e-13                 -5.327e-08            -0.00089048          
  2.3                   0.0008951             4e-14                 -1.01546e-07          -0.00089468          
  2.4                   0.00089932            -1e-13                -1.8096e-07           -0.00089888          
  2.5                   0.00090368            1.2e-13               -3.0564e-07           -0.00090298          
  2.6                   0.00090762            4e-14                 -4.93e-07             -0.00090694          
  2.7                   0.00091198            2e-13                 -7.6494e-07           -0.00091086          
  2.8                   0.00091618            8e-14                 -1.15018e-06          -0.00091488          
  2.9                   0.00092088            2e-13                 -1.6838e-06           -0.00091878          
  3                     0.00092532            8e-14                 -2.4144e-06           -0.00092262          
  3.1                   0.0009304             1.8e-13               -3.3996e-06           -0.0009268           
  3.2                   0.00093574            1.4e-13               -4.707e-06            -0.00093064          
  3.3                   0.00094154            2e-13                 -6.4184e-06           -0.00093488          
  3.4                   0.00094764            2e-13                 -8.6404e-06           -0.00093872          
  3.5                   0.00095492            1.8e-13               -1.1476e-05           -0.0009429           
  3.6                   0.00096286            2.8e-13               -1.5026e-05           -0.00094718          
END_DB

BEGIN_DB
 ICCAP_VAR vg         2.224          
 ICCAP_VAR vb         0              
 ICCAP_VAR vs         0              

 #vd                    id                    ig                    ib                    is                   
  0                     1.889e-07             4.8e-13               2.7e-12               -1.802e-07           
  0.1                   0.00052316            4.6e-13               3.04e-12              -0.0005228           
  0.2                   0.00098596            3.2e-13               3.06e-12              -0.0009856           
  0.3                   0.0013732             2.8e-13               2.82e-12              -0.0013712           
  0.4                   0.001681              3.2e-13               2.82e-12              -0.0016792           
  0.5                   0.0019156             1.4e-13               2.04e-12              -0.0019136           
  0.6                   0.0020874             2e-13                 4.02e-12              -0.0020856           
  0.7                   0.0022102             2.2e-13               1.86e-12              -0.0022086           
  0.8                   0.0022958             6e-14                 2.06e-12              -0.0022942           
  0.9                   0.0023554             2.4e-13               2.56e-12              -0.0023536           
  1                     0.0023972             1.8e-13               2.48e-12              -0.0023952           
  1.1                   0.0024272             1e-13                 2.44e-12              -0.0024252           
  1.2                   0.0024496             1.6e-13               2.28e-12              -0.0024476           
  1.3                   0.0024674             2.4e-13               2.42e-12              -0.0024656           
  1.4                   0.0024822             2.6e-13               1.94e-12              -0.0024806           
  1.5                   0.0024946             2.8e-13               -9e-13                -0.0024926           
  1.6                   0.0025056             1.4e-13               -1.49e-11             -0.002504            
  1.7                   0.0025154             2.4e-13               -7.712e-11            -0.0025136           
  1.8                   0.0025244             1.8e-13               -3.112e-10            -0.0025226           
  1.9                   0.0025326             2.4e-13               -1.0616e-09           -0.0025308           
  2                     0.0025404             2.2e-13               -3.1776e-09           -0.0025386           
  2.1                   0.0025476             2.2e-13               -8.5042e-09           -0.0025458           
  2.2                   0.0025546             2e-14                 -2.0586e-08           -0.0025528           
  2.3                   0.0025612             1e-13                 -4.556e-08            -0.0025594           
  2.4                   0.0025676             8e-14                 -9.3118e-08           -0.0025656           
  2.5                   0.0025736             1e-13                 -1.7788e-07           -0.0025716           
  2.6                   0.0025796             -2e-14                -3.2048e-07           -0.0025774           
  2.7                   0.0025854             4e-14                 -5.4788e-07           -0.002583            
  2.8                   0.0025912             4e-14                 -8.9628e-07           -0.0025886           
  2.9                   0.0025974             0                     -1.4102e-06           -0.0025938           
  3                     0.002603              2e-14                 -2.152e-06            -0.0025988           
  3.1                   0.0026094             4e-14                 -3.1962e-06           -0.0026044           
  3.2                   0.002616              -6e-14                -4.6344e-06           -0.0026096           
  3.3                   0.0026234             0                     -6.5816e-06           -0.002615            
  3.4                   0.0026312             -2e-14                -9.1904e-06           -0.0026202           
  3.5                   0.00264               -2e-13                -1.2626e-05           -0.0026256           
  3.6                   0.0026502             1.4e-13               -1.711e-05            -0.0026312           
END_DB

BEGIN_DB
 ICCAP_VAR vg         2.912          
 ICCAP_VAR vb         0              
 ICCAP_VAR vs         0              

 #vd                    id                    ig                    ib                    is                   
  0                     1.992e-07             6e-13                 2.6e-12               -2.127e-07           
  0.1                   0.00067774            4.4e-13               3.68e-12              -0.00067736          
  0.2                   0.001308              2.4e-13               2.78e-12              -0.001306            
  0.3                   0.001868              3.2e-13               1.2e-12               -0.0018662           
  0.4                   0.0023522             3e-13                 1.8e-12               -0.0023504           
  0.5                   0.0027586             3.8e-13               3.1e-12               -0.0027568           
  0.6                   0.0030908             3.4e-13               1.4e-12               -0.003089            
  0.7                   0.0033578             5e-13                 1.46e-12              -0.0033558           
  0.8                   0.0035676             3.8e-13               2.14e-12              -0.0035658           
  0.9                   0.0037292             2.6e-13               1.64e-12              -0.0037274           
  1                     0.0038528             1.2e-13               1.64e-12              -0.0038512           
  1.1                   0.0039462             1.2e-13               2.18e-12              -0.0039444           
  1.2                   0.0040162             2e-13                 8e-13                 -0.0040144           
  1.3                   0.004069              2.4e-13               2.44e-12              -0.0040672           
  1.4                   0.0041092             2e-13                 1.14e-12              -0.0041074           
  1.5                   0.0041408             2.2e-13               6.8e-13               -0.0041388           
  1.6                   0.004166              1.2e-13               9.6e-13               -0.004164            
  1.7                   0.0041862             1e-13                 -7.36e-12             -0.0041844           
  1.8                   0.0042032             8e-14                 -3.856e-11            -0.0042016           
  1.9                   0.0042178             2e-13                 -1.5432e-10           -0.0042162           
  2                     0.0042308             2.2e-13               -5.4294e-10           -0.004229            
  2.1                   0.0042422             2e-13                 -1.6748e-09           -0.0042404           
  2.2                   0.0042524             2.4e-13               -4.6346e-09           -0.0042502           
  2.3                   0.0042614             1.8e-13               -1.165e-08            -0.0042596           
  2.4                   0.0042698             2.4e-13               -2.6822e-08           -0.0042682           
  2.5                   0.0042776             2e-13                 -5.728e-08            -0.0042758           
  2.6                   0.004285              1.6e-13               -1.14338e-07          -0.0042836           
  2.7                   0.0042922             8e-14                 -2.144e-07            -0.0042902           
  2.8                   0.0042986             2e-13                 -3.822e-07            -0.0042964           
  2.9                   0.004305              8e-14                 -6.4948e-07           -0.0043026           
  3                     0.0043112             1.6e-13               -1.06118e-06          -0.0043084           
  3.1                   0.0043174             2e-14                 -1.6732e-06           -0.004314            
  3.2                   0.0043238             1.4e-13               -2.5604e-06           -0.0043192           
  3.3                   0.0043302             1.8e-13               -3.8118e-06           -0.0043244           
  3.4                   0.004337              1.8e-13               -5.5504e-06           -0.00433             
  3.5                   0.0043448             1e-13                 -7.9184e-06           -0.004335            
  3.6                   0.004353              1.6e-13               -1.10954e-05          -0.0043402           
END_DB

BEGIN_DB
 ICCAP_VAR vg         3.6            
 ICCAP_VAR vb         0              
 ICCAP_VAR vs         0              

 #vd                    id                    ig                    ib                    is                   
  0                     2.1466e-07            5.2e-13               2.38e-12              -2.3448e-07          
  0.1                   0.00076218            4.4e-13               2.66e-12              -0.0007618           
  0.2                   0.001488              3.4e-13               1.2e-12               -0.0014862           
  0.3                   0.0021558             4.2e-13               1.96e-12              -0.002154            
  0.4                   0.0027578             3.2e-13               1.3e-12               -0.0027558           
  0.5                   0.003289              3.4e-13               9.8e-13               -0.0032872           
  0.6                   0.0037494             4e-13                 1.76e-12              -0.0037478           
  0.7                   0.0041442             3.6e-13               1.74e-12              -0.0041424           
  0.8                   0.0044776             3.8e-13               1.52e-12              -0.0044758           
