! VERSION = 6.00
BEGIN_HEADER
 ICCAP_INPUTS
  vd         V  D GROUND SMU1 0.1 LIN        1    0          3.6        37   0.1       
  vg         V  G GROUND SMU2 0.001 LIN        2    0.528      3.6        5    0.768     
  vb         V  B GROUND SMU4 0.1 CON        0
  vs         V  S GROUND SMU3 0.1 CON        0
 ICCAP_OUTPUTS
  id         I  D GROUND SMU1 B
  ig         I  G GROUND SMU2 B
  ib         I  B GROUND SMU4 B
  is         I  S GROUND SMU3 B
 ICCAP_VALUES
  MASTER_SETUP_TYPE "~dc_idvd~"
  LINVT_VALUE "|idvg|100.0n|100.0m|1.000m|5|3.600|"
  LISTVT_VALUE ""
  TYPE "1"
  TEMP " 27.0000 "
  IS_TNOM " 1.00000 "
  MAIN.W "2.000u"
  MAIN.L "330.0n"
  MAIN.AD "680.0f"
  MAIN.AS "680.0f"
  MAIN.PD "4.680u"
  MAIN.PS "4.680u"
  MAIN.NF "1.000"
  MAIN.M "1"
  MAIN.NRD "0.000"
  MAIN.NRS "0.000"
  MAIN.LDRIFT1 "1E-06"
  MAIN.LDRIFT2 "1E-06"
  MAIN.SA "0.000"
  MAIN.SB "0.000"
  MAIN.SD "0.000"
  MAIN.SCA "0.000"
  MAIN.SCB "0.000"
  MAIN.SCC "0.000"
  MAIN.SC "0.000"
  MODULE "S558"
  PIN_D "18"
  PIN_G "3"
  PIN_S "4"
  PIN_B "17"
  PIN_E ""
  PIN_6 ""
  XY_ID ""
  FUNC "Additional"
  STI "SA ref"
  WPE "WPE ref"
  COMMENT ""
  DIS_MEAS ""
  TypeTCI "10"
END_HEADER

BEGIN_DB
 ICCAP_VAR vg         0.528          
 ICCAP_VAR vb         0              
 ICCAP_VAR vs         0              

 #vd                    id                    ig                    ib                    is                   
  0                     1.0502e-09            -1.8e-13              2.472e-11             -7.0366e-10          
  0.1                   6.5532e-07            -4e-14                2.24e-11              -6.5498e-07          
  0.2                   8.6902e-07            -8e-14                2.008e-11             -8.6916e-07          
  0.3                   1.03914e-06           -2.6e-13              1.954e-11             -1.03914e-06         
  0.4                   1.2074e-06            -1.2e-13              1.97e-11              -1.2026e-06          
  0.5                   1.3748e-06            -4e-14                1.77e-11              -1.3704e-06          
  0.6                   1.5472e-06            -6e-14                1.852e-11             -1.543e-06           
  0.7                   1.7262e-06            -1.8e-13              1.722e-11             -1.7226e-06          
  0.8                   1.913e-06             -1.8e-13              1.608e-11             -1.909e-06           
  0.9                   2.1064e-06            -1e-13                1.614e-11             -2.1026e-06          
  1                     2.3084e-06            -8e-14                1.542e-11             -2.3038e-06          
  1.1                   2.5182e-06            -1e-13                1.48e-11              -2.514e-06           
  1.2                   2.736e-06             -1.8e-13              1.554e-11             -2.7318e-06          
  1.3                   2.9636e-06            -1.6e-13              1.12e-11              -2.9602e-06          
  1.4                   3.2012e-06            -1.8e-13              1.04e-12              -3.1968e-06          
  1.5                   3.4486e-06            -2.2e-13              -2.354e-11            -3.4442e-06          
  1.6                   3.7062e-06            -6e-14                -8.582e-11            -3.7018e-06          
  1.7                   3.9726e-06            -8e-14                -2.178e-10            -3.969e-06           
  1.8                   4.2526e-06            -2.6e-13              -4.7058e-10           -4.2488e-06          
  1.9                   4.543e-06             -4e-14                -9.2502e-10           -4.5404e-06          
  2                     4.8482e-06            -1.8e-13              -1.6848e-09           -4.8426e-06          
  2.1                   5.1626e-06            -1e-13                -2.9008e-09           -5.1554e-06          
  2.2                   5.4896e-06            -6e-14                -4.772e-09            -5.4812e-06          
  2.3                   5.827e-06             -3e-13                -7.5584e-09           -5.8158e-06          
  2.4                   6.228e-06             -1.4e-13              -1.1712e-08           -6.2128e-06          
  2.5                   6.5984e-06            -1.4e-13              -1.744e-08            -6.5662e-06          
  2.6                   6.9332e-06            -1e-13                -2.564e-08            -6.903e-06           
  2.7                   7.3338e-06            -1e-13                -3.7012e-08           -7.3148e-06          
  2.8                   7.7508e-06            6e-14                 -5.3008e-08           -7.7336e-06          
  2.9                   8.2516e-06            -1.6e-13              -7.3852e-08           -8.1132e-06          
  3                     8.7148e-06            0                     -1.02682e-07          -8.6076e-06          
  3.1                   9.1644e-06            -1.2e-13              -1.3936e-07           -9.0146e-06          
  3.2                   9.6708e-06            -1.2e-13              -1.8864e-07           -9.5216e-06          
  3.3                   1.02652e-05           -6e-14                -2.5056e-07           -1.00104e-05         
  3.4                   1.084e-05             -1e-13                -3.2874e-07           -1.05066e-05         
  3.5                   1.1474e-05            -1e-13                -4.2594e-07           -1.10348e-05         
  3.6                   1.2136e-05            -2.6e-13              -5.447e-07            -1.15654e-05         
END_DB

BEGIN_DB
 ICCAP_VAR vg         1.296          
 ICCAP_VAR vb         0              
 ICCAP_VAR vs         0              

 #vd                    id                    ig                    ib                    is                   
  0                     4.3256e-08            3e-13                 8.12e-12              -3.8922e-08          
  0.1                   6.5728e-05            2.2e-13               7.12e-12              -6.5702e-05          
  0.2                   0.00011762            1e-13                 7.02e-12              -0.00011724          
  0.3                   0.00015494            1.6e-13               7.5e-12               -0.00015456          
  0.4                   0.00018028            1.2e-13               7.2e-12               -0.00017988          
  0.5                   0.00019704            1.6e-13               6.24e-12              -0.00019664          
  0.6                   0.00020846            1.8e-13               6.9e-12               -0.00020806          
  0.7                   0.00021682            2e-14                 6.36e-12              -0.00021644          
  0.8                   0.0002234             1.2e-13               6.24e-12              -0.00022304          
  0.9                   0.00022894            1.2e-13               6.88e-12              -0.00022858          
  1                     0.00023382            1.6e-13               5.96e-12              -0.00023344          
  1.1                   0.0002382             -2e-14                5.64e-12              -0.00023786          
  1.2                   0.00024232            8e-14                 5.92e-12              -0.00024194          
  1.3                   0.00024616            2e-14                 4.2e-13               -0.00024576          
  1.4                   0.00024982            1.2e-13               -2.084e-11            -0.00024944          
  1.5                   0.0002534             6e-14                 -1.0056e-10           -0.00025296          
  1.6                   0.00025692            6e-14                 -3.5242e-10           -0.00025644          
  1.7                   0.00026004            -2e-14                -1.035e-09            -0.00025968          
  1.8                   0.00026332            2e-14                 -2.6786e-09           -0.00026292          
  1.9                   0.00026648            2.2e-13               -6.2052e-09           -0.00026606          
  2                     0.0002696             1.4e-13               -1.306e-08            -0.00026918          
  2.1                   0.00027268            4e-14                 -2.5412e-08           -0.00027226          
  2.2                   0.00027574            2e-14                 -4.6234e-08           -0.0002753           
  2.3                   0.00027876            4e-14                 -7.9442e-08           -0.0002783           
  2.4                   0.0002818             2e-13                 -1.2994e-07           -0.00028128          
  2.5                   0.00028484            0                     -2.0446e-07           -0.00028426          
  2.6                   0.00028792            8e-14                 -3.1106e-07           -0.00028722          
  2.7                   0.00029106            0                     -4.5954e-07           -0.00029022          
  2.8                   0.00029424            -8e-14                -6.6336e-07           -0.0002932           
  2.9                   0.0002975             0                     -9.3812e-07           -0.00029618          
  3                     0.00030088            -8e-14                -1.3038e-06           -0.0002992           
  3.1                   0.00030444            -1e-13                -1.786e-06            -0.00030226          
  3.2                   0.00030816            -4e-14                -2.4144e-06           -0.0003054           
  3.3                   0.00031232            -2e-14                -3.2168e-06           -0.00030868          
  3.4                   0.00031658            -4e-14                -4.2366e-06           -0.00031196          
  3.5                   0.00032128            -2e-14                -5.5112e-06           -0.00031538          
  3.6                   0.0003264             -1e-13                -7.0818e-06           -0.0003189           
END_DB

BEGIN_DB
 ICCAP_VAR vg         2.064          
 ICCAP_VAR vb         0              
 ICCAP_VAR vs         0              

 #vd                    id                    ig                    ib                    is                   
  0                     7.574e-08             3.8e-13               5.48e-12              -6.8086e-08          
  0.1                   0.00012616            3.4e-13               5.5e-12               -0.00012582          
  0.2                   0.00023938            2.4e-13               5.26e-12              -0.00023904          
  0.3                   0.00033564            3e-13                 3.98e-12              -0.00033526          
  0.4                   0.00041382            3.2e-13               4.32e-12              -0.0004134           
  0.5                   0.000475              2.6e-13               4.32e-12              -0.00047466          
  0.6                   0.00052126            1e-13                 3.22e-12              -0.0005209           
  0.7                   0.00055582            2e-13                 3.1e-12               -0.00055536          
  0.8                   0.00058146            2.6e-13               4.34e-12              -0.00058104          
  0.9                   0.00060078            1e-13                 3.24e-12              -0.00060042          
  1                     0.00061578            1.4e-13               4.62e-12              -0.0006154           
  1.1                   0.0006277             2.6e-13               3.36e-12              -0.00062718          
  1.2                   0.00063762            1.6e-13               2.68e-12              -0.0006372           
  1.3                   0.000646              6e-14                 2.64e-12              -0.00064564          
  1.4                   0.00065336            1.6e-13               -6.44e-12             -0.00065298          
  1.5                   0.00065992            1.4e-13               -3.69e-11             -0.0006596           
  1.6                   0.00066604            1.4e-13               -1.3916e-10           -0.00066558          
  1.7                   0.00067162            6e-14                 -4.4318e-10           -0.00067124          
  1.8                   0.00067684            1.4e-13               -1.2392e-09           -0.00067644          
  1.9                   0.0006817             2.2e-13               -3.1276e-09           -0.00068136          
  2                     0.0006864             1.4e-13               -7.181e-09            -0.00068596          
  2.1                   0.00069088            1e-13                 -1.5252e-08           -0.00069048          
  2.2                   0.0006952             1.8e-13               -3.0184e-08           -0.0006948           
  2.3                   0.00069938            1.4e-13               -5.616e-08            -0.00069896          
  2.4                   0.0007035             8e-14                 -9.8904e-08           -0.000703            
  2.5                   0.00070754            1.6e-13               -1.6624e-07           -0.00070698          
  2.6                   0.00071154            6e-14                 -2.6852e-07           -0.00071088          
  2.7                   0.00071548            8e-14                 -4.182e-07            -0.00071466          
  2.8                   0.00071952            0                     -6.3212e-07           -0.0007185           
  2.9                   0.00072358            1e-13                 -9.3012e-07           -0.00072226          
  3                     0.00072774            4e-14                 -1.3382e-06           -0.00072602          
  3.1                   0.0007321             6e-14                 -1.8892e-06           -0.00072982          
  3.2                   0.00073668            8e-14                 -2.621e-06            -0.00073368          
  3.3                   0.00074156            4e-14                 -3.5788e-06           -0.00073758          
  3.4                   0.00074674            1e-13                 -4.8204e-06           -0.00074154          
  3.5                   0.00075252            1e-13                 -6.4118e-06           -0.00074572          
  3.6                   0.00075888            4e-14                 -8.4204e-06           -0.00075008          
END_DB

BEGIN_DB
 ICCAP_VAR vg         2.832          
 ICCAP_VAR vb         0              
 ICCAP_VAR vs         0              

 #vd                    id                    ig                    ib                    is                   
  0                     9.8478e-08            4.8e-13               4.52e-12              -8.7444e-08          
  0.1                   0.00016372            4.4e-13               3.14e-12              -0.0001633           
  0.2                   0.00031676            3.6e-13               4.08e-12              -0.00031638          
  0.3                   0.00045428            2.6e-13               3.02e-12              -0.0004539           
  0.4                   0.00057426            1.4e-13               2.94e-12              -0.00057388          
  0.5                   0.00067584            2.8e-13               3.48e-12              -0.00067542          
  0.6                   0.00075972            2.6e-13               2.68e-12              -0.00075936          
  0.7                   0.000828              2.2e-13               2.48e-12              -0.0008276           
  0.8                   0.00088266            2.8e-13               2.84e-12              -0.00088228          
  0.9                   0.00092604            2.8e-13               2.02e-12              -0.00092568          
  1                     0.00096054            8e-14                 3.06e-12              -0.00096016          
  1.1                   0.00098798            1.6e-13               3.02e-12              -0.00098746          
  1.2                   0.00100984            2.6e-13               2.48e-12              -0.00100958          
  1.3                   0.00102776            2.4e-13               2.34e-12              -0.00102742          
  1.4                   0.00104288            2.2e-13               -2.6e-13              -0.00104238          
  1.5                   0.0010556             2e-13                 -1.128e-11            -0.00105516          
  1.6                   0.0010663             2e-13                 -4.56e-11             -0.00106602          
  1.7                   0.00107602            6e-14                 -1.5964e-10           -0.00107566          
  1.8                   0.00108448            2.4e-13               -4.8024e-10           -0.00108416          
  1.9                   0.00109222            8e-14                 -1.293e-09            -0.001091            
  2                     0.00109914            1.8e-13               -3.1628e-09           -0.001098            
  2.1                   0.00110556            1.4e-13               -7.1392e-09           -0.0011042           
  2.2                   0.00111148            1.8e-13               -1.4984e-08           -0.0011102           
  2.3                   0.00111706            1e-13                 -2.942e-08            -0.001116            
  2.4                   0.00112238            1.6e-13               -5.4488e-08           -0.0011212           
  2.5                   0.00112742            2e-13                 -9.6112e-08           -0.0011262           
  2.6                   0.0011332             1.2e-13               -1.621e-07            -0.001131            
  2.7                   0.0011378             1e-13                 -2.6314e-07           -0.0011354           
  2.8                   0.0011424             2e-13                 -4.1286e-07           -0.00114             
  2.9                   0.0011468             1.6e-13               -6.284e-07            -0.0011442           
  3                     0.0011514             1.8e-13               -9.3286e-07           -0.0011484           
  3.1                   0.0011558             4e-14                 -1.352e-06            -0.0011526           
  3.2                   0.0011606             2.2e-13               -1.9232e-06           -0.0011566           
  3.3                   0.0011654             2.4e-13               -2.6858e-06           -0.0011608           
  3.4                   0.0011706             3.6e-13               -3.6944e-06           -0.0011648           
  3.5                   0.0011762             3.4e-13               -5.0088e-06           -0.0011692           
  3.6                   0.0011822             3.2e-13               -6.702e-06            -0.0011734           
END_DB

BEGIN_DB
 ICCAP_VAR vg         3.6            
 ICCAP_VAR vb         0              
 ICCAP_VAR vs         0              

 #vd                    id                    ig                    ib                    is                   
  0                     1.0974e-07            5.8e-13               3.24e-12              -9.6468e-08          
  0.1                   0.00018596            4.8e-13               2.64e-12              -0.00018558          
  0.2                   0.00036356            3.4e-13               3.36e-12              -0.00036318          
  0.3                   0.0005281             2.8e-13               1.6e-12               -0.00052774          
  0.4                   0.00067724            2.4e-13               1.94e-12              -0.00067688          
  0.5                   0.0008093             2.4e-13               3.02e-12              -0.00080894          
  0.6                   0.00092396            2.6e-13               1.38e-12              -0.00092362          
  0.7                   0.00102238            3.6e-13               2.2e-12               -0.00102202          
  0.8                   0.00110568            3.6e-13               2.4e-12               -0.00110532          
