! VERSION = 6.00
BEGIN_HEADER
 ICCAP_INPUTS
  vd         V  D GROUND SMU1 0.1 LIN        1    0          3.6        37   0.1       
  vg         V  G GROUND SMU2 0.001 LIN        2    0.532      3.6        5    0.767     
  vb         V  B GROUND SMU4 0.1 CON        0
  vs         V  S GROUND SMU3 0.1 CON        0
 ICCAP_OUTPUTS
  id         I  D GROUND SMU1 B
  ig         I  G GROUND SMU2 B
  ib         I  B GROUND SMU4 B
  is         I  S GROUND SMU3 B
 ICCAP_VALUES
  MASTER_SETUP_TYPE "~dc_idvd~"
  LINVT_VALUE "|idvg|100.0n|100.0m|1.000m|5|3.600|"
  LISTVT_VALUE ""
  TYPE "1"
  TEMP " 27.0000 "
  IS_TNOM " 1.00000 "
  MAIN.W "300.0n"
  MAIN.L "350.0n"
  MAIN.AD "102.0f"
  MAIN.AS "102.0f"
  MAIN.PD "1.280u"
  MAIN.PS "1.280u"
  MAIN.NF "1.000"
  MAIN.M "1"
  MAIN.NRD "0.000"
  MAIN.NRS "0.000"
  MAIN.LDRIFT1 "1E-06"
  MAIN.LDRIFT2 "1E-06"
  MAIN.SA "0.000"
  MAIN.SB "0.000"
  MAIN.SD "0.000"
  MAIN.SCA "0.000"
  MAIN.SCB "0.000"
  MAIN.SCC "0.000"
  MAIN.SC "0.000"
  MODULE "S560"
  PIN_D "16"
  PIN_G "5"
  PIN_S "6"
  PIN_B "15"
  PIN_E ""
  PIN_6 ""
  XY_ID ""
  FUNC "Additional"
  STI "SA ref"
  WPE "WPE ref"
  COMMENT ""
  DIS_MEAS ""
  TypeTCI "10"
END_HEADER

BEGIN_DB
 ICCAP_VAR vg         0.532          
 ICCAP_VAR vb         0              
 ICCAP_VAR vs         0              

 #vd                    id                    ig                    ib                    is                   
  0                     1.2096e-10            -1e-13                2.548e-11             -8.154e-11           
  0.1                   7.5834e-08            -1.4e-13              2.322e-11             -7.5776e-08          
  0.2                   1.01034e-07           -2e-14                1.976e-11             -1.0091e-07          
  0.3                   1.2384e-07            -1e-13                2.098e-11             -1.2354e-07          
  0.4                   1.477e-07             -8e-14                1.862e-11             -1.4752e-07          
  0.5                   1.73e-07              -1.4e-13              1.856e-11             -1.7192e-07          
  0.6                   1.9856e-07            -6e-14                1.76e-11              -1.983e-07           
  0.7                   2.2576e-07            -1.8e-13              1.81e-11              -2.2572e-07          
  0.8                   2.5456e-07            -1.4e-13              1.636e-11             -2.5504e-07          
  0.9                   2.846e-07             -4e-14                1.582e-11             -2.847e-07           
  1                     3.1476e-07            -1.2e-13              1.594e-11             -3.144e-07           
  1.1                   3.4522e-07            -6e-14                1.638e-11             -3.4504e-07          
  1.2                   3.762e-07             -1e-13                1.4e-11               -3.7278e-07          
  1.3                   4.028e-07             -1e-13                1.326e-11             -4.0656e-07          
  1.4                   4.3786e-07            -1.2e-13              1.208e-11             -4.3764e-07          
  1.5                   4.6918e-07            -2.2e-13              6.18e-12              -4.6864e-07          
  1.6                   4.9986e-07            -1e-13                -6.72e-12             -5.001e-07           
  1.7                   5.3102e-07            -6e-14                -3.044e-11            -5.3166e-07          
  1.8                   5.6208e-07            -2e-13                -7.384e-11            -5.6132e-07          
  1.9                   5.9304e-07            -1e-13                -1.482e-10            -5.9386e-07          
  2                     6.2468e-07            -6e-14                -2.68e-10             -6.236e-07           
  2.1                   6.553e-07             -1e-13                -4.516e-10            -6.547e-07           
  2.2                   6.8546e-07            -1.6e-13              -7.1878e-10           -6.8578e-07          
  2.3                   7.165e-07             -1.6e-13              -1.1062e-09           -7.1566e-07          
  2.4                   7.4994e-07            -1e-13                -1.6342e-09           -7.465e-07           
  2.5                   7.7454e-07            -2.4e-13              -2.3824e-09           -7.7124e-07          
  2.6                   8.0548e-07            -2.6e-13              -3.4064e-09           -8.0204e-07          
  2.7                   8.3834e-07            -2e-14                -4.783e-09            -8.3226e-07          
  2.8                   8.7142e-07            -1e-13                -6.6336e-09           -8.632e-07           
  2.9                   9.0468e-07            -1.8e-13              -9.076e-09            -8.9666e-07          
  3                     9.3906e-07            2e-14                 -1.2252e-08           -9.2496e-07          
  3.1                   9.7408e-07            -1e-13                -1.6378e-08           -9.5874e-07          
  3.2                   1.01224e-06           -1e-13                -2.1606e-08           -9.9078e-07          
  3.3                   1.05274e-06           -2.6e-13              -2.8068e-08           -1.02274e-06         
  3.4                   1.09352e-06           -1.4e-13              -3.612e-08            -1.05632e-06         
  3.5                   1.13854e-06           -2e-13                -4.5884e-08           -1.09232e-06         
  3.6                   1.1852e-06            -8e-14                -5.7606e-08           -1.12738e-06         
END_DB

BEGIN_DB
 ICCAP_VAR vg         1.299          
 ICCAP_VAR vb         0              
 ICCAP_VAR vs         0              

 #vd                    id                    ig                    ib                    is                   
  0                     2.6834e-09            4.2e-13               7.68e-12              -3.0024e-09          
  0.1                   9.0392e-06            2.4e-13               7.74e-12              -9.0384e-06          
  0.2                   1.6062e-05            1.8e-13               7.16e-12              -1.6042e-05          
  0.3                   2.0992e-05            1.2e-13               7.56e-12              -2.0976e-05          
  0.4                   2.422e-05             2.6e-13               6.44e-12              -2.4208e-05          
  0.5                   2.6294e-05            1.6e-13               6.48e-12              -2.6272e-05          
  0.6                   2.7686e-05            4e-14                 6.96e-12              -2.7664e-05          
  0.7                   2.8708e-05            8e-14                 6.74e-12              -2.8692e-05          
  0.8                   2.9526e-05            1.6e-13               6.08e-12              -2.9512e-05          
  0.9                   3.0224e-05            1.6e-13               8.28e-12              -3.019e-05           
  1                     3.0844e-05            1.2e-13               6.22e-12              -3.0836e-05          
  1.1                   3.142e-05             1.6e-13               5.84e-12              -3.1392e-05          
  1.2                   3.1942e-05            1.6e-13               6.58e-12              -3.1924e-05          
  1.3                   3.243e-05             1e-13                 5.5e-12               -3.241e-05           
  1.4                   3.2896e-05            1.2e-13               1.54e-12              -3.2874e-05          
  1.5                   3.332e-05             8e-14                 -9.44e-12             -3.3306e-05          
  1.6                   3.372e-05             1e-13                 -4.898e-11            -3.3732e-05          
  1.7                   3.4154e-05            2e-14                 -1.5116e-10           -3.4128e-05          
  1.8                   3.4536e-05            -2e-14                -3.9156e-10           -3.4486e-05          
  1.9                   3.4914e-05            6e-14                 -8.9854e-10           -3.4894e-05          
  2                     3.5284e-05            6e-14                 -1.8668e-09           -3.5254e-05          
  2.1                   3.5646e-05            4e-14                 -3.5846e-09           -3.5592e-05          
  2.2                   3.5982e-05            8e-14                 -6.433e-09            -3.5976e-05          
  2.3                   3.6364e-05            -4e-14                -1.0944e-08           -3.6332e-05          
  2.4                   3.6718e-05            1.2e-13               -1.7726e-08           -3.6678e-05          
  2.5                   3.7066e-05            0                     -2.7626e-08           -3.7022e-05          
  2.6                   3.7434e-05            0                     -4.167e-08            -3.7374e-05          
  2.7                   3.7802e-05            -2e-14                -6.1118e-08           -3.7722e-05          
  2.8                   3.8162e-05            -4e-14                -8.7686e-08           -3.8058e-05          
  2.9                   3.8548e-05            0                     -1.2324e-07           -3.8394e-05          
  3                     3.8942e-05            0                     -1.7066e-07           -3.8762e-05          
  3.1                   3.9372e-05            0                     -2.3292e-07           -3.9118e-05          
  3.2                   3.9816e-05            4e-14                 -3.137e-07            -3.9484e-05          
  3.3                   4.0284e-05            6e-14                 -4.1706e-07           -3.9848e-05          
  3.4                   4.08e-05              -2e-14                -5.4832e-07           -4.024e-05           
  3.5                   4.1378e-05            -1e-13                -7.1214e-07           -4.0644e-05          
  3.6                   4.1996e-05            8e-14                 -9.1416e-07           -4.1066e-05          
END_DB

BEGIN_DB
 ICCAP_VAR vg         2.066          
 ICCAP_VAR vb         0              
 ICCAP_VAR vs         0              

 #vd                    id                    ig                    ib                    is                   
  0                     9.402e-09             3.6e-13               4.66e-12              -9.972e-09           
  0.1                   1.7984e-05            4.4e-13               5.96e-12              -1.7964e-05          
  0.2                   3.4058e-05            2.6e-13               4.56e-12              -3.4034e-05          
  0.3                   4.7676e-05            2.8e-13               3.82e-12              -4.7636e-05          
  0.4                   5.8696e-05            2.6e-13               4.8e-12               -5.8672e-05          
  0.5                   6.7198e-05            2.6e-13               4.26e-12              -6.7174e-05          
  0.6                   7.3522e-05            3e-13                 3.44e-12              -7.3498e-05          
  0.7                   7.814e-05             1.4e-13               4.9e-12               -7.8124e-05          
  0.8                   8.154e-05             2.4e-13               3.86e-12              -8.1496e-05          
  0.9                   8.4044e-05            1.8e-13               3.48e-12              -8.404e-05           
  1                     8.6e-05               2.8e-13               4.96e-12              -8.5954e-05          
  1.1                   8.7544e-05            1.8e-13               3.62e-12              -8.7518e-05          
  1.2                   8.8854e-05            2.2e-13               2.98e-12              -8.8808e-05          
  1.3                   8.995e-05             1.8e-13               3.7e-12               -8.9924e-05          
  1.4                   9.0974e-05            8e-14                 1.58e-12              -9.0906e-05          
  1.5                   9.184e-05             1.2e-13               -2.68e-12             -9.179e-05           
  1.6                   9.2634e-05            1.6e-13               -1.634e-11            -9.262e-05           
  1.7                   9.3396e-05            1.4e-13               -6.038e-11            -9.3342e-05          
  1.8                   9.4068e-05            6e-14                 -1.7528e-10           -9.4072e-05          
  1.9                   9.4726e-05            1.2e-13               -4.4224e-10           -9.4716e-05          
  2                     9.5386e-05            8e-14                 -1.0138e-09           -9.5368e-05          
  2.1                   9.5984e-05            8e-14                 -2.1278e-09           -9.5954e-05          
  2.2                   9.6542e-05            2.2e-13               -4.1716e-09           -9.6522e-05          
  2.3                   9.7098e-05            4e-14                 -7.6852e-09           -9.705e-05           
  2.4                   9.763e-05             1.8e-13               -1.3438e-08           -9.7578e-05          
  2.5                   9.8174e-05            1.8e-13               -2.2442e-08           -9.8136e-05          
  2.6                   9.872e-05             1e-13                 -3.605e-08            -9.8646e-05          
  2.7                   9.9244e-05            1.2e-13               -5.5914e-08           -9.9136e-05          
  2.8                   9.9764e-05            2.6e-13               -8.4224e-08           -9.968e-05           
  2.9                   0.000100314           4e-14                 -1.2362e-07           -0.000100188         
  3                     0.000100868           6e-14                 -1.7778e-07           -0.000100674         
  3.1                   0.000101462           2e-14                 -2.508e-07            -0.000101188         
  3.2                   0.000102082           1e-13                 -3.4792e-07           -0.000101712         
  3.3                   0.000102742           1.4e-13               -4.7526e-07           -0.000102242         
  3.4                   0.000103438           2e-13                 -6.4086e-07           -0.000102786         
  3.5                   0.000104216           1.2e-13               -8.5288e-07           -0.000103344         
  3.6                   0.000105086           1.2e-13               -1.12092e-06          -0.000103952         
END_DB

BEGIN_DB
 ICCAP_VAR vg         2.833          
 ICCAP_VAR vb         0              
 ICCAP_VAR vs         0              

 #vd                    id                    ig                    ib                    is                   
  0                     1.225e-08             5.2e-13               5.66e-12              -1.1566e-08          
  0.1                   2.3862e-05            5.6e-13               3.62e-12              -2.3846e-05          
  0.2                   4.61e-05              3e-13                 3.44e-12              -4.608e-05           
  0.3                   6.6052e-05            4.2e-13               2.94e-12              -6.6044e-05          
  0.4                   8.3438e-05            3.4e-13               2.16e-12              -8.3422e-05          
  0.5                   9.807e-05             3.6e-13               3.2e-12               -9.8054e-05          
  0.6                   0.000110042           2.4e-13               2.98e-12              -0.000110034         
  0.7                   0.00011986            3.4e-13               3.66e-12              -0.00011946          
  0.8                   0.00012748            2.2e-13               2.24e-12              -0.00012706          
  0.9                   0.00013342            3e-13                 2.96e-12              -0.000133            
  1                     0.00013808            2.2e-13               3.74e-12              -0.00013766          
  1.1                   0.00014176            2.8e-13               1.4e-12               -0.00014134          
  1.2                   0.00014468            1.4e-13               2.58e-12              -0.00014428          
  1.3                   0.0001471             3e-13                 2.88e-12              -0.0001467           
  1.4                   0.0001491             2e-13                 1.9e-12               -0.0001487           
  1.5                   0.00015082            1.8e-13               1.38e-12              -0.00015042          
  1.6                   0.00015232            2.8e-13               -4.04e-12             -0.0001519           
  1.7                   0.00015364            1.8e-13               -2.066e-11            -0.00015324          
  1.8                   0.00015482            1.6e-13               -6.502e-11            -0.00015442          
  1.9                   0.0001559             2e-13                 -1.8114e-10           -0.00015548          
  2                     0.00015686            2.2e-13               -4.4726e-10           -0.00015646          
  2.1                   0.00015778            1e-13                 -1.008e-09            -0.00015738          
  2.2                   0.00015862            1.4e-13               -2.1026e-09           -0.00015816          
  2.3                   0.00015942            1.2e-13               -4.1168e-09           -0.00015902          
  2.4                   0.00016018            6e-14                 -7.5704e-09           -0.00015976          
  2.5                   0.0001609             2.2e-13               -1.3252e-08           -0.00016048          
  2.6                   0.0001616             8e-14                 -2.2166e-08           -0.00016118          
  2.7                   0.00016224            1e-13                 -3.5696e-08           -0.00016182          
  2.8                   0.00016292            1.4e-13               -5.5642e-08           -0.00016246          
  2.9                   0.00016358            1e-13                 -8.4364e-08           -0.0001631           
  3                     0.00016422            1.8e-13               -1.247e-07            -0.00016372          
  3.1                   0.0001649             1.4e-13               -1.806e-07            -0.00016432          
  3.2                   0.00016558            2e-13                 -2.567e-07            -0.00016494          
  3.3                   0.0001663             1.2e-13               -3.5856e-07           -0.00016556          
  3.4                   0.00016706            1e-13                 -4.939e-07            -0.00016618          
  3.5                   0.00016786            1.6e-13               -6.7104e-07           -0.00016682          
  3.6                   0.00016876            2.4e-13               -8.9936e-07           -0.00016746          
END_DB

BEGIN_DB
 ICCAP_VAR vg         3.6            
 ICCAP_VAR vb         0              
 ICCAP_VAR vs         0              

 #vd                    id                    ig                    ib                    is                   
  0                     1.3836e-08            5.2e-13               4.34e-12              -1.3332e-08          
  0.1                   2.767e-05             4e-13                 3.54e-12              -2.7644e-05          
  0.2                   5.3974e-05            4e-13                 2.5e-12               -5.3954e-05          
  0.3                   7.828e-05             3.8e-13               1.86e-12              -7.8258e-05          
  0.4                   0.000100246           3e-13                 2.46e-12              -0.000100224         
  0.5                   0.00011976            3.4e-13               2.3e-12               -0.00011936          
  0.6                   0.00013646            3.2e-13               2.58e-12              -0.0001361           
  0.7                   0.0001507             2.4e-13               2.62e-12              -0.00015034          
  0.8                   0.00016266            2.8e-13               1.94e-12              -0.00016224          
