! VERSION = 6.00
BEGIN_HEADER
 ICCAP_INPUTS
  vg         V  G GROUND SMU2 0.001 LIN        1    -0.5       3.6        83   0.05      
  vb         V  B GROUND SMU4 0.1 LIN        2    0          -3.6       5    -0.9      
  vd         V  D GROUND SMU1 0.1 LIN        3    0.1        3.3        3    1.6       
  vs         V  S GROUND SMU3 0.1 CON        0
 ICCAP_OUTPUTS
  id         I  D GROUND SMU1 B
  ig         I  G GROUND SMU2 B
  ib         I  B GROUND SMU4 B
  is         I  S GROUND SMU3 B
 ICCAP_VALUES
  MASTER_SETUP_TYPE "~dc_idvg~"
  LINVT_VALUE ""
  LISTVT_VALUE ""
  TYPE "1"
  TEMP " 70.0000 "
  IS_TNOM " 0.00000 "
  MAIN.W "600.0n"
  MAIN.L "1.200u"
  MAIN.AD "204.0f"
  MAIN.AS "204.0f"
  MAIN.PD "1.880u"
  MAIN.PS "1.880u"
  MAIN.NF "1.000"
  MAIN.M "1"
  MAIN.NRD "0.000"
  MAIN.NRS "0.000"
  MAIN.LDRIFT1 "1E-06"
  MAIN.LDRIFT2 "1E-06"
  MAIN.SA "0.000"
  MAIN.SB "0.000"
  MAIN.SD "0.000"
  MAIN.SCA "0.000"
  MAIN.SCB "0.000"
  MAIN.SCC "0.000"
  MAIN.SC "0.000"
  MODULE "S559"
  PIN_D "14"
  PIN_G "7"
  PIN_S "8"
  PIN_B "13"
  PIN_E ""
  PIN_6 ""
  XY_ID ""
  FUNC "LW Scale"
  STI "SA ref"
  WPE "WPE ref"
  COMMENT ""
  DIS_MEAS ""
  TypeTCI "10"
END_HEADER

BEGIN_DB
 ICCAP_VAR vb         0              
 ICCAP_VAR vd         0.1            
 ICCAP_VAR vs         0              

 #vg                    id                    ig                    ib                    is                   
  -0.5                  8e-14                 -1.6092e-09           1.619e-09             1.6e-13              
  -0.45                 -1.8e-13              -3.0316e-10           3.1516e-10            1.6e-13              
  -0.4                  -1.2e-13              -5.772e-11            6.968e-11             1.2e-13              
  -0.35                 -6e-14                -1.102e-11            2.366e-11             8e-14                
  -0.3                  -4e-14                -2.16e-12             1.368e-11             2e-13                
  -0.25                 0                     -2.4e-13              1.07e-11              1.6e-13              
  -0.2                  -4e-14                2.6e-13               1.054e-11             1.2e-13              
  -0.15                 0                     3.2e-13               1.08e-11              1e-13                
  -0.1                  -2e-14                2.6e-13               1.244e-11             2e-13                
  -0.05                 8e-14                 4.4e-13               1.05e-11              0                    
  0                     6e-14                 4.6e-13               1.012e-11             0                    
  0.05                  2.6e-13               2.4e-13               1.01e-11              -1.2e-13             
  0.1                   1.04e-12              4.4e-13               1.004e-11             -8.2e-13             
  0.15                  3.04e-12              5.2e-13               1.134e-11             -2.94e-12            
  0.2                   1.022e-11             4.8e-13               1.114e-11             -1.006e-11           
  0.25                  3.364e-11             5e-13                 1.034e-11             -3.342e-11           
  0.3                   1.1104e-10            5.4e-13               9e-12                 -1.1092e-10          
  0.35                  3.7018e-10            5.6e-13               9.48e-12              -3.701e-10           
  0.4                   1.2198e-09            4.4e-13               1.036e-11             -1.22e-09            
  0.45                  3.9302e-09            5.2e-13               9.04e-12              -3.929e-09           
  0.5                   1.1824e-08            4.8e-13               9.38e-12              -1.1806e-08          
  0.55                  3.2006e-08            7.6e-13               9.48e-12              -3.1994e-08          
  0.6                   7.5318e-08            4.8e-13               1.022e-11             -7.5384e-08          
  0.65                  1.5448e-07            6e-13                 9.12e-12              -1.5458e-07          
  0.7                   2.7734e-07            5.4e-13               9.1e-12               -2.7732e-07          
  0.75                  4.4582e-07            6.2e-13               9.42e-12              -4.458e-07           
  0.8                   6.5412e-07            8.6e-13               9.54e-12              -6.54e-07            
  0.85                  8.958e-07             5.8e-13               8.08e-12              -8.9592e-07          
  0.9                   1.1608e-06            5.6e-13               7.48e-12              -1.158e-06           
  0.95                  1.4424e-06            6.4e-13               8.7e-12               -1.4392e-06          
  1                     1.7334e-06            7.8e-13               9.88e-12              -1.7302e-06          
  1.05                  2.0338e-06            8.4e-13               8.54e-12              -2.0296e-06          
  1.1                   2.3366e-06            6.4e-13               8e-12                 -2.3326e-06          
  1.15                  2.6434e-06            8.6e-13               7.98e-12              -2.639e-06           
  1.2                   2.9496e-06            6.6e-13               9.72e-12              -2.946e-06           
  1.25                  3.2552e-06            1e-12                 8.72e-12              -3.2518e-06          
  1.3                   3.5624e-06            7.2e-13               7.82e-12              -3.5596e-06          
  1.35                  3.8644e-06            9.6e-13               8e-12                 -3.8636e-06          
  1.4                   4.1692e-06            7.8e-13               9.04e-12              -4.1648e-06          
  1.45                  4.4678e-06            9.4e-13               9.82e-12              -4.4644e-06          
  1.5                   4.7652e-06            8.6e-13               7.96e-12              -4.762e-06           
  1.55                  5.0584e-06            9.4e-13               7.14e-12              -5.055e-06           
  1.6                   5.3452e-06            9e-13                 7.68e-12              -5.344e-06           
  1.65                  5.6316e-06            9.2e-13               7.68e-12              -5.628e-06           
  1.7                   5.9158e-06            7.8e-13               7.7e-12               -5.9118e-06          
  1.75                  6.1908e-06            9e-13                 7.2e-12               -6.1874e-06          
  1.8                   6.4664e-06            1e-12                 7.84e-12              -6.4622e-06          
  1.85                  6.733e-06             1.02e-12              6.56e-12              -6.732e-06           
  1.9                   6.9998e-06            7.2e-13               8.02e-12              -6.9964e-06          
  1.95                  7.2604e-06            1.04e-12              7.44e-12              -7.2554e-06          
  2                     7.516e-06             9e-13                 6.84e-12              -7.5122e-06          
  2.05                  7.768e-06             1.02e-12              6.56e-12              -7.764e-06           
  2.1                   8.0156e-06            9.2e-13               7.08e-12              -8.0114e-06          
  2.15                  8.2564e-06            1.04e-12              8.7e-12               -8.2522e-06          
  2.2                   8.4934e-06            9.6e-13               5.94e-12              -8.49e-06            
  2.25                  8.727e-06             9.6e-13               7.02e-12              -8.7238e-06          
  2.3                   8.9562e-06            1.04e-12              6.98e-12              -8.9518e-06          
  2.35                  9.1808e-06            9.4e-13               7.84e-12              -9.1774e-06          
  2.4                   9.4002e-06            1.14e-12              6.4e-12               -9.3966e-06          
  2.45                  9.6146e-06            1.04e-12              6.74e-12              -9.6116e-06          
  2.5                   9.826e-06             9.6e-13               6.44e-12              -9.8228e-06          
  2.55                  1.00316e-05           1.16e-12              6.86e-12              -1.00282e-05         
  2.6                   1.02332e-05           8.6e-13               7.38e-12              -1.02292e-05         
  2.65                  1.04292e-05           1.12e-12              6.94e-12              -1.0426e-05          
  2.7                   1.0621e-05            1.04e-12              7.46e-12              -1.0618e-05          
  2.75                  1.081e-05             8.4e-13               5.64e-12              -1.08068e-05         
  2.8                   1.0993e-05            1.18e-12              6.92e-12              -1.09894e-05         
  2.85                  1.11718e-05           1.06e-12              6.22e-12              -1.1168e-05          
  2.9                   1.13456e-05           1.1e-12               5.72e-12              -1.13416e-05         
  2.95                  1.1518e-05            1.06e-12              6.28e-12              -1.1514e-05          
  3                     1.1684e-05            1.12e-12              6.16e-12              -1.168e-05           
  3.05                  1.1848e-05            1.08e-12              7.76e-12              -1.1842e-05          
  3.1                   1.2006e-05            1.06e-12              6.56e-12              -1.2e-05             
  3.15                  1.216e-05             1.06e-12              6.1e-12               -1.2154e-05          
  3.2                   1.2308e-05            1.12e-12              5.66e-12              -1.2302e-05          
  3.25                  1.2454e-05            1.06e-12              6.74e-12              -1.2446e-05          
  3.3                   1.2596e-05            1.16e-12              7.26e-12              -1.259e-05           
  3.35                  1.2734e-05            1.04e-12              6.34e-12              -1.2728e-05          
  3.4                   1.287e-05             1.04e-12              5.14e-12              -1.2864e-05          
  3.45                  1.3e-05               1.14e-12              6.36e-12              -1.2994e-05          
  3.5                   1.3126e-05            1.02e-12              7.04e-12              -1.312e-05           
  3.55                  1.3248e-05            1.08e-12              6.7e-12               -1.3244e-05          
  3.6                   1.337e-05             1e-12                 6.08e-12              -1.3364e-05          
END_DB

BEGIN_DB
 ICCAP_VAR vb         -0.9           
 ICCAP_VAR vd         0.1            
 ICCAP_VAR vs         0              

 #vg                    id                    ig                    ib                    is                   
  -0.5                  -1.2e-13              -8.6e-13              -1.694e-11            2e-13                
  -0.45                 -1.2e-13              -5.4e-13              -1.42e-11             1.2e-13              
  -0.4                  -1.2e-13              -3.8e-13              -1.29e-11             1e-13                
  -0.35                 -6e-14                -2.4e-13              -9.68e-12             1.2e-13              
  -0.3                  -8e-14                -1.2e-13              -1.084e-11            1.6e-13              
  -0.25                 -4e-14                -1e-13                -1.048e-11            2e-13                
  -0.2                  -8e-14                -6e-14                -8.4e-12              2.2e-13              
  -0.15                 -1e-13                -2e-14                -8.7e-12              1.6e-13              
  -0.1                  -1e-13                8e-14                 -6.68e-12             0                    
  -0.05                 -4e-14                2e-14                 -6.34e-12             2.2e-13              
  0                     -6e-14                1.4e-13               -6.32e-12             1.8e-13              
  0.05                  0                     2e-13                 -6.78e-12             1.2e-13              
  0.1                   -4e-14                2.4e-13               -6.56e-12             1e-13                
  0.15                  -8e-14                2.2e-13               -4.46e-12             1.6e-13              
  0.2                   -4e-14                3.4e-13               -4.02e-12             1.4e-13              
  0.25                  2e-14                 3.6e-13               -4.18e-12             4e-14                
  0.3                   -4e-14                2.6e-13               -4.06e-12             1.2e-13              
  0.35                  2.6e-13               4.2e-13               -3.62e-12             -1.8e-13             
  0.4                   1.2e-12               6.4e-13               -4.16e-12             -1.2e-12             
  0.45                  4.84e-12              3.6e-13               -3.32e-12             -4.76e-12            
  0.5                   1.834e-11             6.2e-13               -2.54e-12             -1.83e-11            
  0.55                  6.96e-11              5.4e-13               -3e-12                -6.944e-11           
  0.6                   2.6028e-10            5.4e-13               -3e-12                -2.6024e-10          
  0.65                  9.6572e-10            4.2e-13               -3.82e-12             -9.6454e-10          
  0.7                   3.433e-09             5.6e-13               -2.68e-12             -3.4318e-09          
  0.75                  1.12274e-08           6.2e-13               -1.94e-12             -1.12256e-08         
  0.8                   3.1898e-08            5e-13                 -1.36e-12             -3.1906e-08          
  0.85                  7.7344e-08            5.8e-13               -2.16e-12             -7.7326e-08          
  0.9                   1.5876e-07            4.6e-13               -2.12e-12             -1.5874e-07          
  0.95                  2.8308e-07            6e-13                 -2.54e-12             -2.831e-07           
  1                     4.501e-07             7.6e-13               -9.8e-13              -4.5006e-07          
  1.05                  6.5476e-07            4.6e-13               -1.1e-12              -6.5468e-07          
  1.1                   8.88e-07              7.6e-13               -2.32e-12             -8.8808e-07          
  1.15                  1.14182e-06           8e-13                 -1.68e-12             -1.14098e-06         
  1.2                   1.411e-06             5.4e-13               -2.22e-12             -1.409e-06           
  1.25                  1.6902e-06            6.2e-13               -1.36e-12             -1.6876e-06          
  1.3                   1.976e-06             8.8e-13               -1.06e-12             -1.9726e-06          
  1.35                  2.2644e-06            6.2e-13               -1.56e-12             -2.2618e-06          
  1.4                   2.5552e-06            6.8e-13               -1e-12                -2.5498e-06          
  1.45                  2.8468e-06            7e-13                 -1.48e-12             -2.8436e-06          
  1.5                   3.137e-06             9.2e-13               -1.54e-12             -3.1358e-06          
  1.55                  3.4284e-06            9.4e-13               -1.5e-12              -3.425e-06           
  1.6                   3.7154e-06            7.8e-13               -1.8e-13              -3.7124e-06          
  1.65                  4.0012e-06            7.8e-13               -3.4e-13              -3.9974e-06          
  1.7                   4.285e-06             8.2e-13               -1.34e-12             -4.2814e-06          
  1.75                  4.5618e-06            9.4e-13               -1.42e-12             -4.56e-06            
  1.8                   4.8404e-06            8.6e-13               2.2e-13               -4.8348e-06          
  1.85                  5.1116e-06            9.2e-13               1.8e-13               -5.1074e-06          
  1.9                   5.382e-06             8.8e-13               3.4e-13               -5.3774e-06          
  1.95                  5.6444e-06            1.02e-12              -1.8e-12              -5.6432e-06          
  2                     5.9062e-06            8e-13                 -1.24e-12             -5.904e-06           
  2.05                  6.1654e-06            7.6e-13               -5.4e-13              -6.1622e-06          
  2.1                   6.4164e-06            1e-12                 4.8e-13               -6.4128e-06          
  2.15                  6.665e-06             8.2e-13               -1.04e-12             -6.663e-06           
  2.2                   6.9086e-06            8e-13                 -3.2e-13              -6.906e-06           
  2.25                  7.149e-06             8.4e-13               -2e-14                -7.1454e-06          
  2.3                   7.3836e-06            9.2e-13               -4e-14                -7.3792e-06          
  2.35                  7.6136e-06            8.8e-13               -7.6e-13              -7.6104e-06          
  2.4                   7.8388e-06            9e-13                 -9e-13                -7.836e-06           
  2.45                  8.0608e-06            9.8e-13               -1.5e-12              -8.0578e-06          
  2.5                   8.2784e-06            9.8e-13               -1.8e-13              -8.275e-06           
  2.55                  8.4908e-06            9.8e-13               7.2e-13               -8.4874e-06          
  2.6                   8.6988e-06            1.06e-12              1.8e-13               -8.6956e-06          
  2.65                  8.902e-06             1.12e-12              -1.08e-12             -8.8974e-06          
  2.7                   9.101e-06             1e-12                 -8e-13                -9.098e-06           
  2.75                  9.2964e-06            1e-12                 -1.2e-13              -9.2932e-06          
  2.8                   9.486e-06             1.04e-12              1.12e-12              -9.4826e-06          
  2.85                  9.671e-06             1.06e-12              -7.4e-13              -9.668e-06           
  2.9                   9.8522e-06            1.12e-12              8e-14                 -9.85e-06            
  2.95                  1.0031e-05            1.06e-12              2.2e-13               -1.00274e-05         
  3                     1.02034e-05           1.06e-12              3.4e-13               -1.01998e-05         
  3.05                  1.03718e-05           9.4e-13               6e-13                 -1.03688e-05         
  3.1                   1.05336e-05           1e-12                 -4.8e-13              -1.05326e-05         
  3.15                  1.06972e-05           1.08e-12              6.8e-13               -1.06936e-05         
  3.2                   1.0853e-05            1.12e-12              -4e-13                -1.08494e-05         
  3.25                  1.1006e-05            1.06e-12              0                     -1.10024e-05         
  3.3                   1.11544e-05           1.08e-12              3e-13                 -1.11514e-05         
  3.35                  1.12982e-05           1.12e-12              4e-14                 -1.12936e-05         
  3.4                   1.14392e-05           9.8e-13               -5.2e-13              -1.14346e-05         
  3.45                  1.1578e-05            9e-13                 0                     -1.157e-05           
