! VERSION = 6.00
BEGIN_HEADER
 ICCAP_INPUTS
  vg         V  G GROUND SMU2 0.001 LIN        1    -0.5       3.6        83   0.05      
  vb         V  B GROUND SMU4 0.1 LIN        2    0          -3.6       5    -0.9      
  vd         V  D GROUND SMU1 0.1 LIN        3    0.1        3.3        3    1.6       
  vs         V  S GROUND SMU3 0.1 CON        0
 ICCAP_OUTPUTS
  id         I  D GROUND SMU1 B
  ig         I  G GROUND SMU2 B
  ib         I  B GROUND SMU4 B
  is         I  S GROUND SMU3 B
 ICCAP_VALUES
  MASTER_SETUP_TYPE "~dc_idvg~"
  LINVT_VALUE ""
  LISTVT_VALUE ""
  TYPE "1"
  TEMP " 27.0000 "
  IS_TNOM " 1.00000 "
  MAIN.W "600.0n"
  MAIN.L "1.200u"
  MAIN.AD "204.0f"
  MAIN.AS "204.0f"
  MAIN.PD "1.880u"
  MAIN.PS "1.880u"
  MAIN.NF "1.000"
  MAIN.M "1"
  MAIN.NRD "0.000"
  MAIN.NRS "0.000"
  MAIN.LDRIFT1 "1E-06"
  MAIN.LDRIFT2 "1E-06"
  MAIN.SA "0.000"
  MAIN.SB "0.000"
  MAIN.SD "0.000"
  MAIN.SCA "0.000"
  MAIN.SCB "0.000"
  MAIN.SCC "0.000"
  MAIN.SC "0.000"
  MODULE "S559"
  PIN_D "14"
  PIN_G "7"
  PIN_S "8"
  PIN_B "13"
  PIN_E ""
  PIN_6 ""
  XY_ID ""
  FUNC "LW Scale"
  STI "SA ref"
  WPE "WPE ref"
  COMMENT ""
  DIS_MEAS ""
  TypeTCI "10"
END_HEADER

BEGIN_DB
 ICCAP_VAR vb         0              
 ICCAP_VAR vd         0.1            
 ICCAP_VAR vs         0              

 #vg                    id                    ig                    ib                    is                   
  -0.5                  6e-14                 -4.49e-11             5.11e-11              -4e-14               
  -0.45                 2e-14                 -7e-12                1.372e-11             4e-14                
  -0.4                  -8e-14                -1.06e-12             8.04e-12              0                    
  -0.35                 6e-14                 -1e-13                7.64e-12              -2e-14               
  -0.3                  6e-14                 1e-13                 8.08e-12              0                    
  -0.25                 4e-14                 1.6e-13               6.42e-12              -8e-14               
  -0.2                  4e-14                 2.8e-13               6.48e-12              -2e-14               
  -0.15                 8e-14                 2.2e-13               6.16e-12              2e-13                
  -0.1                  0                     4.6e-13               7.84e-12              -1.4e-13             
  -0.05                 2.4e-13               2.6e-13               6.46e-12              1.6e-13              
  0                     1e-13                 5e-13                 6.64e-12              2e-14                
  0.05                  4e-14                 2e-13                 5.78e-12              1.4e-13              
  0.1                   1.6e-13               4.4e-13               6.5e-12               6e-14                
  0.15                  2.8e-13               4.2e-13               5.48e-12              -1e-13               
  0.2                   7.6e-13               5e-13                 6.8e-12               -6.4e-13             
  0.25                  3.02e-12              4.4e-13               6e-12                 -2.94e-12            
  0.3                   1.22e-11              5e-13                 4.82e-12              -1.212e-11           
  0.35                  4.956e-11             6.8e-13               6.08e-12              -4.936e-11           
  0.4                   1.9974e-10            5.2e-13               5.86e-12              -1.9958e-10          
  0.45                  8.0078e-10            6.2e-13               7.2e-12               -8.009e-10           
  0.5                   3.0682e-09            4.8e-13               6.08e-12              -3.067e-09           
  0.55                  1.07246e-08           5.6e-13               4.6e-12               -1.0709e-08          
  0.6                   3.227e-08             5.2e-13               5.3e-12               -3.2242e-08          
  0.65                  8.2092e-08            6e-13                 5.52e-12              -8.206e-08           
  0.7                   1.7532e-07            6.2e-13               6.08e-12              -1.7518e-07          
  0.75                  3.2278e-07            6.2e-13               5.02e-12              -3.2264e-07          
  0.8                   5.2494e-07            8.6e-13               5.44e-12              -5.2474e-07          
  0.85                  7.7656e-07            6.4e-13               4.66e-12              -7.7642e-07          
  0.9                   1.06486e-06           7.4e-13               5.88e-12              -1.0648e-06          
  0.95                  1.3824e-06            3.2e-13               4.72e-12              -1.3782e-06          
  1                     1.7156e-06            9.2e-13               5.42e-12              -1.7116e-06          
  1.05                  2.0652e-06            6.6e-13               5.74e-12              -2.061e-06           
  1.1                   2.422e-06             9.4e-13               5.1e-12               -2.418e-06           
  1.15                  2.7846e-06            7.6e-13               4.7e-12               -2.7806e-06          
  1.2                   3.1508e-06            7.4e-13               5.28e-12              -3.1468e-06          
  1.25                  3.5182e-06            8.6e-13               5.28e-12              -3.5144e-06          
  1.3                   3.8878e-06            7.2e-13               5.52e-12              -3.8838e-06          
  1.35                  4.2546e-06            7e-13                 4.38e-12              -4.2502e-06          
  1.4                   4.6194e-06            8.8e-13               4.26e-12              -4.6156e-06          
  1.45                  4.9818e-06            7e-13                 4.78e-12              -4.9778e-06          
  1.5                   5.3426e-06            7.6e-13               4.66e-12              -5.3388e-06          
  1.55                  5.6988e-06            7.8e-13               4.54e-12              -5.6946e-06          
  1.6                   6.0502e-06            7.6e-13               3.84e-12              -6.0458e-06          
  1.65                  6.3982e-06            8.6e-13               4.1e-12               -6.3942e-06          
  1.7                   6.7374e-06            7.8e-13               4.72e-12              -6.7354e-06          
  1.75                  7.0756e-06            8.4e-13               4.6e-12               -7.0718e-06          
  1.8                   7.41e-06              1.04e-12              3.6e-12               -7.4064e-06          
  1.85                  7.737e-06             6.2e-13               3.96e-12              -7.7326e-06          
  1.9                   8.0596e-06            1.02e-12              5.12e-12              -8.0548e-06          
  1.95                  8.3756e-06            8.8e-13               4.64e-12              -8.3706e-06          
  2                     8.6862e-06            9e-13                 4.12e-12              -8.684e-06           
  2.05                  8.9932e-06            9.4e-13               3.8e-12               -8.9886e-06          
  2.1                   9.2928e-06            8.8e-13               5.12e-12              -9.2878e-06          
  2.15                  9.5858e-06            1.08e-12              4.74e-12              -9.5808e-06          
  2.2                   9.8734e-06            9.2e-13               3.78e-12              -9.8684e-06          
  2.25                  1.01562e-05           8.6e-13               3.56e-12              -1.01514e-05         
  2.3                   1.04294e-05           1.16e-12              4.54e-12              -1.04242e-05         
  2.35                  1.06972e-05           6.6e-13               4.76e-12              -1.06936e-05         
  2.4                   1.096e-05             1.2e-12               4e-12                 -1.09556e-05         
  2.45                  1.12182e-05           8.4e-13               3.48e-12              -1.12128e-05         
  2.5                   1.14686e-05           9.8e-13               4.3e-12               -1.1465e-05          
  2.55                  1.1722e-05            8.4e-13               4.24e-12              -1.1702e-05          
  2.6                   1.1962e-05            7.6e-13               4.18e-12              -1.1942e-05          
  2.65                  1.2196e-05            1.06e-12              3.98e-12              -1.2174e-05          
  2.7                   1.2422e-05            1.02e-12              3.44e-12              -1.24e-05            
  2.75                  1.2644e-05            1.02e-12              4.04e-12              -1.2622e-05          
  2.8                   1.2858e-05            1.02e-12              4.18e-12              -1.2836e-05          
  2.85                  1.3066e-05            1.02e-12              4.24e-12              -1.3046e-05          
  2.9                   1.327e-05             8.2e-13               3.42e-12              -1.325e-05           
  2.95                  1.3468e-05            1.04e-12              4.3e-12               -1.3448e-05          
  3                     1.366e-05             8.8e-13               4.48e-12              -1.364e-05           
  3.05                  1.3846e-05            1.06e-12              4.18e-12              -1.3826e-05          
  3.1                   1.4024e-05            1.02e-12              3.16e-12              -1.4004e-05          
  3.15                  1.42e-05              1e-12                 3.36e-12              -1.418e-05           
  3.2                   1.4372e-05            1.1e-12               4.8e-12               -1.4352e-05          
  3.25                  1.4538e-05            9.6e-13               3.2e-12               -1.4518e-05          
  3.3                   1.4698e-05            9.4e-13               2.98e-12              -1.4678e-05          
  3.35                  1.4852e-05            1.16e-12              3.24e-12              -1.4832e-05          
  3.4                   1.5002e-05            8.2e-13               4.48e-12              -1.498e-05           
  3.45                  1.5146e-05            1.2e-12               3.68e-12              -1.5126e-05          
  3.5                   1.5286e-05            8.4e-13               3.02e-12              -1.5266e-05          
  3.55                  1.542e-05             1.14e-12              3.28e-12              -1.5402e-05          
  3.6                   1.5554e-05            9.4e-13               3.76e-12              -1.5534e-05          
END_DB

BEGIN_DB
 ICCAP_VAR vb         -0.9           
 ICCAP_VAR vd         0.1            
 ICCAP_VAR vs         0              

 #vg                    id                    ig                    ib                    is                   
  -0.5                  -4e-14                -5.8e-13              -9.78e-12             6e-14                
  -0.45                 -8e-14                -4.2e-13              -8.9e-12              8e-14                
  -0.4                  -4e-14                -2.4e-13              -7.22e-12             2e-14                
  -0.35                 2e-14                 -6e-14                -6.96e-12             1.4e-13              
  -0.3                  -2e-14                -6e-14                -7.12e-12             4e-14                
  -0.25                 0                     -8e-14                -5.96e-12             1.4e-13              
  -0.2                  -1.2e-13              2e-14                 -5.38e-12             0                    
  -0.15                 2e-14                 2e-14                 -3.66e-12             2e-13                
  -0.1                  -4e-14                1e-13                 -4.52e-12             1e-13                
  -0.05                 6e-14                 2.4e-13               -4.32e-12             8e-14                
  0                     2e-14                 1.6e-13               -2.14e-12             1.4e-13              
  0.05                  -2e-14                4.2e-13               -3.3e-12              1.4e-13              
  0.1                   6e-14                 2.6e-13               -2.52e-12             1e-13                
  0.15                  -4e-14                3e-13                 -2.86e-12             1.8e-13              
  0.2                   -2e-14                4e-13                 -3.3e-12              4e-14                
  0.25                  6e-14                 4.6e-13               -2.78e-12             1e-13                
  0.3                   -2e-14                4e-13                 -2.68e-12             6e-14                
  0.35                  -2e-14                6e-13                 -1.56e-12             1.4e-13              
  0.4                   6e-14                 2.8e-13               -1.66e-12             -6e-14               
  0.45                  4.2e-13               6.6e-13               -1.94e-12             -3.4e-13             
  0.5                   1.94e-12              3.8e-13               -3.1e-12              -1.64e-12            
  0.55                  8.84e-12              5.4e-13               -9.4e-13              -8.88e-12            
  0.6                   4.06e-11              4.2e-13               -1.16e-12             -4.016e-11           
  0.65                  1.851e-10             5.4e-13               -1.52e-12             -1.8504e-10          
  0.7                   8.23e-10              3.8e-13               -1.7e-12              -8.2282e-10          
  0.75                  3.4412e-09            3.6e-13               -2.2e-12              -3.4368e-09          
  0.8                   1.262e-08             4.6e-13               -9e-13                -1.2596e-08          
  0.85                  3.8688e-08            4.8e-13               -8e-13                -3.8676e-08          
  0.9                   9.6536e-08            6.2e-13               -9.4e-13              -9.6484e-08          
  0.95                  2.0066e-07            6.2e-13               -1.38e-12             -2.0056e-07          
  1                     3.5748e-07            6.8e-13               -2.8e-13              -3.5732e-07          
  1.05                  5.6548e-07            5.8e-13               -4.8e-13              -5.6528e-07          
  1.1                   8.1494e-07            5e-13                 -1.16e-12             -8.1398e-07          
  1.15                  1.0963e-06            8e-13                 -1.64e-12             -1.09624e-06         
  1.2                   1.4058e-06            6.8e-13               -4e-14                -1.4016e-06          
  1.25                  1.7276e-06            5.8e-13               -1.26e-12             -1.7236e-06          
  1.3                   2.0638e-06            7e-13                 -1.44e-12             -2.06e-06            
  1.35                  2.4064e-06            5.2e-13               1.6e-13               -2.4026e-06          
  1.4                   2.753e-06             9.6e-13               6e-14                 -2.7494e-06          
  1.45                  3.1024e-06            4.4e-13               -1.04e-12             -3.0984e-06          
  1.5                   3.4534e-06            1e-12                 -4e-13                -3.4494e-06          
  1.55                  3.8028e-06            9e-13                 -1e-12                -3.7986e-06          
  1.6                   4.1498e-06            7.6e-13               -1.6e-13              -4.1452e-06          
  1.65                  4.496e-06             9.2e-13               2e-13                 -4.492e-06           
  1.7                   4.8398e-06            7e-13                 -8.6e-13              -4.8358e-06          
  1.75                  5.1782e-06            9.4e-13               -6.4e-13              -5.1748e-06          
  1.8                   5.5148e-06            9.4e-13               2.8e-13               -5.5098e-06          
  1.85                  5.8442e-06            8.2e-13               3.24e-12              -5.8408e-06          
  1.9                   6.1726e-06            7.8e-13               -2.2e-13              -6.1674e-06          
  1.95                  6.4942e-06            1e-12                 -6.8e-13              -6.488e-06           
  2                     6.8106e-06            8.8e-13               8e-14                 -6.8054e-06          
  2.05                  7.1232e-06            6.4e-13               6.8e-13               -7.1174e-06          
  2.1                   7.4278e-06            8.2e-13               -6e-14                -7.4232e-06          
  2.15                  7.7288e-06            1.02e-12              -6.6e-13              -7.7244e-06          
  2.2                   8.0226e-06            6.6e-13               8e-14                 -8.018e-06           
  2.25                  8.3116e-06            8.4e-13               1.08e-12              -8.3088e-06          
  2.3                   8.5952e-06            8.6e-13               -3e-13                -8.5896e-06          
  2.35                  8.8726e-06            8e-13                 -6.4e-13              -8.869e-06           
  2.4                   9.1424e-06            7.8e-13               -5e-13                -9.1376e-06          
  2.45                  9.4068e-06            1e-12                 4.6e-13               -9.4044e-06          
  2.5                   9.6668e-06            9.2e-13               2.2e-13               -9.6632e-06          
  2.55                  9.9212e-06            9.8e-13               -8.6e-13              -9.9162e-06          
  2.6                   1.0168e-05            8.8e-13               -5.2e-13              -1.01638e-05         
  2.65                  1.04094e-05           1.02e-12              1e-13                 -1.0406e-05          
  2.7                   1.06444e-05           1.04e-12              5e-13                 -1.06402e-05         
  2.75                  1.08742e-05           1.06e-12              -8e-14                -1.08702e-05         
  2.8                   1.10976e-05           9.2e-13               -6e-13                -1.10936e-05         
  2.85                  1.1315e-05            1.18e-12              3e-13                 -1.1311e-05          
  2.9                   1.1536e-05            7.4e-13               8.4e-13               -1.1516e-05          
  2.95                  1.1742e-05            1e-12                 2.2e-13               -1.1722e-05          
  3                     1.1942e-05            9.2e-13               -3.8e-13              -1.1922e-05          
  3.05                  1.2138e-05            1.12e-12              -2.2e-13              -1.2116e-05          
  3.1                   1.2326e-05            8e-13                 5.4e-13               -1.2306e-05          
  3.15                  1.251e-05             9.8e-13               6.2e-13               -1.249e-05           
  3.2                   1.2688e-05            9.8e-13               -4e-13                -1.2668e-05          
  3.25                  1.2862e-05            1.02e-12              -5e-13                -1.2842e-05          
  3.3                   1.3028e-05            1e-12                 8e-13                 -1.301e-05           
  3.35                  1.3192e-05            1.12e-12              5.4e-13               -1.3172e-05          
  3.4                   1.335e-05             9.6e-13               7.4e-13               -1.333e-05           
  3.45                  1.3504e-05            1.06e-12              -8.2e-13              -1.3484e-05          
