! VERSION = 6.00
BEGIN_HEADER
 ICCAP_INPUTS
  vd         V  D GROUND SMU1 0.1 LIN        1    0          3.6        37   0.1       
  vg         V  G GROUND SMU2 0.001 LIN        2    0.78       3.6        5    0.705     
  vb         V  B GROUND SMU4 0.1 CON        -3.6
  vs         V  S GROUND SMU3 0.1 CON        0
 ICCAP_OUTPUTS
  id         I  D GROUND SMU1 B
  ig         I  G GROUND SMU2 B
  ib         I  B GROUND SMU4 B
  is         I  S GROUND SMU3 B
 ICCAP_VALUES
  MASTER_SETUP_TYPE "~dc_idvd~"
  LINVT_VALUE "|idvg|100.0n|100.0m|1.000m|5|3.600|"
  LISTVT_VALUE ""
  TYPE "1"
  TEMP " 27.0000 "
  IS_TNOM " 1.00000 "
  MAIN.W "10.00u"
  MAIN.L "330.0n"
  MAIN.AD "3.400p"
  MAIN.AS "3.400p"
  MAIN.PD "20.68u"
  MAIN.PS "20.68u"
  MAIN.NF "1.000"
  MAIN.M "1"
  MAIN.NRD "0.000"
  MAIN.NRS "0.000"
  MAIN.LDRIFT1 "1E-06"
  MAIN.LDRIFT2 "1E-06"
  MAIN.SA "0.000"
  MAIN.SB "0.000"
  MAIN.SD "0.000"
  MAIN.SCA "0.000"
  MAIN.SCB "0.000"
  MAIN.SCC "0.000"
  MAIN.SC "0.000"
  MODULE "S556"
  PIN_D "18"
  PIN_G "3"
  PIN_S "4"
  PIN_B "17"
  PIN_E ""
  PIN_6 ""
  XY_ID ""
  FUNC "Additional"
  STI "SA ref"
  WPE "WPE ref"
  COMMENT ""
  DIS_MEAS ""
  TypeTCI "10"
END_HEADER

BEGIN_DB
 ICCAP_VAR vg         0.78           
 ICCAP_VAR vb         -3.6           
 ICCAP_VAR vs         0              

 #vd                    id                    ig                    ib                    is                   
  0                     2.4002e-09            3.4e-13               -4.398e-11            -1.3996e-09          
  0.1                   1.8162e-06            3.4e-13               -3.45e-11             -1.8168e-06          
  0.2                   2.6144e-06            3.2e-13               -3.4e-11              -2.6134e-06          
  0.3                   3.3976e-06            2e-13                 -3.338e-11            -3.3868e-06          
  0.4                   4.2202e-06            2e-13                 -3.038e-11            -4.2186e-06          
  0.5                   5.1516e-06            2.6e-13               -2.974e-11            -5.1478e-06          
  0.6                   6.138e-06             1.4e-13               -2.954e-11            -6.1252e-06          
  0.7                   7.2262e-06            2.4e-13               -2.76e-11             -7.213e-06           
  0.8                   8.4288e-06            2.4e-13               -2.708e-11            -8.4206e-06          
  0.9                   9.6966e-06            6e-14                 -2.624e-11            -9.7108e-06          
  1                     1.11222e-05           1e-13                 -2.434e-11            -1.1109e-05          
  1.1                   1.2616e-05            1.8e-13               -2.42e-11             -1.2602e-05          
  1.2                   1.4236e-05            2.6e-13               -2.56e-11             -1.4204e-05          
  1.3                   1.597e-05             1.2e-13               -3.64e-11             -1.5956e-05          
  1.4                   1.7812e-05            1.4e-13               -7.676e-11            -1.7814e-05          
  1.5                   1.9828e-05            6e-14                 -1.99e-10             -1.982e-05           
  1.6                   2.1914e-05            6e-14                 -5.2056e-10           -2.1918e-05          
  1.7                   2.4138e-05            1.6e-13               -1.2438e-09           -2.4134e-05          
  1.8                   2.6574e-05            4e-14                 -2.738e-09            -2.6588e-05          
  1.9                   2.9058e-05            4e-14                 -5.5312e-09           -2.9038e-05          
  2                     3.1654e-05            6e-14                 -1.03994e-08          -3.1572e-05          
  2.1                   3.4382e-05            1.6e-13               -1.857e-08            -3.4368e-05          
  2.2                   3.732e-05             1.8e-13               -3.153e-08            -3.7278e-05          
  2.3                   4.0274e-05            4e-14                 -5.1506e-08           -4.0202e-05          
  2.4                   4.3456e-05            1.4e-13               -8.1536e-08           -4.3372e-05          
  2.5                   4.68e-05              2e-13                 -1.2538e-07           -4.6608e-05          
  2.6                   5.023e-05             4e-14                 -1.8876e-07           -5.0028e-05          
  2.7                   5.3808e-05            0                     -2.7836e-07           -5.3518e-05          
  2.8                   5.7562e-05            1.8e-13               -4.0382e-07           -5.7174e-05          
  2.9                   6.1536e-05            1.2e-13               -5.7642e-07           -6.0942e-05          
  3                     6.5676e-05            6e-14                 -8.115e-07            -6.4838e-05          
  3.1                   6.997e-05             1e-13                 -1.12688e-06          -6.882e-05           
  3.2                   7.4604e-05            2e-14                 -1.542e-06            -7.3034e-05          
  3.3                   7.9408e-05            0                     -2.0806e-06           -7.7338e-05          
  3.4                   8.4556e-05            8e-14                 -2.7702e-06           -8.1784e-05          
  3.5                   9.0004e-05            6e-14                 -3.639e-06            -8.6388e-05          
  3.6                   9.5844e-05            1.4e-13               -4.7138e-06           -9.1124e-05          
END_DB

BEGIN_DB
 ICCAP_VAR vg         1.485          
 ICCAP_VAR vb         -3.6           
 ICCAP_VAR vs         0              

 #vd                    id                    ig                    ib                    is                   
  0                     1.5724e-07            4.8e-13               -1.02e-11             -1.317e-07           
  0.1                   0.0002865             4.4e-13               -9.42e-12             -0.00028608          
  0.2                   0.00050736            2e-13                 -1.008e-11            -0.00050698          
  0.3                   0.0006634             3.6e-13               -1.006e-11            -0.00066304          
  0.4                   0.00076956            3.4e-13               -9.22e-12             -0.00076902          
  0.5                   0.00084254            2.4e-13               -9.88e-12             -0.00084228          
  0.6                   0.00089626            2.2e-13               -1.086e-11            -0.00089546          
  0.7                   0.00093826            2.6e-13               -9.54e-12             -0.00093804          
  0.8                   0.00097342            1.8e-13               -1.06e-11             -0.00097326          
  0.9                   0.00100444            2e-13                 -1.106e-11            -0.0010042           
  1                     0.0010325             3.2e-13               -9.2e-12              -0.00103216          
  1.1                   0.00105874            3.4e-13               -1.138e-11            -0.00105842          
  1.2                   0.00108298            6e-14                 -1.472e-11            -0.00108268          
  1.3                   0.00110602            1e-13                 -3.32e-11             -0.00110556          
  1.4                   0.00112808            2e-13                 -1.2478e-10           -0.00112772          
  1.5                   0.00114932            2.6e-13               -4.6664e-10           -0.00114866          
  1.6                   0.0011712             2.2e-13               -1.5684e-09           -0.001169            
  1.7                   0.0011914             1.6e-13               -4.6322e-09           -0.0011892           
  1.8                   0.0012112             1.2e-13               -1.2122e-08           -0.001209            
  1.9                   0.0012304             1.2e-13               -2.845e-08            -0.0012286           
  2                     0.0012496             6e-14                 -6.0662e-08           -0.0012474           
  2.1                   0.0012682             2e-14                 -1.1946e-07           -0.0012658           
  2.2                   0.0012864             1.4e-13               -2.2012e-07           -0.001284            
  2.3                   0.0013044             2e-13                 -3.8242e-07           -0.001302            
  2.4                   0.0013226             1.2e-13               -6.3226e-07           -0.00132             
  2.5                   0.0013406             4e-14                 -1.00384e-06          -0.0013376           
  2.6                   0.0013586             1.8e-13               -1.5392e-06           -0.001355            
  2.7                   0.0013766             6e-14                 -2.293e-06            -0.0013722           
  2.8                   0.0013948             1.4e-13               -3.3342e-06           -0.0013894           
  2.9                   0.0014132             1e-13                 -4.7484e-06           -0.0014064           
  3                     0.0014322             1.2e-13               -6.648e-06            -0.0014236           
  3.1                   0.0014518             1.8e-13               -9.1624e-06           -0.0014404           
  3.2                   0.0014724             4e-14                 -1.2442e-05           -0.001458            
  3.3                   0.001494              1.4e-13               -1.6678e-05           -0.0014752           
  3.4                   0.0015168             2.2e-13               -2.2086e-05           -0.0014928           
  3.5                   0.0015416             1.4e-13               -2.8886e-05           -0.0015108           
  3.6                   0.0015682             8e-14                 -3.7298e-05           -0.0015288           
END_DB

BEGIN_DB
 ICCAP_VAR vg         2.19           
 ICCAP_VAR vb         -3.6           
 ICCAP_VAR vs         0              

 #vd                    id                    ig                    ib                    is                   
  0                     2.1116e-07            5.6e-13               -8.76e-12             -2.1726e-07          
  0.1                   0.0005667             3.6e-13               -4.64e-12             -0.00056628          
  0.2                   0.00107324            3.6e-13               -6.84e-12             -0.00107286          
  0.3                   0.0015004             2.6e-13               -6.52e-12             -0.0014984           
  0.4                   0.0018432             3e-13                 -7.46e-12             -0.001841            
  0.5                   0.0021084             2e-13                 -5.9e-12              -0.0021066           
  0.6                   0.0023086             2.6e-13               -6.36e-12             -0.0023066           
  0.7                   0.002459              2.6e-13               -7.18e-12             -0.0024568           
  0.8                   0.0025722             1.4e-13               -6.02e-12             -0.0025704           
  0.9                   0.0026594             2.8e-13               -7.02e-12             -0.0026572           
  1                     0.0027284             2.8e-13               -6.52e-12             -0.0027266           
  1.1                   0.0027852             1.8e-13               -6.1e-12              -0.0027836           
  1.2                   0.002834              2.6e-13               -8.7e-12              -0.002832            
  1.3                   0.002876              2.2e-13               -1.502e-11            -0.0028742           
  1.4                   0.0029138             2.6e-13               -4.736e-11            -0.0029116           
  1.5                   0.0029478             2e-13                 -1.7672e-10           -0.0029454           
  1.6                   0.0029794             2e-13                 -6.1972e-10           -0.0029772           
  1.7                   0.0030086             1.8e-13               -1.9472e-09           -0.0030066           
  1.8                   0.0030364             1.6e-13               -5.5046e-09           -0.0030344           
  1.9                   0.0030628             1.6e-13               -1.404e-08            -0.0030604           
  2                     0.0030876             2e-13                 -3.2624e-08           -0.003086            
  2.1                   0.0031122             2.4e-13               -7e-08                -0.0031102           
  2.2                   0.0031356             2e-14                 -1.3986e-07           -0.0031334           
  2.3                   0.0031582             1.6e-13               -2.6238e-07           -0.0031558           
  2.4                   0.0031802             1.4e-13               -4.6532e-07           -0.0031776           
  2.5                   0.0032018             1.2e-13               -7.8772e-07           -0.0031992           
  2.6                   0.0032232             1.6e-13               -1.278e-06            -0.0032196           
  2.7                   0.003244              2.2e-13               -2.0004e-06           -0.00324             
  2.8                   0.003265              2e-13                 -3.0366e-06           -0.0032596           
  2.9                   0.0032862             1.4e-13               -4.4878e-06           -0.0032796           
  3                     0.0033078             4.6e-13               -6.4848e-06           -0.0032994           
  3.1                   0.00333               2e-13                 -9.1844e-06           -0.0033186           
  3.2                   0.0033534             1.8e-13               -1.2774e-05           -0.0033384           
  3.3                   0.0033774             2.4e-13               -1.7502e-05           -0.0033578           
  3.4                   0.0034032             2e-13                 -2.3664e-05           -0.0033772           
  3.5                   0.0034306             3e-13                 -3.1564e-05           -0.0033972           
  3.6                   0.0034614             3.2e-13               -4.1564e-05           -0.0034176           
END_DB

BEGIN_DB
 ICCAP_VAR vg         2.895          
 ICCAP_VAR vb         -3.6           
 ICCAP_VAR vs         0              

 #vd                    id                    ig                    ib                    is                   
  0                     2.3958e-07            4.8e-13               -4.14e-12             -2.7982e-07          
  0.1                   0.00073706            3.2e-13               -4.54e-12             -0.00073666          
  0.2                   0.0014272             2.8e-13               -5.44e-12             -0.0014252           
  0.3                   0.0020446             3.4e-13               -3.92e-12             -0.0020424           
  0.4                   0.00258               4.2e-13               -5.22e-12             -0.002578            
  0.5                   0.0030306             3.2e-13               -6.04e-12             -0.0030284           
  0.6                   0.0034008             3.2e-13               -4.28e-12             -0.0033986           
  0.7                   0.0037008             5e-13                 -4.32e-12             -0.0036988           
  0.8                   0.0039408             2.8e-13               -4.72e-12             -0.0039386           
  0.9                   0.004131              3e-13                 -3.9e-12              -0.0041292           
  1                     0.0042828             3.8e-13               -5.2e-12              -0.0042806           
  1.1                   0.004404              1e-13                 -3.36e-12             -0.0044018           
  1.2                   0.0045018             2e-13                 -4.28e-12             -0.0045              
  1.3                   0.0045828             2.6e-13               -7.9e-12              -0.0045808           
  1.4                   0.0046506             1.2e-13               -1.586e-11            -0.0046488           
  1.5                   0.0047092             1.6e-13               -5.064e-11            -0.0047068           
  1.6                   0.0047596             1.4e-13               -1.9006e-10           -0.0047578           
  1.7                   0.0048046             1.4e-13               -6.381e-10            -0.0048026           
  1.8                   0.004845              2e-13                 -1.9438e-09           -0.0048426           
  1.9                   0.0048816             1.8e-13               -5.3566e-09           -0.0048796           
  2                     0.0049152             1.4e-13               -1.3402e-08           -0.0049136           
  2.1                   0.0049466             2.2e-13               -3.0886e-08           -0.0049448           
  2.2                   0.0049758             1.6e-13               -6.596e-08            -0.004974            
  2.3                   0.0050034             1.6e-13               -1.3154e-07           -0.0050012           
  2.4                   0.0050294             2e-13                 -2.471e-07            -0.005027            
  2.5                   0.0050542             2.2e-13               -4.4074e-07           -0.0050518           
  2.6                   0.0050782             1.4e-13               -7.5102e-07           -0.0050754           
  2.7                   0.0051012             2.6e-13               -1.2264e-06           -0.0050984           
  2.8                   0.0051238             3e-13                 -1.937e-06            -0.0051194           
  2.9                   0.0051454             3.6e-13               -2.9648e-06           -0.0051404           
  3                     0.005167              6.2e-13               -4.4208e-06           -0.0051606           
  3.1                   0.005189              8.2e-13               -6.4406e-06           -0.0051804           
  3.2                   0.0052114             9.6e-13               -9.1906e-06           -0.0051998           
  3.3                   0.0052344             1.14e-12              -1.2862e-05           -0.005219            
  3.4                   0.005258              1.48e-12              -1.7746e-05           -0.005238            
  3.5                   0.0052834             1.54e-12              -2.4138e-05           -0.0052572           
  3.6                   0.005311              2e-12                 -3.2356e-05           -0.0052764           
END_DB

BEGIN_DB
 ICCAP_VAR vg         3.6            
 ICCAP_VAR vb         -3.6           
 ICCAP_VAR vs         0              

 #vd                    id                    ig                    ib                    is                   
  0                     2.466e-07             5.2e-13               -5.34e-12             -2.997e-07           
  0.1                   0.0008397             4.4e-13               -3.36e-12             -0.00083932          
  0.2                   0.0016436             3.6e-13               -4.08e-12             -0.0016416           
  0.3                   0.0023864             3.8e-13               -3.1e-12              -0.0023842           
  0.4                   0.0030574             3.8e-13               -4.62e-12             -0.0030554           
  0.5                   0.0036496             3.4e-13               -4.54e-12             -0.0036476           
  0.6                   0.004162              3.4e-13               -2.9e-12              -0.00416             
  0.7                   0.0046002             3e-13                 -4.58e-12             -0.004598            
  0.8                   0.00497               1.2e-13               -5.18e-12             -0.004968            
