! VERSION = 6.00
BEGIN_HEADER
 ICCAP_INPUTS
  vd         V  D GROUND SMU1 0.1 LIN        1    0          3.6        37   0.1       
  vg         V  G GROUND SMU2 0.001 LIN        2    0.56       3.6        5    0.76      
  vb         V  B GROUND SMU4 0.1 CON        0
  vs         V  S GROUND SMU3 0.1 CON        0
 ICCAP_OUTPUTS
  id         I  D GROUND SMU1 B
  ig         I  G GROUND SMU2 B
  ib         I  B GROUND SMU4 B
  is         I  S GROUND SMU3 B
 ICCAP_VALUES
  MASTER_SETUP_TYPE "~dc_idvd~"
  LINVT_VALUE "|idvg|100.0n|100.0m|1.000m|5|3.600|"
  LISTVT_VALUE ""
  TYPE "1"
  TEMP " 27.0000 "
  IS_TNOM " 1.00000 "
  MAIN.W "600.0n"
  MAIN.L "350.0n"
  MAIN.AD "204.0f"
  MAIN.AS "204.0f"
  MAIN.PD "1.880u"
  MAIN.PS "1.880u"
  MAIN.NF "1.000"
  MAIN.M "1"
  MAIN.NRD "0.000"
  MAIN.NRS "0.000"
  MAIN.LDRIFT1 "1E-06"
  MAIN.LDRIFT2 "1E-06"
  MAIN.SA "0.000"
  MAIN.SB "0.000"
  MAIN.SD "0.000"
  MAIN.SCA "0.000"
  MAIN.SCB "0.000"
  MAIN.SCC "0.000"
  MAIN.SC "0.000"
  MODULE "S559"
  PIN_D "18"
  PIN_G "3"
  PIN_S "4"
  PIN_B "17"
  PIN_E ""
  PIN_6 ""
  XY_ID ""
  FUNC "Additional"
  STI "SA ref"
  WPE "WPE ref"
  COMMENT ""
  DIS_MEAS ""
  TypeTCI "10"
END_HEADER

BEGIN_DB
 ICCAP_VAR vg         0.56           
 ICCAP_VAR vb         0              
 ICCAP_VAR vs         0              

 #vd                    id                    ig                    ib                    is                   
  0                     2.3258e-10            1.2e-13               2.462e-11             -1.5782e-10          
  0.1                   1.6724e-07            -6e-14                2.264e-11             -1.6236e-07          
  0.2                   2.2028e-07            -6e-14                2.082e-11             -2.3428e-07          
  0.3                   2.4966e-07            -4e-14                1.982e-11             -2.4878e-07          
  0.4                   2.8426e-07            -1e-13                2e-11                 -2.6966e-07          
  0.5                   3.1082e-07            -2e-13                1.878e-11             -3.1044e-07          
  0.6                   3.5034e-07            -2e-13                1.77e-11              -3.466e-07           
  0.7                   3.8172e-07            -1.4e-13              1.796e-11             -3.7934e-07          
  0.8                   4.2058e-07            -2.2e-13              1.79e-11              -4.2408e-07          
  0.9                   4.4904e-07            -1e-13                1.648e-11             -4.431e-07           
  1                     4.8836e-07            -1.2e-13              1.604e-11             -4.8936e-07          
  1.1                   5.2438e-07            -1.4e-13              1.54e-11              -5.359e-07           
  1.2                   5.8124e-07            -2e-14                1.566e-11             -5.8062e-07          
  1.3                   6.064e-07             -1.4e-13              1.396e-11             -6.157e-07           
  1.4                   6.6184e-07            -2e-13                1.11e-11              -6.5986e-07          
  1.5                   7.1794e-07            -4e-14                6.2e-12               -7.1366e-07          
  1.6                   7.642e-07             0                     -6.7e-12              -7.6894e-07          
  1.7                   8.1218e-07            -1.6e-13              -3.38e-11             -8.1568e-07          
  1.8                   8.8784e-07            -1.2e-13              -8.42e-11             -8.9e-07             
  1.9                   1.0866e-06            -1.6e-13              -1.8528e-10           -9.192e-07           
  2                     1.041e-06             -1e-13                -3.2488e-10           -1.0084e-06          
  2.1                   1.2436e-06            -1.2e-13              -6.314e-10            -1.1002e-06          
  2.2                   1.2924e-06            -8e-14                -1.0226e-09           -1.294e-06           
  2.3                   1.4208e-06            -2e-14                -1.7428e-09           -1.381e-06           
  2.4                   1.484e-06             -4e-14                -2.6398e-09           -1.4912e-06          
  2.5                   1.561e-06             -4e-14                -3.9566e-09           -1.6522e-06          
  2.6                   1.729e-06             -4e-14                -5.8948e-09           -1.6854e-06          
  2.7                   1.799e-06             -1.6e-13              -8.5902e-09           -1.8324e-06          
  2.8                   1.9196e-06            -1e-13                -1.1804e-08           -1.9334e-06          
  2.9                   2.0444e-06            -2.2e-13              -1.693e-08            -2.0264e-06          
  3                     2.1742e-06            -8e-14                -2.3372e-08           -2.1402e-06          
  3.1                   2.2868e-06            -2e-14                -3.2618e-08           -2.2588e-06          
  3.2                   2.4178e-06            -1.2e-13              -4.3372e-08           -2.3992e-06          
  3.3                   2.588e-06             -1e-13                -5.8184e-08           -2.5236e-06          
  3.4                   2.7166e-06            -2e-13                -7.6508e-08           -2.6512e-06          
  3.5                   2.885e-06             -1e-13                -9.8734e-08           -2.7852e-06          
  3.6                   3.0522e-06            -1e-13                -1.2668e-07           -2.9108e-06          
END_DB

BEGIN_DB
 ICCAP_VAR vg         1.32           
 ICCAP_VAR vb         0              
 ICCAP_VAR vs         0              

 #vd                    id                    ig                    ib                    is                   
  0                     9.862e-09             1e-13                 8.28e-12              -9.606e-09           
  0.1                   1.8014e-05            2.2e-13               7.36e-12              -1.7988e-05          
  0.2                   3.212e-05             1.6e-13               1.03e-11              -3.2158e-05          
  0.3                   4.233e-05             1e-13                 7e-12                 -4.2312e-05          
  0.4                   4.9304e-05            1.4e-13               5.86e-12              -4.9312e-05          
  0.5                   5.399e-05             1.2e-13               6.16e-12              -5.3984e-05          
  0.6                   5.713e-05             8e-14                 7.04e-12              -5.7116e-05          
  0.7                   5.9452e-05            1e-13                 5.5e-12               -5.952e-05           
  0.8                   6.1276e-05            1.4e-13               6.1e-12               -6.125e-05           
  0.9                   6.2796e-05            2e-14                 6e-12                 -6.2812e-05          
  1                     6.4196e-05            -2e-14                5e-12                 -6.4174e-05          
  1.1                   6.5434e-05            4e-14                 5.84e-12              -6.5388e-05          
  1.2                   6.6538e-05            8e-14                 5.66e-12              -6.6516e-05          
  1.3                   6.7604e-05            2e-14                 3.92e-12              -6.7502e-05          
  1.4                   6.8532e-05            0                     -4.8e-13              -6.8514e-05          
  1.5                   6.9516e-05            4e-14                 -2.076e-11            -6.9524e-05          
  1.6                   7.0558e-05            1e-13                 -8.574e-11            -7.0536e-05          
  1.7                   7.1418e-05            2e-14                 -2.5874e-10           -7.137e-05           
  1.8                   7.227e-05             4e-14                 -6.7272e-10           -7.2262e-05          
  1.9                   7.331e-05             6e-14                 -1.56e-09             -7.3134e-05          
  2                     7.4008e-05            -6e-14                -3.2782e-09           -7.4072e-05          
  2.1                   7.498e-05             6e-14                 -6.3738e-09           -7.5004e-05          
  2.2                   7.579e-05             2e-14                 -1.1586e-08           -7.5828e-05          
  2.3                   7.6684e-05            4e-14                 -1.9916e-08           -7.6624e-05          
  2.4                   7.7584e-05            8e-14                 -3.2606e-08           -7.7496e-05          
  2.5                   7.851e-05             -4e-14                -5.135e-08            -7.8384e-05          
  2.6                   7.9368e-05            6e-14                 -7.8108e-08           -7.9134e-05          
  2.7                   8.01e-05              0                     -1.15372e-07          -8.0004e-05          
  2.8                   8.0982e-05            -1e-13                -1.665e-07            -8.083e-05           
  2.9                   8.1896e-05            -4e-14                -2.3604e-07           -8.1662e-05          
  3                     8.287e-05             0                     -3.2834e-07           -8.2584e-05          
  3.1                   8.3866e-05            4e-14                 -4.4948e-07           -8.342e-05           
  3.2                   8.496e-05             6e-14                 -6.083e-07            -8.418e-05           
  3.3                   8.6034e-05            -1.2e-13              -8.117e-07            -8.5188e-05          
  3.4                   8.7202e-05            4e-14                 -1.07072e-06          -8.6126e-05          
  3.5                   8.8446e-05            4e-14                 -1.3938e-06           -8.6978e-05          
  3.6                   8.9804e-05            -2e-14                -1.7938e-06           -8.8038e-05          
END_DB

BEGIN_DB
 ICCAP_VAR vg         2.08           
 ICCAP_VAR vb         0              
 ICCAP_VAR vs         0              

 #vd                    id                    ig                    ib                    is                   
  0                     1.8504e-08            4e-13                 5.08e-12              -1.8026e-08          
  0.1                   3.5766e-05            3e-13                 5.54e-12              -3.574e-05           
  0.2                   6.7888e-05            2.8e-13               4.2e-12               -6.787e-05           
  0.3                   9.5316e-05            3.4e-13               3.48e-12              -9.5298e-05          
  0.4                   0.00011786            2.6e-13               3.54e-12              -0.00011746          
  0.5                   0.00013538            4e-14                 4.38e-12              -0.000135            
  0.6                   0.00014868            1.6e-13               3.96e-12              -0.0001482           
  0.7                   0.00015844            2.2e-13               3.24e-12              -0.00015804          
  0.8                   0.00016578            1.4e-13               4.08e-12              -0.00016536          
  0.9                   0.00017114            1.2e-13               3.62e-12              -0.00017082          
  1                     0.00017536            1.6e-13               3.2e-12               -0.00017506          
  1.1                   0.00017886            1e-13                 4.46e-12              -0.00017844          
  1.2                   0.00018162            6e-14                 3.26e-12              -0.00018122          
  1.3                   0.00018394            1.6e-13               3.3e-12               -0.0001836           
  1.4                   0.00018608            2.2e-13               1.8e-12               -0.00018566          
  1.5                   0.00018796            6e-14                 -6.76e-12             -0.00018756          
  1.6                   0.00018966            2e-13                 -3.008e-11            -0.00018926          
  1.7                   0.00019134            4e-14                 -1.0368e-10           -0.0001909           
  1.8                   0.00019284            1.6e-13               -3.0222e-10           -0.00019244          
  1.9                   0.00019426            1.2e-13               -7.7052e-10           -0.00019382          
  2                     0.00019552            8e-14                 -1.7878e-09           -0.0001951           
  2.1                   0.00019676            0                     -3.8084e-09           -0.00019646          
  2.2                   0.00019812            2e-13                 -7.576e-09            -0.00019772          
  2.3                   0.00019928            0                     -1.4154e-08           -0.00019882          
  2.4                   0.0002004             -2e-14                -2.4932e-08           -0.00020008          
  2.5                   0.0002015             1.2e-13               -4.2042e-08           -0.0002011           
  2.6                   0.0002027             2.4e-13               -6.8006e-08           -0.00020224          
  2.7                   0.00020382            1.8e-13               -1.06128e-07          -0.00020338          
  2.8                   0.00020504            8e-14                 -1.6026e-07           -0.0002045           
  2.9                   0.00020612            2e-14                 -2.3648e-07           -0.00020552          
  3                     0.00020736            1.4e-13               -3.4122e-07           -0.00020658          
  3.1                   0.0002085             0                     -4.8224e-07           -0.00020762          
  3.2                   0.00020976            1e-13                 -6.7024e-07           -0.0002087           
  3.3                   0.00021112            4e-14                 -9.1704e-07           -0.0002098           
  3.4                   0.00021254            -6e-14                -1.2372e-06           -0.00021092          
  3.5                   0.00021414            4e-14                 -1.649e-06            -0.00021208          
  3.6                   0.00021582            2e-14                 -2.1702e-06           -0.00021334          
END_DB

BEGIN_DB
 ICCAP_VAR vg         2.84           
 ICCAP_VAR vb         0              
 ICCAP_VAR vs         0              

 #vd                    id                    ig                    ib                    is                   
  0                     2.6082e-08            4.6e-13               4.48e-12              -2.4048e-08          
  0.1                   4.7302e-05            3.8e-13               4.12e-12              -4.7284e-05          
  0.2                   9.1556e-05            2.8e-13               2.26e-12              -9.1536e-05          
  0.3                   0.00013158            2.4e-13               2.92e-12              -0.0001312           
  0.4                   0.0001665             2.6e-13               2.96e-12              -0.00016612          
  0.5                   0.0001961             3.2e-13               3.38e-12              -0.00019572          
  0.6                   0.00022054            3e-13                 2.48e-12              -0.00022016          
  0.7                   0.00024034            2.8e-13               2.98e-12              -0.00023994          
  0.8                   0.00025612            2.2e-13               2.68e-12              -0.00025572          
  0.9                   0.00026856            2.2e-13               2.38e-12              -0.00026816          
  1                     0.00027836            1.2e-13               3.54e-12              -0.000278            
  1.1                   0.0002861             1e-13                 2.1e-12               -0.00028578          
  1.2                   0.00029236            2e-13                 2.58e-12              -0.00029194          
  1.3                   0.00029738            2.4e-13               2.98e-12              -0.00029698          
  1.4                   0.00030156            1.6e-13               1.5e-12               -0.00030118          
  1.5                   0.00030512            1.6e-13               -7e-13                -0.00030474          
  1.6                   0.00030818            1.6e-13               -8.02e-12             -0.00030782          
  1.7                   0.0003109             1.2e-13               -3.594e-11            -0.0003105           
  1.8                   0.00031334            1.2e-13               -1.1214e-10           -0.00031298          
  1.9                   0.0003155             2.4e-13               -3.0728e-10           -0.0003151           
  2                     0.00031752            1.4e-13               -7.643e-10            -0.00031718          
  2.1                   0.0003194             6e-14                 -1.7528e-09           -0.00031912          
  2.2                   0.00032112            1.6e-13               -3.7048e-09           -0.00032084          
  2.3                   0.00032284            1e-13                 -7.3546e-09           -0.00032234          
  2.4                   0.00032436            1.6e-13               -1.3714e-08           -0.00032396          
  2.5                   0.00032584            1.6e-13               -2.4266e-08           -0.0003254           
  2.6                   0.00032712            2.4e-13               -4.1096e-08           -0.00032672          
  2.7                   0.0003285             1.2e-13               -6.6862e-08           -0.00032818          
  2.8                   0.00032998            -2e-14                -1.05226e-07          -0.0003295           
  2.9                   0.00033132            2.4e-13               -1.6012e-07           -0.00033066          
  3                     0.00033256            1.4e-13               -2.3846e-07           -0.00033196          
  3.1                   0.0003339             1.8e-13               -3.47e-07             -0.00033314          
  3.2                   0.00033524            1.8e-13               -4.9458e-07           -0.00033436          
  3.3                   0.00033666            1.2e-13               -6.9226e-07           -0.00033556          
  3.4                   0.00033812            1.6e-13               -9.5492e-07           -0.00033676          
  3.5                   0.0003397             0                     -1.2968e-06           -0.000338            
  3.6                   0.0003414             1e-13                 -1.7402e-06           -0.00033924          
END_DB

BEGIN_DB
 ICCAP_VAR vg         3.6            
 ICCAP_VAR vb         0              
 ICCAP_VAR vs         0              

 #vd                    id                    ig                    ib                    is                   
  0                     2.8038e-08            5.6e-13               3.72e-12              -2.563e-08           
  0.1                   5.4592e-05            4.6e-13               3.04e-12              -5.4562e-05          
  0.2                   0.000106678           2.6e-13               2.52e-12              -0.000106658         
  0.3                   0.00015512            3.4e-13               1.88e-12              -0.00015472          
  0.4                   0.00019896            3e-13                 3.36e-12              -0.00019856          
  0.5                   0.00023782            2.6e-13               1.86e-12              -0.0002374           
  0.6                   0.0002715             2.8e-13               1.98e-12              -0.00027112          
  0.7                   0.00030036            2.8e-13               2.64e-12              -0.00029996          
  0.8                   0.00032468            2.4e-13               1e-12                 -0.00032428          
