! VERSION = 6.00
BEGIN_HEADER
 ICCAP_INPUTS
  vg         V  G GROUND SMU2 0.001 LIN        1    -0.5       3.6        83   0.05      
  vb         V  B GROUND SMU4 0.1 LIN        2    0          -3.6       5    -0.9      
  vd         V  D GROUND SMU1 0.1 LIN        3    0.1        3.3        3    1.6       
  vs         V  S GROUND SMU3 0.1 CON        0
 ICCAP_OUTPUTS
  id         I  D GROUND SMU1 B
  ig         I  G GROUND SMU2 B
  ib         I  B GROUND SMU4 B
  is         I  S GROUND SMU3 B
 ICCAP_VALUES
  MASTER_SETUP_TYPE "~dc_idvg~"
  LINVT_VALUE ""
  LISTVT_VALUE ""
  TYPE "1"
  TEMP " 27.0000 "
  IS_TNOM " 1.00000 "
  MAIN.W "5.000u"
  MAIN.L "10.00u"
  MAIN.AD "1.700p"
  MAIN.AS "1.700p"
  MAIN.PD "10.68u"
  MAIN.PS "10.68u"
  MAIN.NF "1.000"
  MAIN.M "1"
  MAIN.NRD "0.000"
  MAIN.NRS "0.000"
  MAIN.LDRIFT1 "1E-06"
  MAIN.LDRIFT2 "1E-06"
  MAIN.SA "0.000"
  MAIN.SB "0.000"
  MAIN.SD "0.000"
  MAIN.SCA "0.000"
  MAIN.SCB "0.000"
  MAIN.SCC "0.000"
  MAIN.SC "0.000"
  MODULE "S558"
  PIN_D "20"
  PIN_G "1"
  PIN_S "2"
  PIN_B "19"
  PIN_E ""
  PIN_6 ""
  XY_ID ""
  FUNC "W Scale"
  STI "SA ref"
  WPE "WPE ref"
  COMMENT ""
  DIS_MEAS ""
  TypeTCI "10"
END_HEADER

BEGIN_DB
 ICCAP_VAR vb         0              
 ICCAP_VAR vd         0.1            
 ICCAP_VAR vs         0              

 #vg                    id                    ig                    ib                    is                   
  -0.5                  -2e-13                -4.6e-11              5.59e-11              -2e-14               
  -0.45                 -2e-14                -6.96e-12             1.626e-11             0                    
  -0.4                  2e-14                 -1.08e-12             9.46e-12              -2e-14               
  -0.35                 6e-14                 -6e-14                8.34e-12              0                    
  -0.3                  2e-14                 1.4e-13               8.38e-12              8e-14                
  -0.25                 -2e-14                1e-13                 9.36e-12              6e-14                
  -0.2                  8e-14                 1.4e-13               8.08e-12              -8e-14               
  -0.15                 1.4e-13               2.2e-13               7.4e-12               1e-13                
  -0.1                  4e-14                 2.2e-13               7.52e-12              -2e-14               
  -0.05                 1e-13                 3.4e-13               6.54e-12              1.2e-13              
  0                     1e-13                 4e-13                 8.4e-12               4e-14                
  0.05                  1.2e-13               3.6e-13               7.9e-12               0                    
  0.1                   1.4e-13               3.8e-13               7.38e-12              -1.2e-13             
  0.15                  4.6e-13               5e-13                 6.82e-12              -3.2e-13             
  0.2                   1.54e-12              4e-13                 7.28e-12              -1.44e-12            
  0.25                  6.06e-12              4.2e-13               7.86e-12              -6.1e-12             
  0.3                   2.44e-11              4.6e-13               7.56e-12              -2.432e-11           
  0.35                  9.972e-11             5e-13                 7.02e-12              -9.94e-11            
  0.4                   4.0394e-10            4.6e-13               6.82e-12              -4.0344e-10          
  0.45                  1.614e-09             3e-13                 6.56e-12              -1.6114e-09          
  0.5                   6.0392e-09            4.2e-13               7.8e-12               -6.0346e-09          
  0.55                  2.0122e-08            4.4e-13               7.34e-12              -2.0088e-08          
  0.6                   5.6252e-08            4.2e-13               7.16e-12              -5.6218e-08          
  0.65                  1.3106e-07            5.2e-13               6.38e-12              -1.3088e-07          
  0.7                   2.5666e-07            5.4e-13               7.02e-12              -2.5648e-07          
  0.75                  4.3776e-07            5.6e-13               6.48e-12              -4.3758e-07          
  0.8                   6.681e-07             4e-13                 6.14e-12              -6.6794e-07          
  0.85                  9.4022e-07            5.4e-13               5.26e-12              -9.4004e-07          
  0.9                   1.2444e-06            4.8e-13               6.38e-12              -1.2402e-06          
  0.95                  1.5706e-06            4.6e-13               6.1e-12               -1.5666e-06          
  1                     1.9144e-06            5.8e-13               5.32e-12              -1.9104e-06          
  1.05                  2.2728e-06            6.4e-13               6.34e-12              -2.2688e-06          
  1.1                   2.6398e-06            6.4e-13               7e-12                 -2.6358e-06          
  1.15                  3.014e-06             6.8e-13               5.38e-12              -3.0102e-06          
  1.2                   3.3934e-06            6.2e-13               5.28e-12              -3.3894e-06          
  1.25                  3.7762e-06            5.8e-13               5.42e-12              -3.772e-06           
  1.3                   4.1626e-06            6e-13                 5.52e-12              -4.1586e-06          
  1.35                  4.549e-06             6.4e-13               5.72e-12              -4.545e-06           
  1.4                   4.9356e-06            7.4e-13               5.14e-12              -4.9314e-06          
  1.45                  5.3214e-06            7e-13                 4.88e-12              -5.3174e-06          
  1.5                   5.7078e-06            7e-13                 6.28e-12              -5.704e-06           
  1.55                  6.0912e-06            7e-13                 5.6e-12               -6.0872e-06          
  1.6                   6.471e-06             7.6e-13               4.98e-12              -6.4672e-06          
  1.65                  6.8498e-06            7e-13                 4.94e-12              -6.8458e-06          
  1.7                   7.2252e-06            8.4e-13               5.16e-12              -7.2212e-06          
  1.75                  7.5954e-06            7e-13                 6.22e-12              -7.5916e-06          
  1.8                   7.9628e-06            7.2e-13               4.44e-12              -7.9586e-06          
  1.85                  8.3246e-06            7e-13                 5.4e-12               -8.3204e-06          
  1.9                   8.6828e-06            7.6e-13               5.16e-12              -8.6788e-06          
  1.95                  9.0346e-06            7e-13                 5.62e-12              -9.0304e-06          
  2                     9.382e-06             6.2e-13               4.72e-12              -9.378e-06           
  2.05                  9.7246e-06            6.6e-13               4.98e-12              -9.7206e-06          
  2.1                   1.00596e-05           7.4e-13               4.48e-12              -1.00556e-05         
  2.15                  1.03896e-05           6.2e-13               5.08e-12              -1.03858e-05         
  2.2                   1.07124e-05           8e-13                 4.62e-12              -1.07086e-05         
  2.25                  1.10298e-05           7.4e-13               4.52e-12              -1.1026e-05          
  2.3                   1.13396e-05           7.4e-13               4.3e-12               -1.13354e-05         
  2.35                  1.1652e-05            5.8e-13               5.24e-12              -1.1632e-05          
  2.4                   1.195e-05             6.8e-13               5.96e-12              -1.193e-05           
  2.45                  1.224e-05             7.2e-13               4.54e-12              -1.222e-05           
  2.5                   1.2522e-05            7.2e-13               4.42e-12              -1.2502e-05          
  2.55                  1.2798e-05            7e-13                 4.6e-12               -1.2778e-05          
  2.6                   1.3068e-05            7.8e-13               5.06e-12              -1.3048e-05          
  2.65                  1.333e-05             6.6e-13               4.44e-12              -1.3308e-05          
  2.7                   1.3584e-05            8e-13                 5.1e-12               -1.3564e-05          
  2.75                  1.3832e-05            7.8e-13               4e-12                 -1.3812e-05          
  2.8                   1.4072e-05            8e-13                 5.34e-12              -1.4052e-05          
  2.85                  1.4304e-05            9.4e-13               4.42e-12              -1.4286e-05          
  2.9                   1.4532e-05            8e-13                 3.94e-12              -1.4512e-05          
  2.95                  1.4752e-05            8e-13                 4.24e-12              -1.4732e-05          
  3                     1.4964e-05            7.8e-13               5.18e-12              -1.4944e-05          
  3.05                  1.517e-05             7.8e-13               4.44e-12              -1.515e-05           
  3.1                   1.5368e-05            7.6e-13               3.48e-12              -1.5348e-05          
  3.15                  1.556e-05             7.6e-13               3.82e-12              -1.554e-05           
  3.2                   1.5746e-05            8.2e-13               4.3e-12               -1.5726e-05          
  3.25                  1.5926e-05            8.2e-13               4.52e-12              -1.5906e-05          
  3.3                   1.61e-05              8.2e-13               4.04e-12              -1.608e-05           
  3.35                  1.6266e-05            8.4e-13               3.88e-12              -1.6246e-05          
  3.4                   1.6426e-05            9e-13                 4.92e-12              -1.6406e-05          
  3.45                  1.658e-05             7.8e-13               4.48e-12              -1.656e-05           
  3.5                   1.673e-05             7.8e-13               3.24e-12              -1.671e-05           
  3.55                  1.6872e-05            8.2e-13               3.92e-12              -1.6852e-05          
  3.6                   1.701e-05             7.8e-13               4.3e-12               -1.699e-05           
END_DB

BEGIN_DB
 ICCAP_VAR vb         -0.9           
 ICCAP_VAR vd         0.1            
 ICCAP_VAR vs         0              

 #vg                    id                    ig                    ib                    is                   
  -0.5                  -6e-14                -5.8e-13              -9.94e-12             1.2e-13              
  -0.45                 -2e-14                -3.8e-13              -9.08e-12             4e-14                
  -0.4                  1.8e-13               -1.8e-13              -7.24e-12             1.4e-13              
  -0.35                 4e-14                 -1e-13                -6.3e-12              2e-14                
  -0.3                  6e-14                 -1.2e-13              -6.32e-12             1e-13                
  -0.25                 0                     2e-14                 -6.08e-12             1.6e-13              
  -0.2                  6e-14                 1e-13                 -4.96e-12             6e-14                
  -0.15                 4e-14                 1e-13                 -4.12e-12             0                    
  -0.1                  0                     1.4e-13               -3.66e-12             1e-13                
  -0.05                 2e-14                 1.6e-13               -4.34e-12             6e-14                
  0                     1.2e-13               2.2e-13               -3.8e-12              2e-14                
  0.05                  -1e-13                1.8e-13               -3.34e-12             8e-14                
  0.1                   1.4e-13               2.8e-13               -2.98e-12             0                    
  0.15                  0                     3.4e-13               -1.3e-12              -2e-14               
  0.2                   1.2e-13               1.6e-13               -2.6e-12              8e-14                
  0.25                  1.6e-13               4e-13                 -2.84e-12             4e-14                
  0.3                   8e-14                 4.2e-13               -1.94e-12             6e-14                
  0.35                  2e-13                 4.2e-13               -1.62e-12             -4e-14               
  0.4                   2.6e-13               3.6e-13               -3.52e-12             -1.4e-13             
  0.45                  7.8e-13               5.4e-13               -1.28e-12             -5.8e-13             
  0.5                   3.24e-12              3.8e-13               -1.72e-12             -3.02e-12            
  0.55                  1.45e-11              3.4e-13               -2.04e-12             -1.422e-11           
  0.6                   6.656e-11             5.2e-13               -1.32e-12             -6.624e-11           
  0.65                  3.0464e-10            5.6e-13               -7.8e-13              -3.0442e-10          
  0.7                   1.3498e-09            4.6e-13               -1.42e-12             -1.3474e-09          
  0.75                  5.553e-09             4.2e-13               -1.54e-12             -5.5496e-09          
  0.8                   1.965e-08             3.6e-13               -1.9e-12              -1.9618e-08          
  0.85                  5.7172e-08            4.4e-13               -7.2e-13              -5.7134e-08          
  0.9                   1.3448e-07            4.4e-13               -6e-13                -1.3428e-07          
  0.95                  2.6328e-07            4e-13                 -8e-13                -2.631e-07           
  1                     4.4544e-07            6e-13                 -1.5e-12              -4.4522e-07          
  1.05                  6.7548e-07            6.6e-13               4e-14                 -6.7534e-07          
  1.1                   9.4218e-07            6e-13                 -5.6e-13              -9.42e-07            
  1.15                  1.2392e-06            4.2e-13               -1.14e-12             -1.2348e-06          
  1.2                   1.5556e-06            4.8e-13               4e-14                 -1.5514e-06          
  1.25                  1.8884e-06            5.6e-13               2.4e-13               -1.8842e-06          
  1.3                   2.2342e-06            6e-13                 -9.4e-13              -2.2302e-06          
  1.35                  2.5876e-06            6.2e-13               -2.64e-12             -2.5836e-06          
  1.4                   2.9474e-06            5.8e-13               -8e-14                -2.9434e-06          
  1.45                  3.3116e-06            5.2e-13               2e-14                 -3.3076e-06          
  1.5                   3.6802e-06            5.8e-13               8e-14                 -3.6762e-06          
  1.55                  4.0494e-06            5.2e-13               -8e-14                -4.0454e-06          
  1.6                   4.4184e-06            5.6e-13               -2.8e-13              -4.4144e-06          
  1.65                  4.7886e-06            6.8e-13               4e-13                 -4.7848e-06          
  1.7                   5.158e-06             6.6e-13               2.2e-13               -5.1538e-06          
  1.75                  5.5242e-06            5.6e-13               -7.2e-13              -5.52e-06            
  1.8                   5.889e-06             7e-13                 -3.6e-13              -5.8848e-06          
  1.85                  6.2496e-06            7.2e-13               6.4e-13               -6.2456e-06          
  1.9                   6.6082e-06            6.2e-13               4.4e-13               -6.6042e-06          
  1.95                  6.9616e-06            7e-13                 -8.6e-13              -6.9576e-06          
  2                     7.312e-06             7.6e-13               -1.8e-13              -7.308e-06           
  2.05                  7.6582e-06            6.4e-13               -4e-14                -7.6538e-06          
  2.1                   7.9974e-06            7.2e-13               7e-13                 -7.9932e-06          
  2.15                  8.3328e-06            7.2e-13               -6.2e-13              -8.3286e-06          
  2.2                   8.6612e-06            6.6e-13               -9.4e-13              -8.6574e-06          
  2.25                  8.9858e-06            8.2e-13               1.6e-13               -8.9816e-06          
  2.3                   9.3024e-06            6e-13                 7.8e-13               -9.2982e-06          
  2.35                  9.6144e-06            7.2e-13               -1.4e-13              -9.6104e-06          
  2.4                   9.919e-06             7.2e-13               -4e-13                -9.9152e-06          
  2.45                  1.02176e-05           7.8e-13               1.6e-13               -1.0213e-05          
  2.5                   1.05098e-05           7.2e-13               8.4e-13               -1.05058e-05         
  2.55                  1.07948e-05           7.8e-13               -6e-14                -1.07906e-05         
  2.6                   1.10724e-05           7.4e-13               0                     -1.10684e-05         
  2.65                  1.13436e-05           7.8e-13               -4.8e-13              -1.13394e-05         
  2.7                   1.1616e-05            6.4e-13               1.48e-12              -1.1596e-05          
  2.75                  1.1874e-05            7.2e-13               1.42e-12              -1.1856e-05          
  2.8                   1.2126e-05            7.2e-13               -2e-13                -1.2106e-05          
  2.85                  1.2368e-05            8e-13                 2.2e-13               -1.2348e-05          
  2.9                   1.2606e-05            8.4e-13               2e-13                 -1.2586e-05          
  2.95                  1.2836e-05            8e-13                 4.6e-13               -1.2816e-05          
  3                     1.3058e-05            7e-13                 1.68e-12              -1.3038e-05          
  3.05                  1.3274e-05            7.6e-13               1e-13                 -1.3254e-05          
  3.1                   1.3484e-05            7.8e-13               -2.6e-13              -1.3464e-05          
  3.15                  1.3688e-05            8.4e-13               1.34e-12              -1.3666e-05          
  3.2                   1.3884e-05            7.6e-13               3.6e-13               -1.3864e-05          
  3.25                  1.4074e-05            8.8e-13               6e-14                 -1.4054e-05          
  3.3                   1.4258e-05            7.6e-13               2.4e-13               -1.4236e-05          
  3.35                  1.4434e-05            8.2e-13               9.8e-13               -1.4414e-05          
  3.4                   1.4604e-05            7.8e-13               8.2e-13               -1.4584e-05          
  3.45                  1.477e-05             9.2e-13               -1.4e-13              -1.4748e-05          
