! VERSION = 6.00
BEGIN_HEADER
 ICCAP_INPUTS
  vg         V  G GROUND SMU2 0.001 LIN        1    -0.5       3.6        83   0.05      
  vb         V  B GROUND SMU4 0.1 LIN        2    0          -3.6       5    -0.9      
  vd         V  D GROUND SMU1 0.1 LIN        3    0.1        3.3        3    1.6       
  vs         V  S GROUND SMU3 0.1 CON        0
 ICCAP_OUTPUTS
  id         I  D GROUND SMU1 B
  ig         I  G GROUND SMU2 B
  ib         I  B GROUND SMU4 B
  is         I  S GROUND SMU3 B
 ICCAP_VALUES
  MASTER_SETUP_TYPE "~dc_idvg~"
  LINVT_VALUE ""
  LISTVT_VALUE ""
  TYPE "1"
  TEMP " 27.0000 "
  IS_TNOM " 1.00000 "
  MAIN.W "600.0n"
  MAIN.L "350.0n"
  MAIN.AD "204.0f"
  MAIN.AS "204.0f"
  MAIN.PD "1.880u"
  MAIN.PS "1.880u"
  MAIN.NF "1.000"
  MAIN.M "1"
  MAIN.NRD "0.000"
  MAIN.NRS "0.000"
  MAIN.LDRIFT1 "1E-06"
  MAIN.LDRIFT2 "1E-06"
  MAIN.SA "0.000"
  MAIN.SB "0.000"
  MAIN.SD "0.000"
  MAIN.SCA "0.000"
  MAIN.SCB "0.000"
  MAIN.SCC "0.000"
  MAIN.SC "0.000"
  MODULE "S559"
  PIN_D "18"
  PIN_G "3"
  PIN_S "4"
  PIN_B "17"
  PIN_E ""
  PIN_6 ""
  XY_ID ""
  FUNC "Additional"
  STI "SA ref"
  WPE "WPE ref"
  COMMENT ""
  DIS_MEAS ""
  TypeTCI "10"
END_HEADER

BEGIN_DB
 ICCAP_VAR vb         0              
 ICCAP_VAR vd         0.1            
 ICCAP_VAR vs         0              

 #vg                    id                    ig                    ib                    is                   
  -0.5                  4e-14                 -4.312e-11            5.212e-11             8e-14                
  -0.45                 8e-14                 -6.54e-12             1.436e-11             4e-14                
  -0.4                  6e-14                 -1.08e-12             9.28e-12              0                    
  -0.35                 2e-14                 -2e-13                9.08e-12              -8e-14               
  -0.3                  1.8e-13               -4e-14                8.26e-12              0                    
  -0.25                 2e-14                 4e-14                 8.18e-12              4e-14                
  -0.2                  0                     1e-13                 7.7e-12               -1.4e-13             
  -0.15                 1e-13                 2.2e-13               7.82e-12              0                    
  -0.1                  2e-14                 1.6e-13               7.48e-12              0                    
  -0.05                 4e-14                 2.4e-13               7.86e-12              2e-14                
  0                     2.2e-13               1.8e-13               8.46e-12              -1.8e-13             
  0.05                  7.2e-13               3.4e-13               7.04e-12              -5.8e-13             
  0.1                   2.42e-12              2.8e-13               6.74e-12              -2.42e-12            
  0.15                  9.76e-12              2.6e-13               7.16e-12              -9.98e-12            
  0.2                   3.97e-11              2.8e-13               7.36e-12              -3.96e-11            
  0.25                  1.6052e-10            3.8e-13               8.12e-12              -1.6042e-10          
  0.3                   6.3638e-10            3.4e-13               6.28e-12              -6.362e-10           
  0.35                  2.4614e-09            1.8e-13               6.52e-12              -2.4596e-09          
  0.4                   9.075e-09             3.8e-13               6.18e-12              -9.0612e-09          
  0.45                  1.925e-08             2.4e-13               6.6e-12               -2.0342e-08          
  0.5                   5.9904e-08            3.6e-13               8.06e-12              -5.9378e-08          
  0.55                  1.5394e-07            3.6e-13               6.44e-12              -1.529e-07           
  0.6                   3.4052e-07            4.8e-13               5.86e-12              -3.3534e-07          
  0.65                  6.8402e-07            4.4e-13               6.7e-12               -6.7532e-07          
  0.7                   1.2386e-06            3e-13                 6.68e-12              -1.234e-06           
  0.75                  2.043e-06             4.6e-13               5.78e-12              -2.0384e-06          
  0.8                   3.0744e-06            4.2e-13               6.66e-12              -3.0698e-06          
  0.85                  4.2982e-06            4.6e-13               6.4e-12               -4.2958e-06          
  0.9                   5.6584e-06            4.2e-13               6.06e-12              -5.6538e-06          
  0.95                  7.0994e-06            5.2e-13               5.78e-12              -7.093e-06           
  1                     8.6014e-06            2.6e-13               5.94e-12              -8.6178e-06          
  1.05                  1.014e-05             4.8e-13               6.08e-12              -1.01538e-05         
  1.1                   1.1652e-05            5.2e-13               5.68e-12              -1.1654e-05          
  1.15                  1.3146e-05            5.8e-13               5.34e-12              -1.3122e-05          
  1.2                   1.4644e-05            4.6e-13               2.28e-12              -1.4622e-05          
  1.25                  1.6118e-05            5.6e-13               6.2e-12               -1.6094e-05          
  1.3                   1.7584e-05            5.2e-13               5.92e-12              -1.7562e-05          
  1.35                  1.8976e-05            6e-13                 5.9e-12               -1.8954e-05          
  1.4                   2.0358e-05            5.4e-13               4.96e-12              -2.0328e-05          
  1.45                  2.1696e-05            5.8e-13               5.56e-12              -2.1682e-05          
  1.5                   2.302e-05             6.4e-13               6.28e-12              -2.2994e-05          
  1.55                  2.43e-05              5e-13                 4.86e-12              -2.4272e-05          
  1.6                   2.5542e-05            5.8e-13               4.6e-12               -2.552e-05           
  1.65                  2.6744e-05            6.6e-13               5.6e-12               -2.6724e-05          
  1.7                   2.7926e-05            6.2e-13               6.26e-12              -2.7904e-05          
  1.75                  2.9072e-05            5e-13                 4.6e-12               -2.905e-05           
  1.8                   3.0188e-05            6.6e-13               5.06e-12              -3.0168e-05          
  1.85                  3.1274e-05            5.8e-13               4.48e-12              -3.1252e-05          
  1.9                   3.233e-05             5.2e-13               6e-12                 -3.231e-05           
  1.95                  3.3354e-05            6.8e-13               5.16e-12              -3.3334e-05          
  2                     3.435e-05             6e-13                 4.16e-12              -3.433e-05           
  2.05                  3.5322e-05            6.2e-13               5.18e-12              -3.5302e-05          
  2.1                   3.6262e-05            6.8e-13               4.86e-12              -3.624e-05           
  2.15                  3.7176e-05            5.6e-13               5.38e-12              -3.7158e-05          
  2.2                   3.8066e-05            5.6e-13               5.12e-12              -3.8046e-05          
  2.25                  3.8928e-05            7.2e-13               4.84e-12              -3.8908e-05          
  2.3                   3.9764e-05            6.2e-13               4.7e-12               -3.9744e-05          
  2.35                  4.058e-05             6.8e-13               5.08e-12              -4.0562e-05          
  2.4                   4.1374e-05            7.6e-13               5.26e-12              -4.1352e-05          
  2.45                  4.2138e-05            6e-13                 4.04e-12              -4.212e-05           
  2.5                   4.2886e-05            6.8e-13               4.48e-12              -4.2866e-05          
  2.55                  4.3612e-05            6e-13                 5.16e-12              -4.359e-05           
  2.6                   4.4314e-05            6.8e-13               4.72e-12              -4.4294e-05          
  2.65                  4.4996e-05            7e-13                 3.9e-12               -4.4976e-05          
  2.7                   4.566e-05             7.2e-13               3.9e-12               -4.5636e-05          
  2.75                  4.6304e-05            6.6e-13               4.54e-12              -4.6288e-05          
  2.8                   4.692e-05             6.6e-13               5.3e-12               -4.69e-05            
  2.85                  4.753e-05             6.8e-13               4.06e-12              -4.7512e-05          
  2.9                   4.8116e-05            7.8e-13               3.7e-12               -4.8094e-05          
  2.95                  4.8684e-05            7.2e-13               3.92e-12              -4.8666e-05          
  3                     4.924e-05             7.2e-13               4.88e-12              -4.9218e-05          
  3.05                  4.9776e-05            7e-13                 3.8e-12               -4.9754e-05          
  3.1                   5.0296e-05            5.8e-13               3.86e-12              -5.0274e-05          
  3.15                  5.0802e-05            7.2e-13               6e-12                 -5.078e-05           
  3.2                   5.1288e-05            6.2e-13               4.98e-12              -5.1268e-05          
  3.25                  5.1764e-05            7.4e-13               4.2e-12               -5.1744e-05          
  3.3                   5.2226e-05            6.6e-13               3.04e-12              -5.2206e-05          
  3.35                  5.2668e-05            7.4e-13               4.5e-12               -5.2654e-05          
  3.4                   5.3104e-05            7.8e-13               4.5e-12               -5.3084e-05          
  3.45                  5.3524e-05            7.6e-13               4.72e-12              -5.35e-05            
  3.5                   5.393e-05             7.6e-13               3.52e-12              -5.3908e-05          
  3.55                  5.4316e-05            7.6e-13               4.18e-12              -5.4304e-05          
  3.6                   5.4702e-05            7.2e-13               3.6e-12               -5.4682e-05          
END_DB

BEGIN_DB
 ICCAP_VAR vb         -0.9           
 ICCAP_VAR vd         0.1            
 ICCAP_VAR vs         0              

 #vg                    id                    ig                    ib                    is                   
  -0.5                  2.8e-13               -4.4e-13              -1.014e-11            2.2e-13              
  -0.45                 1.4e-13               -2.8e-13              -9.06e-12             2e-13                
  -0.4                  1.4e-13               -2.8e-13              -7.5e-12              2.2e-13              
  -0.35                 2e-14                 0                     -5.68e-12             1e-13                
  -0.3                  1.8e-13               -1.4e-13              -6.06e-12             2.4e-13              
  -0.25                 2e-14                 -8e-14                -5.7e-12              8e-14                
  -0.2                  6e-14                 -4e-14                -5.4e-12              2e-14                
  -0.15                 8e-14                 6e-14                 -4.42e-12             6e-14                
  -0.1                  1e-13                 1.2e-13               -3.18e-12             8e-14                
  -0.05                 6e-14                 1.4e-13               -3.62e-12             0                    
  0                     6e-14                 1.4e-13               -4.04e-12             1.2e-13              
  0.05                  -2e-14                1.6e-13               -4.58e-12             6e-14                
  0.1                   1e-13                 2e-13                 -2.22e-12             4e-14                
  0.15                  2.2e-13               1.6e-13               -2.12e-12             -8e-14               
  0.2                   8.2e-13               2.2e-13               -2.58e-12             -7.4e-13             
  0.25                  3.52e-12              2e-13                 -2.66e-12             -3.28e-12            
  0.3                   1.524e-11             2.8e-13               -3.1e-12              -1.492e-11           
  0.35                  6.664e-11             3.4e-13               -2.1e-12              -6.658e-11           
  0.4                   2.8638e-10            2.2e-13               -1.46e-12             -2.8634e-10          
  0.45                  1.2126e-09            2e-13                 -1.68e-12             -1.2116e-09          
  0.5                   4.5966e-09            2.4e-13               -1.44e-12             -4.5076e-09          
  0.55                  1.023e-08             3.2e-13               -5.2e-13              -1.017e-08           
  0.6                   3.4312e-08            3.8e-13               -7.6e-13              -3.4284e-08          
  0.65                  9.3746e-08            2.2e-13               -1.74e-12             -9.5928e-08          
  0.7                   2.1036e-07            4e-13                 -8.4e-13              -2.1452e-07          
  0.75                  4.6344e-07            4e-13                 -1.6e-13              -4.6538e-07          
  0.8                   8.9816e-07            3.8e-13               -1.46e-12             -8.9878e-07          
  0.85                  1.5594e-06            3.2e-13               -3.4e-13              -1.5558e-06          
  0.9                   2.4494e-06            2.6e-13               6.6e-13               -2.4448e-06          
  0.95                  3.5412e-06            4.6e-13               -5.8e-13              -3.524e-06           
  1                     4.7948e-06            4e-13                 -5.8e-13              -4.7916e-06          
  1.05                  6.2056e-06            4e-13                 -1e-12                -6.2016e-06          
  1.1                   7.6744e-06            5e-13                 8e-14                 -7.6532e-06          
  1.15                  9.1592e-06            4.2e-13               -7.4e-13              -9.131e-06           
  1.2                   1.06452e-05           5.6e-13               -9e-13                -1.0646e-05          
  1.25                  1.2198e-05            3.8e-13               -2.8e-13              -1.215e-05           
  1.3                   1.3638e-05            4.8e-13               2.4e-13               -1.3634e-05          
  1.35                  1.5108e-05            4.8e-13               5.6e-13               -1.5088e-05          
  1.4                   1.6542e-05            5.4e-13               -2.8e-13              -1.6524e-05          
  1.45                  1.794e-05             5.2e-13               -4.6e-13              -1.7924e-05          
  1.5                   1.9318e-05            5.4e-13               -2e-14                -1.9296e-05          
  1.55                  2.0654e-05            5.4e-13               5.4e-13               -2.063e-05           
  1.6                   2.195e-05             4.6e-13               -2.6e-13              -2.193e-05           
  1.65                  2.321e-05             5.6e-13               -5.6e-13              -2.3192e-05          
  1.7                   2.444e-05             4e-13                 1.6e-13               -2.4426e-05          
  1.75                  2.5634e-05            5.8e-13               -7.8e-13              -2.5614e-05          
  1.8                   2.6796e-05            5.2e-13               1.2e-13               -2.6776e-05          
  1.85                  2.7918e-05            6.8e-13               -1e-13                -2.79e-05            
  1.9                   2.902e-05             6.8e-13               3.2e-13               -2.8998e-05          
  1.95                  3.0084e-05            5.4e-13               2.8e-13               -3.0064e-05          
  2                     3.1118e-05            6.6e-13               3.6e-13               -3.1096e-05          
  2.05                  3.2126e-05            6e-13                 -4.4e-13              -3.2106e-05          
  2.1                   3.3102e-05            6e-13                 -2.2e-13              -3.3082e-05          
  2.15                  3.4054e-05            6.4e-13               -2.4e-13              -3.4032e-05          
  2.2                   3.4974e-05            6.8e-13               1.08e-12              -3.4954e-05          
  2.25                  3.5872e-05            7e-13                 6.6e-13               -3.5852e-05          
  2.3                   3.674e-05             5.8e-13               -4e-13                -3.672e-05           
  2.35                  3.7586e-05            6.2e-13               5.6e-13               -3.7566e-05          
  2.4                   3.8404e-05            6.6e-13               8e-13                 -3.8386e-05          
  2.45                  3.92e-05              6e-13                 6.2e-13               -3.918e-05           
  2.5                   3.9976e-05            6.8e-13               -3.6e-13              -3.9956e-05          
  2.55                  4.0726e-05            7.2e-13               -1.8e-13              -4.0704e-05          
  2.6                   4.145e-05             6.6e-13               8e-13                 -4.143e-05           
  2.65                  4.2156e-05            7e-13                 3.98e-12              -4.2136e-05          
  2.7                   4.2842e-05            5.4e-13               3.6e-13               -4.2818e-05          
  2.75                  4.3506e-05            6.4e-13               -6e-14                -4.3486e-05          
  2.8                   4.415e-05             6.8e-13               4e-14                 -4.413e-05           
  2.85                  4.4774e-05            6.4e-13               1.04e-12              -4.4752e-05          
  2.9                   4.5376e-05            6.4e-13               1.8e-13               -4.5358e-05          
  2.95                  4.5968e-05            6.6e-13               1.4e-13               -4.5946e-05          
  3                     4.6538e-05            6e-13                 -4.8e-13              -4.6518e-05          
  3.05                  4.7088e-05            8e-13                 1.8e-13               -4.7068e-05          
  3.1                   4.7624e-05            6.8e-13               8.2e-13               -4.7602e-05          
  3.15                  4.8144e-05            7.2e-13               -8e-14                -4.8124e-05          
  3.2                   4.8644e-05            7.8e-13               -2.8e-13              -4.8626e-05          
  3.25                  4.9136e-05            7e-13                 4.2e-13               -4.9116e-05          
  3.3                   4.961e-05             6.8e-13               1.18e-12              -4.9592e-05          
  3.35                  5.0068e-05            6.6e-13               4.8e-13               -5.005e-05           
  3.4                   5.0514e-05            7.6e-13               2e-14                 -5.0496e-05          
  3.45                  5.0946e-05            5.8e-13               8e-14                 -5.0926e-05          
