! VERSION = 6.00
BEGIN_HEADER
 ICCAP_INPUTS
  vd         V  D GROUND SMU1 0.1 LIN        1    0          3.6        37   0.1       
  vg         V  G GROUND SMU2 0.001 LIST       2 3 0.23 0.43 0.63
  vb         V  B GROUND SMU4 0.1 CON        0
  vs         V  S GROUND SMU3 0.1 CON        0
 ICCAP_OUTPUTS
  id         I  D GROUND SMU1 B
  ig         I  G GROUND SMU2 B
  ib         I  B GROUND SMU4 B
  is         I  S GROUND SMU3 B
 ICCAP_VALUES
  MASTER_SETUP_TYPE "~dc_idvd~"
  LINVT_VALUE ""
  LISTVT_VALUE "|idvg|100.0n|-200.0m|1.000m|3|200.0m|200.0m|"
  TYPE "1"
  TEMP " 27.0000 "
  IS_TNOM " 1.00000 "
  MAIN.W "300.0n"
  MAIN.L "350.0n"
  MAIN.AD "102.0f"
  MAIN.AS "102.0f"
  MAIN.PD "1.280u"
  MAIN.PS "1.280u"
  MAIN.NF "1.000"
  MAIN.M "1"
  MAIN.NRD "0.000"
  MAIN.NRS "0.000"
  MAIN.LDRIFT1 "1E-06"
  MAIN.LDRIFT2 "1E-06"
  MAIN.SA "0.000"
  MAIN.SB "0.000"
  MAIN.SD "0.000"
  MAIN.SCA "0.000"
  MAIN.SCB "0.000"
  MAIN.SCC "0.000"
  MAIN.SC "0.000"
  MODULE "S560"
  PIN_D "16"
  PIN_G "5"
  PIN_S "6"
  PIN_B "15"
  PIN_E ""
  PIN_6 ""
  XY_ID ""
  FUNC "Additional"
  STI "SA ref"
  WPE "WPE ref"
  COMMENT ""
  DIS_MEAS ""
  TypeTCI "10"
END_HEADER

BEGIN_DB
 ICCAP_VAR vg         0.23           
 ICCAP_VAR vb         0              
 ICCAP_VAR vs         0              

 #vd                    id                    ig                    ib                    is                   
  0                     -3.2e-13              -5.6e-13              3.6e-12               0                    
  0.1                   3.94e-11              -3.8e-13              2.52e-12              -3.96e-11            
  0.2                   5.3e-11               -4.8e-13              2.9e-12               -5.284e-11           
  0.3                   6.8e-11               -4e-13                1.68e-12              -6.792e-11           
  0.4                   8.676e-11             -3.8e-13              1.86e-12              -8.636e-11           
  0.5                   1.0858e-10            -4.2e-13              2.98e-12              -1.0814e-10          
  0.6                   1.3538e-10            -2.2e-13              1.44e-12              -1.352e-10           
  0.7                   1.6816e-10            -2.6e-13              2.74e-12              -1.6738e-10          
  0.8                   2.0546e-10            -2.8e-13              1.76e-12              -2.0496e-10          
  0.9                   2.5016e-10            -3.2e-13              2.08e-12              -2.4962e-10          
  1                     3.0156e-10            -2.8e-13              2.06e-12              -3.0022e-10          
  1.1                   3.6184e-10            -2.4e-13              2.54e-12              -3.6106e-10          
  1.2                   4.2968e-10            -1.8e-13              1.76e-12              -4.2886e-10          
  1.3                   5.0848e-10            -3e-13                4.52e-12              -5.079e-10           
  1.4                   5.9856e-10            -3.4e-13              2.48e-12              -5.9752e-10          
  1.5                   6.968e-10             -2.6e-13              1.68e-12              -6.9398e-10          
  1.6                   8.0452e-10            -1.4e-13              2.18e-12              -8.0836e-10          
  1.7                   9.2e-10               -1.8e-13              1.92e-12              -9.2288e-10          
  1.8                   1.055e-09             -3.2e-13              9.6e-13               -1.04978e-09         
  1.9                   1.1924e-09            -1.6e-13              8.6e-13               -1.1896e-09          
  2                     1.3428e-09            -2.4e-13              9.4e-13               -1.335e-09           
  2.1                   1.5008e-09            -4e-14                -6.6e-13              -1.4988e-09          
  2.2                   1.6616e-09            -2.8e-13              -2.4e-12              -1.6536e-09          
  2.3                   1.835e-09             -1.6e-13              -5.06e-12             -1.8288e-09          
  2.4                   2.0206e-09            -2.8e-13              -7.42e-12             -2.0018e-09          
  2.5                   2.2292e-09            -1.6e-13              -1.102e-11            -2.1998e-09          
  2.6                   2.4436e-09            -2.2e-13              -1.812e-11            -2.4184e-09          
  2.7                   2.651e-09             -2.2e-13              -2.682e-11            -2.652e-09           
  2.8                   2.9022e-09            -8e-14                -3.84e-11             -2.8474e-09          
  2.9                   3.1492e-09            -2.2e-13              -5.352e-11            -3.0872e-09          
  3                     3.4356e-09            -1.4e-13              -7.348e-11            -3.349e-09           
  3.1                   3.707e-09             -2.2e-13              -1.0138e-10           -3.6118e-09          
  3.2                   4.026e-09             -1.8e-13              -1.351e-10            -3.8774e-09          
  3.3                   4.353e-09             -1e-13                -1.7984e-10           -4.1788e-09          
  3.4                   4.7254e-09            -2e-13                -2.3378e-10           -4.4866e-09          
  3.5                   5.123e-09             -2.6e-13              -3.0094e-10           -4.8086e-09          
  3.6                   5.54e-09              -1.8e-13              -3.8514e-10           -5.1508e-09          
END_DB

BEGIN_DB
 ICCAP_VAR vg         0.43           
 ICCAP_VAR vb         0              
 ICCAP_VAR vs         0              

 #vd                    id                    ig                    ib                    is                   
  0                     8.42e-12              6e-14                 3e-12                 -9.06e-12            
  0.1                   8.5144e-09            2e-14                 2.78e-12              -8.5034e-09          
  0.2                   1.1632e-08            -8e-14                1.26e-12              -1.1588e-08          
  0.3                   1.4984e-08            0                     1.42e-12              -1.4972e-08          
  0.4                   1.8886e-08            -4e-14                2.44e-12              -1.8858e-08          
  0.5                   2.3468e-08            0                     1.8e-12               -2.3368e-08          
  0.6                   2.8642e-08            -4e-14                7.4e-13               -2.8542e-08          
  0.7                   3.4494e-08            0                     1.68e-12              -3.4372e-08          
  0.8                   4.1002e-08            -2e-14                1.84e-12              -4.1028e-08          
  0.9                   4.808e-08             -1.2e-13              2.16e-12              -4.8104e-08          
  1                     5.5936e-08            -4e-14                9.6e-13               -5.5908e-08          
  1.1                   6.413e-08             -4e-14                6.4e-13               -6.3948e-08          
  1.2                   7.291e-08             4e-14                 1.2e-12               -7.2822e-08          
  1.3                   8.2258e-08            0                     2.1e-12               -8.215e-08           
  1.4                   9.1878e-08            -2e-14                -8e-14                -9.2012e-08          
  1.5                   1.01674e-07           2e-14                 -1.98e-12             -1.01738e-07         
  1.6                   1.1176e-07            -4e-14                -6.06e-12             -1.11994e-07         
  1.7                   1.223e-07             -8e-14                -1.42e-11             -1.2188e-07          
  1.8                   1.3288e-07            -6e-14                -2.974e-11            -1.3242e-07          
  1.9                   1.4304e-07            -6e-14                -5.302e-11            -1.432e-07           
  2                     1.5376e-07            -1.6e-13              -9.092e-11            -1.536e-07           
  2.1                   1.643e-07             -1.2e-13              -1.5136e-10           -1.6428e-07          
  2.2                   1.7512e-07            -8e-14                -2.3842e-10           -1.7482e-07          
  2.3                   1.864e-07             -4e-14                -3.6572e-10           -1.855e-07           
  2.4                   1.9694e-07            -1e-13                -5.4184e-10           -1.9614e-07          
  2.5                   2.074e-07             -6e-14                -7.904e-10            -2.0656e-07          
  2.6                   2.1858e-07            -1.4e-13              -1.1264e-09           -2.1776e-07          
  2.7                   2.3062e-07            -8e-14                -1.5882e-09           -2.2844e-07          
  2.8                   2.417e-07             -4e-14                -2.209e-09            -2.3962e-07          
  2.9                   2.5398e-07            -1.4e-13              -3.0266e-09           -2.5012e-07          
  3                     2.6556e-07            -8e-14                -4.0968e-09           -2.6204e-07          
  3.1                   2.79e-07              -2e-13                -5.4742e-09           -2.736e-07           
  3.2                   2.9194e-07            -6e-14                -7.2186e-09           -2.8496e-07          
  3.3                   3.0602e-07            -1.6e-13              -9.42e-09             -2.9674e-07          
  3.4                   3.21e-07              -1.2e-13              -1.2106e-08           -3.0868e-07          
  3.5                   3.3686e-07            -1.4e-13              -1.537e-08            -3.2124e-07          
  3.6                   3.5318e-07            -1e-13                -1.9308e-08           -3.3358e-07          
END_DB

BEGIN_DB
 ICCAP_VAR vg         0.63           
 ICCAP_VAR vb         0              
 ICCAP_VAR vs         0              

 #vd                    id                    ig                    ib                    is                   
  0                     2.7432e-10            1.6e-13               2.74e-12              -2.9278e-10          
  0.1                   3.6092e-07            8e-14                 2.6e-12               -3.6092e-07          
  0.2                   4.8446e-07            4e-14                 1.72e-12              -4.8466e-07          
  0.3                   5.6934e-07            -1.2e-13              1.28e-12              -5.6936e-07          
  0.4                   6.4754e-07            -6e-14                1.48e-12              -6.4686e-07          
  0.5                   7.2304e-07            4e-14                 2.06e-12              -7.2302e-07          
  0.6                   7.9596e-07            1e-13                 1.22e-12              -7.956e-07           
  0.7                   8.6904e-07            2e-14                 1.8e-13               -8.687e-07           
  0.8                   9.3936e-07            -2e-14                2.34e-12              -9.4134e-07          
  0.9                   1.01336e-06           0                     1.84e-12              -1.01206e-06         
  1                     1.08282e-06           -1e-13                6.8e-13               -1.08298e-06         
  1.1                   1.1532e-06            0                     1.44e-12              -1.15234e-06         
  1.2                   1.222e-06             -8e-14                1.78e-12              -1.2176e-06          
  1.3                   1.287e-06             6e-14                 -5.2e-13              -1.2846e-06          
  1.4                   1.3542e-06            0                     -3.12e-12             -1.3498e-06          
  1.5                   1.4186e-06            -1.2e-13              -1.174e-11            -1.4148e-06          
  1.6                   1.4844e-06            -1.6e-13              -3.43e-11             -1.479e-06           
  1.7                   1.5474e-06            0                     -8.078e-11            -1.5434e-06          
  1.8                   1.6116e-06            -6e-14                -1.6754e-10           -1.6078e-06          
  1.9                   1.676e-06             -1.4e-13              -3.2088e-10           -1.671e-06           
  2                     1.7378e-06            -2e-14                -5.6834e-10           -1.7322e-06          
  2.1                   1.7992e-06            -4e-14                -9.52e-10             -1.795e-06           
  2.2                   1.8652e-06            -1.4e-13              -1.5258e-09           -1.8584e-06          
  2.3                   1.9294e-06            -1.2e-13              -2.3582e-09           -1.9232e-06          
  2.4                   1.9924e-06            0                     -3.5272e-09           -1.9862e-06          
  2.5                   2.0594e-06            -1.4e-13              -5.1556e-09           -2.0512e-06          
  2.6                   2.1252e-06            4e-14                 -7.3872e-09           -2.1146e-06          
  2.7                   2.1938e-06            -2e-14                -1.03866e-08          -2.178e-06           
  2.8                   2.2622e-06            -6e-14                -1.4424e-08           -2.2448e-06          
  2.9                   2.334e-06             1.4e-13               -1.9738e-08           -2.3104e-06          
  3                     2.4092e-06            0                     -2.6736e-08           -2.3776e-06          
  3.1                   2.4866e-06            -1e-13                -3.5722e-08           -2.4448e-06          
  3.2                   2.565e-06             -1e-13                -4.7148e-08           -2.5144e-06          
  3.3                   2.652e-06             -2e-14                -6.1538e-08           -2.5852e-06          
  3.4                   2.7422e-06            -2e-14                -7.943e-08            -2.66e-06            
  3.5                   2.8372e-06            -6e-14                -1.01196e-07          -2.7334e-06          
  3.6                   2.9438e-06            -4e-14                -1.272e-07            -2.8116e-06          
END_DB

