! VERSION = 6.00
BEGIN_HEADER
 ICCAP_INPUTS
  vg         V  G GROUND SMU2 0.001 LIN        1    -0.5       3.6        83   0.05      
  vb         V  B GROUND SMU4 0.1 LIN        2    0          -3.6       5    -0.9      
  vd         V  D GROUND SMU1 0.1 LIN        3    0.1        3.3        3    1.6       
  vs         V  S GROUND SMU3 0.1 CON        0
 ICCAP_OUTPUTS
  id         I  D GROUND SMU1 B
  ig         I  G GROUND SMU2 B
  ib         I  B GROUND SMU4 B
  is         I  S GROUND SMU3 B
 ICCAP_VALUES
  MASTER_SETUP_TYPE "~dc_idvg~"
  LINVT_VALUE ""
  LISTVT_VALUE ""
  TYPE "1"
  TEMP " 27.0000 "
  IS_TNOM " 1.00000 "
  MAIN.W "10.00u"
  MAIN.L "10.00u"
  MAIN.AD "3.400p"
  MAIN.AS "3.400p"
  MAIN.PD "20.68u"
  MAIN.PS "20.68u"
  MAIN.NF "1.000"
  MAIN.M "1"
  MAIN.NRD "0.000"
  MAIN.NRS "0.000"
  MAIN.LDRIFT1 "1E-06"
  MAIN.LDRIFT2 "1E-06"
  MAIN.SA "0.000"
  MAIN.SB "0.000"
  MAIN.SD "0.000"
  MAIN.SCA "0.000"
  MAIN.SCB "0.000"
  MAIN.SCC "0.000"
  MAIN.SC "0.000"
  MODULE "S557"
  PIN_D "16"
  PIN_G "5"
  PIN_S "6"
  PIN_B "15"
  PIN_E ""
  PIN_6 ""
  XY_ID ""
  FUNC "Large"
  STI "SA ref"
  WPE "WPE ref"
  COMMENT ""
  DIS_MEAS ""
  TypeTCI "10"
END_HEADER

BEGIN_DB
 ICCAP_VAR vb         0              
 ICCAP_VAR vd         0.1            
 ICCAP_VAR vs         0              

 #vg                    id                    ig                    ib                    is                   
  -0.5                  1.2e-13               -4.482e-11            5.138e-11             1.2e-13              
  -0.45                 1.2e-13               -6.72e-12             1.316e-11             1.4e-13              
  -0.4                  1.2e-13               -1.14e-12             7.72e-12              1.6e-13              
  -0.35                 1e-13                 -1.6e-13              7.24e-12              2e-14                
  -0.3                  1e-13                 4e-14                 6.2e-12               8e-14                
  -0.25                 -4e-14                1e-13                 6.2e-12               1.4e-13              
  -0.2                  1.4e-13               1e-13                 6.24e-12              -4e-14               
  -0.15                 1.2e-13               3.2e-13               6.12e-12              -4e-14               
  -0.1                  0                     2.8e-13               3.04e-12              2.2e-13              
  -0.05                 6e-14                 1.2e-13               7.44e-12              -6e-14               
  0                     1.6e-13               2.8e-13               5.96e-12              4e-14                
  0.05                  1.8e-13               3e-13                 5.24e-12              -2e-14               
  0.1                   2.6e-13               3.2e-13               5.64e-12              -2e-13               
  0.15                  1.04e-12              3.4e-13               5.74e-12              -7.2e-13             
  0.2                   3.78e-12              3.8e-13               6.78e-12              -3.82e-12            
  0.25                  1.536e-11             3.2e-13               5.5e-12               -1.502e-11           
  0.3                   6.17e-11              4.8e-13               5.02e-12              -6.152e-11           
  0.35                  2.519e-10             3.4e-13               5.2e-12               -2.5162e-10          
  0.4                   1.0205e-09            4.6e-13               5.08e-12              -1.02016e-09         
  0.45                  4.0486e-09            3e-13                 5.96e-12              -4.0456e-09          
  0.5                   1.4924e-08            3.4e-13               5.82e-12              -1.4894e-08          
  0.55                  4.8454e-08            3.2e-13               4.82e-12              -4.8436e-08          
  0.6                   1.316e-07             4.2e-13               5.22e-12              -1.3142e-07          
  0.65                  2.9834e-07            4.6e-13               5.68e-12              -2.9814e-07          
  0.7                   5.723e-07             4.2e-13               5e-12                 -5.7212e-07          
  0.75                  9.605e-07             4.8e-13               1.26e-12              -9.6038e-07          
  0.8                   1.4488e-06            4e-13                 5.74e-12              -1.4442e-06          
  0.85                  2.017e-06             5.4e-13               4.7e-12               -2.013e-06           
  0.9                   2.644e-06             3.4e-13               4.42e-12              -2.6398e-06          
  0.95                  3.316e-06             5.4e-13               4.36e-12              -3.3118e-06          
  1                     4.022e-06             5.6e-13               4.88e-12              -4.018e-06           
  1.05                  4.7564e-06            5.2e-13               5.28e-12              -4.7524e-06          
  1.1                   5.5072e-06            5.4e-13               4.34e-12              -5.503e-06           
  1.15                  6.2714e-06            5.8e-13               4.7e-12               -6.2674e-06          
  1.2                   7.0456e-06            6e-13                 4.4e-12               -7.0416e-06          
  1.25                  7.8268e-06            6e-13                 5.36e-12              -7.8228e-06          
  1.3                   8.6148e-06            5.6e-13               4.08e-12              -8.6108e-06          
  1.35                  9.4026e-06            6.8e-13               4.18e-12              -9.3982e-06          
  1.4                   1.01898e-05           7.4e-13               4.8e-12               -1.01856e-05         
  1.45                  1.09762e-05           5.6e-13               5.28e-12              -1.0972e-05          
  1.5                   1.1772e-05            4.6e-13               4.48e-12              -1.1752e-05          
  1.55                  1.2552e-05            4.8e-13               3.98e-12              -1.2532e-05          
  1.6                   1.3326e-05            5.8e-13               4.08e-12              -1.3306e-05          
  1.65                  1.4096e-05            5.6e-13               4.84e-12              -1.4076e-05          
  1.7                   1.486e-05             5.8e-13               4.32e-12              -1.484e-05           
  1.75                  1.5612e-05            6.2e-13               3.68e-12              -1.5592e-05          
  1.8                   1.636e-05             7e-13                 3.44e-12              -1.634e-05           
  1.85                  1.7094e-05            7e-13                 4.46e-12              -1.7074e-05          
  1.9                   1.7822e-05            6.4e-13               5.06e-12              -1.78e-05            
  1.95                  1.8536e-05            6.2e-13               4.34e-12              -1.8516e-05          
  2                     1.9242e-05            6.2e-13               3.48e-12              -1.922e-05           
  2.05                  1.9936e-05            6.4e-13               3.92e-12              -1.9914e-05          
  2.1                   2.0614e-05            7e-13                 4.58e-12              -2.0592e-05          
  2.15                  2.1284e-05            5.8e-13               4.44e-12              -2.1262e-05          
  2.2                   2.1936e-05            7e-13                 4e-12                 -2.1916e-05          
  2.25                  2.258e-05             6.6e-13               2.84e-12              -2.2558e-05          
  2.3                   2.3206e-05            7.6e-13               3.86e-12              -2.3184e-05          
  2.35                  2.382e-05             6e-13                 4.62e-12              -2.38e-05            
  2.4                   2.442e-05             7.8e-13               3.78e-12              -2.44e-05            
  2.45                  2.5004e-05            7e-13                 3.6e-12               -2.4984e-05          
  2.5                   2.5576e-05            7.8e-13               6e-13                 -2.5556e-05          
  2.55                  2.6132e-05            5.8e-13               4.7e-12               -2.6112e-05          
  2.6                   2.6674e-05            7.4e-13               3.66e-12              -2.6654e-05          
  2.65                  2.7202e-05            6.2e-13               3.48e-12              -2.718e-05           
  2.7                   2.7712e-05            6.8e-13               3.28e-12              -2.7692e-05          
  2.75                  2.8212e-05            7.2e-13               4.16e-12              -2.819e-05           
  2.8                   2.8694e-05            6.8e-13               3.7e-12               -2.8674e-05          
  2.85                  2.9162e-05            6.4e-13               3.14e-12              -2.9142e-05          
  2.9                   2.9616e-05            7.6e-13               3.36e-12              -2.9596e-05          
  2.95                  3.0056e-05            8.2e-13               4.32e-12              -3.0036e-05          
  3                     3.0482e-05            7.2e-13               4.48e-12              -3.0462e-05          
  3.05                  3.0892e-05            7.4e-13               3.2e-12               -3.0872e-05          
  3.1                   3.129e-05             8e-13                 3.5e-12               -3.127e-05           
  3.15                  3.1676e-05            8.2e-13               3.46e-12              -3.1654e-05          
  3.2                   3.2044e-05            7.8e-13               4.56e-12              -3.2024e-05          
  3.25                  3.2402e-05            8e-13                 3.18e-12              -3.2382e-05          
  3.3                   3.2746e-05            7.8e-13               3.18e-12              -3.2726e-05          
  3.35                  3.3076e-05            8.4e-13               3.62e-12              -3.3054e-05          
  3.4                   3.3394e-05            7.4e-13               3.5e-12               -3.3374e-05          
  3.45                  3.3702e-05            8.6e-13               3.92e-12              -3.368e-05           
  3.5                   3.3994e-05            7e-13                 2.54e-12              -3.3974e-05          
  3.55                  3.4276e-05            9e-13                 2.98e-12              -3.4256e-05          
  3.6                   3.4548e-05            8e-13                 4.06e-12              -3.4526e-05          
END_DB

BEGIN_DB
 ICCAP_VAR vb         -0.9           
 ICCAP_VAR vd         0.1            
 ICCAP_VAR vs         0              

 #vg                    id                    ig                    ib                    is                   
  -0.5                  3.8e-13               -5.4e-13              -9.22e-12             1.2e-13              
  -0.45                 2.2e-13               -2.2e-13              -9.3e-12              1.8e-13              
  -0.4                  6e-14                 -3e-13                -8.52e-12             0                    
  -0.35                 1.4e-13               -6e-14                -7.16e-12             1.8e-13              
  -0.3                  1.4e-13               -6e-14                -6.18e-12             -6e-14               
  -0.25                 6e-14                 4e-14                 -4.84e-12             1.6e-13              
  -0.2                  6e-14                 -1.2e-13              -5.24e-12             1e-13                
  -0.15                 1e-13                 2e-14                 -5.24e-12             1e-13                
  -0.1                  0                     8e-14                 -5.1e-12              1.6e-13              
  -0.05                 8e-14                 1e-13                 -4.16e-12             1.8e-13              
  0                     1.2e-13               4e-14                 -3.04e-12             8e-14                
  0.05                  1.2e-13               1.4e-13               -3.44e-12             1.6e-13              
  0.1                   8e-14                 1.2e-13               -3.7e-12              2e-13                
  0.15                  -2e-14                1.8e-13               -3.64e-12             2.8e-13              
  0.2                   4e-14                 8e-14                 -5.8e-12              1.2e-13              
  0.25                  4e-14                 2.8e-13               -2.5e-12              2.2e-13              
  0.3                   2e-14                 2.4e-13               -2.04e-12             1.6e-13              
  0.35                  1.2e-13               1.8e-13               -2.4e-12              -6e-14               
  0.4                   3.6e-13               3.6e-13               -2.86e-12             -2.2e-13             
  0.45                  1.7e-12               3e-13                 -2.54e-12             -1.84e-12            
  0.5                   8.2e-12               3.4e-13               -1.32e-12             -8.1e-12             
  0.55                  3.836e-11             2.6e-13               -1.32e-12             -3.824e-11           
  0.6                   1.7614e-10            4.6e-13               -1.48e-12             -1.762e-10           
  0.65                  8.0534e-10            4.6e-13               -2.84e-12             -8.0486e-10          
  0.7                   3.531e-09             3.4e-13               -1.64e-12             -3.5268e-09          
  0.75                  1.422e-08             2.8e-13               -9.8e-13              -1.4196e-08          
  0.8                   4.861e-08             3.4e-13               -7.8e-13              -4.8584e-08          
  0.85                  1.3636e-07            4.6e-13               -1.82e-12             -1.3616e-07          
  0.9                   3.1064e-07            5e-13                 -7.6e-13              -3.1044e-07          
  0.95                  5.9366e-07            4.8e-13               -5.6e-13              -5.9352e-07          
  1                     9.8564e-07            4.8e-13               -1.18e-12             -9.8544e-07          
  1.05                  1.474e-06             4.4e-13               -1.54e-12             -1.4696e-06          
  1.1                   2.032e-06             4.6e-13               -1.6e-13              -2.0278e-06          
  1.15                  2.645e-06             3.2e-13               -4.4e-13              -2.641e-06           
  1.2                   3.2992e-06            6.2e-13               -7.6e-13              -3.295e-06           
  1.25                  3.9844e-06            4.2e-13               -1.74e-12             -3.9802e-06          
  1.3                   4.6954e-06            6.2e-13               -2.8e-13              -4.6912e-06          
  1.35                  5.4206e-06            4e-13                 -1e-13                -5.4166e-06          
  1.4                   6.1582e-06            5e-13                 -1.48e-12             -6.154e-06           
  1.45                  6.9042e-06            5.4e-13               -1.1e-12              -6.8998e-06          
  1.5                   7.6584e-06            5.4e-13               -7e-13                -7.6544e-06          
  1.55                  8.413e-06             5.4e-13               1.2e-13               -8.409e-06           
  1.6                   9.1672e-06            5.8e-13               -8.8e-13              -9.163e-06           
  1.65                  9.9236e-06            6e-13                 -9e-13                -9.9194e-06          
  1.7                   1.06772e-05           5.8e-13               -9.6e-13              -1.0673e-05          
  1.75                  1.14242e-05           5.8e-13               -1.8e-13              -1.14198e-05         
  1.8                   1.2178e-05            5e-13                 -4e-13                -1.2156e-05          
  1.85                  1.2912e-05            6.2e-13               -6e-13                -1.2892e-05          
  1.9                   1.3644e-05            5.2e-13               -1.6e-13              -1.3622e-05          
  1.95                  1.4364e-05            5.8e-13               -3.2e-13              -1.4342e-05          
  2                     1.5076e-05            5.2e-13               2.2e-13               -1.5056e-05          
  2.05                  1.578e-05             6.4e-13               -4.8e-13              -1.5758e-05          
  2.1                   1.647e-05             6.2e-13               -6.4e-13              -1.645e-05           
  2.15                  1.7152e-05            6.4e-13               -6.4e-13              -1.713e-05           
  2.2                   1.782e-05             6.6e-13               3e-13                 -1.7798e-05          
  2.25                  1.8478e-05            6.4e-13               6.6e-13               -1.8456e-05          
  2.3                   1.912e-05             5.8e-13               -1.06e-12             -1.91e-05            
  2.35                  1.9752e-05            5.4e-13               -6.8e-13              -1.9732e-05          
  2.4                   2.037e-05             7.2e-13               3.4e-13               -2.0348e-05          
  2.45                  2.0974e-05            7.2e-13               4.2e-13               -2.0952e-05          
  2.5                   2.1566e-05            6e-13                 -8.6e-13              -2.1544e-05          
  2.55                  2.2142e-05            6.8e-13               -5.2e-13              -2.212e-05           
  2.6                   2.2702e-05            6.6e-13               7.4e-13               -2.2682e-05          
  2.65                  2.325e-05             6.6e-13               1.8e-13               -2.323e-05           
  2.7                   2.3784e-05            6.6e-13               4e-14                 -2.3762e-05          
  2.75                  2.4304e-05            7e-13                 -6.6e-13              -2.4284e-05          
  2.8                   2.4808e-05            7.4e-13               -2.2e-13              -2.4788e-05          
  2.85                  2.5298e-05            6.6e-13               5.8e-13               -2.5278e-05          
  2.9                   2.5774e-05            8e-13                 -4.8e-13              -2.5754e-05          
  2.95                  2.6238e-05            7.2e-13               -3.8e-13              -2.6216e-05          
  3                     2.6684e-05            6.6e-13               -3.8e-13              -2.6664e-05          
  3.05                  2.7118e-05            8.4e-13               9.8e-13               -2.7096e-05          
  3.1                   2.7538e-05            7.6e-13               -2.6e-13              -2.7516e-05          
  3.15                  2.7944e-05            7.2e-13               -4.6e-13              -2.7924e-05          
  3.2                   2.8336e-05            6.8e-13               -3.6e-13              -2.8316e-05          
  3.25                  2.8716e-05            7.4e-13               -2.6e-13              -2.8694e-05          
  3.3                   2.9082e-05            7.2e-13               7e-13                 -2.9062e-05          
  3.35                  2.9434e-05            7.6e-13               1e-13                 -2.9414e-05          
  3.4                   2.9776e-05            7e-13                 -2.4e-13              -2.9756e-05          
  3.45                  3.0104e-05            7.6e-13               -3.2e-13              -3.0082e-05          
