! VERSION = 6.00
BEGIN_HEADER
 ICCAP_INPUTS
  vg         V  G GROUND SMU2 0.001 LIN        1    -0.5       3.6        83   0.05      
  vb         V  B GROUND SMU4 0.1 LIN        2    0          -3.6       5    -0.9      
  vd         V  D GROUND SMU1 0.1 LIN        3    0.1        3.3        3    1.6       
  vs         V  S GROUND SMU3 0.1 CON        0
 ICCAP_OUTPUTS
  id         I  D GROUND SMU1 B
  ig         I  G GROUND SMU2 B
  ib         I  B GROUND SMU4 B
  is         I  S GROUND SMU3 B
 ICCAP_VALUES
  MASTER_SETUP_TYPE "~dc_idvg~"
  LINVT_VALUE ""
  LISTVT_VALUE ""
  TYPE "1"
  TEMP "-40.0000 "
  IS_TNOM " 0.00000 "
  MAIN.W "600.0n"
  MAIN.L "1.200u"
  MAIN.AD "204.0f"
  MAIN.AS "204.0f"
  MAIN.PD "1.880u"
  MAIN.PS "1.880u"
  MAIN.NF "1.000"
  MAIN.M "1"
  MAIN.NRD "0.000"
  MAIN.NRS "0.000"
  MAIN.LDRIFT1 "1E-06"
  MAIN.LDRIFT2 "1E-06"
  MAIN.SA "0.000"
  MAIN.SB "0.000"
  MAIN.SD "0.000"
  MAIN.SCA "0.000"
  MAIN.SCB "0.000"
  MAIN.SCC "0.000"
  MAIN.SC "0.000"
  MODULE "S559"
  PIN_D "14"
  PIN_G "7"
  PIN_S "8"
  PIN_B "13"
  PIN_E ""
  PIN_6 ""
  XY_ID ""
  FUNC "LW Scale"
  STI "SA ref"
  WPE "WPE ref"
  COMMENT ""
  DIS_MEAS ""
  TypeTCI "10"
END_HEADER

BEGIN_DB
 ICCAP_VAR vb         0              
 ICCAP_VAR vd         0.1            
 ICCAP_VAR vs         0              

 #vg                    id                    ig                    ib                    is                   
  -0.5                  2e-14                 -6.8e-13              5.62e-12              -2e-14               
  -0.45                 1e-13                 -2.6e-13              3.78e-12              6e-14                
  -0.4                  0                     6e-14                 3.66e-12              1e-13                
  -0.35                 0                     1.6e-13               4.34e-12              1e-13                
  -0.3                  2e-14                 4e-14                 4.6e-12               1e-13                
  -0.25                 6e-14                 8e-14                 4.22e-12              1.4e-13              
  -0.2                  6e-14                 2e-13                 3.96e-12              1e-13                
  -0.15                 1e-13                 1.4e-13               2.78e-12              2.8e-13              
  -0.1                  8e-14                 3.8e-13               3.26e-12              1e-13                
  -0.05                 -2e-14                3.8e-13               4.72e-12              2e-14                
  0                     1e-13                 2.8e-13               3.92e-12              2.6e-13              
  0.05                  -6e-14                4.8e-13               3.58e-12              8e-14                
  0.1                   4e-14                 4.6e-13               2.92e-12              3.4e-13              
  0.15                  2e-14                 5e-13                 4.14e-12              1e-13                
  0.2                   8e-14                 5.2e-13               3.7e-12               2e-13                
  0.25                  8e-14                 4.4e-13               3.62e-12              2e-13                
  0.3                   1e-13                 6.2e-13               1.06e-12              -1.2e-13             
  0.35                  6e-13                 4.4e-13               2.58e-12              -3.6e-13             
  0.4                   3.6e-12               4.4e-13               3.64e-12              -3.62e-12            
  0.45                  2.27e-11              4.6e-13               2.96e-12              -2.258e-11           
  0.5                   1.3908e-10            5.2e-13               4.56e-12              -1.395e-10           
  0.55                  8.1138e-10            5.6e-13               2.32e-12              -8.1006e-10          
  0.6                   4.1664e-09            3.2e-13               3.1e-12               -4.1678e-09          
  0.65                  1.7528e-08            4.6e-13               3.14e-12              -1.7504e-08          
  0.7                   5.6974e-08            5.2e-13               2.96e-12              -5.7038e-08          
  0.75                  1.459e-07             6.4e-13               3.56e-12              -1.4614e-07          
  0.8                   3.0382e-07            6.2e-13               2.74e-12              -3.0326e-07          
  0.85                  5.3782e-07            5.6e-13               3.18e-12              -5.3728e-07          
  0.9                   8.395e-07             5.8e-13               2.82e-12              -8.3952e-07          
  0.95                  1.1996e-06            5.6e-13               2.62e-12              -1.1946e-06          
  1                     1.6008e-06            5.6e-13               2.66e-12              -1.598e-06           
  1.05                  2.0368e-06            6.4e-13               2.56e-12              -2.0332e-06          
  1.1                   2.4952e-06            8e-13                 3.98e-12              -2.4922e-06          
  1.15                  2.9682e-06            6.2e-13               2.88e-12              -2.9646e-06          
  1.2                   3.4516e-06            5.4e-13               2.36e-12              -3.4482e-06          
  1.25                  3.9436e-06            7.2e-13               3.04e-12              -3.9386e-06          
  1.3                   4.4396e-06            6.4e-13               2.46e-12              -4.4354e-06          
  1.35                  4.9376e-06            8.2e-13               2.54e-12              -4.9346e-06          
  1.4                   5.4358e-06            7.4e-13               2.86e-12              -5.4326e-06          
  1.45                  5.933e-06             6.6e-13               2.54e-12              -5.9302e-06          
  1.5                   6.43e-06              7.4e-13               2.14e-12              -6.4258e-06          
  1.55                  6.9228e-06            7.6e-13               2.96e-12              -6.9186e-06          
  1.6                   7.4094e-06            6.2e-13               2.68e-12              -7.405e-06           
  1.65                  7.8926e-06            9.2e-13               2.28e-12              -7.8884e-06          
  1.7                   8.3698e-06            8e-13                 2.44e-12              -8.3664e-06          
  1.75                  8.8394e-06            6.6e-13               3.62e-12              -8.8356e-06          
  1.8                   9.3008e-06            8.6e-13               3.32e-12              -9.2968e-06          
  1.85                  9.7554e-06            7.8e-13               2.62e-12              -9.7516e-06          
  1.9                   1.02034e-05           7.6e-13               1.92e-12              -1.02002e-05         
  1.95                  1.06412e-05           7e-13                 2.8e-12               -1.06384e-05         
  2                     1.10726e-05           7.8e-13               3.76e-12              -1.10688e-05         
  2.05                  1.1495e-05            8.4e-13               5.16e-12              -1.14916e-05         
  2.1                   1.1914e-05            8.8e-13               2.14e-12              -1.1896e-05          
  2.15                  1.2318e-05            7.8e-13               2.88e-12              -1.23e-05            
  2.2                   1.271e-05             8.6e-13               3.74e-12              -1.2692e-05          
  2.25                  1.3094e-05            8.4e-13               1.98e-12              -1.3076e-05          
  2.3                   1.3468e-05            8.2e-13               2.06e-12              -1.345e-05           
  2.35                  1.3832e-05            9.2e-13               2.52e-12              -1.3814e-05          
  2.4                   1.4186e-05            7.8e-13               2.92e-12              -1.4168e-05          
  2.45                  1.4532e-05            7.6e-13               2.82e-12              -1.4512e-05          
  2.5                   1.4866e-05            8e-13                 2.12e-12              -1.4848e-05          
  2.55                  1.5192e-05            9.2e-13               2.52e-12              -1.5172e-05          
  2.6                   1.5506e-05            8.8e-13               2.22e-12              -1.5488e-05          
  2.65                  1.581e-05             8.2e-13               3.44e-12              -1.5792e-05          
  2.7                   1.6104e-05            1e-12                 2.5e-12               -1.6086e-05          
  2.75                  1.639e-05             8.2e-13               2.36e-12              -1.637e-05           
  2.8                   1.6666e-05            8e-13                 1.64e-12              -1.6646e-05          
  2.85                  1.6932e-05            9.8e-13               2.34e-12              -1.6914e-05          
  2.9                   1.7188e-05            7.8e-13               2.84e-12              -1.7172e-05          
  2.95                  1.7438e-05            9.2e-13               2.08e-12              -1.742e-05           
  3                     1.7676e-05            9.6e-13               1.76e-12              -1.766e-05           
  3.05                  1.7908e-05            9.4e-13               2.22e-12              -1.789e-05           
  3.1                   1.813e-05             9.4e-13               3.06e-12              -1.8112e-05          
  3.15                  1.8342e-05            9e-13                 1.7e-12               -1.8324e-05          
  3.2                   1.8546e-05            9.6e-13               1.26e-12              -1.853e-05           
  3.25                  1.8746e-05            8e-13                 2.1e-12               -1.8728e-05          
  3.3                   1.8934e-05            8.2e-13               3.12e-12              -1.8916e-05          
  3.35                  1.9116e-05            8.8e-13               2.48e-12              -1.9096e-05          
  3.4                   1.929e-05             9e-13                 2e-12                 -1.9272e-05          
  3.45                  1.9456e-05            9.4e-13               1.82e-12              -1.9438e-05          
  3.5                   1.9616e-05            1e-12                 2.84e-12              -1.9598e-05          
  3.55                  1.9768e-05            9.2e-13               2.14e-12              -1.975e-05           
  3.6                   1.9914e-05            9e-13                 1.9e-12               -1.9896e-05          
END_DB

BEGIN_DB
 ICCAP_VAR vb         -0.9           
 ICCAP_VAR vd         0.1            
 ICCAP_VAR vs         0              

 #vg                    id                    ig                    ib                    is                   
  -0.5                  -1.6e-13              -7.6e-13              -5.4e-12              8e-14                
  -0.45                 -1e-13                -3e-13                -5.14e-12             8e-14                
  -0.4                  -1e-13                -3.2e-13              -5.5e-12              1.8e-13              
  -0.35                 2e-14                 -2e-13                -4.62e-12             -8e-14               
  -0.3                  -4e-14                -8e-14                -3.82e-12             1.2e-13              
  -0.25                 -2e-14                0                     -2.44e-12             6e-14                
  -0.2                  -4e-14                6e-14                 -3.6e-12              4e-14                
  -0.15                 -4e-14                4e-14                 -3.74e-12             2.4e-13              
  -0.1                  -1e-13                2.8e-13               -3.1e-12              4e-14                
  -0.05                 -4e-14                1.6e-13               -2.54e-12             1e-13                
  0                     2e-14                 1.2e-13               -1.56e-12             2.4e-13              
  0.05                  2e-14                 2e-13                 -2e-12                3.4e-13              
  0.1                   1e-13                 2.8e-13               -2.14e-12             8e-14                
  0.15                  2e-14                 2e-13                 -2.5e-12              2.8e-13              
  0.2                   2e-14                 1.6e-13               -1.96e-12             1e-13                
  0.25                  2e-14                 3e-13                 -7.8e-13              1.2e-13              
  0.3                   2e-14                 2.4e-13               -1.32e-12             2.6e-13              
  0.35                  -6e-14                4.6e-13               -2.14e-12             2e-14                
  0.4                   2e-14                 2e-13                 -1.5e-12              1.6e-13              
  0.45                  0                     3.6e-13               -7.6e-13              1.2e-13              
  0.5                   4e-14                 4.2e-13               1.2e-13               1.2e-13              
  0.55                  1e-13                 5e-13                 -7.4e-13              -6e-14               
  0.6                   6.6e-13               4.2e-13               -1.3e-12              -6.6e-13             
  0.65                  4.74e-12              5e-13                 -1.3e-12              -4.54e-12            
  0.7                   3.33e-11              5.8e-13               -1.16e-12             -3.326e-11           
  0.75                  2.2654e-10            4.6e-13               0                     -2.2672e-10          
  0.8                   1.4164e-09            3.8e-13               -6.8e-13              -1.4144e-09          
  0.85                  7.3296e-09            5.8e-13               -1.56e-12             -7.3302e-09          
  0.9                   2.8958e-08            6.2e-13               -1.18e-12             -2.888e-08           
  0.95                  8.7152e-08            4.8e-13               -1e-12                -8.7054e-08          
  1                     2.0336e-07            5e-13                 2e-13                 -2.0302e-07          
  1.05                  3.9072e-07            5.8e-13               -9.2e-13              -3.9056e-07          
  1.1                   6.4782e-07            5.8e-13               -9.2e-13              -6.4766e-07          
  1.15                  9.652e-07             6.8e-13               -6.6e-13              -9.6536e-07          
  1.2                   1.3318e-06            4.4e-13               -6.8e-13              -1.328e-06           
  1.25                  1.733e-06             4.8e-13               -5.6e-13              -1.73e-06            
  1.3                   2.165e-06             7e-13                 -4.8e-13              -2.1608e-06          
  1.35                  2.6128e-06            6.6e-13               4.8e-13               -2.609e-06           
  1.4                   3.074e-06             5.8e-13               -4e-14                -3.0706e-06          
  1.45                  3.5432e-06            6.4e-13               -7.8e-13              -3.5394e-06          
  1.5                   4.019e-06             6.2e-13               -9.6e-13              -4.0154e-06          
  1.55                  4.494e-06             7.2e-13               -1.8e-13              -4.4898e-06          
  1.6                   4.9704e-06            7.4e-13               3.6e-13               -4.966e-06           
  1.65                  5.4466e-06            6.2e-13               -3.4e-13              -5.4428e-06          
  1.7                   5.9204e-06            6.2e-13               -8.8e-13              -5.9162e-06          
  1.75                  6.3882e-06            6.2e-13               -5e-13                -6.3846e-06          
  1.8                   6.8542e-06            6.6e-13               3.4e-13               -6.8504e-06          
  1.85                  7.3124e-06            7.6e-13               -1.04e-12             -7.3092e-06          
  1.9                   7.7662e-06            7.4e-13               -6.2e-13              -7.7628e-06          
  1.95                  8.2116e-06            6e-13                 -5.2e-13              -8.2068e-06          
  2                     8.6508e-06            8.2e-13               5.2e-13               -8.6458e-06          
  2.05                  9.0806e-06            6.2e-13               -4.6e-13              -9.0768e-06          
  2.1                   9.5018e-06            8.4e-13               -6.8e-13              -9.4978e-06          
  2.15                  9.915e-06             6.8e-13               -4.6e-13              -9.912e-06           
  2.2                   1.0316e-05            8.8e-13               1e-13                 -1.03122e-05         
  2.25                  1.07116e-05           6.6e-13               5.2e-13               -1.07078e-05         
  2.3                   1.10966e-05           7.8e-13               -2.4e-13              -1.10926e-05         
  2.35                  1.14736e-05           9e-13                 -2.2e-13              -1.147e-05           
  2.4                   1.1848e-05            5.6e-13               2.8e-13               -1.1828e-05          
  2.45                  1.2202e-05            8.8e-13               4e-14                 -1.2184e-05          
  2.5                   1.255e-05             6.8e-13               2.8e-13               -1.2534e-05          
  2.55                  1.2888e-05            7.8e-13               -4.4e-13              -1.287e-05           
  2.6                   1.3214e-05            6.6e-13               -4.2e-13              -1.3196e-05          
  2.65                  1.3532e-05            8.8e-13               6.8e-13               -1.3512e-05          
  2.7                   1.384e-05             8.6e-13               2.4e-13               -1.382e-05           
  2.75                  1.4136e-05            8e-13                 -4.4e-13              -1.4118e-05          
  2.8                   1.4426e-05            8e-13                 2e-14                 -1.4408e-05          
  2.85                  1.4706e-05            9e-13                 7.6e-13               -1.4688e-05          
  2.9                   1.4974e-05            9.2e-13               1.02e-12              -1.4956e-05          
  2.95                  1.5236e-05            9.2e-13               -6e-13                -1.5218e-05          
  3                     1.5488e-05            8.6e-13               6e-14                 -1.5468e-05          
  3.05                  1.573e-05             9.4e-13               6e-14                 -1.5712e-05          
  3.1                   1.5964e-05            9e-13                 9.6e-13               -1.5946e-05          
  3.15                  1.619e-05             8.2e-13               -7.8e-13              -1.6172e-05          
  3.2                   1.6408e-05            8e-13                 -3.4e-13              -1.639e-05           
  3.25                  1.6616e-05            9.4e-13               4.4e-13               -1.6598e-05          
  3.3                   1.6818e-05            8.2e-13               1e-12                 -1.68e-05            
  3.35                  1.7012e-05            8e-13                 6.6e-13               -1.6992e-05          
  3.4                   1.7196e-05            8.2e-13               -6.4e-13              -1.7178e-05          
  3.45                  1.7374e-05            8.2e-13               -1.2e-13              -1.7356e-05          
