! VERSION = 6.00
BEGIN_HEADER
 ICCAP_INPUTS
  vd         V  D GROUND SMU1 0.1 LIN        1    0          3.6        37   0.1       
  vg         V  G GROUND SMU2 0.001 LIN        2    0.564      3.6        5    0.759     
  vb         V  B GROUND SMU4 0.1 CON        0
  vs         V  S GROUND SMU3 0.1 CON        0
 ICCAP_OUTPUTS
  id         I  D GROUND SMU1 B
  ig         I  G GROUND SMU2 B
  ib         I  B GROUND SMU4 B
  is         I  S GROUND SMU3 B
 ICCAP_VALUES
  MASTER_SETUP_TYPE "~dc_idvd~"
  LINVT_VALUE "|idvg|100.0n|100.0m|1.000m|5|3.600|"
  LISTVT_VALUE ""
  TYPE "1"
  TEMP " 27.0000 "
  IS_TNOM " 1.00000 "
  MAIN.W "10.00u"
  MAIN.L "330.0n"
  MAIN.AD "3.400p"
  MAIN.AS "3.400p"
  MAIN.PD "20.68u"
  MAIN.PS "20.68u"
  MAIN.NF "1.000"
  MAIN.M "1"
  MAIN.NRD "0.000"
  MAIN.NRS "0.000"
  MAIN.LDRIFT1 "1E-06"
  MAIN.LDRIFT2 "1E-06"
  MAIN.SA "0.000"
  MAIN.SB "0.000"
  MAIN.SD "0.000"
  MAIN.SCA "0.000"
  MAIN.SCB "0.000"
  MAIN.SCC "0.000"
  MAIN.SC "0.000"
  MODULE "S556"
  PIN_D "18"
  PIN_G "3"
  PIN_S "4"
  PIN_B "17"
  PIN_E ""
  PIN_6 ""
  XY_ID ""
  FUNC "Additional"
  STI "SA ref"
  WPE "WPE ref"
  COMMENT ""
  DIS_MEAS ""
  TypeTCI "10"
END_HEADER

BEGIN_DB
 ICCAP_VAR vg         0.564          
 ICCAP_VAR vb         0              
 ICCAP_VAR vs         0              

 #vd                    id                    ig                    ib                    is                   
  0                     3.3938e-09            -1.2e-13              2.424e-11             -2.7172e-09          
  0.1                   3.656e-06             -1.2e-13              2.052e-11             -3.6554e-06          
  0.2                   4.8688e-06            -6e-14                2.056e-11             -4.8702e-06          
  0.3                   5.8418e-06            -4e-14                1.89e-11              -5.832e-06           
  0.4                   6.7586e-06            -4e-14                1.824e-11             -6.7536e-06          
  0.5                   7.6964e-06            -1.2e-13              1.834e-11             -7.7028e-06          
  0.6                   8.6556e-06            -2e-13                1.718e-11             -8.6564e-06          
  0.7                   9.6426e-06            -3e-13                1.65e-11              -9.6398e-06          
  0.8                   1.06444e-05           -1.8e-13              1.732e-11             -1.06398e-05         
  0.9                   1.169e-05             -1e-13                1.498e-11             -1.1697e-05          
  1                     1.2778e-05            -8e-14                1.594e-11             -1.2772e-05          
  1.1                   1.3926e-05            -1.6e-13              1.334e-11             -1.3896e-05          
  1.2                   1.513e-05             -1.6e-13              1e-11                 -1.5108e-05          
  1.3                   1.6336e-05            -2e-13                -5.22e-12             -1.6372e-05          
  1.4                   1.7664e-05            -1.2e-13              -5.844e-11            -1.7628e-05          
  1.5                   1.902e-05             -1.4e-13              -2.061e-10            -1.8994e-05          
  1.6                   2.0372e-05            -2.2e-13              -5.607e-10            -2.0336e-05          
  1.7                   2.1862e-05            -4e-14                -1.3106e-09           -2.1826e-05          
  1.8                   2.3354e-05            -1.6e-13              -2.764e-09            -2.3344e-05          
  1.9                   2.493e-05             -2.8e-13              -5.3412e-09           -2.4896e-05          
  2                     2.652e-05             -1.2e-13              -9.643e-09            -2.647e-05           
  2.1                   2.821e-05             -1e-13                -1.6534e-08           -2.8208e-05          
  2.2                   2.9986e-05            -1.2e-13              -2.7074e-08           -2.996e-05           
  2.3                   3.1824e-05            -2e-13                -4.277e-08            -3.1748e-05          
  2.4                   3.3716e-05            -2e-13                -6.553e-08            -3.3598e-05          
  2.5                   3.5688e-05            -6e-14                -9.8092e-08           -3.5552e-05          
  2.6                   3.776e-05             -8e-14                -1.4396e-07           -3.7584e-05          
  2.7                   3.9898e-05            -1e-13                -2.0752e-07           -3.9686e-05          
  2.8                   4.215e-05             -2.6e-13              -2.9452e-07           -4.1844e-05          
  2.9                   4.4488e-05            -2e-13                -4.1202e-07           -4.408e-05           
  3                     4.7e-05               -6e-14                -5.6896e-07           -4.6394e-05          
  3.1                   4.9572e-05            -1.4e-13              -7.7478e-07           -4.8764e-05          
  3.2                   5.2316e-05            -2e-13                -1.04174e-06          -5.126e-05           
  3.3                   5.5238e-05            -2.2e-13              -1.3818e-06           -5.3858e-05          
  3.4                   5.8364e-05            -1e-13                -1.8108e-06           -5.654e-05           
  3.5                   6.1686e-05            -1.2e-13              -2.3434e-06           -5.9332e-05          
  3.6                   6.524e-05             -2.2e-13              -2.9942e-06           -6.2228e-05          
END_DB

BEGIN_DB
 ICCAP_VAR vg         1.323          
 ICCAP_VAR vb         0              
 ICCAP_VAR vs         0              

 #vd                    id                    ig                    ib                    is                   
  0                     1.716e-07             4.4e-13               8.14e-12              -1.4092e-07          
  0.1                   0.00032858            2.2e-13               8.04e-12              -0.00032824          
  0.2                   0.0005862             2.4e-13               6.56e-12              -0.00058582          
  0.3                   0.00077044            2e-13                 7.16e-12              -0.00077             
  0.4                   0.0008946             8e-14                 7.08e-12              -0.00089446          
  0.5                   0.0009772             2e-13                 3.84e-12              -0.00097686          
  0.6                   0.00103372            1.2e-13               6.72e-12              -0.00103352          
  0.7                   0.00107556            4e-14                 6.22e-12              -0.0010751           
  0.8                   0.00110876            8e-14                 5.48e-12              -0.00110836          
  0.9                   0.00113674            2.4e-13               7.02e-12              -0.00113632          
  1                     0.001162              1.2e-13               5.32e-12              -0.00116074          
  1.1                   0.0011848             1.4e-13               5.52e-12              -0.0011826           
  1.2                   0.0012052             1.6e-13               -8e-14                -0.001203            
  1.3                   0.0012244             4e-14                 -2.322e-11            -0.0012226           
  1.4                   0.0012428             4e-14                 -1.341e-10            -0.001241            
  1.5                   0.0012608             0                     -5.5302e-10           -0.0012586           
  1.6                   0.001278              2e-14                 -1.8934e-09           -0.0012756           
  1.7                   0.0012946             1e-13                 -5.5616e-09           -0.0012928           
  1.8                   0.0013106             2e-14                 -1.4368e-08           -0.0013086           
  1.9                   0.0013266             4e-14                 -3.3194e-08           -0.0013244           
  2                     0.0013418             -4e-14                -6.97e-08             -0.0013398           
  2.1                   0.001357              0                     -1.3524e-07           -0.001355            
  2.2                   0.0013722             6e-14                 -2.4538e-07           -0.0013698           
  2.3                   0.001387              4e-14                 -4.206e-07            -0.0013846           
  2.4                   0.0014018             6e-14                 -6.8652e-07           -0.0013992           
  2.5                   0.0014168             1.2e-13               -1.07696e-06          -0.0014136           
  2.6                   0.0014318             -1.2e-13              -1.6326e-06           -0.001428            
  2.7                   0.001447              -4e-14                -2.406e-06            -0.0014424           
  2.8                   0.0014624             2e-14                 -3.4652e-06           -0.0014568           
  2.9                   0.0014782             -1.2e-13              -4.8886e-06           -0.0014712           
  3                     0.0014946             6e-14                 -6.7838e-06           -0.0014858           
  3.1                   0.001512              6e-14                 -9.271e-06            -0.0015006           
  3.2                   0.0015304             -2e-14                -1.2486e-05           -0.0015158           
  3.3                   0.00155               2e-14                 -1.661e-05            -0.0015316           
  3.4                   0.0015712             -4e-14                -2.1838e-05           -0.0015474           
  3.5                   0.0015942             8e-14                 -2.8354e-05           -0.001564            
  3.6                   0.0016196             0                     -3.6356e-05           -0.0015812           
END_DB

BEGIN_DB
 ICCAP_VAR vg         2.082          
 ICCAP_VAR vb         0              
 ICCAP_VAR vs         0              

 #vd                    id                    ig                    ib                    is                   
  0                     2.234e-07             5e-13                 4.88e-12              -2.3716e-07          
  0.1                   0.00062266            3.8e-13               4.4e-12               -0.00062228          
  0.2                   0.0011824             1.6e-13               3.78e-12              -0.0011804           
  0.3                   0.0016556             2.6e-13               4.64e-12              -0.0016536           
  0.4                   0.002039              1.8e-13               3.78e-12              -0.0020372           
  0.5                   0.0023376             1e-13                 3e-12                 -0.0023354           
  0.6                   0.0025626             1.8e-13               4.3e-12               -0.0025608           
  0.7                   0.0027304             4e-14                 3.92e-12              -0.0027284           
  0.8                   0.002855              1.6e-13               3.3e-12               -0.0028526           
  0.9                   0.0029482             2.2e-13               4.06e-12              -0.002946            
  1                     0.0030204             1.4e-13               3.58e-12              -0.003019            
  1.1                   0.0030788             6e-14                 3.06e-12              -0.003077            
  1.2                   0.0031266             2e-13                 2.4e-12               -0.0031246           
  1.3                   0.003167              8e-14                 -6.22e-12             -0.0031654           
  1.4                   0.003203              6e-14                 -4.364e-11            -0.003201            
  1.5                   0.003235              1.2e-13               -1.868e-10            -0.003233            
  1.6                   0.0032634             1.4e-13               -6.859e-10            -0.003262            
  1.7                   0.0032904             1.4e-13               -2.1738e-09           -0.0032882           
  1.8                   0.0033152             1.4e-13               -6.134e-09            -0.0033132           
  1.9                   0.0033388             1.6e-13               -1.559e-08            -0.0033372           
  2                     0.0033612             8e-14                 -3.5988e-08           -0.0033592           
  2.1                   0.0033826             4e-14                 -7.6784e-08           -0.0033806           
  2.2                   0.003403              1.8e-13               -1.5226e-07           -0.0034006           
  2.3                   0.0034228             1.6e-13               -2.84e-07             -0.0034204           
  2.4                   0.003442              1.4e-13               -5.0068e-07           -0.0034398           
  2.5                   0.0034612             6e-14                 -8.4226e-07           -0.0034582           
  2.6                   0.00348               2e-14                 -1.3584e-06           -0.0034766           
  2.7                   0.0034986             -2e-14                -2.1146e-06           -0.0034946           
  2.8                   0.0035176             1e-13                 -3.1936e-06           -0.0035126           
  2.9                   0.0035366             4e-14                 -4.6932e-06           -0.00353             
  3                     0.0035564             1e-13                 -6.747e-06            -0.0035478           
  3.1                   0.003577              1.6e-13               -9.5084e-06           -0.0035654           
  3.2                   0.0035984             0                     -1.3158e-05           -0.003583            
  3.3                   0.0036208             4e-14                 -1.7936e-05           -0.0036012           
  3.4                   0.003646              8e-14                 -2.4134e-05           -0.0036202           
  3.5                   0.0036738             4e-14                 -3.2052e-05           -0.00364             
  3.6                   0.0037044             1.6e-13               -4.202e-05            -0.0036604           
END_DB

BEGIN_DB
 ICCAP_VAR vg         2.841          
 ICCAP_VAR vb         0              
 ICCAP_VAR vs         0              

 #vd                    id                    ig                    ib                    is                   
  0                     2.3264e-07            5.4e-13               3.44e-12              -2.7878e-07          
  0.1                   0.00080114            4.2e-13               2.34e-12              -0.00080076          
  0.2                   0.0015524             3e-13                 3.48e-12              -0.0015502           
  0.3                   0.0022264             2e-13                 2.58e-12              -0.002224            
  0.4                   0.0028132             2.4e-13               3.18e-12              -0.0028112           
  0.5                   0.0033092             2.4e-13               3.56e-12              -0.0033072           
  0.6                   0.0037182             2.4e-13               1.98e-12              -0.003716            
  0.7                   0.0040506             4.2e-13               2.26e-12              -0.0040486           
  0.8                   0.004317              2.6e-13               2.6e-12               -0.0043152           
  0.9                   0.0045284             1e-13                 2.24e-12              -0.0045262           
  1                     0.004696              1.6e-13               2.76e-12              -0.0046938           
  1.1                   0.0048292             1.6e-13               2.9e-12               -0.0048272           
  1.2                   0.0049358             2.8e-13               1.28e-12              -0.0049338           
  1.3                   0.0050226             1.8e-13               5e-13                 -0.0050208           
  1.4                   0.0050944             2.4e-13               -1.042e-11            -0.005092            
  1.5                   0.0051546             6e-14                 -5.354e-11            -0.0051528           
  1.6                   0.0052066             2.2e-13               -2.1026e-10           -0.0052046           
  1.7                   0.0052516             3.6e-13               -7.1894e-10           -0.0052498           
  1.8                   0.0052916             1.2e-13               -2.1768e-09           -0.0052898           
  1.9                   0.0053274             2e-13                 -5.9354e-09           -0.0053254           
  2                     0.0053598             1.8e-13               -1.47e-08             -0.0053576           
  2.1                   0.0053896             1.2e-13               -3.3544e-08           -0.0053874           
  2.2                   0.0054168             8e-14                 -7.0938e-08           -0.0054146           
  2.3                   0.0054428             1.4e-13               -1.4032e-07           -0.0054406           
  2.4                   0.0054668             2.2e-13               -2.616e-07            -0.0054648           
  2.5                   0.0054896             1.8e-13               -4.6398e-07           -0.0054872           
  2.6                   0.0055112             1.2e-13               -7.86e-07             -0.0055084           
  2.7                   0.0055324             -2e-14                -1.2778e-06           -0.005529            
  2.8                   0.0055524             1.4e-13               -2.0092e-06           -0.0055482           
  2.9                   0.0055724             3.4e-13               -3.063e-06            -0.0055674           
  3                     0.0055924             5.2e-13               -4.5506e-06           -0.0055858           
  3.1                   0.0056128             5.4e-13               -6.6064e-06           -0.0056042           
  3.2                   0.0056336             6.2e-13               -9.394e-06            -0.0056222           
  3.3                   0.0056558             6.6e-13               -1.3102e-05           -0.0056404           
  3.4                   0.0056788             9.4e-13               -1.8016e-05           -0.0056584           
  3.5                   0.0057036             1e-12                 -2.4408e-05           -0.0056774           
  3.6                   0.0057314             1.2e-12               -3.2634e-05           -0.005697            
END_DB

BEGIN_DB
 ICCAP_VAR vg         3.6            
 ICCAP_VAR vb         0              
 ICCAP_VAR vs         0              

 #vd                    id                    ig                    ib                    is                   
  0                     2.4458e-07            6.2e-13               3.32e-12              -3.0196e-07          
  0.1                   0.00090618            3.6e-13               2.5e-12               -0.00090576          
  0.2                   0.001774              4.6e-13               2.66e-12              -0.0017718           
  0.3                   0.0025774             3.6e-13               1.84e-12              -0.0025754           
  0.4                   0.0033054             4e-13                 2.78e-12              -0.0033032           
  0.5                   0.0039496             3.4e-13               2.04e-12              -0.0039476           
  0.6                   0.004509              2.8e-13               2.24e-12              -0.0045068           
  0.7                   0.0049888             2.4e-13               2.38e-12              -0.0049868           
  0.8                   0.0053948             2.8e-13               2.16e-12              -0.005393            
