! VERSION = 6.00
BEGIN_HEADER
 ICCAP_INPUTS
  vd         V  D GROUND SMU1 0.1 LIN        1    0          3.6        37   0.1       
  vg         V  G GROUND SMU2 0.001 LIN        2    0.64       3.6        5    0.74      
  vb         V  B GROUND SMU4 0.1 CON        0
  vs         V  S GROUND SMU3 0.1 CON        0
 ICCAP_OUTPUTS
  id         I  D GROUND SMU1 B
  ig         I  G GROUND SMU2 B
  ib         I  B GROUND SMU4 B
  is         I  S GROUND SMU3 B
 ICCAP_VALUES
  MASTER_SETUP_TYPE "~dc_idvd~"
  LINVT_VALUE "|idvg|100.0n|100.0m|1.000m|5|3.600|"
  LISTVT_VALUE ""
  TYPE "1"
  TEMP " 70.0000 "
  IS_TNOM " 0.00000 "
  MAIN.W "10.00u"
  MAIN.L "10.00u"
  MAIN.AD "3.400p"
  MAIN.AS "3.400p"
  MAIN.PD "20.68u"
  MAIN.PS "20.68u"
  MAIN.NF "1.000"
  MAIN.M "1"
  MAIN.NRD "0.000"
  MAIN.NRS "0.000"
  MAIN.LDRIFT1 "1E-06"
  MAIN.LDRIFT2 "1E-06"
  MAIN.SA "0.000"
  MAIN.SB "0.000"
  MAIN.SD "0.000"
  MAIN.SCA "0.000"
  MAIN.SCB "0.000"
  MAIN.SCC "0.000"
  MAIN.SC "0.000"
  MODULE "S557"
  PIN_D "16"
  PIN_G "5"
  PIN_S "6"
  PIN_B "15"
  PIN_E ""
  PIN_6 ""
  XY_ID ""
  FUNC "Large"
  STI "SA ref"
  WPE "WPE ref"
  COMMENT ""
  DIS_MEAS ""
  TypeTCI "10"
END_HEADER

BEGIN_DB
 ICCAP_VAR vg         0.64           
 ICCAP_VAR vb         0              
 ICCAP_VAR vs         0              

 #vd                    id                    ig                    ib                    is                   
  0                     4.5752e-10            -1.2e-13              4.092e-11             -3.396e-10           
  0.1                   4.26e-07              -2e-13                3.716e-11             -4.2598e-07          
  0.2                   4.761e-07             -2.2e-13              3.52e-11              -4.7618e-07          
  0.3                   4.8012e-07            -2.6e-13              3.366e-11             -4.8024e-07          
  0.4                   4.815e-07             -1e-13                3.222e-11             -4.8158e-07          
  0.5                   4.8252e-07            -4e-14                3.236e-11             -4.8256e-07          
  0.6                   4.8336e-07            -1.4e-13              3.1e-11               -4.8344e-07          
  0.7                   4.8412e-07            -1.2e-13              2.938e-11             -4.8418e-07          
  0.8                   4.848e-07             -2.6e-13              2.874e-11             -4.8488e-07          
  0.9                   4.855e-07             -1.4e-13              2.882e-11             -4.8554e-07          
  1                     4.8612e-07            -1e-13                2.754e-11             -4.8616e-07          
  1.1                   4.8662e-07            -3.2e-13              2.628e-11             -4.8672e-07          
  1.2                   4.8718e-07            -2e-13                2.584e-11             -4.8726e-07          
  1.3                   4.8774e-07            -2.4e-13              2.658e-11             -4.8776e-07          
  1.4                   4.8822e-07            -1.4e-13              2.374e-11             -4.8822e-07          
  1.5                   4.8862e-07            -1e-13                2.146e-11             -4.8868e-07          
  1.6                   4.8908e-07            -2.6e-13              1.888e-11             -4.8914e-07          
  1.7                   4.8948e-07            -1.8e-13              1.092e-11             -4.8952e-07          
  1.8                   4.8992e-07            -2.4e-13              -4.12e-12             -4.8996e-07          
  1.9                   4.9038e-07            -1.2e-13              -2.68e-11             -4.9036e-07          
  2                     4.9076e-07            -2.2e-13              -6.7e-11              -4.907e-07           
  2.1                   4.9114e-07            -2.4e-13              -1.3128e-10           -4.9102e-07          
  2.2                   4.916e-07             -1.2e-13              -2.2458e-10           -4.9142e-07          
  2.3                   4.921e-07             -2e-13                -3.5886e-10           -4.9172e-07          
  2.4                   4.9256e-07            -2.4e-13              -5.4408e-10           -4.9208e-07          
  2.5                   4.9318e-07            -1.6e-13              -7.9828e-10           -4.9236e-07          
  2.6                   4.9384e-07            -1.6e-13              -1.1404e-09           -4.9268e-07          
  2.7                   4.9454e-07            -2.6e-13              -1.5904e-09           -4.9304e-07          
  2.8                   4.9552e-07            -2.4e-13              -2.18e-09             -4.9334e-07          
  2.9                   4.9656e-07            -8e-14                -2.9396e-09           -4.9368e-07          
  3                     4.9786e-07            -2.2e-13              -3.9082e-09           -4.9394e-07          
  3.1                   4.9936e-07            -2.2e-13              -5.1312e-09           -4.9426e-07          
  3.2                   5.0116e-07            -2.2e-13              -6.6548e-09           -4.9448e-07          
  3.3                   5.0338e-07            -1.8e-13              -8.5292e-09           -4.9484e-07          
  3.4                   5.059e-07             -1.2e-13              -1.08068e-08          -4.951e-07           
  3.5                   5.0892e-07            -3e-13                -1.3548e-08           -4.954e-07           
  3.6                   5.1244e-07            -1.4e-13              -1.676e-08            -4.9564e-07          
END_DB

BEGIN_DB
 ICCAP_VAR vg         1.38           
 ICCAP_VAR vb         0              
 ICCAP_VAR vs         0              

 #vd                    id                    ig                    ib                    is                   
  0                     2.3946e-09            4.6e-13               1.31e-11              -2.6376e-09          
  0.1                   8.6088e-06            2.4e-13               1.424e-11             -8.6048e-06          
  0.2                   1.5508e-05            1.4e-13               1.218e-11             -1.5502e-05          
  0.3                   2.0724e-05            -1.2e-13              1.222e-11             -2.0718e-05          
  0.4                   2.4342e-05            1.2e-13               1.146e-11             -2.4338e-05          
  0.5                   2.6474e-05            1.2e-13               1.138e-11             -2.647e-05           
  0.6                   2.7392e-05            1.4e-13               1.16e-11              -2.7388e-05          
  0.7                   2.7654e-05            6e-14                 1.124e-11             -2.765e-05           
  0.8                   2.7726e-05            8e-14                 1.152e-11             -2.7722e-05          
  0.9                   2.776e-05             4e-14                 1.12e-11              -2.7756e-05          
  1                     2.7782e-05            8e-14                 1.028e-11             -2.7778e-05          
  1.1                   2.7802e-05            1.6e-13               1.254e-11             -2.7796e-05          
  1.2                   2.7818e-05            1.8e-13               1.024e-11             -2.7812e-05          
  1.3                   2.7832e-05            4e-14                 9.84e-12              -2.7826e-05          
  1.4                   2.7844e-05            1.4e-13               1.15e-11              -2.7838e-05          
  1.5                   2.7856e-05            0                     1.032e-11             -2.785e-05           
  1.6                   2.7866e-05            6e-14                 9.86e-12              -2.7862e-05          
  1.7                   2.7878e-05            1.4e-13               1.052e-11             -2.7874e-05          
  1.8                   2.7888e-05            2e-14                 7.46e-12              -2.7884e-05          
  1.9                   2.79e-05              2e-14                 1.58e-12              -2.7894e-05          
  2                     2.7908e-05            -4e-14                -1.9e-11              -2.7902e-05          
  2.1                   2.7916e-05            4e-14                 -8.19e-11             -2.7912e-05          
  2.2                   2.7926e-05            4e-14                 -2.3362e-10           -2.7922e-05          
  2.3                   2.7936e-05            0                     -5.7064e-10           -2.793e-05           
  2.4                   2.7944e-05            4e-14                 -1.2322e-09           -2.7938e-05          
  2.5                   2.7952e-05            -2e-13                -2.4348e-09           -2.7946e-05          
  2.6                   2.7964e-05            1.2e-13               -4.457e-09            -2.7954e-05          
  2.7                   2.7974e-05            8e-14                 -7.6534e-09           -2.7962e-05          
  2.8                   2.7986e-05            -1.2e-13              -1.2506e-08           -2.7968e-05          
  2.9                   2.8e-05               -8e-14                -1.9526e-08           -2.7976e-05          
  3                     2.8016e-05            2e-14                 -2.9432e-08           -2.7982e-05          
  3.1                   2.8038e-05            -2e-14                -4.3072e-08           -2.7988e-05          
  3.2                   2.8062e-05            -2e-14                -6.1464e-08           -2.7996e-05          
  3.3                   2.8092e-05            -4e-14                -8.5844e-08           -2.8e-05             
  3.4                   2.813e-05             0                     -1.1786e-07           -2.8008e-05          
  3.5                   2.818e-05             -1.8e-13              -1.5938e-07           -2.8014e-05          
  3.6                   2.8238e-05            0                     -2.125e-07            -2.802e-05           
END_DB

BEGIN_DB
 ICCAP_VAR vg         2.12           
 ICCAP_VAR vb         0              
 ICCAP_VAR vs         0              

 #vd                    id                    ig                    ib                    is                   
  0                     2.082e-09             4.2e-13               8.62e-12              -4.242e-09           
  0.1                   1.7352e-05            4e-13                 8.24e-12              -1.7346e-05          
  0.2                   3.3158e-05            3.2e-13               8.2e-12               -3.3152e-05          
  0.3                   4.7376e-05            1.8e-13               7.08e-12              -4.7372e-05          
  0.4                   6.0052e-05            2.4e-13               7.68e-12              -6.0048e-05          
  0.5                   7.1146e-05            2.4e-13               7.26e-12              -7.1142e-05          
  0.6                   8.0636e-05            3e-13                 5.88e-12              -8.0632e-05          
  0.7                   8.8554e-05            3e-13                 6.32e-12              -8.855e-05           
  0.8                   9.4892e-05            2.2e-13               7.52e-12              -9.489e-05           
  0.9                   9.967e-05             1e-13                 6.52e-12              -9.9668e-05          
  1                     0.000102972           2.2e-13               7.12e-12              -0.00010297          
  1.1                   0.00010494            1.8e-13               6.12e-12              -0.000104938         
  1.2                   0.000105892           1.8e-13               6.78e-12              -0.00010589          
  1.3                   0.00010628            1e-13                 7.24e-12              -0.000106276         
  1.4                   0.000106444           2e-13                 5.22e-12              -0.00010644          
  1.5                   0.000106534           1.6e-13               5.68e-12              -0.00010653          
  1.6                   0.000106596           1.8e-13               7.54e-12              -0.000106592         
  1.7                   0.000106644           1.2e-13               5.56e-12              -0.00010664          
  1.8                   0.000106684           6e-14                 5.92e-12              -0.00010668          
  1.9                   0.00010672            6e-14                 6.78e-12              -0.000106716         
  2                     0.000106752           1.8e-13               5.34e-12              -0.000106748         
  2.1                   0.000106782           1.2e-13               5.62e-12              -0.000106782         
  2.2                   0.000106812           2.4e-13               6.34e-12              -0.00010681          
  2.3                   0.00010684            0                     4.16e-12              -0.000106838         
  2.4                   0.000106866           -6e-14                6e-13                 -0.000106862         
  2.5                   0.00010689            8e-14                 -2.012e-11            -0.000106888         
  2.6                   0.000106912           1.4e-13               -8.702e-11            -0.00010691          
  2.7                   0.000106938           1e-13                 -2.7452e-10           -0.000106938         
  2.8                   0.000106962           2e-14                 -7.473e-10            -0.00010672          
  2.9                   0.000106986           2e-14                 -1.7926e-09           -0.00010674          
  3                     0.000107008           6e-14                 -3.8958e-09           -0.00010676          
  3.1                   0.000107032           1.6e-13               -7.7626e-09           -0.00010678          
  3.2                   0.000107058           -4e-14                -1.4396e-08           -0.0001068           
  3.3                   0.000107088           4e-14                 -2.5036e-08           -0.00010682          
  3.4                   0.00010712            1e-13                 -4.1366e-08           -0.00010684          
  3.5                   0.000107166           2e-14                 -6.5362e-08           -0.00010688          
  3.6                   0.000107218           -2e-14                -9.9516e-08           -0.00010688          
END_DB

BEGIN_DB
 ICCAP_VAR vg         2.86           
 ICCAP_VAR vb         0              
 ICCAP_VAR vs         0              

 #vd                    id                    ig                    ib                    is                   
  0                     1.2482e-08            4.8e-13               6.9e-12               -1.1176e-08          
  0.1                   2.42e-05              6e-13                 7.3e-12               -2.4194e-05          
  0.2                   4.7166e-05            5.2e-13               3.88e-12              -4.7162e-05          
  0.3                   6.8836e-05            4.8e-13               5.3e-12               -6.8832e-05          
  0.4                   8.926e-05             1.6e-13               6.38e-12              -8.9256e-05          
  0.5                   0.000108372           3e-13                 4.68e-12              -0.000108368         
  0.6                   0.0001262             1.4e-13               5.72e-12              -0.00012588          
  0.7                   0.0001426             2.8e-13               4.76e-12              -0.00014228          
  0.8                   0.0001576             2e-13                 4.88e-12              -0.00015728          
  0.9                   0.00017112            3.8e-13               3.18e-12              -0.0001708           
  1                     0.00018322            1.6e-13               4.52e-12              -0.0001829           
  1.1                   0.00019384            1.6e-13               5.34e-12              -0.00019352          
  1.2                   0.00020294            6e-14                 4.3e-12               -0.00020262          
  1.3                   0.00021058            1e-13                 5.22e-12              -0.00021026          
  1.4                   0.00021672            1.6e-13               5.2e-12               -0.0002164           
  1.5                   0.00022144            1.4e-13               4.22e-12              -0.0002211           
  1.6                   0.00022476            2.8e-13               5.66e-12              -0.00022444          
  1.7                   0.00022686            2.2e-13               3.74e-12              -0.00022654          
  1.8                   0.00022802            1.6e-13               3.7e-12               -0.0002277           
  1.9                   0.00022862            4e-14                 6.02e-12              -0.0002283           
  2                     0.0002289             2.4e-13               4.1e-12               -0.00022858          
  2.1                   0.00022908            1.8e-13               5e-12                 -0.00022876          
  2.2                   0.0002292             3e-13                 5.42e-12              -0.00022888          
  2.3                   0.00022928            1.4e-13               3.82e-12              -0.00022896          
  2.4                   0.00022936            1.2e-13               3.76e-12              -0.00022904          
  2.5                   0.00022942            1.2e-13               4.84e-12              -0.0002291           
  2.6                   0.00022948            2e-13                 3.16e-12              -0.00022916          
  2.7                   0.00022954            1.8e-13               5.32e-12              -0.00022922          
  2.8                   0.00022958            1.2e-13               4.74e-12              -0.00022926          
  2.9                   0.00022962            1.2e-13               1.8e-13               -0.0002293           
  3                     0.00022966            8e-14                 -7.38e-12             -0.00022934          
  3.1                   0.0002297             4e-14                 -4.3e-11              -0.00022938          
  3.2                   0.00022974            2e-13                 -1.5736e-10           -0.00022942          
  3.3                   0.00022978            1.8e-13               -4.7744e-10           -0.00022946          
  3.4                   0.00022982            8e-14                 -1.2858e-09           -0.00022948          
  3.5                   0.00022986            2.2e-13               -3.0904e-09           -0.00022952          
  3.6                   0.0002299             1.4e-13               -6.7508e-09           -0.00022956          
END_DB

BEGIN_DB
 ICCAP_VAR vg         3.6            
 ICCAP_VAR vb         0              
 ICCAP_VAR vs         0              

 #vd                    id                    ig                    ib                    is                   
  0                     1.3196e-08            5.2e-13               5.3e-12               -1.2218e-08          
  0.1                   2.887e-05             4.6e-13               4.36e-12              -2.8866e-05          
  0.2                   5.6818e-05            3.6e-13               4.34e-12              -5.6812e-05          
  0.3                   8.3768e-05            4.2e-13               3.44e-12              -8.3766e-05          
  0.4                   0.000109802           4.2e-13               4.24e-12              -0.0001098           
  0.5                   0.00013494            4e-13                 3.8e-12               -0.00013462          
  0.6                   0.00015892            2.8e-13               3.48e-12              -0.0001586           
  0.7                   0.00018188            2e-13                 3.82e-12              -0.00018156          
  0.8                   0.00020374            3e-13                 2.2e-12               -0.00020342          
