! VERSION = 6.00
BEGIN_HEADER
 ICCAP_INPUTS
  vd         V  D GROUND SMU1 0.1 LIN        1    0          3.6        37   0.1       
  vg         V  G GROUND SMU2 0.001 LIST       2 3 0.471 0.671 0.871
  vb         V  B GROUND SMU4 0.1 CON        0
  vs         V  S GROUND SMU3 0.1 CON        0
 ICCAP_OUTPUTS
  id         I  D GROUND SMU1 B
  ig         I  G GROUND SMU2 B
  ib         I  B GROUND SMU4 B
  is         I  S GROUND SMU3 B
 ICCAP_VALUES
  MASTER_SETUP_TYPE "~dc_idvd~"
  LINVT_VALUE ""
  LISTVT_VALUE "|idvg|100.0n|-200.0m|1.000m|3|200.0m|200.0m|"
  TYPE "1"
  TEMP "-40.0000 "
  IS_TNOM " 0.00000 "
  MAIN.W "2.000u"
  MAIN.L "3.000u"
  MAIN.AD "680.0f"
  MAIN.AS "680.0f"
  MAIN.PD "4.680u"
  MAIN.PS "4.680u"
  MAIN.NF "1.000"
  MAIN.M "1"
  MAIN.NRD "0.000"
  MAIN.NRS "0.000"
  MAIN.LDRIFT1 "1E-06"
  MAIN.LDRIFT2 "1E-06"
  MAIN.SA "0.000"
  MAIN.SB "0.000"
  MAIN.SD "0.000"
  MAIN.SCA "0.000"
  MAIN.SCB "0.000"
  MAIN.SCC "0.000"
  MAIN.SC "0.000"
  MODULE "S558"
  PIN_D "14"
  PIN_G "7"
  PIN_S "8"
  PIN_B "13"
  PIN_E ""
  PIN_6 ""
  XY_ID ""
  FUNC "LW Scale"
  STI "SA ref"
  WPE "WPE ref"
  COMMENT ""
  DIS_MEAS ""
  TypeTCI "10"
END_HEADER

BEGIN_DB
 ICCAP_VAR vg         0.471          
 ICCAP_VAR vb         0              
 ICCAP_VAR vs         0              

 #vd                    id                    ig                    ib                    is                   
  0                     2.6e-13               -3.6e-13              2.2e-12               -2e-14               
  0.1                   1.147e-10             -3.6e-13              9.6e-13               -1.144e-10           
  0.2                   1.1722e-10            -5.2e-13              2.64e-12              -1.1712e-10          
  0.3                   1.1846e-10            -3.4e-13              1.12e-12              -1.1822e-10          
  0.4                   1.1954e-10            -3.6e-13              1.2e-12               -1.1924e-10          
  0.5                   1.2068e-10            -4.8e-13              1.62e-12              -1.201e-10           
  0.6                   1.2148e-10            -5e-13                6.2e-13               -1.2082e-10          
  0.7                   1.2216e-10            -4e-13                2.1e-12               -1.2154e-10          
  0.8                   1.2308e-10            -8e-14                8e-13                 -1.2224e-10          
  0.9                   1.2372e-10            -2.4e-13              2.18e-12              -1.2298e-10          
  1                     1.2426e-10            -2.4e-13              2.6e-13               -1.2352e-10          
  1.1                   1.2504e-10            -8e-14                1.4e-12               -1.2426e-10          
  1.2                   1.2558e-10            -3.4e-13              2.58e-12              -1.2478e-10          
  1.3                   1.2624e-10            -2.8e-13              1.7e-12               -1.2522e-10          
  1.4                   1.2656e-10            -1.8e-13              1.12e-12              -1.2598e-10          
  1.5                   1.271e-10             -2.2e-13              1.34e-12              -1.258e-10           
  1.6                   1.2774e-10            -3e-13                1.08e-12              -1.2662e-10          
  1.7                   1.2808e-10            -3.2e-13              4.4e-13               -1.2708e-10          
  1.8                   1.2856e-10            -1e-13                1.84e-12              -1.2776e-10          
  1.9                   1.2902e-10            -1.4e-13              8.6e-13               -1.2808e-10          
  2                     1.2958e-10            -2.2e-13              1.58e-12              -1.2844e-10          
  2.1                   1.2988e-10            -1.2e-13              9.6e-13               -1.2902e-10          
  2.2                   1.303e-10             -1e-13                1e-12                 -1.2918e-10          
  2.3                   1.308e-10             -3e-13                9.2e-13               -1.2946e-10          
  2.4                   1.3116e-10            -1.8e-13              9.6e-13               -1.2994e-10          
  2.5                   1.317e-10             -1.2e-13              9.8e-13               -1.3008e-10          
  2.6                   1.3212e-10            -1e-13                4.4e-13               -1.3054e-10          
  2.7                   1.3276e-10            -2e-14                1.68e-12              -1.3092e-10          
  2.8                   1.3316e-10            -4e-14                1.8e-13               -1.3116e-10          
  2.9                   1.339e-10             -2e-14                5.2e-13               -1.3128e-10          
  3                     1.3464e-10            -8e-14                -3.4e-13              -1.3158e-10          
  3.1                   1.3548e-10            -2e-13                -1.54e-12             -1.3168e-10          
  3.2                   1.3638e-10            -2e-14                -1.58e-12             -1.322e-10           
  3.3                   1.3748e-10            -4e-14                -3.1e-12              -1.3242e-10          
  3.4                   1.3882e-10            -1.8e-13              -3.3e-12              -1.326e-10           
  3.5                   1.4024e-10            -3e-13                -5.24e-12             -1.329e-10           
  3.6                   1.4182e-10            -4e-14                -5.54e-12             -1.3322e-10          
END_DB

BEGIN_DB
 ICCAP_VAR vg         0.671          
 ICCAP_VAR vb         0              
 ICCAP_VAR vs         0              

 #vd                    id                    ig                    ib                    is                   
  0                     8.49e-11              8e-14                 1.82e-12              -8.716e-11           
  0.1                   6.0802e-08            0                     1.62e-12              -6.0832e-08          
  0.2                   6.3228e-08            -2e-14                1.54e-12              -6.318e-08           
  0.3                   6.3926e-08            -8e-14                4e-13                 -6.3882e-08          
  0.4                   6.4418e-08            1e-13                 5.4e-13               -6.4422e-08          
  0.5                   6.4838e-08            6e-14                 1.24e-12              -6.4846e-08          
  0.6                   6.52e-08              1.2e-13               1.14e-12              -6.5194e-08          
  0.7                   6.5556e-08            6e-14                 1.42e-12              -6.554e-08           
  0.8                   6.5824e-08            1e-13                 4.6e-13               -6.5826e-08          
  0.9                   6.612e-08             1.8e-13               5.2e-13               -6.6152e-08          
  1                     6.6416e-08            1.2e-13               2.08e-12              -6.6426e-08          
  1.1                   6.6658e-08            4e-14                 6.4e-13               -6.6656e-08          
  1.2                   6.695e-08             -1.4e-13              1.8e-13               -6.6896e-08          
  1.3                   6.7154e-08            -2.2e-13              1.24e-12              -6.7132e-08          
  1.4                   6.7356e-08            -1.8e-13              1.54e-12              -6.7362e-08          
  1.5                   6.7608e-08            -1.2e-13              1.82e-12              -6.7598e-08          
  1.6                   6.7804e-08            -2e-14                0                     -6.7764e-08          
  1.7                   6.7934e-08            -1e-13                -1.14e-12             -6.7904e-08          
  1.8                   6.809e-08             4e-14                 -1.86e-12             -6.804e-08           
  1.9                   6.8238e-08            -6e-14                -5.88e-12             -6.8212e-08          
  2                     6.8412e-08            -2e-14                -1.182e-11            -6.8464e-08          
  2.1                   6.8632e-08            -1.2e-13              -2.098e-11            -6.8624e-08          
  2.2                   6.8782e-08            -2.2e-13              -3.45e-11             -6.8742e-08          
  2.3                   6.9046e-08            -2.2e-13              -5.318e-11            -6.8974e-08          
  2.4                   6.9202e-08            2e-14                 -8.278e-11            -6.914e-08           
  2.5                   6.9402e-08            6e-14                 -1.234e-10            -6.9254e-08          
  2.6                   6.9552e-08            6e-14                 -1.7706e-10           -6.9364e-08          
  2.7                   6.9726e-08            4e-14                 -2.4896e-10           -6.945e-08           
  2.8                   6.9956e-08            8e-14                 -3.4268e-10           -6.959e-08           
  2.9                   7.0218e-08            -2e-14                -4.7338e-10           -6.9734e-08          
  3                     7.0548e-08            0                     -6.3712e-10           -6.983e-08           
  3.1                   7.083e-08             6e-14                 -8.471e-10            -7.0034e-08          
  3.2                   7.1222e-08            -1.2e-13              -1.11e-09             -7.0058e-08          
  3.3                   7.1726e-08            -1e-13                -1.4372e-09           -7.0204e-08          
  3.4                   7.2196e-08            -1.8e-13              -1.8328e-09           -7.0362e-08          
  3.5                   7.2752e-08            -6e-14                -2.3082e-09           -7.0446e-08          
  3.6                   7.3484e-08            6e-14                 -2.8648e-09           -7.0518e-08          
END_DB

BEGIN_DB
 ICCAP_VAR vg         0.871          
 ICCAP_VAR vb         0              
 ICCAP_VAR vs         0              

 #vd                    id                    ig                    ib                    is                   
  0                     7.1238e-10            1.6e-13               1.66e-12              -7.4794e-10          
  0.1                   1.07556e-06           0                     2.2e-12               -1.07544e-06         
  0.2                   1.3128e-06            2e-13                 3.6e-13               -1.3092e-06          
  0.3                   1.3418e-06            -4e-14                6.2e-13               -1.3386e-06          
  0.4                   1.352e-06             -8e-14                7.6e-13               -1.3484e-06          
  0.5                   1.3584e-06            0                     1.04e-12              -1.3546e-06          
  0.6                   1.3634e-06            4e-14                 7.6e-13               -1.3594e-06          
  0.7                   1.3672e-06            1e-13                 7.6e-13               -1.3634e-06          
  0.8                   1.3714e-06            -2e-14                1.34e-12              -1.3674e-06          
  0.9                   1.3748e-06            0                     9.4e-13               -1.3718e-06          
  1                     1.3786e-06            2e-14                 1.1e-12               -1.3748e-06          
  1.1                   1.3818e-06            0                     6.4e-13               -1.3774e-06          
  1.2                   1.3846e-06            -8e-14                1.32e-12              -1.3804e-06          
  1.3                   1.387e-06             1e-13                 6.2e-13               -1.3834e-06          
  1.4                   1.3896e-06            4e-14                 8.8e-13               -1.3854e-06          
  1.5                   1.392e-06             -4e-14                4.4e-13               -1.3884e-06          
  1.6                   1.3946e-06            2e-14                 1.8e-13               -1.3904e-06          
  1.7                   1.3972e-06            0                     -5.58e-12             -1.3936e-06          
  1.8                   1.3996e-06            0                     -1.614e-11            -1.3958e-06          
  1.9                   1.4018e-06            1e-13                 -4.1e-11              -1.398e-06           
  2                     1.4034e-06            -4e-14                -8.954e-11            -1.4002e-06          
  2.1                   1.406e-06             1e-13                 -1.7454e-10           -1.4026e-06          
  2.2                   1.409e-06             0                     -3.1574e-10           -1.404e-06           
  2.3                   1.4104e-06            8e-14                 -5.3698e-10           -1.4054e-06          
  2.4                   1.4118e-06            0                     -8.6562e-10           -1.4072e-06          
  2.5                   1.4138e-06            4e-14                 -1.3382e-09           -1.4092e-06          
  2.6                   1.4168e-06            -6e-14                -2.0074e-09           -1.411e-06           
  2.7                   1.4194e-06            0                     -2.925e-09            -1.4128e-06          
  2.8                   1.4222e-06            -1e-13                -4.1708e-09           -1.4136e-06          
  2.9                   1.4256e-06            -6e-14                -5.8402e-09           -1.4158e-06          
  3                     1.4306e-06            -8e-14                -8.0508e-09           -1.4188e-06          
  3.1                   1.435e-06             -8e-14                -1.093e-08            -1.4198e-06          
  3.2                   1.4398e-06            -6e-14                -1.4638e-08           -1.4212e-06          
  3.3                   1.4458e-06            -4e-14                -1.9336e-08           -1.4226e-06          
  3.4                   1.4536e-06            -2e-13                -2.5204e-08           -1.425e-06           
  3.5                   1.4624e-06            -1.2e-13              -3.2404e-08           -1.4258e-06          
  3.6                   1.4714e-06            -6e-14                -4.1088e-08           -1.427e-06           
END_DB

