! VERSION = 6.00
BEGIN_HEADER
 ICCAP_INPUTS
  vd         V  D GROUND SMU1 0.1 LIN        1    0          3.6        37   0.1       
  vg         V  G GROUND SMU2 0.001 LIN        2    0.744      3.6        5    0.714     
  vb         V  B GROUND SMU4 0.1 CON        -3.6
  vs         V  S GROUND SMU3 0.1 CON        0
 ICCAP_OUTPUTS
  id         I  D GROUND SMU1 B
  ig         I  G GROUND SMU2 B
  ib         I  B GROUND SMU4 B
  is         I  S GROUND SMU3 B
 ICCAP_VALUES
  MASTER_SETUP_TYPE "~dc_idvd~"
  LINVT_VALUE "|idvg|100.0n|100.0m|1.000m|5|3.600|"
  LISTVT_VALUE ""
  TYPE "1"
  TEMP " 27.0000 "
  IS_TNOM " 1.00000 "
  MAIN.W "2.000u"
  MAIN.L "330.0n"
  MAIN.AD "680.0f"
  MAIN.AS "680.0f"
  MAIN.PD "4.680u"
  MAIN.PS "4.680u"
  MAIN.NF "1.000"
  MAIN.M "1"
  MAIN.NRD "0.000"
  MAIN.NRS "0.000"
  MAIN.LDRIFT1 "1E-06"
  MAIN.LDRIFT2 "1E-06"
  MAIN.SA "0.000"
  MAIN.SB "0.000"
  MAIN.SD "0.000"
  MAIN.SCA "0.000"
  MAIN.SCB "0.000"
  MAIN.SCC "0.000"
  MAIN.SC "0.000"
  MODULE "S558"
  PIN_D "18"
  PIN_G "3"
  PIN_S "4"
  PIN_B "17"
  PIN_E ""
  PIN_6 ""
  XY_ID ""
  FUNC "Additional"
  STI "SA ref"
  WPE "WPE ref"
  COMMENT ""
  DIS_MEAS ""
  TypeTCI "10"
END_HEADER

BEGIN_DB
 ICCAP_VAR vg         0.744          
 ICCAP_VAR vb         -3.6           
 ICCAP_VAR vs         0              

 #vd                    id                    ig                    ib                    is                   
  0                     5.1284e-10            3.4e-13               -4.16e-11             -3.5348e-10          
  0.1                   3.2456e-07            3.4e-13               -3.724e-11            -3.2442e-07          
  0.2                   4.7044e-07            2.4e-13               -3.478e-11            -4.7038e-07          
  0.3                   6.1272e-07            2e-13                 -3.27e-11             -6.1272e-07          
  0.4                   7.6666e-07            1.2e-13               -3.238e-11            -7.6654e-07          
  0.5                   9.3502e-07            1.6e-13               -3.088e-11            -9.3508e-07          
  0.6                   1.11888e-06           2e-13                 -2.916e-11            -1.11862e-06         
  0.7                   1.322e-06             1.4e-13               -2.634e-11            -1.3176e-06          
  0.8                   1.5406e-06            2e-14                 -2.64e-11             -1.5364e-06          
  0.9                   1.7768e-06            2e-13                 -2.404e-11            -1.7732e-06          
  1                     2.0324e-06            1.2e-13               -2.408e-11            -2.0284e-06          
  1.1                   2.3066e-06            1.4e-13               -2.432e-11            -2.3024e-06          
  1.2                   2.5994e-06            6e-14                 -2.252e-11            -2.5954e-06          
  1.3                   2.9128e-06            1.8e-13               -2.388e-11            -2.9092e-06          
  1.4                   3.2472e-06            1.4e-13               -3.126e-11            -3.2438e-06          
  1.5                   3.6034e-06            2e-13                 -4.952e-11            -3.5986e-06          
  1.6                   3.98e-06              1.6e-13               -1.0478e-10           -3.9766e-06          
  1.7                   4.3784e-06            1.6e-13               -2.2774e-10           -4.3738e-06          
  1.8                   4.8006e-06            1e-13                 -4.7926e-10           -4.7964e-06          
  1.9                   5.2438e-06            6e-14                 -9.544e-10            -5.239e-06           
  2                     5.7088e-06            0                     -1.7934e-09           -5.7028e-06          
  2.1                   6.1976e-06            4e-14                 -3.1922e-09           -6.1914e-06          
  2.2                   6.7118e-06            1.8e-13               -5.4246e-09           -6.7024e-06          
  2.3                   7.2494e-06            1.8e-13               -8.8678e-09           -7.2338e-06          
  2.4                   7.808e-06             4e-14                 -1.4026e-08           -7.7886e-06          
  2.5                   8.3954e-06            1e-13                 -2.1616e-08           -8.3706e-06          
  2.6                   9.009e-06             2e-14                 -3.2562e-08           -8.9732e-06          
  2.7                   9.6498e-06            4e-14                 -4.8068e-08           -9.5984e-06          
  2.8                   1.03222e-05           6e-14                 -6.981e-08            -1.02504e-05         
  2.9                   1.1036e-05            1e-13                 -9.9758e-08           -1.09238e-05         
  3                     1.1776e-05            1e-13                 -1.4098e-07           -1.1616e-05          
  3.1                   1.2626e-05            -2e-14                -1.9532e-07           -1.234e-05           
  3.2                   1.3374e-05            1.4e-13               -2.6786e-07           -1.3086e-05          
  3.3                   1.4282e-05            8e-14                 -3.6148e-07           -1.3896e-05          
  3.4                   1.5164e-05            2e-14                 -4.8304e-07           -1.4706e-05          
  3.5                   1.6138e-05            4e-14                 -6.371e-07            -1.5568e-05          
  3.6                   1.7232e-05            0                     -8.2324e-07           -1.6388e-05          
END_DB

BEGIN_DB
 ICCAP_VAR vg         1.458          
 ICCAP_VAR vb         -3.6           
 ICCAP_VAR vs         0              

 #vd                    id                    ig                    ib                    is                   
  0                     3.7922e-08            5.4e-13               -9.4e-12              -3.5294e-08          
  0.1                   5.6244e-05            3.4e-13               -9.94e-12             -5.6218e-05          
  0.2                   9.99e-05              2.6e-13               -1.006e-11            -9.989e-05           
  0.3                   0.00013128            3.4e-13               -1.044e-11            -0.00013086          
  0.4                   0.00015282            2.6e-13               -9.22e-12             -0.00015242          
  0.5                   0.00016772            1.6e-13               -9.32e-12             -0.00016732          
  0.6                   0.00017856            2.4e-13               -1.024e-11            -0.00017816          
  0.7                   0.00018706            2.4e-13               -8.82e-12             -0.00018666          
  0.8                   0.00019414            2.6e-13               -9.08e-12             -0.00019376          
  0.9                   0.00020032            2e-13                 -9.56e-12             -0.00019992          
  1                     0.00020586            2.2e-13               -8.14e-12             -0.00020552          
  1.1                   0.0002111             2e-13                 -9.96e-12             -0.0002107           
  1.2                   0.00021594            1.4e-13               -9.78e-12             -0.00021554          
  1.3                   0.00022054            1.4e-13               -1.312e-11            -0.00022014          
  1.4                   0.00022494            1.2e-13               -2.98e-11             -0.00022456          
  1.5                   0.00022922            2.2e-13               -9.264e-11            -0.00022882          
  1.6                   0.00023332            2e-13                 -2.9388e-10           -0.00023296          
  1.7                   0.0002374             1.8e-13               -8.536e-10            -0.00023694          
  1.8                   0.0002414             8e-14                 -2.2272e-09           -0.00024096          
  1.9                   0.00024526            2e-14                 -5.2314e-09           -0.00024478          
  2                     0.000249              4e-14                 -1.11924e-08          -0.00024866          
  2.1                   0.00025274            1.2e-13               -2.215e-08            -0.00025236          
  2.2                   0.00025646            1.8e-13               -4.0948e-08           -0.00025606          
  2.3                   0.00026014            1e-13                 -7.141e-08            -0.00025968          
  2.4                   0.00026376            1.6e-13               -1.1836e-07           -0.00026322          
  2.5                   0.00026734            1.2e-13               -1.8862e-07           -0.00026676          
  2.6                   0.00027096            1.6e-13               -2.904e-07            -0.00027028          
  2.7                   0.0002746             1e-13                 -4.3376e-07           -0.00027382          
  2.8                   0.00027832            1.6e-13               -6.327e-07            -0.00027728          
  2.9                   0.00028206            1.4e-13               -9.0314e-07           -0.00028078          
  3                     0.00028594            1e-13                 -1.2666e-06           -0.00028424          
  3.1                   0.0002899             8e-14                 -1.75e-06             -0.00028774          
  3.2                   0.00029406            8e-14                 -2.3828e-06           -0.00029128          
  3.3                   0.0002984             6e-14                 -3.2012e-06           -0.0002948           
  3.4                   0.00030304            1.8e-13               -4.2478e-06           -0.0002984           
  3.5                   0.00030802            6e-14                 -5.5654e-06           -0.00030206          
  3.6                   0.0003134             1.8e-13               -7.201e-06            -0.0003058           
END_DB

BEGIN_DB
 ICCAP_VAR vg         2.172          
 ICCAP_VAR vb         -3.6           
 ICCAP_VAR vs         0              

 #vd                    id                    ig                    ib                    is                   
  0                     7.2038e-08            4.4e-13               -5.4e-12              -6.4214e-08          
  0.1                   0.00011354            3.8e-13               -5.88e-12             -0.00011316          
  0.2                   0.00021518            3.4e-13               -5.7e-12              -0.0002148           
  0.3                   0.0003011             2.8e-13               -6.6e-12              -0.00030078          
  0.4                   0.00037082            1.8e-13               -6.38e-12             -0.00037042          
  0.5                   0.00042496            2e-13                 -5.74e-12             -0.0004246           
  0.6                   0.00046634            2e-13                 -5.62e-12             -0.000466            
  0.7                   0.00049752            3.6e-13               -6.4e-12              -0.00049706          
  0.8                   0.00052094            2.6e-13               -5.46e-12             -0.00052056          
  0.9                   0.000539              3.4e-13               -6.56e-12             -0.00053856          
  1                     0.00055332            3.6e-13               -6.18e-12             -0.00055286          
  1.1                   0.00056504            1.8e-13               -5.34e-12             -0.00056458          
  1.2                   0.00057504            2.4e-13               -6.4e-12              -0.00057466          
  1.3                   0.00058372            1.8e-13               -8.1e-12              -0.0005833           
  1.4                   0.0005915             2.2e-13               -1.432e-11            -0.0005911           
  1.5                   0.0005986             1.6e-13               -4.18e-11             -0.0005982           
  1.6                   0.0006051             2.4e-13               -1.3066e-10           -0.0006047           
  1.7                   0.00061116            2e-13                 -3.9468e-10           -0.00061068          
  1.8                   0.00061696            1.6e-13               -1.0978e-09           -0.00061658          
  1.9                   0.00062246            1.8e-13               -2.7728e-09           -0.00062206          
  2                     0.00062774            1.2e-13               -6.4022e-09           -0.00062738          
  2.1                   0.00063278            1.6e-13               -1.3684e-08           -0.00063238          
  2.2                   0.00063766            1.8e-13               -2.7324e-08           -0.00063714          
  2.3                   0.00064238            2.2e-13               -5.125e-08            -0.000642            
  2.4                   0.0006471             2.4e-13               -9.0926e-08           -0.00064656          
  2.5                   0.00065162            1.4e-13               -1.5378e-07           -0.00065104          
  2.6                   0.0006561             1.4e-13               -2.5022e-07           -0.00065544          
  2.7                   0.00066054            8e-14                 -3.9208e-07           -0.00065976          
  2.8                   0.00066496            1e-13                 -5.9624e-07           -0.00066396          
  2.9                   0.00066944            1e-13                 -8.8236e-07           -0.00066814          
  3                     0.000674              1.6e-13               -1.2764e-06           -0.00067228          
  3.1                   0.00067864            1.4e-13               -1.8116e-06           -0.00067644          
  3.2                   0.00068348            6e-14                 -2.527e-06            -0.00068056          
  3.3                   0.00068858            1e-13                 -3.4684e-06           -0.00068466          
  3.4                   0.00069398            1.4e-13               -4.6972e-06           -0.00068888          
  3.5                   0.00069982            2.2e-13               -6.2778e-06           -0.00069312          
  3.6                   0.00070618            1.8e-13               -8.2816e-06           -0.0006975           
END_DB

BEGIN_DB
 ICCAP_VAR vg         2.886          
 ICCAP_VAR vb         -3.6           
 ICCAP_VAR vs         0              

 #vd                    id                    ig                    ib                    is                   
  0                     8.9194e-08            4.8e-13               -4.02e-12             -7.5384e-08          
  0.1                   0.00014914            3.8e-13               -3.48e-12             -0.00014874          
  0.2                   0.00028856            3e-13                 -3.84e-12             -0.00028818          
  0.3                   0.00041378            2.6e-13               -4.78e-12             -0.00041338          
  0.4                   0.00052278            4e-13                 -4.3e-12              -0.00052238          
  0.5                   0.00061488            3.2e-13               -4.8e-12              -0.00061448          
  0.6                   0.0006908             3.6e-13               -5.4e-12              -0.0006904           
  0.7                   0.00075248            3e-13                 -4.16e-12             -0.00075214          
  0.8                   0.00080196            3.2e-13               -7.94e-12             -0.00080162          
  0.9                   0.00084126            3.8e-13               -5.48e-12             -0.00084078          
  1                     0.00087254            2.8e-13               -4.3e-12              -0.00087204          
  1.1                   0.00089758            2e-13                 -5.84e-12             -0.0008972           
  1.2                   0.00091796            2.8e-13               -5.96e-12             -0.00091758          
  1.3                   0.0009351             3e-13                 -5.2e-12              -0.00093468          
  1.4                   0.00094932            1.4e-13               -9.04e-12             -0.000949            
  1.5                   0.00096162            1.8e-13               -1.618e-11            -0.00096112          
  1.6                   0.00097204            1.6e-13               -4.498e-11            -0.00097162          
  1.7                   0.00098164            3.4e-13               -1.4496e-10           -0.00098122          
  1.8                   0.00098998            2.2e-13               -4.2482e-10           -0.00098964          
  1.9                   0.00099786            1.6e-13               -1.1478e-09           -0.00099764          
  2                     0.00100516            3.6e-13               -2.8386e-09           -0.00100482          
  2.1                   0.0010117             2.6e-13               -6.4744e-09           -0.00101128          
  2.2                   0.00101796            2.4e-13               -1.3726e-08           -0.001017            
  2.3                   0.00102406            2.4e-13               -2.7218e-08           -0.001023            
  2.4                   0.00102968            1.8e-13               -5.0748e-08           -0.0010284           
  2.5                   0.00103492            2.6e-13               -9.0222e-08           -0.0010338           
  2.6                   0.00104032            2.4e-13               -1.5322e-07           -0.001039            
  2.7                   0.00104536            2.8e-13               -2.4986e-07           -0.001044            
  2.8                   0.0010501             3e-13                 -3.943e-07            -0.0010488           
  2.9                   0.00105508            2.8e-13               -6.0268e-07           -0.0010534           
  3                     0.00105992            1.4e-13               -8.985e-07            -0.001058            
  3.1                   0.00106478            3.2e-13               -1.307e-06            -0.0010624           
  3.2                   0.00106962            3.8e-13               -1.8658e-06           -0.0010666           
  3.3                   0.00107466            5e-13                 -2.6162e-06           -0.001071            
  3.4                   0.00107998            5.6e-13               -3.6122e-06           -0.0010752           
  3.5                   0.00108556            6e-13                 -4.9146e-06           -0.0010796           
  3.6                   0.00109154            7e-13                 -6.5982e-06           -0.0010838           
END_DB

BEGIN_DB
 ICCAP_VAR vg         3.6            
 ICCAP_VAR vb         -3.6           
 ICCAP_VAR vs         0              

 #vd                    id                    ig                    ib                    is                   
  0                     1.05356e-07           4.8e-13               -3.4e-12              -9.0108e-08          
  0.1                   0.00017086            3.8e-13               -2.42e-12             -0.00017048          
  0.2                   0.00033414            4.4e-13               -3.26e-12             -0.00033374          
  0.3                   0.00048536            3.8e-13               -4.62e-12             -0.00048496          
  0.4                   0.00062228            3e-13                 -3.86e-12             -0.00062192          
  0.5                   0.00074336            5.2e-13               -4.06e-12             -0.00074298          
  0.6                   0.00084838            2.6e-13               -4.24e-12             -0.000848            
  0.7                   0.00093838            2.8e-13               -2.96e-12             -0.00093796          
  0.8                   0.00101442            3.4e-13               -5.16e-12             -0.00101404          
