! VERSION = 6.00
BEGIN_HEADER
 ICCAP_INPUTS
  vg         V  G GROUND SMU2 0.001 LIN        1    -0.5       3.6        83   0.05      
  vb         V  B GROUND SMU4 0.1 LIN        2    0          -3.6       5    -0.9      
  vd         V  D GROUND SMU1 0.1 LIN        3    0.1        3.3        3    1.6       
  vs         V  S GROUND SMU3 0.1 CON        0
 ICCAP_OUTPUTS
  id         I  D GROUND SMU1 B
  ig         I  G GROUND SMU2 B
  ib         I  B GROUND SMU4 B
  is         I  S GROUND SMU3 B
 ICCAP_VALUES
  MASTER_SETUP_TYPE "~dc_idvg~"
  LINVT_VALUE ""
  LISTVT_VALUE ""
  TYPE "1"
  TEMP " 27.0000 "
  IS_TNOM " 1.00000 "
  MAIN.W "300.0n"
  MAIN.L "1.200u"
  MAIN.AD "102.0f"
  MAIN.AS "102.0f"
  MAIN.PD "1.280u"
  MAIN.PS "1.280u"
  MAIN.NF "1.000"
  MAIN.M "1"
  MAIN.NRD "0.000"
  MAIN.NRS "0.000"
  MAIN.LDRIFT1 "1E-06"
  MAIN.LDRIFT2 "1E-06"
  MAIN.SA "0.000"
  MAIN.SB "0.000"
  MAIN.SD "0.000"
  MAIN.SCA "0.000"
  MAIN.SCB "0.000"
  MAIN.SCC "0.000"
  MAIN.SC "0.000"
  MODULE "S560"
  PIN_D "12"
  PIN_G "9"
  PIN_S "10"
  PIN_B "11"
  PIN_E ""
  PIN_6 ""
  XY_ID ""
  FUNC "LW Scale"
  STI "SA ref"
  WPE "WPE ref"
  COMMENT ""
  DIS_MEAS ""
  TypeTCI "10"
END_HEADER

BEGIN_DB
 ICCAP_VAR vb         0              
 ICCAP_VAR vd         0.1            
 ICCAP_VAR vs         0              

 #vg                    id                    ig                    ib                    is                   
  -0.5                  -2e-14                -4.396e-11            5.234e-11             1.6e-13              
  -0.45                 4e-14                 -6.54e-12             1.512e-11             -4e-14               
  -0.4                  4e-14                 -9.8e-13              9.28e-12              6e-14                
  -0.35                 4e-14                 -1.2e-13              9.02e-12              -1e-13               
  -0.3                  4e-14                 -1e-13                9.04e-12              2e-13                
  -0.25                 6e-14                 1.4e-13               8.48e-12              -1.8e-13             
  -0.2                  0                     1.4e-13               7.9e-12               4e-14                
  -0.15                 1.2e-13               1e-13                 7.42e-12              1.4e-13              
  -0.1                  4e-14                 2.8e-13               7.96e-12              1e-13                
  -0.05                 4e-14                 3e-13                 8e-12                 1e-13                
  0                     0                     2.6e-13               7.36e-12              1.8e-13              
  0.05                  6e-14                 1.8e-13               7.08e-12              2.8e-13              
  0.1                   0                     4e-13                 7.38e-12              6e-14                
  0.15                  2e-13                 3.8e-13               7.86e-12              1e-13                
  0.2                   4.8e-13               4.2e-13               5.38e-12              -3e-13               
  0.25                  2.32e-12              3.4e-13               8.02e-12              -2.02e-12            
  0.3                   8.54e-12              5.2e-13               6.76e-12              -8.46e-12            
  0.35                  3.35e-11              3.8e-13               6.22e-12              -3.334e-11           
  0.4                   1.327e-10             5.6e-13               6.88e-12              -1.3278e-10          
  0.45                  5.23e-10              4.4e-13               8.04e-12              -5.2146e-10          
  0.5                   1.9598e-09            3.2e-13               6.82e-12              -1.9594e-09          
  0.55                  6.79e-09              5.2e-13               5.64e-12              -6.806e-09           
  0.6                   2.026e-08             3.4e-13               6.8e-12               -2.0238e-08          
  0.65                  5.0964e-08            5e-13                 5.72e-12              -5.096e-08           
  0.7                   1.08028e-07           4e-13                 7.64e-12              -1.07974e-07         
  0.75                  1.9652e-07            5.4e-13               6e-12                 -1.964e-07           
  0.8                   3.146e-07             4.6e-13               6.02e-12              -3.1448e-07          
  0.85                  4.5672e-07            5.8e-13               6.2e-12               -4.5658e-07          
  0.9                   6.1314e-07            5.2e-13               6.62e-12              -6.1304e-07          
  0.95                  7.8244e-07            6e-13                 6.24e-12              -7.8234e-07          
  1                     9.5948e-07            5.8e-13               6.22e-12              -9.5952e-07          
  1.05                  1.1421e-06            4.2e-13               2.62e-12              -1.14204e-06         
  1.1                   1.3288e-06            5.8e-13               5.5e-12               -1.3246e-06          
  1.15                  1.5154e-06            3.6e-13               5.44e-12              -1.5112e-06          
  1.2                   1.7024e-06            6.2e-13               6.18e-12              -1.6984e-06          
  1.25                  1.8896e-06            6.6e-13               6.54e-12              -1.8854e-06          
  1.3                   2.0782e-06            4.8e-13               5.2e-12               -2.0742e-06          
  1.35                  2.2644e-06            6e-13                 5.58e-12              -2.2606e-06          
  1.4                   2.449e-06             4.6e-13               5.44e-12              -2.445e-06           
  1.45                  2.6324e-06            6.4e-13               6.24e-12              -2.6286e-06          
  1.5                   2.815e-06             6e-13                 5.62e-12              -2.811e-06           
  1.55                  2.9958e-06            5.4e-13               5.16e-12              -2.9918e-06          
  1.6                   3.1738e-06            8.2e-13               5.32e-12              -3.1696e-06          
  1.65                  3.35e-06              6.2e-13               5.68e-12              -3.3464e-06          
  1.7                   3.5236e-06            6.8e-13               5.7e-12               -3.5196e-06          
  1.75                  3.694e-06             6.8e-13               4.98e-12              -3.69e-06            
  1.8                   3.8626e-06            8.6e-13               4.86e-12              -3.8586e-06          
  1.85                  4.0274e-06            7e-13                 5e-12                 -4.0234e-06          
  1.9                   4.1904e-06            6.8e-13               6.12e-12              -4.1866e-06          
  1.95                  4.3496e-06            7.8e-13               5.08e-12              -4.346e-06           
  2                     4.507e-06             6.8e-13               4e-12                 -4.503e-06           
  2.05                  4.661e-06             7.6e-13               5.2e-12               -4.6574e-06          
  2.1                   4.8118e-06            7e-13                 5.7e-12               -4.8074e-06          
  2.15                  4.9598e-06            6.6e-13               5.26e-12              -4.9556e-06          
  2.2                   5.1044e-06            7.6e-13               3.68e-12              -5.1004e-06          
  2.25                  5.2466e-06            7.4e-13               3.86e-12              -5.2428e-06          
  2.3                   5.3852e-06            7.2e-13               5.12e-12              -5.3812e-06          
  2.35                  5.519e-06             7e-13                 5.14e-12              -5.517e-06           
  2.4                   5.6534e-06            7.4e-13               4.04e-12              -5.6494e-06          
  2.45                  5.7832e-06            6.6e-13               4.16e-12              -5.7788e-06          
  2.5                   5.9098e-06            7.6e-13               5.34e-12              -5.9058e-06          
  2.55                  6.0328e-06            6.2e-13               5.02e-12              -6.0286e-06          
  2.6                   6.1524e-06            7.4e-13               3.84e-12              -6.1486e-06          
  2.65                  6.27e-06              7.8e-13               4.3e-12               -6.2658e-06          
  2.7                   6.3842e-06            8.2e-13               4.28e-12              -6.3806e-06          
  2.75                  6.494e-06             7.6e-13               4.78e-12              -6.492e-06           
  2.8                   6.6038e-06            8.4e-13               4.46e-12              -6.5994e-06          
  2.85                  6.7068e-06            7.6e-13               4.2e-12               -6.7048e-06          
  2.9                   6.8098e-06            8.4e-13               3.96e-12              -6.8052e-06          
  2.95                  6.9112e-06            9.2e-13               4.96e-12              -6.9072e-06          
  3                     7.0058e-06            7.4e-13               4.82e-12              -7.002e-06           
  3.05                  7.102e-06             7.4e-13               4.28e-12              -7.0978e-06          
  3.1                   7.1924e-06            9e-13                 3.76e-12              -7.1876e-06          
  3.15                  7.2802e-06            7.6e-13               4.6e-12               -7.2762e-06          
  3.2                   7.3664e-06            7.6e-13               4.74e-12              -7.3622e-06          
  3.25                  7.4502e-06            8.4e-13               4.18e-12              -7.447e-06           
  3.3                   7.5302e-06            8.8e-13               3.76e-12              -7.5252e-06          
  3.35                  7.6082e-06            8.4e-13               3.98e-12              -7.6036e-06          
  3.4                   7.6864e-06            8.6e-13               5.04e-12              -7.682e-06           
  3.45                  7.76e-06              7.6e-13               3.62e-12              -7.7566e-06          
  3.5                   7.8314e-06            7.2e-13               3.42e-12              -7.8282e-06          
  3.55                  7.8988e-06            9e-13                 3.6e-12               -7.8962e-06          
  3.6                   7.9666e-06            8e-13                 4.82e-12              -7.9624e-06          
END_DB

BEGIN_DB
 ICCAP_VAR vb         -0.9           
 ICCAP_VAR vd         0.1            
 ICCAP_VAR vs         0              

 #vg                    id                    ig                    ib                    is                   
  -0.5                  1.2e-13               -5.8e-13              -9.02e-12             3.4e-13              
  -0.45                 6e-14                 -3.6e-13              -9.36e-12             2.6e-13              
  -0.4                  4e-14                 -2.6e-13              -8.52e-12             1e-13                
  -0.35                 6e-14                 -2e-13                -6.72e-12             1.6e-13              
  -0.3                  -4e-14                -6e-14                -5.52e-12             1e-13                
  -0.25                 2e-14                 -1.4e-13              -5.3e-12              3.2e-13              
  -0.2                  2.2e-13               -1.4e-13              -5.08e-12             1.8e-13              
  -0.15                 0                     0                     -5.04e-12             2.4e-13              
  -0.1                  1.4e-13               0                     -4.74e-12             1.6e-13              
  -0.05                 -1.6e-13              1e-13                 -3.46e-12             1.4e-13              
  0                     2e-13                 6e-14                 -2.8e-12              2.2e-13              
  0.05                  4e-14                 1.4e-13               -3.22e-12             1.8e-13              
  0.1                   2e-14                 8e-14                 -4.08e-12             2.8e-13              
  0.15                  2e-14                 3.8e-13               -3.02e-12             8e-14                
  0.2                   2e-14                 1.2e-13               -2.14e-12             2.4e-13              
  0.25                  -6e-14                3.6e-13               -1.36e-12             1e-13                
  0.3                   2e-13                 2.2e-13               -1.42e-12             -2e-14               
  0.35                  -8e-14                3.4e-13               -2.54e-12             1.4e-13              
  0.4                   8e-14                 2.6e-13               -2.04e-12             2e-14                
  0.45                  1.2e-13               2.6e-13               -2.12e-12             -1.8e-13             
  0.5                   9.6e-13               2.2e-13               -9.4e-13              -7e-13               
  0.55                  4.12e-12              2.8e-13               -7.8e-13              -3.98e-12            
  0.6                   1.856e-11             3e-13                 -1.84e-12             -1.836e-11           
  0.65                  8.524e-11             3e-13                 7.8e-13               -8.498e-11           
  0.7                   3.7708e-10            4.2e-13               -1.24e-12             -3.7684e-10          
  0.75                  1.5978e-09            3.2e-13               -1e-13                -1.5962e-09          
  0.8                   6.1412e-09            5e-13                 -6.6e-13              -6.145e-09           
  0.85                  1.9912e-08            3.8e-13               -9.8e-13              -1.9882e-08          
  0.9                   5.1874e-08            4.4e-13               -8.6e-13              -5.1846e-08          
  0.95                  1.10348e-07           3.4e-13               -1.24e-12             -1.09872e-07         
  1                     1.9826e-07            4.6e-13               -2.2e-13              -1.9814e-07          
  1.05                  3.1416e-07            3.2e-13               -1.24e-12             -3.142e-07           
  1.1                   4.513e-07             5e-13                 -3.6e-13              -4.5122e-07          
  1.15                  6.0332e-07            4.4e-13               -3.8e-13              -6.0308e-07          
  1.2                   7.651e-07             4.4e-13               -5.2e-13              -7.65e-07            
  1.25                  9.3376e-07            7.4e-13               -1.32e-12             -9.336e-07           
  1.3                   1.10698e-06           5.6e-13               -8.8e-13              -1.1068e-06          
  1.35                  1.2832e-06            5e-13                 2.2e-13               -1.279e-06           
  1.4                   1.4584e-06            4.4e-13               -6.4e-13              -1.4542e-06          
  1.45                  1.6352e-06            5.4e-13               -1.26e-12             -1.6312e-06          
  1.5                   1.8124e-06            5.8e-13               5.4e-13               -1.8082e-06          
  1.55                  1.9888e-06            6e-13                 5.8e-13               -1.9846e-06          
  1.6                   2.1636e-06            5.4e-13               1.4e-13               -2.1598e-06          
  1.65                  2.338e-06             5.6e-13               -2.8e-13              -2.334e-06           
  1.7                   2.5108e-06            6.8e-13               -1.8e-13              -2.507e-06           
  1.75                  2.6812e-06            6.6e-13               3e-13                 -2.6772e-06          
  1.8                   2.8502e-06            6e-13                 2e-13                 -2.8462e-06          
  1.85                  3.0162e-06            6.4e-13               -4.2e-13              -3.0124e-06          
  1.9                   3.181e-06             6.6e-13               -1.2e-13              -3.1766e-06          
  1.95                  3.3422e-06            5.8e-13               5.2e-13               -3.3382e-06          
  2                     3.5016e-06            5e-13                 5e-13                 -3.4978e-06          
  2.05                  3.6584e-06            7.4e-13               -1.2e-13              -3.6548e-06          
  2.1                   3.8118e-06            7e-13                 -5.4e-13              -3.8078e-06          
  2.15                  3.9632e-06            6.6e-13               3e-13                 -3.9594e-06          
  2.2                   4.1108e-06            6e-13                 6.2e-13               -4.1072e-06          
  2.25                  4.2568e-06            6.6e-13               3.4e-13               -4.253e-06           
  2.3                   4.3982e-06            5.4e-13               -7.2e-13              -4.3952e-06          
  2.35                  4.5384e-06            7e-13                 -6e-14                -4.534e-06           
  2.4                   4.6744e-06            5.8e-13               1.1e-12               -4.6706e-06          
  2.45                  4.8084e-06            6.4e-13               -6e-14                -4.8044e-06          
  2.5                   4.9394e-06            8e-13                 -6e-13                -4.935e-06           
  2.55                  5.064e-06             6.6e-13               -6e-13                -5.0626e-06          
  2.6                   5.1908e-06            8.2e-13               8.8e-13               -5.187e-06           
  2.65                  5.311e-06             6.2e-13               7.6e-13               -5.3084e-06          
  2.7                   5.4308e-06            8.2e-13               -2.6e-13              -5.4272e-06          
  2.75                  5.5448e-06            7e-13                 -3.2e-13              -5.5426e-06          
  2.8                   5.6594e-06            8e-13                 -8e-14                -5.6556e-06          
  2.85                  5.7678e-06            8e-13                 1.14e-12              -5.7652e-06          
  2.9                   5.8764e-06            7.6e-13               -3.6e-13              -5.8712e-06          
  2.95                  5.9788e-06            7.8e-13               -2e-14                -5.9748e-06          
  3                     6.08e-06              8.8e-13               5.4e-13               -6.0758e-06          
  3.05                  6.18e-06              7.8e-13               1.56e-12              -6.1762e-06          
  3.1                   6.2752e-06            9e-13                 5.2e-13               -6.2704e-06          
  3.15                  6.3678e-06            7e-13                 -1.8e-13              -6.3644e-06          
  3.2                   6.458e-06             7.2e-13               -4e-13                -6.4536e-06          
  3.25                  6.5454e-06            8.4e-13               6.2e-13               -6.5414e-06          
  3.3                   6.6326e-06            8.4e-13               7.2e-13               -6.6276e-06          
  3.35                  6.7132e-06            6.8e-13               1e-13                 -6.7092e-06          
  3.4                   6.7948e-06            8.6e-13               0                     -6.79e-06            
  3.45                  6.8718e-06            8.6e-13               1.6e-13               -6.8674e-06          
