! VERSION = 6.00
BEGIN_HEADER
 ICCAP_INPUTS
  vd         V  D GROUND SMU1 0.1 LIN        1    0          3.6        37   0.1       
  vg         V  G GROUND SMU2 0.001 LIST       2 3 0.402 0.602 0.802
  vb         V  B GROUND SMU4 0.1 CON        0
  vs         V  S GROUND SMU3 0.1 CON        0
 ICCAP_OUTPUTS
  id         I  D GROUND SMU1 B
  ig         I  G GROUND SMU2 B
  ib         I  B GROUND SMU4 B
  is         I  S GROUND SMU3 B
 ICCAP_VALUES
  MASTER_SETUP_TYPE "~dc_idvd~"
  LINVT_VALUE ""
  LISTVT_VALUE "|idvg|100.0n|-200.0m|1.000m|3|200.0m|200.0m|"
  TYPE "1"
  TEMP " 27.0000 "
  IS_TNOM " 1.00000 "
  MAIN.W "2.000u"
  MAIN.L "1.200u"
  MAIN.AD "680.0f"
  MAIN.AS "680.0f"
  MAIN.PD "4.680u"
  MAIN.PS "4.680u"
  MAIN.NF "1.000"
  MAIN.M "1"
  MAIN.NRD "0.000"
  MAIN.NRS "0.000"
  MAIN.LDRIFT1 "1E-06"
  MAIN.LDRIFT2 "1E-06"
  MAIN.SA "0.000"
  MAIN.SB "0.000"
  MAIN.SD "0.000"
  MAIN.SCA "0.000"
  MAIN.SCB "0.000"
  MAIN.SCC "0.000"
  MAIN.SC "0.000"
  MODULE "S558"
  PIN_D "16"
  PIN_G "5"
  PIN_S "6"
  PIN_B "15"
  PIN_E ""
  PIN_6 ""
  XY_ID ""
  FUNC "LW Scale"
  STI "SA ref"
  WPE "WPE ref"
  COMMENT ""
  DIS_MEAS ""
  TypeTCI "10"
END_HEADER

BEGIN_DB
 ICCAP_VAR vg         0.402          
 ICCAP_VAR vb         0              
 ICCAP_VAR vs         0              

 #vd                    id                    ig                    ib                    is                   
  0                     2.7e-12               -5e-13                3.32e-12              -1.48e-12            
  0.1                   9.813e-10             -4e-13                2.26e-12              -9.798e-10           
  0.2                   1.0188e-09            -4e-13                1.14e-12              -1.01764e-09         
  0.3                   1.033e-09             -2.8e-13              1.66e-12              -1.0317e-09          
  0.4                   1.044e-09             -3.6e-13              1.3e-12               -1.04312e-09         
  0.5                   1.0556e-09            -3.2e-13              1.9e-12               -1.05234e-09         
  0.6                   1.0654e-09            -5e-13                2.4e-12               -1.06382e-09         
  0.7                   1.0732e-09            -2.4e-13              2.52e-12              -1.07274e-09         
  0.8                   1.083e-09             -2.6e-13              2e-12                 -1.08132e-09         
  0.9                   1.0918e-09            -3e-13                1.04e-12              -1.08974e-09         
  1                     1.0996e-09            -2.8e-13              1.86e-12              -1.09812e-09         
  1.1                   1.108e-09             -3.4e-13              1.62e-12              -1.1052e-09          
  1.2                   1.1166e-09            -3.2e-13              1.6e-12               -1.1126e-09          
  1.3                   1.1232e-09            -1.2e-13              1.9e-12               -1.1212e-09          
  1.4                   1.1308e-09            -4.4e-13              2.38e-12              -1.1288e-09          
  1.5                   1.1382e-09            -3e-13                2.08e-12              -1.1362e-09          
  1.6                   1.1448e-09            -3e-13                1.82e-12              -1.142e-09           
  1.7                   1.153e-09             -2.4e-13              8.6e-13               -1.1498e-09          
  1.8                   1.1602e-09            -2.2e-13              1.08e-12              -1.1548e-09          
  1.9                   1.1674e-09            -1.8e-13              2.3e-12               -1.1626e-09          
  2                     1.1726e-09            -2.4e-13              1.58e-12              -1.1692e-09          
  2.1                   1.1796e-09            -2.8e-13              6.8e-13               -1.176e-09           
  2.2                   1.187e-09             -2e-13                1e-13                 -1.1806e-09          
  2.3                   1.1942e-09            -1e-13                -2.8e-13              -1.1882e-09          
  2.4                   1.1998e-09            -3e-13                -4.6e-13              -1.1942e-09          
  2.5                   1.2078e-09            -1.8e-13              -2.44e-12             -1.2008e-09          
  2.6                   1.2152e-09            -2.2e-13              -4.5e-12              -1.2068e-09          
  2.7                   1.2234e-09            -1.8e-13              -5.98e-12             -1.2118e-09          
  2.8                   1.2314e-09            -4e-14                -8.64e-12             -1.218e-09           
  2.9                   1.2404e-09            -2.8e-13              -1.136e-11            -1.2236e-09          
  3                     1.2496e-09            -2.2e-13              -1.726e-11            -1.2274e-09          
  3.1                   1.2622e-09            -2.8e-13              -2.14e-11             -1.2352e-09          
  3.2                   1.2726e-09            -2.2e-13              -2.882e-11            -1.2406e-09          
  3.3                   1.2872e-09            -2.2e-13              -3.546e-11            -1.245e-09           
  3.4                   1.3022e-09            -2.4e-13              -4.51e-11             -1.2508e-09          
  3.5                   1.3182e-09            -1.8e-13              -5.538e-11            -1.2568e-09          
  3.6                   1.3356e-09            -2.8e-13              -6.828e-11            -1.2618e-09          
END_DB

BEGIN_DB
 ICCAP_VAR vg         0.602          
 ICCAP_VAR vb         0              
 ICCAP_VAR vs         0              

 #vd                    id                    ig                    ib                    is                   
  0                     1.7518e-10            6e-14                 3.66e-12              -1.743e-10           
  0.1                   1.398e-07             0                     3.34e-12              -1.3964e-07          
  0.2                   1.4908e-07            4e-14                 2.02e-12              -1.4886e-07          
  0.3                   1.5154e-07            6e-14                 1.84e-12              -1.5156e-07          
  0.4                   1.5358e-07            -4e-14                1.78e-12              -1.534e-07           
  0.5                   1.5514e-07            -2e-14                2.68e-12              -1.55e-07            
  0.6                   1.5754e-07            2e-14                 1.68e-12              -1.5718e-07          
  0.7                   1.587e-07             -2e-14                7.6e-13               -1.5848e-07          
  0.8                   1.5928e-07            -6e-14                1.62e-12              -1.5886e-07          
  0.9                   1.6028e-07            -1e-13                1.98e-12              -1.6028e-07          
  1                     1.6154e-07            -6e-14                1.12e-12              -1.6134e-07          
  1.1                   1.6308e-07            -1.6e-13              1.2e-12               -1.6314e-07          
  1.2                   1.6394e-07            0                     1.08e-12              -1.6448e-07          
  1.3                   1.6584e-07            -6e-14                2.04e-12              -1.6484e-07          
  1.4                   1.6582e-07            0                     5.8e-13               -1.6586e-07          
  1.5                   1.6684e-07            -1e-13                -2e-13                -1.6688e-07          
  1.6                   1.6798e-07            -1.8e-13              -1.02e-12             -1.6788e-07          
  1.7                   1.689e-07             -8e-14                -3.42e-12             -1.6888e-07          
  1.8                   1.7068e-07            2e-14                 -1.08e-11             -1.7048e-07          
  1.9                   1.7166e-07            0                     -2.204e-11            -1.7144e-07          
  2                     1.7278e-07            2e-14                 -3.874e-11            -1.7252e-07          
  2.1                   1.7372e-07            -6e-14                -6.618e-11            -1.733e-07           
  2.2                   1.7462e-07            -1e-13                -1.0802e-10           -1.7418e-07          
  2.3                   1.754e-07             -4e-14                -1.6642e-10           -1.752e-07           
  2.4                   1.762e-07             -1.4e-13              -2.4624e-10           -1.7592e-07          
  2.5                   1.7742e-07            -1e-13                -3.5734e-10           -1.7692e-07          
  2.6                   1.7816e-07            -2e-14                -5.088e-10            -1.7778e-07          
  2.7                   1.7964e-07            2e-14                 -7.0528e-10           -1.7842e-07          
  2.8                   1.8022e-07            -1.2e-13              -9.636e-10            -1.7904e-07          
  2.9                   1.8144e-07            -8e-14                -1.3026e-09           -1.8024e-07          
  3                     1.8214e-07            -1e-13                -1.7292e-09           -1.8002e-07          
  3.1                   1.8328e-07            -1.8e-13              -2.2756e-09           -1.8064e-07          
  3.2                   1.8456e-07            -8e-14                -2.9642e-09           -1.8242e-07          
  3.3                   1.8728e-07            2e-14                 -3.8078e-09           -1.8312e-07          
  3.4                   1.891e-07             0                     -4.8286e-09           -1.8378e-07          
  3.5                   1.9066e-07            -1.8e-13              -6.0398e-09           -1.8396e-07          
  3.6                   1.9322e-07            -6e-14                -7.4748e-09           -1.856e-07           
END_DB

BEGIN_DB
 ICCAP_VAR vg         0.802          
 ICCAP_VAR vb         0              
 ICCAP_VAR vs         0              

 #vd                    id                    ig                    ib                    is                   
  0                     1.4366e-09            1.8e-13               2e-12                 -1.3214e-09          
  0.1                   2.0042e-06            0                     2.74e-12              -1.9992e-06          
  0.2                   2.4984e-06            2e-14                 1.1e-12               -2.4952e-06          
  0.3                   2.5952e-06            8e-14                 8e-13                 -2.591e-06           
  0.4                   2.6302e-06            2e-14                 2.32e-12              -2.6262e-06          
  0.5                   2.6554e-06            -6e-14                1.06e-12              -2.6514e-06          
  0.6                   2.675e-06             6e-14                 8e-13                 -2.671e-06           
  0.7                   2.693e-06             2e-14                 2.06e-12              -2.6894e-06          
  0.8                   2.7092e-06            4e-14                 9.2e-13               -2.705e-06           
  0.9                   2.724e-06             0                     6e-13                 -2.7206e-06          
  1                     2.7382e-06            -4e-14                1.3e-12               -2.7346e-06          
  1.1                   2.7524e-06            8e-14                 9.8e-13               -2.748e-06           
  1.2                   2.7644e-06            0                     5e-13                 -2.7608e-06          
  1.3                   2.7778e-06            2e-14                 1.44e-12              -2.774e-06           
  1.4                   2.7896e-06            2e-14                 0                     -2.7858e-06          
  1.5                   2.801e-06             -2e-14                -1.24e-12             -2.7964e-06          
  1.6                   2.8124e-06            2e-14                 -6.76e-12             -2.8094e-06          
  1.7                   2.8228e-06            -1.2e-13              -2.336e-11            -2.8188e-06          
  1.8                   2.8338e-06            -2e-14                -5.876e-11            -2.8298e-06          
  1.9                   2.8446e-06            -6e-14                -1.2956e-10           -2.8398e-06          
  2                     2.8542e-06            -2e-14                -2.6272e-10           -2.8504e-06          
  2.1                   2.8642e-06            -6e-14                -4.846e-10            -2.8608e-06          
  2.2                   2.8748e-06            6e-14                 -8.3922e-10           -2.8702e-06          
  2.3                   2.8852e-06            -1e-13                -1.3728e-09           -2.8804e-06          
  2.4                   2.8962e-06            -4e-14                -2.1494e-09           -2.8894e-06          
  2.5                   2.9062e-06            0                     -3.2512e-09           -2.8992e-06          
  2.6                   2.917e-06             0                     -4.7724e-09           -2.909e-06           
  2.7                   2.9292e-06            0                     -6.8292e-09           -2.919e-06           
  2.8                   2.9414e-06            6e-14                 -9.582e-09            -2.9274e-06          
  2.9                   2.9548e-06            0                     -1.3216e-08           -2.9368e-06          
  3                     2.9666e-06            4e-14                 -1.7956e-08           -2.9446e-06          
  3.1                   2.9812e-06            -8e-14                -2.4072e-08           -2.9546e-06          
  3.2                   2.9986e-06            -2e-14                -3.186e-08            -2.963e-06           
  3.3                   3.0176e-06            0                     -4.1628e-08           -2.9716e-06          
  3.4                   3.0382e-06            -6e-14                -5.3744e-08           -2.9808e-06          
  3.5                   3.061e-06             4e-14                 -6.853e-08            -2.9878e-06          
  3.6                   3.0862e-06            -8e-14                -8.6322e-08           -2.9966e-06          
END_DB

