! VERSION = 6.00
BEGIN_HEADER
 ICCAP_INPUTS
  vd         V  D GROUND SMU1 0.1 LIN        1    0          3.6        37   0.1       
  vg         V  G GROUND SMU2 0.001 LIN        2    0.672      3.6        5    0.732     
  vb         V  B GROUND SMU4 0.1 CON        0
  vs         V  S GROUND SMU3 0.1 CON        0
 ICCAP_OUTPUTS
  id         I  D GROUND SMU1 B
  ig         I  G GROUND SMU2 B
  ib         I  B GROUND SMU4 B
  is         I  S GROUND SMU3 B
 ICCAP_VALUES
  MASTER_SETUP_TYPE "~dc_idvd~"
  LINVT_VALUE "|idvg|100.0n|100.0m|1.000m|5|3.600|"
  LISTVT_VALUE ""
  TYPE "1"
  TEMP " 27.0000 "
  IS_TNOM " 1.00000 "
  MAIN.W "300.0n"
  MAIN.L "10.00u"
  MAIN.AD "102.0f"
  MAIN.AS "102.0f"
  MAIN.PD "1.280u"
  MAIN.PS "1.280u"
  MAIN.NF "1.000"
  MAIN.M "1"
  MAIN.NRD "0.000"
  MAIN.NRS "0.000"
  MAIN.LDRIFT1 "1E-06"
  MAIN.LDRIFT2 "1E-06"
  MAIN.SA "0.000"
  MAIN.SB "0.000"
  MAIN.SD "0.000"
  MAIN.SCA "0.000"
  MAIN.SCB "0.000"
  MAIN.SCC "0.000"
  MAIN.SC "0.000"
  MODULE "S547"
  PIN_D "14"
  PIN_G "7"
  PIN_S "8"
  PIN_B "13"
  PIN_E ""
  PIN_6 ""
  XY_ID ""
  FUNC "Narrow"
  STI "SA ref"
  WPE "WPE ref"
  COMMENT ""
  DIS_MEAS ""
  TypeTCI "10"
END_HEADER

BEGIN_DB
 ICCAP_VAR vg         0.672          
 ICCAP_VAR vb         0              
 ICCAP_VAR vs         0              

 #vd                    id                    ig                    ib                    is                   
  0                     2.112e-11             1.8e-13               2.388e-11             -1.796e-11           
  0.1                   1.487e-08             1e-13                 2.114e-11             -1.485e-08           
  0.2                   1.6442e-08            2e-14                 1.966e-11             -1.6416e-08          
  0.3                   1.6518e-08            -2.4e-13              1.948e-11             -1.6492e-08          
  0.4                   1.653e-08             -2.4e-13              1.988e-11             -1.6496e-08          
  0.5                   1.6534e-08            -1.4e-13              1.888e-11             -1.651e-08           
  0.6                   1.654e-08             -1.2e-13              1.76e-11              -1.6518e-08          
  0.7                   1.6544e-08            -2e-14                1.714e-11             -1.6522e-08          
  0.8                   1.6556e-08            4e-14                 1.752e-11             -1.6536e-08          
  0.9                   1.6566e-08            1e-13                 1.694e-11             -1.654e-08           
  1                     1.6564e-08            1.2e-13               1.552e-11             -1.6538e-08          
  1.1                   1.6574e-08            -2e-14                1.522e-11             -1.6548e-08          
  1.2                   1.6574e-08            -8e-14                1.53e-11              -1.655e-08           
  1.3                   1.6578e-08            -1e-13                1.598e-11             -1.6554e-08          
  1.4                   1.6582e-08            -4e-14                1.44e-11              -1.6554e-08          
  1.5                   1.6586e-08            -1.4e-13              1.364e-11             -1.656e-08           
  1.6                   1.659e-08             -4e-14                1.356e-11             -1.6562e-08          
  1.7                   1.6588e-08            -1e-13                1.334e-11             -1.656e-08           
  1.8                   1.66e-08              0                     1.306e-11             -1.657e-08           
  1.9                   1.6602e-08            -8e-14                1.18e-11              -1.6572e-08          
  2                     1.6604e-08            -2e-13                9.68e-12              -1.658e-08           
  2.1                   1.661e-08             -1.4e-13              9.36e-12              -1.6576e-08          
  2.2                   1.6618e-08            -6e-14                6.24e-12              -1.6584e-08          
  2.3                   1.6624e-08            -2.2e-13              1.22e-12              -1.6584e-08          
  2.4                   1.6642e-08            8e-14                 -4.3e-12              -1.6594e-08          
  2.5                   1.6644e-08            4e-14                 -1.16e-11             -1.6596e-08          
  2.6                   1.666e-08             -2e-14                -2.13e-11             -1.66e-08            
  2.7                   1.668e-08             -1e-13                -3.536e-11            -1.6604e-08          
  2.8                   1.6692e-08            -2.6e-13              -5.43e-11             -1.6608e-08          
  2.9                   1.6724e-08            -1.8e-13              -7.636e-11            -1.6606e-08          
  3                     1.6754e-08            -1.4e-13              -1.0588e-10           -1.6608e-08          
  3.1                   1.6792e-08            -2.8e-13              -1.4406e-10           -1.661e-08           
  3.2                   1.6836e-08            -6e-14                -1.9266e-10           -1.6608e-08          
  3.3                   1.6904e-08            6e-14                 -2.5278e-10           -1.6616e-08          
  3.4                   1.698e-08             6e-14                 -3.2412e-10           -1.6624e-08          
  3.5                   1.7066e-08            1.4e-13               -4.1128e-10           -1.6612e-08          
  3.6                   1.7174e-08            4e-14                 -5.1552e-10           -1.6618e-08          
END_DB

BEGIN_DB
 ICCAP_VAR vg         1.404          
 ICCAP_VAR vb         0              
 ICCAP_VAR vs         0              

 #vd                    id                    ig                    ib                    is                   
  0                     1.854e-10             5.4e-13               8.16e-12              -2.0058e-10          
  0.1                   3.0488e-07            2.4e-13               7.62e-12              -3.048e-07           
  0.2                   5.4806e-07            3.6e-13               6.28e-12              -5.4794e-07          
  0.3                   7.312e-07             1.8e-13               7.44e-12              -7.3112e-07          
  0.4                   8.5808e-07            1.4e-13               7.1e-12               -8.5802e-07          
  0.5                   9.3348e-07            2e-14                 7.36e-12              -9.334e-07           
  0.6                   9.678e-07             1.4e-13               6.2e-12               -9.682e-07           
  0.7                   9.7932e-07            1e-13                 6.32e-12              -9.793e-07           
  0.8                   9.8288e-07            4e-14                 6.9e-12               -9.8294e-07          
  0.9                   9.8428e-07            8e-14                 6.42e-12              -9.8428e-07          
  1                     9.8508e-07            2e-13                 5.9e-12               -9.8512e-07          
  1.1                   9.8538e-07            1.6e-13               6.62e-12              -9.857e-07           
  1.2                   9.8604e-07            1.8e-13               7.36e-12              -9.86e-07            
  1.3                   9.8644e-07            -2e-14                6.76e-12              -9.8622e-07          
  1.4                   9.868e-07             6e-14                 6.3e-12               -9.868e-07           
  1.5                   9.873e-07             6e-14                 6.64e-12              -9.8724e-07          
  1.6                   9.8746e-07            1.2e-13               7.12e-12              -9.8744e-07          
  1.7                   9.8768e-07            1.2e-13               5.92e-12              -9.8788e-07          
  1.8                   9.8822e-07            6e-14                 5.36e-12              -9.8818e-07          
  1.9                   9.8856e-07            0                     4.36e-12              -9.8848e-07          
  2                     9.8874e-07            1.4e-13               5.96e-12              -9.8886e-07          
  2.1                   9.8898e-07            2.2e-13               3.52e-12              -9.889e-07           
  2.2                   9.8928e-07            6e-14                 -6.4e-13              -9.8918e-07          
  2.3                   9.8936e-07            1e-13                 -9.98e-12             -9.8938e-07          
  2.4                   9.8962e-07            1.4e-13               -2.818e-11            -9.8948e-07          
  2.5                   9.8984e-07            4e-14                 -6.514e-11            -9.8976e-07          
  2.6                   9.9022e-07            1.6e-13               -1.2684e-10           -9.8994e-07          
  2.7                   9.905e-07             1.6e-13               -2.2506e-10           -9.9016e-07          
  2.8                   9.9066e-07            4e-14                 -3.7622e-10           -9.9018e-07          
  2.9                   9.911e-07             4e-14                 -5.9934e-10           -9.904e-07           
  3                     9.916e-07             4e-14                 -9.149e-10            -9.906e-07           
  3.1                   9.923e-07             1.4e-13               -1.3518e-09           -9.9092e-07          
  3.2                   9.9304e-07            -6e-14                -1.948e-09            -9.9104e-07          
  3.3                   9.9406e-07            2e-14                 -2.741e-09            -9.9122e-07          
  3.4                   9.9526e-07            2.2e-13               -3.7898e-09           -9.913e-07           
  3.5                   9.9662e-07            0                     -5.1594e-09           -9.9144e-07          
  3.6                   9.986e-07             0                     -6.9234e-09           -9.9162e-07          
END_DB

BEGIN_DB
 ICCAP_VAR vg         2.136          
 ICCAP_VAR vb         0              
 ICCAP_VAR vs         0              

 #vd                    id                    ig                    ib                    is                   
  0                     3.5564e-10            6.4e-13               5.14e-12              -3.5812e-10          
  0.1                   6.0166e-07            3e-13                 5.6e-12               -6.0154e-07          
  0.2                   1.14796e-06           2.2e-13               4.3e-12               -1.14784e-06         
  0.3                   1.6396e-06            5.4e-13               5e-12                 -1.6354e-06          
  0.4                   2.075e-06             4.2e-13               3.8e-12               -2.071e-06           
  0.5                   2.4548e-06            1e-13                 4.16e-12              -2.4506e-06          
  0.6                   2.7784e-06            1.4e-13               4.12e-12              -2.7744e-06          
  0.7                   3.0476e-06            2.2e-13               4.1e-12               -3.0436e-06          
  0.8                   3.2624e-06            1.8e-13               3.6e-12               -3.2584e-06          
  0.9                   3.4242e-06            1.6e-13               4.68e-12              -3.4198e-06          
  1                     3.5364e-06            5e-13                 3.96e-12              -3.5324e-06          
  1.1                   3.6044e-06            3.8e-13               3.44e-12              -3.6e-06             
  1.2                   3.6396e-06            3e-13                 4.16e-12              -3.6354e-06          
  1.3                   3.6554e-06            2.2e-13               4.3e-12               -3.6508e-06          
  1.4                   3.6618e-06            2.6e-13               3.44e-12              -3.6578e-06          
  1.5                   3.6662e-06            8e-14                 4.14e-12              -3.6622e-06          
  1.6                   3.669e-06             1.4e-13               3.82e-12              -3.6648e-06          
  1.7                   3.671e-06             2.8e-13               3.12e-12              -3.6672e-06          
  1.8                   3.6726e-06            4e-13                 4.22e-12              -3.6684e-06          
  1.9                   3.6734e-06            0                     4.54e-12              -3.6702e-06          
  2                     3.6756e-06            2e-13                 2.86e-12              -3.6716e-06          
  2.1                   3.6764e-06            3.2e-13               4.26e-12              -3.6726e-06          
  2.2                   3.6778e-06            2.4e-13               3.82e-12              -3.674e-06           
  2.3                   3.679e-06             8e-14                 2.92e-12              -3.6748e-06          
  2.4                   3.68e-06              2.4e-13               4.6e-12               -3.6758e-06          
  2.5                   3.6806e-06            3.2e-13               3.42e-12              -3.6766e-06          
  2.6                   3.6812e-06            2.6e-13               1.2e-12               -3.6772e-06          
  2.7                   3.6826e-06            1.8e-13               -3.64e-12             -3.678e-06           
  2.8                   3.6834e-06            3.2e-13               -1.752e-11            -3.6794e-06          
  2.9                   3.684e-06             2e-13                 -4.994e-11            -3.68e-06            
  3                     3.6846e-06            8e-14                 -1.1386e-10           -3.68e-06            
  3.1                   3.6856e-06            1.4e-13               -2.3622e-10           -3.681e-06           
  3.2                   3.6862e-06            2.4e-13               -4.4658e-10           -3.6818e-06          
  3.3                   3.6874e-06            1e-13                 -7.8578e-10           -3.6826e-06          
  3.4                   3.6886e-06            1.8e-13               -1.3106e-09           -3.6828e-06          
  3.5                   3.6894e-06            1e-13                 -2.0868e-09           -3.6836e-06          
  3.6                   3.6912e-06            1.6e-13               -3.1966e-09           -3.6844e-06          
END_DB

BEGIN_DB
 ICCAP_VAR vg         2.868          
 ICCAP_VAR vb         0              
 ICCAP_VAR vs         0              

 #vd                    id                    ig                    ib                    is                   
  0                     4.6974e-10            7.2e-13               3.86e-12              -4.8178e-10          
  0.1                   8.2906e-07            4.2e-13               3.88e-12              -8.2902e-07          
  0.2                   1.6152e-06            4e-13                 3.12e-12              -1.611e-06           
  0.3                   2.3532e-06            4.4e-13               2.68e-12              -2.349e-06           
  0.4                   3.0468e-06            3.6e-13               2.76e-12              -3.0426e-06          
  0.5                   3.6936e-06            1.8e-13               3.74e-12              -3.6896e-06          
  0.6                   4.2924e-06            1.8e-13               2.26e-12              -4.2882e-06          
  0.7                   4.8438e-06            4e-13                 2.16e-12              -4.8398e-06          
  0.8                   5.3466e-06            3.2e-13               3.44e-12              -5.3426e-06          
  0.9                   5.7986e-06            2.2e-13               2.28e-12              -5.7948e-06          
  1                     6.2016e-06            3e-13                 3.22e-12              -6.1978e-06          
  1.1                   6.5544e-06            4.6e-13               3.06e-12              -6.5504e-06          
  1.2                   6.856e-06             3e-13                 2.74e-12              -6.8518e-06          
  1.3                   7.108e-06             2.4e-13               2.64e-12              -7.104e-06           
  1.4                   7.3106e-06            2.8e-13               3e-12                 -7.3064e-06          
  1.5                   7.4656e-06            3.6e-13               2.12e-12              -7.4616e-06          
  1.6                   7.5764e-06            4e-14                 2.24e-12              -7.5716e-06          
  1.7                   7.6466e-06            3e-13                 3.54e-12              -7.6422e-06          
  1.8                   7.6874e-06            3.6e-13               2.32e-12              -7.6828e-06          
  1.9                   7.7086e-06            2.4e-13               3.32e-12              -7.7044e-06          
  2                     7.7204e-06            3e-13                 3.48e-12              -7.7164e-06          
  2.1                   7.7274e-06            2e-13                 2.46e-12              -7.7232e-06          
  2.2                   7.733e-06             3e-13                 2.84e-12              -7.7284e-06          
  2.3                   7.736e-06             3e-13                 3.48e-12              -7.7316e-06          
  2.4                   7.7384e-06            2.8e-13               2.72e-12              -7.7348e-06          
  2.5                   7.7412e-06            1.8e-13               3.16e-12              -7.737e-06           
  2.6                   7.7442e-06            2.4e-13               3.68e-12              -7.7402e-06          
  2.7                   7.7466e-06            2.8e-13               2.66e-12              -7.7416e-06          
  2.8                   7.7476e-06            2e-14                 2.38e-12              -7.7442e-06          
  2.9                   7.7496e-06            2e-14                 3.52e-12              -7.746e-06           
  3                     7.7528e-06            2.6e-13               2.42e-12              -7.748e-06           
  3.1                   7.7542e-06            2.6e-13               1.14e-12              -7.7496e-06          
  3.2                   7.7552e-06            6e-14                 -1.66e-12             -7.7514e-06          
  3.3                   7.7566e-06            1e-13                 -1.236e-11            -7.7526e-06          
  3.4                   7.7588e-06            2.8e-13               -3.714e-11            -7.7548e-06          
  3.5                   7.76e-06              8e-14                 -9.586e-11            -7.7556e-06          
  3.6                   7.7614e-06            0                     -2.1412e-10           -7.7566e-06          
END_DB

BEGIN_DB
 ICCAP_VAR vg         3.6            
 ICCAP_VAR vb         0              
 ICCAP_VAR vs         0              

 #vd                    id                    ig                    ib                    is                   
  0                     5.8948e-10            7.2e-13               2.28e-12              -6.0176e-10          
  0.1                   9.848e-07             6e-13                 3.56e-12              -9.847e-07           
  0.2                   1.9364e-06            3.6e-13               2.22e-12              -1.9322e-06          
  0.3                   2.8498e-06            6.4e-13               2.34e-12              -2.8458e-06          
  0.4                   3.7294e-06            3.8e-13               2.3e-12               -3.7254e-06          
  0.5                   4.5726e-06            2.2e-13               1.88e-12              -4.5686e-06          
  0.6                   5.3774e-06            2.8e-13               3.14e-12              -5.3734e-06          
  0.7                   6.1458e-06            3.4e-13               2.48e-12              -6.1418e-06          
  0.8                   6.8752e-06            3e-13                 2.26e-12              -6.871e-06           
