! VERSION = 6.00
BEGIN_HEADER
 ICCAP_INPUTS
  vg         V  G GROUND SMU2 0.001 LIN        1    -0.5       3.6        83   0.05      
  vb         V  B GROUND SMU4 0.1 LIN        2    0          -3.6       5    -0.9      
  vd         V  D GROUND SMU1 0.1 LIN        3    0.1        3.3        3    1.6       
  vs         V  S GROUND SMU3 0.1 CON        0
 ICCAP_OUTPUTS
  id         I  D GROUND SMU1 B
  ig         I  G GROUND SMU2 B
  ib         I  B GROUND SMU4 B
  is         I  S GROUND SMU3 B
 ICCAP_VALUES
  MASTER_SETUP_TYPE "~dc_idvg~"
  LINVT_VALUE ""
  LISTVT_VALUE ""
  TYPE "1"
  TEMP " 27.0000 "
  IS_TNOM " 1.00000 "
  MAIN.W "150.0n"
  MAIN.L "330.0n"
  MAIN.AD "100.5f"
  MAIN.AS "100.5f"
  MAIN.PD "1.340u"
  MAIN.PS "1.340u"
  MAIN.NF "1.000"
  MAIN.M "1"
  MAIN.NRD "0.000"
  MAIN.NRS "0.000"
  MAIN.LDRIFT1 "1E-06"
  MAIN.LDRIFT2 "1E-06"
  MAIN.SA "0.000"
  MAIN.SB "0.000"
  MAIN.SD "0.000"
  MAIN.SCA "0.000"
  MAIN.SCB "0.000"
  MAIN.SCC "0.000"
  MAIN.SC "0.000"
  MODULE "S547"
  PIN_D "12"
  PIN_G "9"
  PIN_S "10"
  PIN_B "11"
  PIN_E ""
  PIN_6 ""
  XY_ID ""
  FUNC "Additional"
  STI "SA ref"
  WPE "WPE ref"
  COMMENT ""
  DIS_MEAS ""
  TypeTCI "10"
END_HEADER

BEGIN_DB
 ICCAP_VAR vb         0              
 ICCAP_VAR vd         0.1            
 ICCAP_VAR vs         0              

 #vg                    id                    ig                    ib                    is                   
  -0.5                  6e-14                 -4.274e-11            4.97e-11              1.4e-13              
  -0.45                 1e-13                 -6.34e-12             1.316e-11             6e-14                
  -0.4                  4e-14                 -9.6e-13              8.54e-12              1.6e-13              
  -0.35                 2.4e-13               -1e-13                7.28e-12              1.4e-13              
  -0.3                  -6e-14                1.4e-13               6.74e-12              1.6e-13              
  -0.25                 2e-14                 1.4e-13               6.12e-12              1.2e-13              
  -0.2                  1.4e-13               2.8e-13               6.6e-12               1e-13                
  -0.15                 1.2e-13               3.4e-13               6.72e-12              1.2e-13              
  -0.1                  2e-14                 2.4e-13               7.58e-12              1.2e-13              
  -0.05                 2.2e-13               4.4e-13               6.26e-12              -2e-14               
  0                     1.6e-13               4e-13                 5.92e-12              0                    
  0.05                  5.4e-13               4.2e-13               6.48e-12              -5.2e-13             
  0.1                   2.28e-12              3.4e-13               6.42e-12              -2.08e-12            
  0.15                  8.96e-12              4.2e-13               7.06e-12              -8.7e-12             
  0.2                   3.468e-11             4.6e-13               5.88e-12              -3.472e-11           
  0.25                  1.3882e-10            4e-13                 5.82e-12              -1.3826e-10          
  0.3                   5.4316e-10            6e-13                 6.14e-12              -5.41e-10            
  0.35                  2.0896e-09            4e-13                 6.44e-12              -2.0918e-09          
  0.4                   7.691e-09             3.6e-13               6.7e-12               -7.713e-09           
  0.45                  2.6234e-08            4.4e-13               6.34e-12              -2.6216e-08          
  0.5                   7.6096e-08            5.6e-13               5.22e-12              -7.609e-08           
  0.55                  1.8266e-07            5.2e-13               5.98e-12              -1.8276e-07          
  0.6                   3.6454e-07            4e-13                 6.32e-12              -3.6408e-07          
  0.65                  6.2482e-07            5.8e-13               5.22e-12              -6.2562e-07          
  0.7                   9.5374e-07            4e-13                 4.66e-12              -9.5328e-07          
  0.75                  1.3366e-06            4.4e-13               6.34e-12              -1.3336e-06          
  0.8                   1.7522e-06            4.8e-13               5.2e-12               -1.7478e-06          
  0.85                  2.1902e-06            5e-13                 5.2e-12               -2.1862e-06          
  0.9                   2.6398e-06            5.4e-13               4.94e-12              -2.636e-06           
  0.95                  3.0958e-06            5e-13                 5.96e-12              -3.0932e-06          
  1                     3.5542e-06            6e-13                 5.26e-12              -3.5502e-06          
  1.05                  4.0126e-06            5.2e-13               4.4e-12               -4.0084e-06          
  1.1                   4.466e-06             7e-13                 4.28e-12              -4.462e-06           
  1.15                  4.9132e-06            5.8e-13               5.22e-12              -4.9094e-06          
  1.2                   5.3534e-06            8e-13                 5.66e-12              -5.3492e-06          
  1.25                  5.7856e-06            7.4e-13               4.66e-12              -5.7816e-06          
  1.3                   6.2108e-06            6.2e-13               1.52e-12              -6.2068e-06          
  1.35                  6.6256e-06            6.4e-13               4.5e-12               -6.6214e-06          
  1.4                   7.0312e-06            8.4e-13               5.92e-12              -7.0276e-06          
  1.45                  7.4278e-06            7e-13                 4.22e-12              -7.4246e-06          
  1.5                   7.8174e-06            6.8e-13               4.32e-12              -7.8134e-06          
  1.55                  8.1966e-06            6.8e-13               4.28e-12              -8.1926e-06          
  1.6                   8.5658e-06            8e-13                 4.76e-12              -8.562e-06           
  1.65                  8.9286e-06            7.8e-13               4.84e-12              -8.925e-06           
  1.7                   9.2828e-06            6e-13                 4.1e-12               -9.2786e-06          
  1.75                  9.6284e-06            6.6e-13               3.6e-12               -9.624e-06           
  1.8                   9.9662e-06            8e-13                 4.68e-12              -9.962e-06           
  1.85                  1.02954e-05           7.2e-13               4.56e-12              -1.0292e-05          
  1.9                   1.06188e-05           8e-13                 3.82e-12              -1.06158e-05         
  1.95                  1.09332e-05           6.8e-13               3.92e-12              -1.093e-05           
  2                     1.1242e-05            7e-13                 3.62e-12              -1.12376e-05         
  2.05                  1.1552e-05            5.6e-13               5.3e-12               -1.1532e-05          
  2.1                   1.1848e-05            7.4e-13               4.26e-12              -1.1828e-05          
  2.15                  1.2134e-05            7.4e-13               4.34e-12              -1.2112e-05          
  2.2                   1.2414e-05            8.2e-13               3.56e-12              -1.2394e-05          
  2.25                  1.2688e-05            7e-13                 4.04e-12              -1.2668e-05          
  2.3                   1.2954e-05            9.2e-13               5.66e-12              -1.2934e-05          
  2.35                  1.3216e-05            7e-13                 3.16e-12              -1.3196e-05          
  2.4                   1.3468e-05            9.4e-13               3.3e-12               -1.3448e-05          
  2.45                  1.3718e-05            7.2e-13               3.46e-12              -1.3698e-05          
  2.5                   1.396e-05             8.6e-13               5e-12                 -1.3942e-05          
  2.55                  1.4198e-05            7.8e-13               4.44e-12              -1.4178e-05          
  2.6                   1.443e-05             8.6e-13               3.34e-12              -1.4408e-05          
  2.65                  1.4656e-05            6.6e-13               4.1e-12               -1.4634e-05          
  2.7                   1.4872e-05            9e-13                 4.52e-12              -1.4854e-05          
  2.75                  1.509e-05             6.6e-13               4.06e-12              -1.507e-05           
  2.8                   1.53e-05              7.4e-13               3.28e-12              -1.528e-05           
  2.85                  1.5504e-05            8.4e-13               3.98e-12              -1.5484e-05          
  2.9                   1.5702e-05            8.6e-13               3.96e-12              -1.5682e-05          
  2.95                  1.5896e-05            7.8e-13               4.46e-12              -1.5876e-05          
  3                     1.6086e-05            9e-13                 3.3e-12               -1.6066e-05          
  3.05                  1.627e-05             7.8e-13               3.52e-12              -1.625e-05           
  3.1                   1.645e-05             8.8e-13               3.38e-12              -1.643e-05           
  3.15                  1.6626e-05            8.6e-13               4.08e-12              -1.6606e-05          
  3.2                   1.6798e-05            8.8e-13               3.98e-12              -1.6778e-05          
  3.25                  1.6966e-05            7.8e-13               3.34e-12              -1.6946e-05          
  3.3                   1.713e-05             9.2e-13               3.18e-12              -1.711e-05           
  3.35                  1.7288e-05            7.4e-13               4.04e-12              -1.7268e-05          
  3.4                   1.7444e-05            9.4e-13               3.62e-12              -1.7424e-05          
  3.45                  1.7594e-05            8e-13                 3.32e-12              -1.7574e-05          
  3.5                   1.7742e-05            8.6e-13               2.58e-12              -1.7726e-05          
  3.55                  1.789e-05             9.8e-13               4.06e-12              -1.787e-05           
  3.6                   1.803e-05             7.4e-13               3.82e-12              -1.801e-05           
END_DB

BEGIN_DB
 ICCAP_VAR vb         -0.9           
 ICCAP_VAR vd         0.1            
 ICCAP_VAR vs         0              

 #vg                    id                    ig                    ib                    is                   
  -0.5                  8e-14                 -5.4e-13              -1.034e-11            6e-14                
  -0.45                 1.6e-13               -3.2e-13              -8.52e-12             0                    
  -0.4                  -4e-14                -2.4e-13              -8.18e-12             2.6e-13              
  -0.35                 1.2e-13               -1e-13                -7.2e-12              0                    
  -0.3                  -6e-14                0                     -6.88e-12             1.8e-13              
  -0.25                 1e-13                 -6e-14                -6.48e-12             8e-14                
  -0.2                  -1.4e-13              6e-14                 -5.24e-12             4e-14                
  -0.15                 -8e-14                -1.8e-13              -4.66e-12             2e-13                
  -0.1                  8e-14                 2e-14                 -4.86e-12             2e-14                
  -0.05                 -8e-14                1e-13                 -5.34e-12             2.2e-13              
  0                     2e-14                 1.8e-13               -4.2e-12              1.6e-13              
  0.05                  6e-14                 1e-13                 -3.06e-12             2e-13                
  0.1                   1.2e-13               1.8e-13               -3.02e-12             0                    
  0.15                  2.8e-13               1.2e-13               -3.62e-12             -2e-14               
  0.2                   1.54e-12              2e-13                 -3.98e-12             -1.28e-12            
  0.25                  6.32e-12              3.4e-13               -3.7e-12              -6.24e-12            
  0.3                   2.744e-11             3e-13                 -2.32e-12             -2.718e-11           
  0.35                  1.168e-10             3.4e-13               -1.98e-12             -1.1696e-10          
  0.4                   4.9132e-10            2.8e-13               -2.42e-12             -4.9428e-10          
  0.45                  2.0296e-09            2.4e-13               -2.48e-12             -2.0314e-09          
  0.5                   7.9338e-09            2.4e-13               -2.26e-12             -7.965e-09           
  0.55                  2.7922e-08            3.4e-13               -2.32e-12             -2.8094e-08          
  0.6                   8.2674e-08            4.4e-13               -1.18e-12             -8.274e-08           
  0.65                  1.9802e-07            3.2e-13               -2.6e-12              -1.9734e-07          
  0.7                   3.8998e-07            4.2e-13               -2.16e-12             -3.913e-07           
  0.75                  6.6086e-07            4.6e-13               -1.8e-12              -6.6122e-07          
  0.8                   9.9538e-07            4.4e-13               -8.8e-13              -9.9704e-07          
  0.85                  1.381e-06             1.6e-13               -1.72e-12             -1.3774e-06          
  0.9                   1.796e-06             5.2e-13               -7.4e-13              -1.7906e-06          
  0.95                  2.2306e-06            5.4e-13               -1.6e-13              -2.2248e-06          
  1                     2.6746e-06            5.8e-13               -1.96e-12             -2.6692e-06          
  1.05                  3.1226e-06            5.6e-13               -9.6e-13              -3.1212e-06          
  1.1                   3.5756e-06            5e-13                 -1.08e-12             -3.5722e-06          
  1.15                  4.024e-06             4.8e-13               -1.4e-13              -4.0226e-06          
  1.2                   4.4704e-06            5e-13                 -7.6e-13              -4.4654e-06          
  1.25                  4.9114e-06            6.6e-13               -9.4e-13              -4.9094e-06          
  1.3                   5.3472e-06            4.4e-13               -1.1e-12              -5.3442e-06          
  1.35                  5.7764e-06            5.2e-13               -4.6e-13              -5.7716e-06          
  1.4                   6.1928e-06            5.6e-13               -3.2e-13              -6.1882e-06          
  1.45                  6.603e-06             4.6e-13               -1.7e-12              -6.5996e-06          
  1.5                   7.0024e-06            6e-13                 -1.08e-12             -7.002e-06           
  1.55                  7.394e-06             4.8e-13               -4.8e-13              -7.3892e-06          
  1.6                   7.7744e-06            6.8e-13               -3.4e-13              -7.7696e-06          
  1.65                  8.148e-06             5.8e-13               -1.26e-12             -8.1422e-06          
  1.7                   8.5098e-06            7.6e-13               -8.2e-13              -8.5076e-06          
  1.75                  8.865e-06             6.8e-13               -9e-13                -8.8622e-06          
  1.8                   9.2116e-06            6.8e-13               -3.4e-13              -9.2088e-06          
  1.85                  9.5478e-06            6.6e-13               1.86e-12              -9.5448e-06          
  1.9                   9.8792e-06            6.4e-13               -9.8e-13              -9.8748e-06          
  1.95                  1.02002e-05           7.2e-13               -3.8e-13              -1.01962e-05         
  2                     1.05158e-05           7.2e-13               0                     -1.05102e-05         
  2.05                  1.08226e-05           8e-13                 -2.2e-13              -1.0817e-05          
  2.1                   1.1121e-05            8.2e-13               -1.08e-12             -1.11186e-05         
  2.15                  1.14146e-05           7.4e-13               -1.52e-12             -1.1411e-05          
  2.2                   1.1708e-05            7e-13                 -1.2e-13              -1.1686e-05          
  2.25                  1.1982e-05            6.2e-13               4.2e-13               -1.1966e-05          
  2.3                   1.226e-05             6.2e-13               -4.2e-13              -1.224e-05           
  2.35                  1.2522e-05            7.2e-13               -6.6e-13              -1.2504e-05          
  2.4                   1.2784e-05            6.4e-13               -8.2e-13              -1.2764e-05          
  2.45                  1.3036e-05            7.6e-13               6.8e-13               -1.3016e-05          
  2.5                   1.3284e-05            6.4e-13               -9e-13                -1.3262e-05          
  2.55                  1.3524e-05            7.6e-13               -8.4e-13              -1.3504e-05          
  2.6                   1.3758e-05            7.2e-13               -2.8e-13              -1.3738e-05          
  2.65                  1.3988e-05            8.4e-13               8e-13                 -1.3966e-05          
  2.7                   1.421e-05             7.4e-13               -6e-14                -1.4192e-05          
  2.75                  1.443e-05             6.8e-13               -8.8e-13              -1.4408e-05          
  2.8                   1.4642e-05            7.6e-13               1.6e-13               -1.4622e-05          
  2.85                  1.485e-05             7.8e-13               2.2e-13               -1.4828e-05          
  2.9                   1.5052e-05            9.6e-13               8e-13                 -1.503e-05           
  2.95                  1.5248e-05            8e-13                 -4e-13                -1.5228e-05          
  3                     1.544e-05             7.2e-13               1e-13                 -1.542e-05           
  3.05                  1.563e-05             7.8e-13               -4e-14                -1.561e-05           
  3.1                   1.581e-05             7.4e-13               4e-13                 -1.579e-05           
  3.15                  1.599e-05             8.2e-13               -2.8e-13              -1.5968e-05          
  3.2                   1.6164e-05            8.6e-13               -6.4e-13              -1.6142e-05          
  3.25                  1.6334e-05            8e-13                 -3e-13                -1.6314e-05          
  3.3                   1.6502e-05            9.2e-13               8e-14                 -1.648e-05           
  3.35                  1.6658e-05            8.4e-13               4e-14                 -1.6638e-05          
  3.4                   1.6818e-05            8.2e-13               -4.2e-13              -1.6796e-05          
  3.45                  1.697e-05             8.2e-13               -1e-13                -1.6948e-05          
