! VERSION = 6.00
BEGIN_HEADER
 ICCAP_INPUTS
  vd         V  D GROUND SMU1 0.1 LIN        1    0          3.6        37   0.1       
  vg         V  G GROUND SMU2 0.001 LIN        2    0.7        3.6        5    0.725     
  vb         V  B GROUND SMU4 0.1 CON        0
  vs         V  S GROUND SMU3 0.1 CON        0
 ICCAP_OUTPUTS
  id         I  D GROUND SMU1 B
  ig         I  G GROUND SMU2 B
  ib         I  B GROUND SMU4 B
  is         I  S GROUND SMU3 B
 ICCAP_VALUES
  MASTER_SETUP_TYPE "~dc_idvd~"
  LINVT_VALUE "|idvg|100.0n|100.0m|1.000m|5|3.600|"
  LISTVT_VALUE ""
  TYPE "1"
  TEMP " 125.000 "
  IS_TNOM " 0.00000 "
  MAIN.W "10.00u"
  MAIN.L "500.0n"
  MAIN.AD "3.400p"
  MAIN.AS "3.400p"
  MAIN.PD "20.68u"
  MAIN.PS "20.68u"
  MAIN.NF "1.000"
  MAIN.M "1"
  MAIN.NRD "0.000"
  MAIN.NRS "0.000"
  MAIN.LDRIFT1 "1E-06"
  MAIN.LDRIFT2 "1E-06"
  MAIN.SA "0.000"
  MAIN.SB "0.000"
  MAIN.SD "0.000"
  MAIN.SCA "0.000"
  MAIN.SCB "0.000"
  MAIN.SCC "0.000"
  MAIN.SC "0.000"
  MODULE "S556"
  PIN_D "14"
  PIN_G "7"
  PIN_S "8"
  PIN_B "13"
  PIN_E ""
  PIN_6 ""
  XY_ID ""
  FUNC "Short"
  STI "SA ref"
  WPE "WPE ref"
  COMMENT ""
  DIS_MEAS ""
  TypeTCI "10"
END_HEADER

BEGIN_DB
 ICCAP_VAR vg         0.7            
 ICCAP_VAR vb         0              
 ICCAP_VAR vs         0              

 #vd                    id                    ig                    ib                    is                   
  0                     2.8606e-09            8e-14                 6.714e-11             -2.7616e-09          
  0.1                   5.6204e-06            -4e-14                5.758e-11             -5.6172e-06          
  0.2                   6.724e-06             -2.6e-13              5.404e-11             -6.7278e-06          
  0.3                   7.107e-06             -2.2e-13              5.32e-11              -7.106e-06           
  0.4                   7.3512e-06            -1.6e-13              5.078e-11             -7.345e-06           
  0.5                   7.555e-06             -2e-13                4.874e-11             -7.553e-06           
  0.6                   7.7394e-06            -2.6e-13              4.776e-11             -7.738e-06           
  0.7                   7.9092e-06            -2.8e-13              4.652e-11             -7.9074e-06          
  0.8                   8.0744e-06            -1.4e-13              4.37e-11              -8.0724e-06          
  0.9                   8.2272e-06            -2e-13                4.362e-11             -8.2232e-06          
  1                     8.38e-06              -1e-13                4.188e-11             -8.381e-06           
  1.1                   8.5264e-06            -2e-13                3.928e-11             -8.5178e-06          
  1.2                   8.671e-06             -1.2e-13              3.744e-11             -8.6698e-06          
  1.3                   8.8098e-06            -2e-13                2.956e-11             -8.7964e-06          
  1.4                   8.9356e-06            -2e-13                1.204e-11             -8.9412e-06          
  1.5                   9.0672e-06            -1.8e-13              -3.086e-11            -9.071e-06           
  1.6                   9.21e-06              -1.2e-13              -1.262e-10            -9.2088e-06          
  1.7                   9.3378e-06            -2.2e-13              -3.1434e-10           -9.3316e-06          
  1.8                   9.4648e-06            -1.6e-13              -6.6154e-10           -9.4646e-06          
  1.9                   9.5896e-06            -1.6e-13              -1.2548e-09           -9.5938e-06          
  2                     9.7298e-06            -6e-14                -2.2062e-09           -9.7186e-06          
  2.1                   9.8528e-06            -1.8e-13              -3.6748e-09           -9.8508e-06          
  2.2                   9.9842e-06            -2e-13                -5.8382e-09           -9.9656e-06          
  2.3                   1.01138e-05           -2e-14                -8.9432e-09           -1.0111e-05          
  2.4                   1.02462e-05           -1.6e-13              -1.3252e-08           -1.0218e-05          
  2.5                   1.03696e-05           -2e-13                -1.9108e-08           -1.0348e-05          
  2.6                   1.0504e-05            2e-14                 -2.6948e-08           -1.0468e-05          
  2.7                   1.0636e-05            -6e-14                -3.734e-08            -1.06e-05            
  2.8                   1.0792e-05            -2.8e-13              -5.0796e-08           -1.0718e-05          
  2.9                   1.0926e-05            -1.2e-13              -6.8292e-08           -1.0862e-05          
  3                     1.107e-05             -1e-13                -9.0532e-08           -1.0986e-05          
  3.1                   1.1242e-05            -2.4e-13              -1.1868e-07           -1.111e-05           
  3.2                   1.141e-05             -1.4e-13              -1.541e-07            -1.1248e-05          
  3.3                   1.1582e-05            -1.6e-13              -1.9744e-07           -1.1376e-05          
  3.4                   1.1762e-05            -1.8e-13              -2.5054e-07           -1.1502e-05          
  3.5                   1.1954e-05            -1.2e-13              -3.148e-07            -1.1632e-05          
  3.6                   1.217e-05             1.2e-13               -3.9064e-07           -1.1766e-05          
END_DB

BEGIN_DB
 ICCAP_VAR vg         1.425          
 ICCAP_VAR vb         0              
 ICCAP_VAR vs         0              

 #vd                    id                    ig                    ib                    is                   
  0                     6.8288e-08            7.4e-13               1.74e-11              -5.3402e-08          
  0.1                   0.00015388            5.2e-13               1.672e-11             -0.00015356          
  0.2                   0.00027672            4.8e-13               1.606e-11             -0.0002764           
  0.3                   0.00036856            4.6e-13               1.464e-11             -0.00036828          
  0.4                   0.00043256            3.4e-13               1.616e-11             -0.00043222          
  0.5                   0.00047388            4.6e-13               1.452e-11             -0.0004736           
  0.6                   0.00049936            4.4e-13               1.35e-11              -0.00049914          
  0.7                   0.0005153             1.8e-13               1.468e-11             -0.000515            
  0.8                   0.00052586            1.4e-13               1.268e-11             -0.00052554          
  0.9                   0.00053354            6e-14                 1.292e-11             -0.00053316          
  1                     0.00053954            2.2e-13               1.416e-11             -0.00053922          
  1.1                   0.00054476            2e-13                 1.208e-11             -0.00054446          
  1.2                   0.00054938            1.4e-13               1.162e-11             -0.00054906          
  1.3                   0.00055354            2.8e-13               9.86e-12              -0.00055318          
  1.4                   0.00055732            2.2e-13               1.02e-12              -0.00055702          
  1.5                   0.00056084            2.4e-13               -2.802e-11            -0.00056052          
  1.6                   0.00056416            1e-13                 -1.295e-10            -0.00056386          
  1.7                   0.00056736            2.2e-13               -4.2628e-10           -0.00056704          
  1.8                   0.00057028            1.6e-13               -1.2158e-09           -0.00056998          
  1.9                   0.00057328            3.2e-13               -3.1062e-09           -0.00057288          
  2                     0.0005761             2.8e-13               -7.2018e-09           -0.00057576          
  2.1                   0.0005789             1.8e-13               -1.5408e-08           -0.00057842          
  2.2                   0.00058158            6e-14                 -3.0548e-08           -0.00058138          
  2.3                   0.0005843             1.6e-13               -5.6764e-08           -0.00058398          
  2.4                   0.00058704            1.8e-13               -9.9436e-08           -0.00058658          
  2.5                   0.00058958            1.6e-13               -1.6594e-07           -0.00058908          
  2.6                   0.00059214            0                     -2.6526e-07           -0.00059156          
  2.7                   0.00059474            8e-14                 -4.0848e-07           -0.00059396          
  2.8                   0.00059746            1.8e-13               -6.095e-07            -0.00059654          
  2.9                   0.00060016            4e-14                 -8.8434e-07           -0.00059896          
  3                     0.00060304            1.6e-13               -1.2536e-06           -0.00060126          
  3.1                   0.00060574            8e-14                 -1.743e-06            -0.00060376          
  3.2                   0.00060892            1.6e-13               -2.3806e-06           -0.00060618          
  3.3                   0.00061212            4e-14                 -3.202e-06            -0.00060868          
  3.4                   0.0006156             8e-14                 -4.2512e-06           -0.00061104          
  3.5                   0.00061954            2e-14                 -5.573e-06            -0.00061364          
  3.6                   0.00062376            2e-13                 -7.223e-06            -0.00061618          
END_DB

BEGIN_DB
 ICCAP_VAR vg         2.15           
 ICCAP_VAR vb         0              
 ICCAP_VAR vs         0              

 #vd                    id                    ig                    ib                    is                   
  0                     1.14924e-07           9.4e-13               8.62e-12              -8.8294e-08          
  0.1                   0.000294              4.2e-13               7.4e-12               -0.00029368          
  0.2                   0.00056144            5.4e-13               6.54e-12              -0.00056116          
  0.3                   0.00079828            5e-13                 7.04e-12              -0.00079794          
  0.4                   0.00100304            4e-13                 6.08e-12              -0.0010027           
  0.5                   0.001175              4.4e-13               6.26e-12              -0.0011742           
  0.6                   0.0013142             4.2e-13               5.96e-12              -0.0013134           
  0.7                   0.0014238             4.8e-13               6.56e-12              -0.0014232           
  0.8                   0.0015076             3.2e-13               5.28e-12              -0.001507            
  0.9                   0.0015694             5.4e-13               5.44e-12              -0.0015688           
  1                     0.0016146             4.4e-13               5.64e-12              -0.0016138           
  1.1                   0.0016472             4e-13                 4.44e-12              -0.0016464           
  1.2                   0.001671              3.8e-13               4.98e-12              -0.0016704           
  1.3                   0.0016892             3.4e-13               4.44e-12              -0.0016886           
  1.4                   0.0017034             2.8e-13               3.28e-12              -0.0017028           
  1.5                   0.001715              3.8e-13               5.8e-13               -0.0017142           
  1.6                   0.0017248             3.8e-13               -1.258e-11            -0.001724            
  1.7                   0.0017334             3e-13                 -5.218e-11            -0.0017326           
  1.8                   0.0017408             2e-13                 -1.7758e-10           -0.0017402           
  1.9                   0.0017478             2.6e-13               -5.3728e-10           -0.001747            
  2                     0.001754              8e-14                 -1.4662e-09           -0.0017532           
  2.1                   0.0017598             2.6e-13               -3.6958e-09           -0.0017592           
  2.2                   0.0017654             2.4e-13               -8.6302e-09           -0.0017648           
  2.3                   0.0017706             4.4e-13               -1.8816e-08           -0.00177             
  2.4                   0.0017756             2.6e-13               -3.833e-08            -0.0017748           
  2.5                   0.0017802             2.6e-13               -7.374e-08            -0.0017794           
  2.6                   0.0017848             3e-13                 -1.343e-07            -0.001784            
  2.7                   0.0017892             3.2e-13               -2.33e-07             -0.0017884           
  2.8                   0.0017936             1e-13                 -3.875e-07            -0.0017926           
  2.9                   0.001798              1.6e-13               -6.1932e-07           -0.0017968           
  3                     0.0018024             2e-13                 -9.5718e-07           -0.0018008           
  3.1                   0.0018072             3.2e-13               -1.4356e-06           -0.0018048           
  3.2                   0.0018118             2.6e-13               -2.0968e-06           -0.001809            
  3.3                   0.0018166             4e-14                 -2.9898e-06           -0.001813            
  3.4                   0.0018216             2.6e-13               -4.1802e-06           -0.0018168           
  3.5                   0.0018272             2.8e-13               -5.7402e-06           -0.0018208           
  3.6                   0.0018332             1.8e-13               -7.7572e-06           -0.001825            
END_DB

BEGIN_DB
 ICCAP_VAR vg         2.875          
 ICCAP_VAR vb         0              
 ICCAP_VAR vs         0              

 #vd                    id                    ig                    ib                    is                   
  0                     1.15008e-07           9e-13                 5.5e-12               -1.16858e-07         
  0.1                   0.00039482            7e-13                 3.8e-12               -0.0003945           
  0.2                   0.00076784            6.2e-13               2.48e-12              -0.00076754          
  0.3                   0.00111366            5e-13                 2.38e-12              -0.00111332          
  0.4                   0.00143               5.8e-13               3.84e-12              -0.0014294           
  0.5                   0.0017136             5.4e-13               1.62e-12              -0.001713            
  0.6                   0.0019632             4.4e-13               2.42e-12              -0.0019624           
  0.7                   0.0021796             5.2e-13               2.1e-12               -0.002179            
  0.8                   0.0023638             5.2e-13               1.5e-12               -0.0023632           
  0.9                   0.0025178             4.6e-13               1.82e-12              -0.0025172           
  1                     0.0026446             4.8e-13               2.18e-12              -0.002644            
  1.1                   0.002747              4e-13                 8.4e-13               -0.0027464           
  1.2                   0.0028282             5e-13                 1.8e-12               -0.0028276           
  1.3                   0.0028922             5e-13                 9.8e-13               -0.0028916           
  1.4                   0.0029418             2.8e-13               2.6e-13               -0.0029414           
  1.5                   0.0029808             4e-13                 1.56e-12              -0.00298             
  1.6                   0.003011              5.4e-13               -1.32e-12             -0.0030102           
  1.7                   0.003035              4.8e-13               -7.26e-12             -0.0030344           
  1.8                   0.0030542             5.6e-13               -2.374e-11            -0.0030534           
  1.9                   0.0030698             4.6e-13               -8.026e-11            -0.0030692           
  2                     0.003083              3.6e-13               -2.382e-10            -0.0030824           
  2.1                   0.0030946             3e-13                 -6.5908e-10           -0.0030938           
  2.2                   0.0031042             5.2e-13               -1.7026e-09           -0.0031036           
  2.3                   0.003113              4e-13                 -4.1026e-09           -0.003112            
  2.4                   0.0031206             3.6e-13               -9.2636e-09           -0.00312             
  2.5                   0.0031278             2.6e-13               -1.9714e-08           -0.0031272           
  2.6                   0.0031342             8e-14                 -3.964e-08            -0.0031336           
  2.7                   0.0031402             2.4e-13               -7.5598e-08           -0.0031394           
  2.8                   0.0031456             3.2e-13               -1.376e-07            -0.003145            
  2.9                   0.003151              5.2e-13               -2.395e-07            -0.00315             
  3                     0.0031562             2.6e-13               -4.0122e-07           -0.003155            
  3.1                   0.0031608             4e-13                 -6.4874e-07           -0.0031596           
  3.2                   0.0031656             2.8e-13               -1.01498e-06          -0.0031642           
  3.3                   0.0031704             4.4e-13               -1.5422e-06           -0.0031682           
  3.4                   0.0031754             2.6e-13               -2.2848e-06           -0.0031724           
  3.5                   0.0031802             2.8e-13               -3.3058e-06           -0.0031762           
  3.6                   0.0031854             3.2e-13               -4.6822e-06           -0.0031802           
END_DB

BEGIN_DB
 ICCAP_VAR vg         3.6            
 ICCAP_VAR vb         0              
 ICCAP_VAR vs         0              

 #vd                    id                    ig                    ib                    is                   
  0                     5.0408e-07            1.02e-12              2.74e-12              -1.1719e-07          
  0.1                   0.00046438            7.4e-13               1.46e-12              -0.00046404          
  0.2                   0.00091114            6.6e-13               3e-13                 -0.00091084          
  0.3                   0.0013348             7e-13                 -8e-14                -0.0013342           
  0.4                   0.0017324             6.8e-13               1.5e-12               -0.0017318           
  0.5                   0.0021002             8e-13                 1.8e-13               -0.0020996           
  0.6                   0.0024358             6.8e-13               -6.8e-13              -0.0024352           
  0.7                   0.0027394             6.8e-13               1.08e-12              -0.0027388           
  0.8                   0.0030104             5.2e-13               -5.2e-13              -0.0030098           
