! VERSION = 6.00
BEGIN_HEADER
 ICCAP_INPUTS
  vd         V  D GROUND SMU1 0.1 LIN        1    0          3.6        37   0.1       
  vg         V  G GROUND SMU2 0.001 LIST       2 3 0.441 0.641 0.841
  vb         V  B GROUND SMU4 0.1 CON        0
  vs         V  S GROUND SMU3 0.1 CON        0
 ICCAP_OUTPUTS
  id         I  D GROUND SMU1 B
  ig         I  G GROUND SMU2 B
  ib         I  B GROUND SMU4 B
  is         I  S GROUND SMU3 B
 ICCAP_VALUES
  MASTER_SETUP_TYPE "~dc_idvd~"
  LINVT_VALUE ""
  LISTVT_VALUE "|idvg|100.0n|-200.0m|1.000m|3|200.0m|200.0m|"
  TYPE "1"
  TEMP "-40.0000 "
  IS_TNOM " 0.00000 "
  MAIN.W "300.0n"
  MAIN.L "10.00u"
  MAIN.AD "102.0f"
  MAIN.AS "102.0f"
  MAIN.PD "1.280u"
  MAIN.PS "1.280u"
  MAIN.NF "1.000"
  MAIN.M "1"
  MAIN.NRD "0.000"
  MAIN.NRS "0.000"
  MAIN.LDRIFT1 "1E-06"
  MAIN.LDRIFT2 "1E-06"
  MAIN.SA "0.000"
  MAIN.SB "0.000"
  MAIN.SD "0.000"
  MAIN.SCA "0.000"
  MAIN.SCB "0.000"
  MAIN.SCC "0.000"
  MAIN.SC "0.000"
  MODULE "S547"
  PIN_D "14"
  PIN_G "7"
  PIN_S "8"
  PIN_B "13"
  PIN_E ""
  PIN_6 ""
  XY_ID ""
  FUNC "Narrow"
  STI "SA ref"
  WPE "WPE ref"
  COMMENT ""
  DIS_MEAS ""
  TypeTCI "10"
END_HEADER

BEGIN_DB
 ICCAP_VAR vg         0.441          
 ICCAP_VAR vb         0              
 ICCAP_VAR vs         0              

 #vd                    id                    ig                    ib                    is                   
  0                     -2.4e-13              -4.2e-13              1.48e-12              6e-14                
  0.1                   5.22e-12              -3e-13                6.8e-13               -5.02e-12            
  0.2                   5.4e-12               -2.4e-13              1.88e-12              -5.16e-12            
  0.3                   5.56e-12              -4.6e-13              1.8e-13               -5e-12               
  0.4                   5.62e-12              -2e-13                7e-13                 -5.16e-12            
  0.5                   5.62e-12              -3.8e-13              2.5e-12               -5.14e-12            
  0.6                   5.72e-12              -3.4e-13              8e-13                 -4.96e-12            
  0.7                   5.78e-12              -3e-13                4e-13                 -5.26e-12            
  0.8                   5.86e-12              -2.8e-13              1.3e-12               -5.24e-12            
  0.9                   5.94e-12              -2.6e-13              1.54e-12              -5.08e-12            
  1                     5.88e-12              -1.4e-13              1e-12                 -5.18e-12            
  1.1                   5.98e-12              -2.2e-13              9.2e-13               -5.18e-12            
  1.2                   5.96e-12              -1.4e-13              1.98e-12              -5.3e-12             
  1.3                   6.04e-12              -1.6e-13              5.4e-13               -5.1e-12             
  1.4                   6.08e-12              -2.2e-13              1.02e-12              -5.1e-12             
  1.5                   6.06e-12              -1e-13                1.7e-12               -5.36e-12            
  1.6                   6.1e-12               -2e-13                1.24e-12              -5.22e-12            
  1.7                   6.02e-12              -2.2e-13              6e-13                 -5.06e-12            
  1.8                   6.12e-12              -1.4e-13              1.02e-12              -5.12e-12            
  1.9                   6.18e-12              -2.6e-13              2.32e-12              -5.14e-12            
  2                     6.1e-12               -8e-14                1.12e-12              -5.26e-12            
  2.1                   6.22e-12              -2.6e-13              6.6e-13               -5.24e-12            
  2.2                   6.24e-12              -1.8e-13              1.34e-12              -5.32e-12            
  2.3                   6.16e-12              -2e-14                1.26e-12              -5.4e-12             
  2.4                   6.22e-12              -1.2e-13              5e-13                 -5.18e-12            
  2.5                   6.3e-12               -2e-13                1.76e-12              -5.2e-12             
  2.6                   6.3e-12               -1.2e-13              1.14e-12              -5.1e-12             
  2.7                   6.34e-12              -1.2e-13              1.24e-12              -5.22e-12            
  2.8                   6.24e-12              -2.2e-13              1.32e-12              -5.02e-12            
  2.9                   6.34e-12              -4e-14                1.72e-12              -5.14e-12            
  3                     6.42e-12              0                     1.28e-12              -5.38e-12            
  3.1                   6.4e-12               -1.2e-13              2.8e-13               -5.28e-12            
  3.2                   6.44e-12              -1.6e-13              1.46e-12              -5.18e-12            
  3.3                   6.48e-12              -2.2e-13              1.52e-12              -5.2e-12             
  3.4                   6.46e-12              -1e-13                1.6e-13               -5.34e-12            
  3.5                   6.64e-12              -6e-14                8.8e-13               -5.36e-12            
  3.6                   6.62e-12              -2.8e-13              1.52e-12              -5.18e-12            
END_DB

BEGIN_DB
 ICCAP_VAR vg         0.641          
 ICCAP_VAR vb         0              
 ICCAP_VAR vs         0              

 #vd                    id                    ig                    ib                    is                   
  0                     3.98e-12              1.8e-13               1.34e-12              -4.84e-12            
  0.1                   2.9828e-09            0                     4e-13                 -2.9804e-09          
  0.2                   3.05e-09              0                     1e-13                 -3.0468e-09          
  0.3                   3.0554e-09            4e-14                 1.34e-12              -3.0544e-09          
  0.4                   3.0514e-09            2e-14                 1.1e-12               -3.0508e-09          
  0.5                   3.0544e-09            2e-14                 1.22e-12              -3.0498e-09          
  0.6                   3.0548e-09            6e-14                 -8.4e-13              -3.0528e-09          
  0.7                   3.0576e-09            2e-14                 1e-13                 -3.0528e-09          
  0.8                   3.058e-09             8e-14                 3.8e-13               -3.051e-09           
  0.9                   3.054e-09             6e-14                 9.2e-13               -3.053e-09           
  1                     3.059e-09             -4e-14                1.82e-12              -3.0534e-09          
  1.1                   3.0624e-09            -1.2e-13              3.2e-13               -3.056e-09           
  1.2                   3.0526e-09            0                     2.2e-13               -3.0538e-09          
  1.3                   3.0602e-09            1e-13                 1.12e-12              -3.0606e-09          
  1.4                   3.0632e-09            -6e-14                1.32e-12              -3.0582e-09          
  1.5                   3.0628e-09            4e-14                 1.58e-12              -3.0654e-09          
  1.6                   3.0642e-09            4e-14                 5e-13                 -3.0604e-09          
  1.7                   3.063e-09             6e-14                 -2e-14                -3.0636e-09          
  1.8                   3.0718e-09            6e-14                 1.08e-12              -3.0642e-09          
  1.9                   3.05e-09              6e-14                 1.04e-12              -3.0412e-09          
  2                     3.0496e-09            -1.2e-13              5.4e-13               -3.0428e-09          
  2.1                   3.0688e-09            4e-14                 -8.4e-13              -3.0688e-09          
  2.2                   3.0696e-09            -6e-14                -1.06e-12             -3.0676e-09          
  2.3                   3.072e-09             0                     -1.54e-12             -3.0652e-09          
  2.4                   3.0732e-09            1.6e-13               -2.24e-12             -3.0704e-09          
  2.5                   3.076e-09             -2e-14                -3.52e-12             -3.0644e-09          
  2.6                   3.079e-09             4e-14                 -7.72e-12             -3.0706e-09          
  2.7                   3.0822e-09            6e-14                 -1e-11                -3.0714e-09          
  2.8                   3.0868e-09            -8e-14                -1.324e-11            -3.0676e-09          
  2.9                   3.0968e-09            8e-14                 -1.826e-11            -3.0696e-09          
  3                     3.0998e-09            -6e-14                -2.534e-11            -3.0688e-09          
  3.1                   3.1104e-09            0                     -3.444e-11            -3.0664e-09          
  3.2                   3.1196e-09            -4e-14                -4.462e-11            -3.0768e-09          
  3.3                   3.136e-09             -1e-13                -5.902e-11            -3.072e-09           
  3.4                   3.153e-09             1e-13                 -7.41e-11             -3.0746e-09          
  3.5                   3.1782e-09            6e-14                 -9.414e-11            -3.0708e-09          
  3.6                   3.1974e-09            8e-14                 -1.182e-10            -3.073e-09           
END_DB

BEGIN_DB
 ICCAP_VAR vg         0.841          
 ICCAP_VAR vb         0              
 ICCAP_VAR vs         0              

 #vd                    id                    ig                    ib                    is                   
  0                     4.492e-11             4e-14                 9.8e-13               -4.59e-11            
  0.1                   4.963e-08             2e-14                 1.5e-12               -4.9616e-08          
  0.2                   6.0788e-08            0                     -1.2e-13              -6.0782e-08          
  0.3                   6.1738e-08            -1.2e-13              3.6e-13               -6.1664e-08          
  0.4                   6.1808e-08            -8e-14                9.2e-13               -6.1798e-08          
  0.5                   6.185e-08             0                     1.44e-12              -6.1848e-08          
  0.6                   6.188e-08             -2e-13                2.2e-13               -6.1854e-08          
  0.7                   6.19e-08              -2e-14                1e-13                 -6.1896e-08          
  0.8                   6.1958e-08            -2e-14                6.4e-13               -6.1926e-08          
  0.9                   6.1968e-08            2.6e-13               1.64e-12              -6.1948e-08          
  1                     6.1996e-08            1.6e-13               1.2e-13               -6.1998e-08          
  1.1                   6.201e-08             1.4e-13               7.4e-13               -6.1988e-08          
  1.2                   6.2036e-08            1.2e-13               2e-13                 -6.2042e-08          
  1.3                   6.2062e-08            1.2e-13               5.2e-13               -6.2032e-08          
  1.4                   6.2074e-08            6e-14                 7.6e-13               -6.206e-08           
  1.5                   6.2096e-08            1e-13                 7.2e-13               -6.21e-08            
  1.6                   6.2126e-08            6e-14                 8.2e-13               -6.2084e-08          
  1.7                   6.2122e-08            4e-14                 5.2e-13               -6.2108e-08          
  1.8                   6.2154e-08            1.4e-13               1e-12                 -6.226e-08           
  1.9                   6.2276e-08            1e-13                 -1.04e-12             -6.2258e-08          
  2                     6.2278e-08            8e-14                 -3.44e-12             -6.226e-08           
  2.1                   6.2304e-08            6e-14                 -6.6e-12              -6.227e-08           
  2.2                   6.2338e-08            6e-14                 -1.188e-11            -6.229e-08           
  2.3                   6.2346e-08            -2e-14                -2.204e-11            -6.2338e-08          
  2.4                   6.239e-08             8e-14                 -3.542e-11            -6.2318e-08          
  2.5                   6.2402e-08            -2e-14                -5.546e-11            -6.2352e-08          
  2.6                   6.2468e-08            8e-14                 -8.17e-11             -6.2354e-08          
  2.7                   6.251e-08             8e-14                 -1.195e-10            -6.2394e-08          
  2.8                   6.2546e-08            0                     -1.71e-10             -6.2376e-08          
  2.9                   6.2634e-08            4e-14                 -2.3938e-10           -6.2386e-08          
  3                     6.275e-08             -1.2e-13              -3.2842e-10           -6.2392e-08          
  3.1                   6.2866e-08            1e-13                 -4.4444e-10           -6.2412e-08          
  3.2                   6.3046e-08            -1e-13                -5.9874e-10           -6.2422e-08          
  3.3                   6.3246e-08            2.2e-13               -7.8606e-10           -6.245e-08           
  3.4                   6.3542e-08            -8e-14                -1.024e-09            -6.248e-08           
  3.5                   6.3826e-08            4e-14                 -1.3186e-09           -6.249e-08           
  3.6                   6.4188e-08            2.2e-13               -1.6752e-09           -6.249e-08           
END_DB

