! VERSION = 6.00
BEGIN_HEADER
 ICCAP_INPUTS
  vd         V  D GROUND SMU1 0.1 LIN        1    0          3.6        37   0.1       
  vg         V  G GROUND SMU2 0.001 LIST       2 3 1.216 1.416 1.616
  vb         V  B GROUND SMU4 0.1 CON        -3.6
  vs         V  S GROUND SMU3 0.1 CON        0
 ICCAP_OUTPUTS
  id         I  D GROUND SMU1 B
  ig         I  G GROUND SMU2 B
  ib         I  B GROUND SMU4 B
  is         I  S GROUND SMU3 B
 ICCAP_VALUES
  MASTER_SETUP_TYPE "~dc_idvd~"
  LINVT_VALUE ""
  LISTVT_VALUE "|idvg|100.0n|-200.0m|1.000m|3|200.0m|200.0m|"
  TYPE "1"
  TEMP "-40.0000 "
  IS_TNOM " 0.00000 "
  MAIN.W "600.0n"
  MAIN.L "1.200u"
  MAIN.AD "204.0f"
  MAIN.AS "204.0f"
  MAIN.PD "1.880u"
  MAIN.PS "1.880u"
  MAIN.NF "1.000"
  MAIN.M "1"
  MAIN.NRD "0.000"
  MAIN.NRS "0.000"
  MAIN.LDRIFT1 "1E-06"
  MAIN.LDRIFT2 "1E-06"
  MAIN.SA "0.000"
  MAIN.SB "0.000"
  MAIN.SD "0.000"
  MAIN.SCA "0.000"
  MAIN.SCB "0.000"
  MAIN.SCC "0.000"
  MAIN.SC "0.000"
  MODULE "S559"
  PIN_D "14"
  PIN_G "7"
  PIN_S "8"
  PIN_B "13"
  PIN_E ""
  PIN_6 ""
  XY_ID ""
  FUNC "LW Scale"
  STI "SA ref"
  WPE "WPE ref"
  COMMENT ""
  DIS_MEAS ""
  TypeTCI "10"
END_HEADER

BEGIN_DB
 ICCAP_VAR vg         1.216          
 ICCAP_VAR vb         -3.6           
 ICCAP_VAR vs         0              

 #vd                    id                    ig                    ib                    is                   
  0                     -3e-13                1e-13                 -1.034e-11            0                    
  0.1                   3.976e-11             -1e-13                -1.016e-11            -3.968e-11           
  0.2                   4.074e-11             -1.4e-13              -7.9e-12              -4.044e-11           
  0.3                   4.13e-11              -1.2e-13              -6e-12                -4.086e-11           
  0.4                   4.16e-11              -2.2e-13              -6.58e-12             -4.132e-11           
  0.5                   4.202e-11             -1.8e-13              -5.88e-12             -4.148e-11           
  0.6                   4.24e-11              -1.8e-13              -4.6e-12              -4.196e-11           
  0.7                   4.268e-11             -2e-13                -4.84e-12             -4.21e-11            
  0.8                   4.308e-11             -1.2e-13              -5.38e-12             -4.25e-11            
  0.9                   4.326e-11             -2.2e-13              -4.02e-12             -4.268e-11           
  1                     4.366e-11             -1.6e-13              -3.4e-12              -4.292e-11           
  1.1                   4.37e-11              0                     -4.14e-12             -4.306e-11           
  1.2                   4.402e-11             -1.4e-13              -4.14e-12             -4.32e-11            
  1.3                   4.438e-11             -8e-14                -3.04e-12             -4.328e-11           
  1.4                   4.456e-11             2e-14                 -2.48e-12             -4.376e-11           
  1.5                   4.504e-11             6e-14                 -3.92e-12             -4.394e-11           
  1.6                   4.518e-11             -1.8e-13              -1.52e-12             -4.432e-11           
  1.7                   4.542e-11             -6e-14                -2.02e-12             -4.448e-11           
  1.8                   4.564e-11             0                     -2.6e-12              -4.47e-11            
  1.9                   4.574e-11             -1e-13                -2.6e-12              -4.5e-11             
  2                     4.606e-11             -2.2e-13              -2.12e-12             -4.498e-11           
  2.1                   4.636e-11             -6e-14                -1.82e-12             -4.532e-11           
  2.2                   4.656e-11             6e-14                 -3.36e-12             -4.562e-11           
  2.3                   4.686e-11             -2e-14                -3.34e-12             -4.558e-11           
  2.4                   4.7e-11               4e-14                 -1.68e-12             -4.61e-11            
  2.5                   4.726e-11             -4e-14                -3.48e-12             -4.622e-11           
  2.6                   4.754e-11             -1.2e-13              -2.4e-12              -4.65e-11            
  2.7                   4.802e-11             8e-14                 -1.78e-12             -4.67e-11            
  2.8                   4.816e-11             -1.4e-13              -6.42e-12             -4.69e-11            
  2.9                   4.846e-11             8e-14                 -2.82e-12             -4.708e-11           
  3                     4.86e-11              -2e-13                -2.26e-12             -4.714e-11           
  3.1                   4.88e-11              4e-14                 -2.02e-12             -4.726e-11           
  3.2                   4.924e-11             0                     -2.2e-12              -4.762e-11           
  3.3                   4.966e-11             -1.2e-13              -3.5e-12              -4.752e-11           
  3.4                   5.008e-11             -1.4e-13              -2.5e-12              -4.802e-11           
  3.5                   5.096e-11             -4e-14                -3.28e-12             -4.828e-11           
  3.6                   5.144e-11             -1.2e-13              -4.7e-12              -4.852e-11           
END_DB

BEGIN_DB
 ICCAP_VAR vg         1.416          
 ICCAP_VAR vb         -3.6           
 ICCAP_VAR vs         0              

 #vd                    id                    ig                    ib                    is                   
  0                     6.06e-11              2e-13                 -1.44e-12             -6.302e-11           
  0.1                   4.4474e-08            8e-14                 -1.18e-12             -4.4518e-08          
  0.2                   4.7044e-08            1.6e-13               -2.14e-12             -4.6964e-08          
  0.3                   4.739e-08             -1e-13                -3.32e-12             -4.7318e-08          
  0.4                   4.771e-08             4e-14                 -2e-12                -4.7736e-08          
  0.5                   4.8016e-08            4e-14                 -7.4e-13              -4.8104e-08          
  0.6                   4.8384e-08            1.2e-13               -1.84e-12             -4.8348e-08          
  0.7                   4.8596e-08            1e-13                 -2.66e-12             -4.863e-08           
  0.8                   4.8858e-08            1.8e-13               -1.14e-12             -4.8844e-08          
  0.9                   4.9098e-08            1.2e-13               -1.48e-12             -4.9192e-08          
  1                     4.9498e-08            -8e-14                -1.78e-12             -4.9452e-08          
  1.1                   4.969e-08             4e-14                 -1.76e-12             -4.9658e-08          
  1.2                   4.983e-08             -1.2e-13              -1.94e-12             -4.9866e-08          
  1.3                   5.0024e-08            -1.2e-13              -1.46e-12             -5.0034e-08          
  1.4                   5.014e-08             -2e-14                -1e-12                -5.0054e-08          
  1.5                   5.0236e-08            0                     -2.14e-12             -5.018e-08           
  1.6                   5.0414e-08            8e-14                 -2.58e-12             -5.0322e-08          
  1.7                   5.0578e-08            8e-14                 -2.08e-12             -5.0502e-08          
  1.8                   5.0738e-08            4e-14                 -1.34e-12             -5.0634e-08          
  1.9                   5.0878e-08            2e-14                 -2.22e-12             -5.09e-08            
  2                     5.0922e-08            0                     -3.64e-12             -5.1034e-08          
  2.1                   5.118e-08             -1.2e-13              -4.86e-12             -5.1146e-08          
  2.2                   5.1338e-08            6e-14                 -6.68e-12             -5.1366e-08          
  2.3                   5.1544e-08            6e-14                 -1.234e-11            -5.1506e-08          
  2.4                   5.172e-08             1.4e-13               -2.112e-11            -5.1696e-08          
  2.5                   5.1838e-08            2e-14                 -3.31e-11             -5.1844e-08          
  2.6                   5.2064e-08            2e-14                 -4.942e-11            -5.1954e-08          
  2.7                   5.213e-08             1.4e-13               -7.332e-11            -5.2142e-08          
  2.8                   5.2388e-08            6e-14                 -1.0976e-10           -5.2308e-08          
  2.9                   5.2574e-08            4e-14                 -1.5726e-10           -5.245e-08           
  3                     5.2774e-08            1.2e-13               -2.2116e-10           -5.2568e-08          
  3.1                   5.3064e-08            -6e-14                -3.07e-10             -5.2742e-08          
  3.2                   5.3328e-08            4e-14                 -4.2224e-10           -5.288e-08           
  3.3                   5.3624e-08            -1.2e-13              -5.7448e-10           -5.3054e-08          
  3.4                   5.4216e-08            8e-14                 -7.6822e-10           -5.338e-08           
  3.5                   5.4596e-08            0                     -1.0144e-09           -5.3572e-08          
  3.6                   5.5014e-08            6e-14                 -1.3268e-09           -5.368e-08           
END_DB

BEGIN_DB
 ICCAP_VAR vg         1.616          
 ICCAP_VAR vb         -3.6           
 ICCAP_VAR vs         0              

 #vd                    id                    ig                    ib                    is                   
  0                     5.74e-10              2e-13                 -1.54e-12             -5.7782e-10          
  0.1                   7.8248e-07            1.4e-13               5.6e-13               -7.821e-07           
  0.2                   1.03658e-06           1.2e-13               -2.24e-12             -1.03692e-06         
  0.3                   1.0961e-06            8e-14                 -3.34e-12             -1.09524e-06         
  0.4                   1.1141e-06            1e-13                 -1.64e-12             -1.11534e-06         
  0.5                   1.12374e-06           1e-13                 -2.02e-12             -1.1234e-06          
  0.6                   1.13046e-06           6e-14                 -2.16e-12             -1.131e-06           
  0.7                   1.138e-06             1e-13                 -1.18e-12             -1.13694e-06         
  0.8                   1.143e-06             8e-14                 -2.2e-12              -1.1415e-06          
  0.9                   1.1462e-06            6e-14                 -1.62e-12             -1.14486e-06         
  1                     1.151e-06             6e-14                 -1.72e-12             -1.1491e-06          
  1.1                   1.1544e-06            8e-14                 -2.26e-12             -1.15244e-06         
  1.2                   1.1586e-06            8e-14                 -1.16e-12             -1.1559e-06          
  1.3                   1.1606e-06            8e-14                 -1.86e-12             -1.15896e-06         
  1.4                   1.1648e-06            1.8e-13               -2.1e-12              -1.16132e-06         
  1.5                   1.167e-06             1.6e-13               -2e-13                -1.16474e-06         
  1.6                   1.1696e-06            1.4e-13               -1.88e-12             -1.16782e-06         
  1.7                   1.1726e-06            1.2e-13               -1.62e-12             -1.1674e-06          
  1.8                   1.1744e-06            -4e-14                -3.2e-12              -1.1712e-06          
  1.9                   1.177e-06             4e-14                 -2.68e-12             -1.1736e-06          
  2                     1.18e-06              0                     -9.28e-12             -1.1764e-06          
  2.1                   1.1822e-06            2e-13                 -2.042e-11            -1.1778e-06          
  2.2                   1.1856e-06            6e-14                 -4.39e-11             -1.1818e-06          
  2.3                   1.1874e-06            -2e-14                -8.896e-11            -1.1828e-06          
  2.4                   1.1898e-06            -4e-14                -1.6644e-10           -1.1864e-06          
  2.5                   1.1912e-06            0                     -2.9358e-10           -1.1868e-06          
  2.6                   1.1948e-06            1.4e-13               -4.9342e-10           -1.1898e-06          
  2.7                   1.1972e-06            -1e-13                -7.9096e-10           -1.1924e-06          
  2.8                   1.1998e-06            -4e-14                -1.2246e-09           -1.1938e-06          
  2.9                   1.2026e-06            2e-14                 -1.8346e-09           -1.197e-06           
  3                     1.2054e-06            1.2e-13               -2.6982e-09           -1.199e-06           
  3.1                   1.2084e-06            8e-14                 -3.8646e-09           -1.2022e-06          
  3.2                   1.213e-06             -2e-14                -5.4598e-09           -1.2032e-06          
  3.3                   1.2162e-06            1.4e-13               -7.5918e-09           -1.205e-06           
  3.4                   1.2212e-06            2e-14                 -1.0425e-08           -1.207e-06           
  3.5                   1.226e-06             -2e-14                -1.405e-08            -1.2078e-06          
  3.6                   1.2336e-06            1.2e-13               -1.8708e-08           -1.2104e-06          
END_DB

