! VERSION = 6.00
BEGIN_HEADER
 ICCAP_INPUTS
  vd         V  D GROUND SMU1 0.1 LIN        1    0          3.6        37   0.1       
  vg         V  G GROUND SMU2 0.001 LIST       2 3 0.238 0.438 0.638
  vb         V  B GROUND SMU4 0.1 CON        0
  vs         V  S GROUND SMU3 0.1 CON        0
 ICCAP_OUTPUTS
  id         I  D GROUND SMU1 B
  ig         I  G GROUND SMU2 B
  ib         I  B GROUND SMU4 B
  is         I  S GROUND SMU3 B
 ICCAP_VALUES
  MASTER_SETUP_TYPE "~dc_idvd~"
  LINVT_VALUE ""
  LISTVT_VALUE "|idvg|100.0n|-200.0m|1.000m|3|200.0m|200.0m|"
  TYPE "1"
  TEMP " 27.0000 "
  IS_TNOM " 1.00000 "
  MAIN.W "5.000u"
  MAIN.L "330.0n"
  MAIN.AD "1.700p"
  MAIN.AS "1.700p"
  MAIN.PD "10.68u"
  MAIN.PS "10.68u"
  MAIN.NF "1.000"
  MAIN.M "1"
  MAIN.NRD "0.000"
  MAIN.NRS "0.000"
  MAIN.LDRIFT1 "1E-06"
  MAIN.LDRIFT2 "1E-06"
  MAIN.SA "0.000"
  MAIN.SB "0.000"
  MAIN.SD "0.000"
  MAIN.SCA "0.000"
  MAIN.SCB "0.000"
  MAIN.SCC "0.000"
  MAIN.SC "0.000"
  MODULE "S557"
  PIN_D "14"
  PIN_G "7"
  PIN_S "8"
  PIN_B "13"
  PIN_E ""
  PIN_6 ""
  XY_ID ""
  FUNC "Additional"
  STI "SA ref"
  WPE "WPE ref"
  COMMENT ""
  DIS_MEAS ""
  TypeTCI "10"
END_HEADER

BEGIN_DB
 ICCAP_VAR vg         0.238          
 ICCAP_VAR vb         0              
 ICCAP_VAR vs         0              

 #vd                    id                    ig                    ib                    is                   
  0                     1.9e-12               -5.4e-13              2.74e-12              -1.16e-12            
  0.1                   8.0206e-10            -5e-13                2.66e-12              -8.0206e-10          
  0.2                   1.0174e-09            -5.4e-13              1.64e-12              -1.01688e-09         
  0.3                   1.2392e-09            -3.8e-13              3.6e-12               -1.2368e-09          
  0.4                   1.4912e-09            -4.8e-13              2.9e-12               -1.4876e-09          
  0.5                   1.7746e-09            -5.4e-13              1.38e-12              -1.7724e-09          
  0.6                   2.0974e-09            -4e-13                2e-12                 -2.0944e-09          
  0.7                   2.4668e-09            -5e-13                1.96e-12              -2.4634e-09          
  0.8                   2.8862e-09            -6.2e-13              2.14e-12              -2.8824e-09          
  0.9                   3.365e-09             -3e-13                2.36e-12              -3.3622e-09          
  1                     3.9114e-09            -4.8e-13              1.7e-12               -3.9086e-09          
  1.1                   4.5376e-09            -3.4e-13              1.26e-12              -4.5338e-09          
  1.2                   5.2476e-09            -3.2e-13              1.98e-12              -5.2434e-09          
  1.3                   6.0578e-09            -3.4e-13              2.68e-12              -6.0508e-09          
  1.4                   6.9788e-09            -4e-13                2.4e-12               -6.9774e-09          
  1.5                   8.0408e-09            -1.2e-13              1.28e-12              -8.0338e-09          
  1.6                   9.244e-09             -3.4e-13              2.2e-13               -9.2442e-09          
  1.7                   1.06198e-08           -3.4e-13              -1.6e-13              -1.06102e-08         
  1.8                   1.2192e-08            -2.6e-13              -1.72e-12             -1.216e-08           
  1.9                   1.398e-08             -2e-13                -5.54e-12             -1.394e-08           
  2                     1.6006e-08            -3.2e-13              -1.25e-11             -1.5966e-08          
  2.1                   1.8326e-08            -2.6e-13              -2.142e-11            -1.8276e-08          
  2.2                   2.0964e-08            -3.8e-13              -3.688e-11            -2.0898e-08          
  2.3                   2.3974e-08            0                     -6.236e-11            -2.3888e-08          
  2.4                   2.7392e-08            -1.2e-13              -9.966e-11            -2.7266e-08          
  2.5                   3.13e-08              -2.4e-13              -1.5464e-10           -3.1116e-08          
  2.6                   3.575e-08             -2.6e-13              -2.3716e-10           -3.5482e-08          
  2.7                   4.0838e-08            -8e-14                -3.6062e-10           -4.043e-08           
  2.8                   4.6588e-08            -1.2e-13              -5.375e-10            -4.604e-08           
  2.9                   5.3192e-08            -3.2e-13              -7.9112e-10           -5.2374e-08          
  3                     6.0712e-08            -2.4e-13              -1.148e-09            -5.9574e-08          
  3.1                   6.9328e-08            -1.6e-13              -1.6474e-09           -6.7666e-08          
  3.2                   7.9196e-08            -2e-13                -2.332e-09            -7.6826e-08          
  3.3                   9.0416e-08            -2.8e-13              -3.2556e-09           -8.7152e-08          
  3.4                   1.03252e-07           -1e-13                -4.4894e-09           -9.8658e-08          
  3.5                   1.1808e-07            -3e-13                -6.1244e-09           -1.11772e-07         
  3.6                   1.3472e-07            -2.6e-13              -8.2482e-09           -1.2628e-07          
END_DB

BEGIN_DB
 ICCAP_VAR vg         0.438          
 ICCAP_VAR vb         0              
 ICCAP_VAR vs         0              

 #vd                    id                    ig                    ib                    is                   
  0                     2.653e-10             -3.4e-13              2.1e-12               -2.5834e-10          
  0.1                   1.8178e-07            1.4e-13               2.04e-12              -1.8156e-07          
  0.2                   2.3844e-07            -4e-14                1e-12                 -2.384e-07           
  0.3                   2.9226e-07            1e-13                 2.3e-12               -2.9212e-07          
  0.4                   3.4996e-07            0                     1.82e-12              -3.501e-07           
  0.5                   4.129e-07             -1.2e-13              1.38e-12              -4.1272e-07          
  0.6                   4.8408e-07            0                     1.56e-12              -4.8384e-07          
  0.7                   5.5914e-07            1.2e-13               2.72e-12              -5.591e-07           
  0.8                   6.4072e-07            -1e-13                1.52e-12              -6.4052e-07          
  0.9                   7.2966e-07            -4e-14                1.22e-12              -7.294e-07           
  1                     8.2698e-07            -1.6e-13              -1.9e-12              -8.2706e-07          
  1.1                   9.3368e-07            -2.4e-13              1.62e-12              -9.3316e-07          
  1.2                   1.0481e-06            -2e-14                1.3e-12               -1.04768e-06         
  1.3                   1.1774e-06            -1.6e-13              -4.6e-13              -1.1732e-06          
  1.4                   1.3134e-06            6e-14                 -8.4e-12              -1.3042e-06          
  1.5                   1.4598e-06            8e-14                 -2.722e-11            -1.458e-06           
  1.6                   1.6222e-06            -1.2e-13              -7.022e-11            -1.6184e-06          
  1.7                   1.7948e-06            -8e-14                -1.6066e-10           -1.7906e-06          
  1.8                   1.9814e-06            8e-14                 -3.3162e-10           -1.977e-06           
  1.9                   2.1834e-06            -4e-14                -6.306e-10            -2.1742e-06          
  2                     2.3952e-06            8e-14                 -1.1306e-09           -2.3888e-06          
  2.1                   2.6238e-06            -8e-14                -1.9444e-09           -2.6214e-06          
  2.2                   2.8762e-06            -1.2e-13              -3.2072e-09           -2.8698e-06          
  2.3                   3.1432e-06            -2e-14                -5.1326e-09           -3.1414e-06          
  2.4                   3.4378e-06            -8e-14                -7.9798e-09           -3.4254e-06          
  2.5                   3.7462e-06            -8e-14                -1.2138e-08           -3.7304e-06          
  2.6                   4.0778e-06            -2.4e-13              -1.8104e-08           -4.0542e-06          
  2.7                   4.4286e-06            -2e-13                -2.6552e-08           -4.399e-06           
  2.8                   4.8082e-06            -4e-14                -3.8384e-08           -4.7642e-06          
  2.9                   5.213e-06             -6e-14                -5.4648e-08           -5.1546e-06          
  3                     5.6484e-06            -2.4e-13              -7.6838e-08           -5.5686e-06          
  3.1                   6.1164e-06            -8e-14                -1.06528e-07          -6.006e-06           
  3.2                   6.6174e-06            -1.2e-13              -1.4554e-07           -6.4686e-06          
  3.3                   7.1592e-06            -2e-13                -1.9574e-07           -6.9562e-06          
  3.4                   7.7228e-06            -6e-14                -2.6062e-07           -7.4562e-06          
  3.5                   8.3498e-06            2e-14                 -3.4246e-07           -8.002e-06           
  3.6                   9.0218e-06            -2e-14                -4.458e-07            -8.5798e-06          
END_DB

BEGIN_DB
 ICCAP_VAR vg         0.638          
 ICCAP_VAR vb         0              
 ICCAP_VAR vs         0              

 #vd                    id                    ig                    ib                    is                   
  0                     2.7624e-09            -2e-14                2.48e-12              -4.3382e-09          
  0.1                   8.04e-06              4e-14                 2.04e-12              -8.0086e-06          
  0.2                   1.09544e-05           1.2e-13               1.64e-12              -1.09536e-05         
  0.3                   1.295e-05             -1.4e-13              1.16e-12              -1.2916e-05          
  0.4                   1.4664e-05            8e-14                 2e-12                 -1.464e-05           
  0.5                   1.629e-05             -8e-14                2.18e-12              -1.6274e-05          
  0.6                   1.7872e-05            -2e-14                1.38e-12              -1.7892e-05          
  0.7                   1.945e-05             0                     1.42e-12              -1.9432e-05          
  0.8                   2.102e-05             2.4e-13               1.6e-12               -2.1014e-05          
  0.9                   2.2598e-05            1.4e-13               1.42e-12              -2.2584e-05          
  1                     2.4196e-05            -2e-13                1.68e-12              -2.4176e-05          
  1.1                   2.5808e-05            -8e-14                1.22e-12              -2.5788e-05          
  1.2                   2.7424e-05            1.2e-13               -2.6e-12              -2.741e-05           
  1.3                   2.9082e-05            4e-14                 -1.416e-11            -2.9074e-05          
  1.4                   3.0784e-05            -1.8e-13              -6.32e-11             -3.0758e-05          
  1.5                   3.2488e-05            6e-14                 -2.0828e-10           -3.248e-05           
  1.6                   3.4232e-05            2e-14                 -5.7426e-10           -3.4212e-05          
  1.7                   3.6006e-05            -2e-14                -1.3814e-09           -3.603e-05           
  1.8                   3.7838e-05            2e-13                 -2.9806e-09           -3.781e-05           
  1.9                   3.9674e-05            -4e-14                -5.886e-09            -3.9684e-05          
  2                     4.1618e-05            -1.2e-13              -1.08018e-08          -4.157e-05           
  2.1                   4.3532e-05            -4e-14                -1.8706e-08           -4.3502e-05          
  2.2                   4.5514e-05            4e-14                 -3.0862e-08           -4.5466e-05          
  2.3                   4.7536e-05            -1e-13                -4.8952e-08           -4.7478e-05          
  2.4                   4.9612e-05            -4e-14                -7.5094e-08           -4.9506e-05          
  2.5                   5.1716e-05            6e-14                 -1.1227e-07           -5.1592e-05          
  2.6                   5.3912e-05            -1.6e-13              -1.6414e-07           -5.3728e-05          
  2.7                   5.6156e-05            2e-14                 -2.3544e-07           -5.5904e-05          
  2.8                   5.8462e-05            4e-14                 -3.3242e-07           -5.8118e-05          
  2.9                   6.0872e-05            -1.2e-13              -4.6246e-07           -6.04e-05            
  3                     6.339e-05             2e-14                 -6.35e-07             -6.2722e-05          
  3.1                   6.5996e-05            1e-13                 -8.607e-07            -6.5106e-05          
  3.2                   6.8742e-05            2e-14                 -1.1514e-06           -6.7558e-05          
  3.3                   7.159e-05             1e-13                 -1.5196e-06           -7.006e-05           
  3.4                   7.464e-05             1.2e-13               -1.9826e-06           -7.2656e-05          
  3.5                   7.7856e-05            2e-14                 -2.5548e-06           -7.5298e-05          
  3.6                   8.128e-05             -8e-14                -3.2496e-06           -7.8014e-05          
END_DB

