! VERSION = 6.00
BEGIN_HEADER
 ICCAP_INPUTS
  vg         V  G GROUND SMU2 0.001 LIN        1    -0.5       3.6        83   0.05      
  vb         V  B GROUND SMU4 0.1 LIN        2    0          -3.6       5    -0.9      
  vd         V  D GROUND SMU1 0.1 LIN        3    0.1        3.3        3    1.6       
  vs         V  S GROUND SMU3 0.1 CON        0
 ICCAP_OUTPUTS
  id         I  D GROUND SMU1 B
  ig         I  G GROUND SMU2 B
  ib         I  B GROUND SMU4 B
  is         I  S GROUND SMU3 B
 ICCAP_VALUES
  MASTER_SETUP_TYPE "~dc_idvg~"
  LINVT_VALUE ""
  LISTVT_VALUE ""
  TYPE "1"
  TEMP " 125.000 "
  IS_TNOM " 0.00000 "
  MAIN.W "600.0n"
  MAIN.L "1.200u"
  MAIN.AD "204.0f"
  MAIN.AS "204.0f"
  MAIN.PD "1.880u"
  MAIN.PS "1.880u"
  MAIN.NF "1.000"
  MAIN.M "1"
  MAIN.NRD "0.000"
  MAIN.NRS "0.000"
  MAIN.LDRIFT1 "1E-06"
  MAIN.LDRIFT2 "1E-06"
  MAIN.SA "0.000"
  MAIN.SB "0.000"
  MAIN.SD "0.000"
  MAIN.SCA "0.000"
  MAIN.SCB "0.000"
  MAIN.SCC "0.000"
  MAIN.SC "0.000"
  MODULE "S559"
  PIN_D "14"
  PIN_G "7"
  PIN_S "8"
  PIN_B "13"
  PIN_E ""
  PIN_6 ""
  XY_ID ""
  FUNC "LW Scale"
  STI "SA ref"
  WPE "WPE ref"
  COMMENT ""
  DIS_MEAS ""
  TypeTCI "10"
END_HEADER

BEGIN_DB
 ICCAP_VAR vb         0              
 ICCAP_VAR vd         0.1            
 ICCAP_VAR vs         0              

 #vg                    id                    ig                    ib                    is                   
  -0.5                  2.6e-13               -5.4574e-08           5.4558e-08            4.8e-13              
  -0.45                 -1.44e-12             -1.2874e-08           1.2894e-08            2.2e-13              
  -0.4                  -1.42e-12             -3.0336e-09           3.058e-09             1.2e-13              
  -0.35                 -6e-14                -7.1576e-10           7.3964e-10            4e-14                
  -0.3                  -6e-14                -1.6856e-10           1.915e-10             4e-14                
  -0.25                 -1e-13                -4.004e-11            6.294e-11             1.2e-13              
  -0.2                  4e-14                 -9.42e-12             3.182e-11             1e-13                
  -0.15                 1.6e-13               -2.18e-12             2.496e-11             0                    
  -0.1                  3.4e-13               -3e-13                2.29e-11              -2.8e-13             
  -0.05                 9e-13                 2e-13                 2.164e-11             -9e-13               
  0                     2.52e-12              2.8e-13               1.986e-11             -2.4e-12             
  0.05                  6.68e-12              6.2e-13               2.018e-11             -6.58e-12            
  0.1                   1.748e-11             5.2e-13               2.012e-11             -1.74e-11            
  0.15                  4.682e-11             6.2e-13               2.078e-11             -4.686e-11           
  0.2                   1.2638e-10            4.8e-13               1.982e-11             -1.2608e-10          
  0.25                  3.45e-10              6.2e-13               1.922e-11             -3.447e-10           
  0.3                   9.4298e-10            7e-13                 1.908e-11             -9.4262e-10          
  0.35                  2.5712e-09            5.6e-13               1.848e-11             -2.5692e-09          
  0.4                   6.828e-09             6.4e-13               1.838e-11             -6.8242e-09          
  0.45                  1.7288e-08            6.2e-13               1.912e-11             -1.7272e-08          
  0.5                   4.021e-08             8.2e-13               1.82e-11              -4.0186e-08          
  0.55                  8.4254e-08            7.6e-13               1.732e-11             -8.4244e-08          
  0.6                   1.582e-07             8.2e-13               1.716e-11             -1.5804e-07          
  0.65                  2.6652e-07            7.8e-13               1.832e-11             -2.6644e-07          
  0.7                   4.0948e-07            1e-12                 1.788e-11             -4.0938e-07          
  0.75                  5.835e-07             7.6e-13               1.612e-11             -5.836e-07           
  0.8                   7.8134e-07            9.4e-13               1.61e-11              -7.8124e-07          
  0.85                  9.981e-07             1.02e-12              1.678e-11             -9.9808e-07          
  0.9                   1.2282e-06            8.6e-13               1.584e-11             -1.2238e-06          
  0.95                  1.4646e-06            9.4e-13               1.498e-11             -1.4616e-06          
  1                     1.707e-06             9.4e-13               1.562e-11             -1.7038e-06          
  1.05                  1.9544e-06            1.04e-12              1.63e-11              -1.951e-06           
  1.1                   2.2008e-06            8.2e-13               1.554e-11             -2.1984e-06          
  1.15                  2.4488e-06            1.12e-12              1.452e-11             -2.4466e-06          
  1.2                   2.6964e-06            9.8e-13               1.394e-11             -2.6934e-06          
  1.25                  2.9432e-06            1.02e-12              1.486e-11             -2.9396e-06          
  1.3                   3.1886e-06            1.04e-12              1.46e-11              -3.1848e-06          
  1.35                  3.4304e-06            1e-12                 1.438e-11             -3.427e-06           
  1.4                   3.6718e-06            1.06e-12              1.368e-11             -3.6678e-06          
  1.45                  3.9092e-06            1.06e-12              1.358e-11             -3.9058e-06          
  1.5                   4.1452e-06            1.28e-12              1.436e-11             -4.1422e-06          
  1.55                  4.3776e-06            1.1e-12               1.42e-11              -4.3748e-06          
  1.6                   4.6062e-06            1.22e-12              1.404e-11             -4.6028e-06          
  1.65                  4.833e-06             9.6e-13               1.302e-11             -4.8296e-06          
  1.7                   5.0574e-06            1.22e-12              1.282e-11             -5.0538e-06          
  1.75                  5.2772e-06            1.26e-12              1.406e-11             -5.2734e-06          
  1.8                   5.4942e-06            1.2e-12               1.414e-11             -5.4908e-06          
  1.85                  5.7076e-06            1.26e-12              1.314e-11             -5.704e-06           
  1.9                   5.918e-06             1.22e-12              1.29e-11              -5.9146e-06          
  1.95                  6.124e-06             1.26e-12              1.282e-11             -6.1214e-06          
  2                     6.3288e-06            1.28e-12              1.358e-11             -6.3256e-06          
  2.05                  6.5286e-06            1.22e-12              1.352e-11             -6.5262e-06          
  2.1                   6.726e-06             1.06e-12              1.176e-11             -6.7226e-06          
  2.15                  6.9198e-06            1.16e-12              1.22e-11              -6.9162e-06          
  2.2                   7.1082e-06            1.14e-12              1.242e-11             -7.105e-06           
  2.25                  7.2958e-06            1.38e-12              1.25e-11              -7.2924e-06          
  2.3                   7.4788e-06            1.22e-12              1.218e-11             -7.4758e-06          
  2.35                  7.66e-06              1.28e-12              1.164e-11             -7.6566e-06          
  2.4                   7.8366e-06            1.3e-12               1.172e-11             -7.8334e-06          
  2.45                  8.01e-06              1.36e-12              1.188e-11             -8.0072e-06          
  2.5                   8.1818e-06            1.24e-12              1.21e-11              -8.1786e-06          
  2.55                  8.3492e-06            1.38e-12              1.152e-11             -8.3452e-06          
  2.6                   8.512e-06             1.42e-12              1.084e-11             -8.5078e-06          
  2.65                  8.674e-06             1.44e-12              1.06e-11              -8.67e-06            
  2.7                   8.831e-06             1.4e-12               1.154e-11             -8.8278e-06          
  2.75                  8.9862e-06            1.4e-12               1.19e-11              -8.9834e-06          
  2.8                   9.138e-06             1.34e-12              1.024e-11             -9.134e-06           
  2.85                  9.2854e-06            1.54e-12              1.04e-11              -9.2822e-06          
  2.9                   9.4304e-06            1.46e-12              1.094e-11             -9.4274e-06          
  2.95                  9.5726e-06            1.38e-12              1.164e-11             -9.5698e-06          
  3                     9.712e-06             1.32e-12              1.082e-11             -9.7084e-06          
  3.05                  9.8488e-06            1.38e-12              1.026e-11             -9.8448e-06          
  3.1                   9.9812e-06            1.34e-12              1.058e-11             -9.978e-06           
  3.15                  1.01114e-05           1.46e-12              1.01e-11              -1.01088e-05         
  3.2                   1.02392e-05           1.38e-12              1.062e-11             -1.0236e-05          
  3.25                  1.03638e-05           1.42e-12              1.004e-11             -1.03606e-05         
  3.3                   1.04856e-05           1.42e-12              9.92e-12              -1.04822e-05         
  3.35                  1.06048e-05           1.44e-12              9.74e-12              -1.06008e-05         
  3.4                   1.0721e-05            1.5e-12               9.8e-12               -1.07174e-05         
  3.45                  1.08352e-05           1.58e-12              1.038e-11             -1.08318e-05         
  3.5                   1.09466e-05           1.46e-12              9.46e-12              -1.0943e-05          
  3.55                  1.10548e-05           1.56e-12              9.02e-12              -1.10512e-05         
  3.6                   1.11606e-05           1.66e-12              1.024e-11             -1.1157e-05          
END_DB

BEGIN_DB
 ICCAP_VAR vb         -0.9           
 ICCAP_VAR vd         0.1            
 ICCAP_VAR vs         0              

 #vg                    id                    ig                    ib                    is                   
  -0.5                  0                     -1.12e-12             -3.414e-11            2.8e-13              
  -0.45                 2e-14                 -6.2e-13              -2.86e-11             1.6e-13              
  -0.4                  0                     -5e-13                -2.678e-11            2.2e-13              
  -0.35                 -6e-14                -4e-13                -2.446e-11            2.6e-13              
  -0.3                  -2e-14                -2.6e-13              -2.254e-11            3.4e-13              
  -0.25                 -6e-14                -1.6e-13              -2.044e-11            2.8e-13              
  -0.2                  -6e-14                6e-14                 -1.87e-11             2.8e-13              
  -0.15                 6e-14                 4e-14                 -1.652e-11            2.4e-13              
  -0.1                  4e-14                 4e-14                 -1.474e-11            2.4e-13              
  -0.05                 -1.4e-13              1.8e-13               -1.534e-11            3.4e-13              
  0                     -2e-14                1e-13                 -1.448e-11            2.8e-13              
  0.05                  4e-14                 3.8e-13               -1.29e-11             2.2e-13              
  0.1                   0                     3.2e-13               -1.174e-11            2.4e-13              
  0.15                  0                     4.4e-13               -1.038e-11            1e-13                
  0.2                   1.8e-13               4.6e-13               -1.008e-11            -2e-14               
  0.25                  5.6e-13               5.4e-13               -9.38e-12             -4e-13               
  0.3                   1.7e-12               5.8e-13               -1.05e-11             -1.44e-12            
  0.35                  5.3e-12               5.8e-13               -1.008e-11            -5.06e-12            
  0.4                   1.662e-11             5.8e-13               -8.42e-12             -1.638e-11           
  0.45                  5.18e-11              5.2e-13               -7.06e-12             -5.154e-11           
  0.5                   1.6126e-10            6.2e-13               -7.94e-12             -1.6092e-10          
  0.55                  5.021e-10             6.8e-13               -7.88e-12             -5.0156e-10          
  0.6                   1.5384e-09            4.6e-13               -6.8e-12              -1.5378e-09          
  0.65                  4.5994e-09            7e-13                 -7.02e-12             -4.602e-09           
  0.7                   1.2898e-08            6.4e-13               -5.46e-12             -1.2838e-08          
  0.75                  3.2648e-08            7e-13                 -5.96e-12             -3.2618e-08          
  0.8                   7.2592e-08            7e-13                 -6.74e-12             -7.2588e-08          
  0.85                  1.4166e-07            8.4e-13               -5.16e-12             -1.4154e-07          
  0.9                   2.4392e-07            6.2e-13               -5.44e-12             -2.4392e-07          
  0.95                  3.7964e-07            9.8e-13               -5.8e-12              -3.7966e-07          
  1                     5.4452e-07            8.4e-13               -5.16e-12             -5.4454e-07          
  1.05                  7.3322e-07            9e-13                 -5.74e-12             -7.331e-07           
  1.1                   9.381e-07             1.04e-12              -4.1e-12              -9.3788e-07          
  1.15                  1.1566e-06            8e-13                 -5.24e-12             -1.1536e-06          
  1.2                   1.3818e-06            1.06e-12              -4.56e-12             -1.3778e-06          
  1.25                  1.6118e-06            8.8e-13               -5.02e-12             -1.6082e-06          
  1.3                   1.8444e-06            9.2e-13               -4.1e-12              -1.8416e-06          
  1.35                  2.0792e-06            1.08e-12              -3.26e-12             -2.0752e-06          
  1.4                   2.3136e-06            9.8e-13               -4.12e-12             -2.3102e-06          
  1.45                  2.5478e-06            1.18e-12              -3.72e-12             -2.544e-06           
  1.5                   2.7802e-06            9e-13                 -3.36e-12             -2.7772e-06          
  1.55                  3.0124e-06            1.4e-12               -2.66e-12             -3.0096e-06          
  1.6                   3.241e-06             1.08e-12              -3.12e-12             -3.2382e-06          
  1.65                  3.4694e-06            1.12e-12              -4.94e-12             -3.4662e-06          
  1.7                   3.695e-06             1.38e-12              -3.06e-12             -3.6916e-06          
  1.75                  3.9168e-06            1.02e-12              -1.98e-12             -3.9144e-06          
  1.8                   4.1378e-06            1.26e-12              -2.02e-12             -4.1338e-06          
  1.85                  4.3546e-06            1.12e-12              -3.36e-12             -4.3518e-06          
  1.9                   4.5682e-06            1.1e-12               -3.36e-12             -4.5644e-06          
  1.95                  4.779e-06             1.26e-12              -2.52e-12             -4.7752e-06          
  2                     4.987e-06             1.22e-12              -2.06e-12             -4.9828e-06          
  2.05                  5.192e-06             1.22e-12              -2.26e-12             -5.1886e-06          
  2.1                   5.3926e-06            1.28e-12              -3.14e-12             -5.3896e-06          
  2.15                  5.5924e-06            1.22e-12              -2.7e-12              -5.5884e-06          
  2.2                   5.786e-06             1.36e-12              -2.9e-12              -5.7822e-06          
  2.25                  5.9784e-06            1.2e-12               -1.98e-12             -5.9752e-06          
  2.3                   6.1668e-06            1.32e-12              -2.22e-12             -6.1628e-06          
  2.35                  6.3522e-06            1.34e-12              -2.68e-12             -6.3494e-06          
  2.4                   6.5344e-06            1.28e-12              -2.8e-12              -6.5312e-06          
  2.45                  6.7126e-06            1.54e-12              -1.86e-12             -6.7098e-06          
  2.5                   6.8884e-06            1.34e-12              -6.6e-13              -6.8848e-06          
  2.55                  7.0602e-06            1.3e-12               -2.66e-12             -7.0572e-06          
  2.6                   7.229e-06             1.34e-12              -2.62e-12             -7.2258e-06          
  2.65                  7.3952e-06            1.46e-12              -2.24e-12             -7.3916e-06          
  2.7                   7.5574e-06            1.54e-12              -1.04e-12             -7.5544e-06          
  2.75                  7.7172e-06            1.34e-12              -1.8e-12              -7.7142e-06          
  2.8                   7.8738e-06            1.48e-12              -2.68e-12             -7.8706e-06          
  2.85                  8.027e-06             1.44e-12              -2.04e-12             -8.0242e-06          
  2.9                   8.1768e-06            1.36e-12              -1.34e-12             -8.1736e-06          
  2.95                  8.3242e-06            1.62e-12              -1.72e-12             -8.3212e-06          
  3                     8.4686e-06            1.32e-12              -1.84e-12             -8.465e-06           
  3.05                  8.6094e-06            1.44e-12              -2.42e-12             -8.6056e-06          
  3.1                   8.7472e-06            1.56e-12              -2.88e-12             -8.7436e-06          
  3.15                  8.8832e-06            1.42e-12              -2.26e-12             -8.8796e-06          
  3.2                   9.0146e-06            1.64e-12              -1.52e-12             -9.0114e-06          
  3.25                  9.1446e-06            1.4e-12               -1.82e-12             -9.1412e-06          
  3.3                   9.271e-06             1.48e-12              -2.92e-12             -9.2672e-06          
  3.35                  9.3948e-06            1.66e-12              -2.04e-12             -9.3914e-06          
  3.4                   9.5152e-06            1.5e-12               -1.18e-12             -9.5116e-06          
  3.45                  9.6336e-06            1.56e-12              -1.18e-12             -9.6298e-06          
