! VERSION = 6.00
BEGIN_HEADER
 ICCAP_INPUTS
  vd         V  D GROUND SMU1 0.1 LIN        1    0          3.6        37   0.1       
  vg         V  G GROUND SMU2 0.001 LIN        2    0.54       3.6        5    0.765     
  vb         V  B GROUND SMU4 0.1 CON        0
  vs         V  S GROUND SMU3 0.1 CON        0
 ICCAP_OUTPUTS
  id         I  D GROUND SMU1 B
  ig         I  G GROUND SMU2 B
  ib         I  B GROUND SMU4 B
  is         I  S GROUND SMU3 B
 ICCAP_VALUES
  MASTER_SETUP_TYPE "~dc_idvd~"
  LINVT_VALUE "|idvg|100.0n|100.0m|1.000m|5|3.600|"
  LISTVT_VALUE ""
  TYPE "1"
  TEMP " 27.0000 "
  IS_TNOM " 1.00000 "
  MAIN.W "5.000u"
  MAIN.L "330.0n"
  MAIN.AD "1.700p"
  MAIN.AS "1.700p"
  MAIN.PD "10.68u"
  MAIN.PS "10.68u"
  MAIN.NF "1.000"
  MAIN.M "1"
  MAIN.NRD "0.000"
  MAIN.NRS "0.000"
  MAIN.LDRIFT1 "1E-06"
  MAIN.LDRIFT2 "1E-06"
  MAIN.SA "0.000"
  MAIN.SB "0.000"
  MAIN.SD "0.000"
  MAIN.SCA "0.000"
  MAIN.SCB "0.000"
  MAIN.SCC "0.000"
  MAIN.SC "0.000"
  MODULE "S557"
  PIN_D "14"
  PIN_G "7"
  PIN_S "8"
  PIN_B "13"
  PIN_E ""
  PIN_6 ""
  XY_ID ""
  FUNC "Additional"
  STI "SA ref"
  WPE "WPE ref"
  COMMENT ""
  DIS_MEAS ""
  TypeTCI "10"
END_HEADER

BEGIN_DB
 ICCAP_VAR vg         0.54           
 ICCAP_VAR vb         0              
 ICCAP_VAR vs         0              

 #vd                    id                    ig                    ib                    is                   
  0                     2.5264e-09            -1.2e-13              2.504e-11             -1.6542e-09          
  0.1                   1.725e-06             -1.8e-13              2.208e-11             -1.7198e-06          
  0.2                   2.3084e-06            0                     2.174e-11             -2.2962e-06          
  0.3                   2.7554e-06            -8e-14                1.924e-11             -2.7738e-06          
  0.4                   3.2128e-06            -1.2e-13              1.964e-11             -3.2288e-06          
  0.5                   3.6782e-06            -4e-14                1.988e-11             -3.6752e-06          
  0.6                   4.1846e-06            -2.6e-13              1.788e-11             -4.1522e-06          
  0.7                   4.6804e-06            -3.4e-13              1.832e-11             -4.6478e-06          
  0.8                   5.1928e-06            -1e-13                1.81e-11              -5.1872e-06          
  0.9                   5.706e-06             -1.2e-13              1.594e-11             -5.6944e-06          
  1                     6.2594e-06            -1.2e-13              1.65e-11              -6.2854e-06          
  1.1                   6.8474e-06            -6e-14                1.62e-11              -6.874e-06           
  1.2                   7.4876e-06            0                     1.3e-11               -7.4576e-06          
  1.3                   8.089e-06             -4e-13                6.22e-12              -8.1226e-06          
  1.4                   8.7824e-06            -1.4e-13              -1.892e-11            -8.759e-06           
  1.5                   9.4808e-06            -6e-14                -9.062e-11            -9.4838e-06          
  1.6                   1.01784e-05           -8e-14                -2.594e-10            -1.02026e-05         
  1.7                   1.0978e-05            -4e-14                -6.1896e-10           -1.09266e-05         
  1.8                   1.1728e-05            -1.8e-13              -1.3164e-09           -1.1698e-05          
  1.9                   1.2582e-05            -6e-14                -2.5574e-09           -1.2544e-05          
  2                     1.3434e-05            1.4e-13               -4.6404e-09           -1.3416e-05          
  2.1                   1.4334e-05            -2e-14                -7.9714e-09           -1.4304e-05          
  2.2                   1.5248e-05            -1e-13                -1.3112e-08           -1.5222e-05          
  2.3                   1.6224e-05            -6e-14                -2.0784e-08           -1.6188e-05          
  2.4                   1.7222e-05            -3.8e-13              -3.1964e-08           -1.7176e-05          
  2.5                   1.828e-05             -2.4e-13              -4.7962e-08           -1.8208e-05          
  2.6                   1.936e-05             -2.2e-13              -7.0554e-08           -1.927e-05           
  2.7                   2.0502e-05            -2e-13                -1.0191e-07           -2.0384e-05          
  2.8                   2.1686e-05            -2.2e-13              -1.4476e-07           -2.153e-05           
  2.9                   2.2938e-05            -2.2e-13              -2.0304e-07           -2.2716e-05          
  3                     2.4254e-05            -6e-14                -2.8098e-07           -2.3964e-05          
  3.1                   2.564e-05             1.2e-13               -3.837e-07            -2.5228e-05          
  3.2                   2.7094e-05            6e-14                 -5.1708e-07           -2.6548e-05          
  3.3                   2.864e-05             -2.8e-13              -6.867e-07            -2.7908e-05          
  3.4                   3.0248e-05            -1.6e-13              -9.0194e-07           -2.9338e-05          
  3.5                   3.2012e-05            -5.6e-13              -1.1686e-06           -3.082e-05           
  3.6                   3.387e-05             -1.6e-13              -1.4964e-06           -3.2342e-05          
END_DB

BEGIN_DB
 ICCAP_VAR vg         1.305          
 ICCAP_VAR vb         0              
 ICCAP_VAR vs         0              

 #vd                    id                    ig                    ib                    is                   
  0                     9.9082e-08            4.6e-13               8.88e-12              -8.2252e-08          
  0.1                   0.00016514            3.6e-13               8.6e-12               -0.00016474          
  0.2                   0.00029518            1.8e-13               6.76e-12              -0.0002948           
  0.3                   0.00038852            2.2e-13               7.08e-12              -0.00038812          
  0.4                   0.0004514             1e-13                 7.18e-12              -0.00045106          
  0.5                   0.00049298            1.4e-13               6.72e-12              -0.00049264          
  0.6                   0.00052156            1.4e-13               7.38e-12              -0.0005211           
  0.7                   0.0005427             3e-13                 7.16e-12              -0.00054228          
  0.8                   0.00055936            2.2e-13               5.98e-12              -0.00055906          
  0.9                   0.00057368            1.2e-13               8.24e-12              -0.00057308          
  1                     0.00058618            1.4e-13               6.94e-12              -0.0005856           
  1.1                   0.00059726            1.4e-13               5.28e-12              -0.00059676          
  1.2                   0.00060764            8e-14                 4.4e-12               -0.0006072           
  1.3                   0.00061736            0                     -7.24e-12             -0.00061712          
  1.4                   0.00062666            4e-14                 -5.908e-11            -0.00062634          
  1.5                   0.00063556            1.8e-13               -2.5324e-10           -0.00063506          
  1.6                   0.00064398            3.6e-13               -8.7558e-10           -0.00064382          
  1.7                   0.00065232            0                     -2.577e-09            -0.00065218          
  1.8                   0.00066062            -1.4e-13              -6.6726e-09           -0.00066048          
  1.9                   0.00066894            3e-13                 -1.546e-08            -0.00066848          
  2                     0.00067664            8e-14                 -3.2536e-08           -0.00067628          
  2.1                   0.00068432            6e-14                 -6.3346e-08           -0.00068402          
  2.2                   0.00069206            6e-14                 -1.15332e-07          -0.00069158          
  2.3                   0.00069956            4e-14                 -1.9816e-07           -0.00069906          
  2.4                   0.00070714            1.2e-13               -3.2436e-07           -0.00070636          
  2.5                   0.0007147             -2e-14                -5.1036e-07           -0.00071388          
  2.6                   0.00072232            -1e-13                -7.7646e-07           -0.00072108          
  2.7                   0.00072998            0                     -1.14738e-06          -0.0007285           
  2.8                   0.00073784            2e-14                 -1.6546e-06           -0.00073582          
  2.9                   0.00074594            4e-14                 -2.3398e-06           -0.0007432           
  3                     0.00075416            -2e-14                -3.254e-06            -0.00075056          
  3.1                   0.00076288            2e-14                 -4.4554e-06           -0.0007581           
  3.2                   0.00077216            -1.2e-13              -6.017e-06            -0.0007657           
  3.3                   0.00078198            0                     -8.0182e-06           -0.00077358          
  3.4                   0.00079264            2.2e-13               -1.05576e-05          -0.00078158          
  3.5                   0.00080418            1e-13                 -1.3724e-05           -0.00079             
  3.6                   0.0008167             -6e-14                -1.7634e-05           -0.00079864          
END_DB

BEGIN_DB
 ICCAP_VAR vg         2.07           
 ICCAP_VAR vb         0              
 ICCAP_VAR vs         0              

 #vd                    id                    ig                    ib                    is                   
  0                     1.4638e-07            5.8e-13               4.92e-12              -5.398e-08           
  0.1                   0.00031114            2.2e-13               5.6e-12               -0.00031074          
  0.2                   0.00059072            3.8e-13               4.66e-12              -0.00059028          
  0.3                   0.00082834            2.6e-13               4.38e-12              -0.00082802          
  0.4                   0.00102174            3.2e-13               2.5e-12               -0.0010214           
  0.5                   0.0011738             2.4e-13               4.76e-12              -0.0011718           
  0.6                   0.0012884             3.2e-13               4.24e-12              -0.0012864           
  0.7                   0.0013742             4.8e-13               4.64e-12              -0.0013722           
  0.8                   0.001438              1e-13                 4.32e-12              -0.001436            
  0.9                   0.0014858             1e-13                 4.8e-12               -0.0014836           
  1                     0.001523              3.8e-13               4.62e-12              -0.0015208           
  1.1                   0.0015524             2.6e-13               4.2e-12               -0.0015504           
  1.2                   0.0015766             4e-14                 3.26e-12              -0.0015746           
  1.3                   0.0015974             2.2e-13               3e-13                 -0.0015954           
  1.4                   0.0016156             1.8e-13               -1.736e-11            -0.0016136           
  1.5                   0.0016318             2.2e-13               -8.766e-11            -0.0016298           
  1.6                   0.0016466             3e-13                 -3.2288e-10           -0.0016444           
  1.7                   0.0016598             1e-13                 -1.027e-09            -0.0016578           
  1.8                   0.0016726             -1.2e-13              -2.898e-09            -0.0016706           
  1.9                   0.0016846             8e-14                 -7.3476e-09           -0.0016826           
  2                     0.001696              4.2e-13               -1.6952e-08           -0.001694            
  2.1                   0.0017068             -4e-14                -3.6148e-08           -0.0017048           
  2.2                   0.0017172             1.8e-13               -7.179e-08            -0.0017152           
  2.3                   0.0017272             1.2e-13               -1.3374e-07           -0.0017252           
  2.4                   0.0017374             1e-13                 -2.3624e-07           -0.0017352           
  2.5                   0.001747              1.6e-13               -3.9818e-07           -0.0017444           
  2.6                   0.0017564             2.2e-13               -6.4434e-07           -0.001754            
  2.7                   0.0017662             4e-14                 -1.00536e-06          -0.001763            
  2.8                   0.0017758             -1.4e-13              -1.5206e-06           -0.0017722           
  2.9                   0.0017858             2.4e-13               -2.2416e-06           -0.0017814           
  3                     0.0017956             3.8e-13               -3.231e-06            -0.0017906           
  3.1                   0.001806              2.4e-13               -4.5636e-06           -0.0017994           
  3.2                   0.001817              0                     -6.3372e-06           -0.0018086           
  3.3                   0.0018284             8e-14                 -8.658e-06            -0.0018176           
  3.4                   0.0018412             3e-13                 -1.16728e-05          -0.0018274           
  3.5                   0.001855              -1.2e-13              -1.5524e-05           -0.0018374           
  3.6                   0.0018704             1.4e-13               -2.0398e-05           -0.0018478           
END_DB

BEGIN_DB
 ICCAP_VAR vg         2.835          
 ICCAP_VAR vb         0              
 ICCAP_VAR vs         0              

 #vd                    id                    ig                    ib                    is                   
  0                     1.6252e-07            6.4e-13               3.98e-12              -1.4e-07             
  0.1                   0.00040052            3.8e-13               3.48e-12              -0.00040012          
  0.2                   0.00077566            5.8e-13               3.64e-12              -0.00077524          
  0.3                   0.00111308            3.8e-13               3.2e-12               -0.0011127           
  0.4                   0.0014086             4e-13                 3.38e-12              -0.0014066           
  0.5                   0.0016586             3.2e-13               3.42e-12              -0.0016564           
  0.6                   0.0018652             3.4e-13               2.98e-12              -0.0018632           
  0.7                   0.002034              2.8e-13               2.9e-12               -0.0020318           
  0.8                   0.0021696             3.4e-13               3.44e-12              -0.0021676           
  0.9                   0.0022774             2.6e-13               2.86e-12              -0.0022752           
  1                     0.002363              3.6e-13               3e-12                 -0.002361            
  1.1                   0.0024314             3.2e-13               4.08e-12              -0.0024292           
  1.2                   0.002486              3e-13                 2.98e-12              -0.002484            
  1.3                   0.0025304             3e-13                 3.5e-12               -0.0025288           
  1.4                   0.0025676             2.6e-13               -2.18e-12             -0.0025654           
  1.5                   0.0025986             1.8e-13               -2.46e-11             -0.0025968           
  1.6                   0.0026254             6e-14                 -1.023e-10            -0.0026234           
  1.7                   0.0026488             2.4e-13               -3.4852e-10           -0.0026468           
  1.8                   0.0026694             1.4e-13               -1.0568e-09           -0.0026674           
  1.9                   0.0026882             2e-13                 -2.8726e-09           -0.002686            
  2                     0.0027048             2.4e-13               -7.0966e-09           -0.002703            
  2.1                   0.0027204             1.2e-13               -1.6166e-08           -0.0027186           
  2.2                   0.002735              6e-14                 -3.4164e-08           -0.0027328           
  2.3                   0.0027482             8e-14                 -6.7572e-08           -0.0027462           
  2.4                   0.0027606             1.4e-13               -1.2578e-07           -0.0027584           
  2.5                   0.0027722             1.2e-13               -2.231e-07            -0.00277             
  2.6                   0.0027838             3.4e-13               -3.779e-07            -0.0027816           
  2.7                   0.0027948             3.2e-13               -6.1504e-07           -0.0027924           
  2.8                   0.0028056             3e-13                 -9.6732e-07           -0.0028024           
  2.9                   0.0028162             3.2e-13               -1.4744e-06           -0.0028126           
  3                     0.0028266             2.6e-13               -2.194e-06            -0.0028224           
  3.1                   0.0028372             3e-13                 -3.19e-06             -0.0028318           
  3.2                   0.0028478             4.8e-13               -4.544e-06            -0.0028412           
  3.3                   0.0028592             7.4e-13               -6.3562e-06           -0.002851            
  3.4                   0.0028714             6.2e-13               -8.7574e-06           -0.0028604           
  3.5                   0.0028842             4.2e-13               -1.1886e-05           -0.0028704           
  3.6                   0.0028984             6.6e-13               -1.5914e-05           -0.0028808           
END_DB

BEGIN_DB
 ICCAP_VAR vg         3.6            
 ICCAP_VAR vb         0              
 ICCAP_VAR vs         0              

 #vd                    id                    ig                    ib                    is                   
  0                     1.7436e-07            7.4e-13               2.92e-12              -1.5522e-07          
  0.1                   0.00045308            4.4e-13               3.3e-12               -0.0004527           
  0.2                   0.00088642            6e-13                 2.66e-12              -0.00088602          
  0.3                   0.0012892             4e-13                 2.82e-12              -0.0012872           
  0.4                   0.001654              3.8e-13               1.94e-12              -0.001652            
  0.5                   0.0019776             4e-13                 2.98e-12              -0.0019756           
  0.6                   0.0022592             5.2e-13               2.3e-12               -0.0022572           
  0.7                   0.0025014             3.6e-13               2.64e-12              -0.0024994           
  0.8                   0.002707              1.6e-13               3.42e-12              -0.0027048           
