! VERSION = 6.00
BEGIN_HEADER
 ICCAP_INPUTS
  vg         V  G GROUND SMU2 0.001 LIN        1    -0.5       3.6        83   0.05      
  vb         V  B GROUND SMU4 0.1 LIN        2    0          -3.6       5    -0.9      
  vd         V  D GROUND SMU1 0.1 LIN        3    0.1        3.3        3    1.6       
  vs         V  S GROUND SMU3 0.1 CON        0
 ICCAP_OUTPUTS
  id         I  D GROUND SMU1 B
  ig         I  G GROUND SMU2 B
  ib         I  B GROUND SMU4 B
  is         I  S GROUND SMU3 B
 ICCAP_VALUES
  MASTER_SETUP_TYPE "~dc_idvg~"
  LINVT_VALUE ""
  LISTVT_VALUE ""
  TYPE "1"
  TEMP "-40.0000 "
  IS_TNOM " 0.00000 "
  MAIN.W "2.000u"
  MAIN.L "3.000u"
  MAIN.AD "680.0f"
  MAIN.AS "680.0f"
  MAIN.PD "4.680u"
  MAIN.PS "4.680u"
  MAIN.NF "1.000"
  MAIN.M "1"
  MAIN.NRD "0.000"
  MAIN.NRS "0.000"
  MAIN.LDRIFT1 "1E-06"
  MAIN.LDRIFT2 "1E-06"
  MAIN.SA "0.000"
  MAIN.SB "0.000"
  MAIN.SD "0.000"
  MAIN.SCA "0.000"
  MAIN.SCB "0.000"
  MAIN.SCC "0.000"
  MAIN.SC "0.000"
  MODULE "S558"
  PIN_D "14"
  PIN_G "7"
  PIN_S "8"
  PIN_B "13"
  PIN_E ""
  PIN_6 ""
  XY_ID ""
  FUNC "LW Scale"
  STI "SA ref"
  WPE "WPE ref"
  COMMENT ""
  DIS_MEAS ""
  TypeTCI "10"
END_HEADER

BEGIN_DB
 ICCAP_VAR vb         0              
 ICCAP_VAR vd         0.1            
 ICCAP_VAR vs         0              

 #vg                    id                    ig                    ib                    is                   
  -0.5                  8e-14                 -9.4e-13              2.84e-12              -1.2e-13             
  -0.45                 8e-14                 -1.4e-13              1.78e-12              -4e-14               
  -0.4                  1.2e-13               -1e-13                2.36e-12              0                    
  -0.35                 2e-14                 4e-14                 3.74e-12              -2e-14               
  -0.3                  2e-14                 1e-13                 2.86e-12              -4e-14               
  -0.25                 8e-14                 2.2e-13               2.28e-12              2e-14                
  -0.2                  4e-14                 2.4e-13               6e-14                 -6e-14               
  -0.15                 4e-14                 1.4e-13               2.58e-12              8e-14                
  -0.1                  -2e-14                3.6e-13               2.2e-12               2e-14                
  -0.05                 8e-14                 4e-13                 2.88e-12              1e-13                
  0                     1e-13                 3.6e-13               1.92e-12              3e-13                
  0.05                  8e-14                 3.6e-13               1.44e-12              1.8e-13              
  0.1                   4e-14                 4.2e-13               1.6e-12               2e-13                
  0.15                  0                     5e-13                 2.88e-12              1e-13                
  0.2                   1e-13                 5.2e-13               3.22e-12              2e-14                
  0.25                  6e-14                 5.4e-13               2.2e-12               -1e-13               
  0.3                   2.6e-13               5.2e-13               1.08e-12              -6e-14               
  0.35                  1.44e-12              5.4e-13               1.46e-12              -1.18e-12            
  0.4                   8.84e-12              7.2e-13               2.36e-12              -8.74e-12            
  0.45                  5.55e-11              6.6e-13               3.66e-12              -5.54e-11            
  0.5                   3.423e-10             6.2e-13               2.16e-12              -3.4192e-10          
  0.55                  1.9678e-09            5.2e-13               1.42e-12              -1.9628e-09          
  0.6                   9.7322e-09            5.8e-13               1.26e-12              -9.6904e-09          
  0.65                  3.8156e-08            5.2e-13               1.84e-12              -3.8128e-08          
  0.7                   1.1524e-07            6.6e-13               2.56e-12              -1.15052e-07         
  0.75                  2.7438e-07            6e-13                 1.96e-12              -2.745e-07           
  0.8                   5.3742e-07            7.4e-13               1.54e-12              -5.3706e-07          
  0.85                  9.0554e-07            5.8e-13               1.26e-12              -9.0548e-07          
  0.9                   1.3628e-06            4.2e-13               3.34e-12              -1.3588e-06          
  0.95                  1.891e-06             5.8e-13               1.54e-12              -1.886e-06           
  1                     2.4736e-06            6.6e-13               1.46e-12              -2.4688e-06          
  1.05                  3.1024e-06            5.8e-13               1.84e-12              -3.0998e-06          
  1.1                   3.7636e-06            7.2e-13               2.12e-12              -3.7608e-06          
  1.15                  4.4504e-06            5.8e-13               2.18e-12              -4.4458e-06          
  1.2                   5.1564e-06            6e-13                 1.26e-12              -5.1528e-06          
  1.25                  5.8784e-06            7.6e-13               1.78e-12              -5.8744e-06          
  1.3                   6.613e-06             6.4e-13               2.72e-12              -6.6088e-06          
  1.35                  7.3516e-06            7.8e-13               2.08e-12              -7.3472e-06          
  1.4                   8.0938e-06            5.4e-13               1.82e-12              -8.091e-06           
  1.45                  8.84e-06              8e-13                 1.22e-12              -8.8358e-06          
  1.5                   9.5872e-06            7.6e-13               2.66e-12              -9.583e-06           
  1.55                  1.03298e-05           6.6e-13               1.78e-12              -1.03254e-05         
  1.6                   1.10664e-05           9e-13                 8.2e-13               -1.1063e-05          
  1.65                  1.1808e-05            5.6e-13               1.54e-12              -1.179e-05           
  1.7                   1.2536e-05            7e-13                 1.76e-12              -1.2516e-05          
  1.75                  1.325e-05             8.2e-13               2.24e-12              -1.3232e-05          
  1.8                   1.396e-05             8e-13                 2.3e-12               -1.394e-05           
  1.85                  1.4654e-05            6.6e-13               1.34e-12              -1.4636e-05          
  1.9                   1.5342e-05            8.2e-13               2.12e-12              -1.5322e-05          
  1.95                  1.6014e-05            8e-13                 1.56e-12              -1.5996e-05          
  2                     1.6674e-05            6e-13                 1.82e-12              -1.6656e-05          
  2.05                  1.7322e-05            7.4e-13               1.4e-12               -1.7302e-05          
  2.1                   1.7952e-05            7e-13                 6.4e-13               -1.7932e-05          
  2.15                  1.8568e-05            9e-13                 1.28e-12              -1.8548e-05          
  2.2                   1.9166e-05            7.4e-13               3.02e-12              -1.9148e-05          
  2.25                  1.9752e-05            8.6e-13               1.52e-12              -1.9734e-05          
  2.3                   2.0318e-05            7.2e-13               1.16e-12              -2.0298e-05          
  2.35                  2.0872e-05            9e-13                 1.42e-12              -2.0852e-05          
  2.4                   2.1406e-05            9.4e-13               2.14e-12              -2.1388e-05          
  2.45                  2.1924e-05            7.4e-13               1.84e-12              -2.1906e-05          
  2.5                   2.2428e-05            8.2e-13               7.2e-13               -2.241e-05           
  2.55                  2.2912e-05            8.8e-13               1.08e-12              -2.2894e-05          
  2.6                   2.338e-05             8.2e-13               2.42e-12              -2.3362e-05          
  2.65                  2.3832e-05            1.1e-12               2.36e-12              -2.3812e-05          
  2.7                   2.4266e-05            8e-13                 1.42e-12              -2.4248e-05          
  2.75                  2.4686e-05            9.2e-13               1.06e-12              -2.4668e-05          
  2.8                   2.5088e-05            8.2e-13               1.96e-12              -2.5068e-05          
  2.85                  2.5474e-05            9.2e-13               2.78e-12              -2.5454e-05          
  2.9                   2.5844e-05            9.6e-13               1.58e-12              -2.5826e-05          
  2.95                  2.62e-05              9.2e-13               1.24e-12              -2.618e-05           
  3                     2.6538e-05            9.2e-13               2.18e-12              -2.6518e-05          
  3.05                  2.6862e-05            9.4e-13               2.18e-12              -2.6844e-05          
  3.1                   2.7172e-05            9e-13                 1.84e-12              -2.7154e-05          
  3.15                  2.7468e-05            9.8e-13               1.16e-12              -2.7448e-05          
  3.2                   2.775e-05             9e-13                 1.36e-12              -2.773e-05           
  3.25                  2.8018e-05            8.6e-13               1e-12                 -2.7998e-05          
  3.3                   2.8274e-05            8.2e-13               2.58e-12              -2.8254e-05          
  3.35                  2.8514e-05            8.4e-13               1.9e-12               -2.8496e-05          
  3.4                   2.8746e-05            1.04e-12              1.4e-12               -2.8726e-05          
  3.45                  2.896e-05             1.06e-12              1.64e-12              -2.8942e-05          
  3.5                   2.9166e-05            9.4e-13               1.96e-12              -2.9146e-05          
  3.55                  2.9356e-05            1e-12                 8.6e-13               -2.9338e-05          
  3.6                   2.954e-05             8.8e-13               8.4e-13               -2.9522e-05          
END_DB

BEGIN_DB
 ICCAP_VAR vb         -0.9           
 ICCAP_VAR vd         0.1            
 ICCAP_VAR vs         0              

 #vg                    id                    ig                    ib                    is                   
  -0.5                  -8e-14                -7.4e-13              -4.88e-12             1.6e-13              
  -0.45                 4e-14                 -4.8e-13              -4.58e-12             0                    
  -0.4                  0                     -8e-14                -4.96e-12             0                    
  -0.35                 0                     -1.6e-13              -4.82e-12             2.4e-13              
  -0.3                  -4e-14                2e-14                 -4.12e-12             6e-14                
  -0.25                 -6e-14                8e-14                 -3.88e-12             4e-14                
  -0.2                  0                     4e-14                 -2.5e-12              8e-14                
  -0.15                 -2e-14                1.8e-13               -2.52e-12             6e-14                
  -0.1                  4e-14                 1.2e-13               -3.46e-12             2.8e-13              
  -0.05                 -8e-14                1.2e-13               -3.28e-12             1.8e-13              
  0                     0                     1.4e-13               -1.8e-12              1.4e-13              
  0.05                  4e-14                 2.2e-13               -1.48e-12             1.6e-13              
  0.1                   -2e-14                1.2e-13               -2.78e-12             2.2e-13              
  0.15                  4e-14                 3.4e-13               -2.48e-12             1.6e-13              
  0.2                   -4e-14                4e-13                 -2.66e-12             1.4e-13              
  0.25                  4e-14                 2.6e-13               -2.6e-12              3.2e-13              
  0.3                   6e-14                 4.2e-13               -1.66e-12             8e-14                
  0.35                  8e-14                 4e-13                 -1.4e-12              1e-13                
  0.4                   6e-14                 2.8e-13               -9.2e-13              2e-14                
  0.45                  8e-14                 4.4e-13               -1.7e-12              2e-14                
  0.5                   6e-14                 5.6e-13               -1.76e-12             1.2e-13              
  0.55                  2e-13                 4.8e-13               -1.02e-12             -6e-14               
  0.6                   1.4e-12               5.8e-13               -8.8e-13              -1.34e-12            
  0.65                  1.014e-11             4.8e-13               -1.44e-12             -1e-11               
  0.7                   7.17e-11              4.2e-13               -2.16e-12             -7.168e-11           
  0.75                  4.9262e-10            5e-13                 -1.4e-12              -4.9216e-10          
  0.8                   2.9986e-09            5.2e-13               -8.2e-13              -2.993e-09           
  0.85                  1.4834e-08            3.6e-13               -9.4e-13              -1.4808e-08          
  0.9                   5.5474e-08            4e-13                 -3.8e-13              -5.5472e-08          
  0.95                  1.5684e-07            5.2e-13               -1e-12                -1.5656e-07          
  1                     3.4896e-07            6.2e-13               -7.4e-13              -3.4888e-07          
  1.05                  6.4642e-07            5.2e-13               -1.8e-13              -6.4596e-07          
  1.1                   1.0389e-06            6.6e-13               -1.44e-12             -1.03896e-06         
  1.15                  1.5122e-06            5.6e-13               -7.4e-13              -1.5068e-06          
  1.2                   2.0466e-06            5.8e-13               -6.8e-13              -2.0426e-06          
  1.25                  2.6316e-06            6.4e-13               -9.2e-13              -2.6276e-06          
  1.3                   3.2556e-06            6e-13                 -1.36e-12             -3.2514e-06          
  1.35                  3.906e-06             6.4e-13               -2e-13                -3.902e-06           
  1.4                   4.5776e-06            7.2e-13               -6e-14                -4.5744e-06          
  1.45                  5.2664e-06            6e-13                 -4.4e-13              -5.2632e-06          
  1.5                   5.9702e-06            7e-13                 -1.22e-12             -5.9666e-06          
  1.55                  6.6774e-06            6.8e-13               -1.02e-12             -6.6738e-06          
  1.6                   7.3886e-06            7.4e-13               -8.6e-13              -7.3838e-06          
  1.65                  8.1026e-06            6.6e-13               -3.4e-13              -8.0978e-06          
  1.7                   8.8168e-06            5.8e-13               -1.12e-12             -8.8126e-06          
  1.75                  9.5248e-06            7.6e-13               -8.6e-13              -9.5202e-06          
  1.8                   1.02296e-05           7.2e-13               -1.16e-12             -1.02266e-05         
  1.85                  1.09266e-05           8.4e-13               -2.8e-13              -1.09228e-05         
  1.9                   1.1626e-05            7e-13                 2.34e-12              -1.1606e-05          
  1.95                  1.2304e-05            8.2e-13               -3.2e-13              -1.2284e-05          
  2                     1.2974e-05            7e-13                 -8.8e-13              -1.2956e-05          
  2.05                  1.3634e-05            7e-13                 3.4e-13               -1.3614e-05          
  2.1                   1.4276e-05            7e-13                 -2e-13                -1.4258e-05          
  2.15                  1.491e-05             6.6e-13               -1.16e-12             -1.489e-05           
  2.2                   1.5526e-05            6.6e-13               -5.8e-13              -1.5506e-05          
  2.25                  1.613e-05             8.2e-13               -3e-13                -1.6112e-05          
  2.3                   1.6718e-05            7.2e-13               5.4e-13               -1.6698e-05          
  2.35                  1.7292e-05            8e-13                 -1.28e-12             -1.7272e-05          
  2.4                   1.7848e-05            7.8e-13               -5.8e-13              -1.783e-05           
  2.45                  1.8388e-05            7.4e-13               -3.8e-13              -1.837e-05           
  2.5                   1.8916e-05            7.6e-13               2.6e-13               -1.8896e-05          
  2.55                  1.9424e-05            8.2e-13               -3.6e-13              -1.9404e-05          
  2.6                   1.9914e-05            7.4e-13               -7e-13                -1.9896e-05          
  2.65                  2.0388e-05            9.4e-13               -6.4e-13              -2.037e-05           
  2.7                   2.0848e-05            9.6e-13               -4e-13                -2.0828e-05          
  2.75                  2.1292e-05            8e-13                 4e-14                 -2.1274e-05          
  2.8                   2.1718e-05            8.6e-13               -6.8e-13              -2.17e-05            
  2.85                  2.2128e-05            7.2e-13               -6.4e-13              -2.211e-05           
  2.9                   2.2524e-05            9.8e-13               -1.14e-12             -2.2504e-05          
  2.95                  2.2904e-05            8e-13                 8.6e-13               -2.2886e-05          
  3                     2.3268e-05            9.4e-13               -6e-14                -2.3248e-05          
  3.05                  2.3616e-05            8.4e-13               -4.8e-13              -2.3598e-05          
  3.1                   2.3952e-05            8.6e-13               -1.18e-12             -2.3932e-05          
  3.15                  2.4272e-05            8.6e-13               -6e-13                -2.4252e-05          
  3.2                   2.4576e-05            8.4e-13               8.2e-13               -2.4558e-05          
  3.25                  2.487e-05             8.6e-13               -6.8e-13              -2.4852e-05          
  3.3                   2.5148e-05            8.2e-13               -1.26e-12             -2.513e-05           
  3.35                  2.5414e-05            8.4e-13               -3.6e-13              -2.5394e-05          
  3.4                   2.5666e-05            9e-13                 7.2e-13               -2.5646e-05          
  3.45                  2.5904e-05            1.02e-12              3.4e-13               -2.5886e-05          
