! VERSION = 6.00
BEGIN_HEADER
 ICCAP_INPUTS
  vg         V  G GROUND SMU2 0.001 LIN        1    -0.5       3.6        83   0.05      
  vb         V  B GROUND SMU4 0.1 LIN        2    0          -3.6       5    -0.9      
  vd         V  D GROUND SMU1 0.1 LIN        3    0.1        3.3        3    1.6       
  vs         V  S GROUND SMU3 0.1 CON        0
 ICCAP_OUTPUTS
  id         I  D GROUND SMU1 B
  ig         I  G GROUND SMU2 B
  ib         I  B GROUND SMU4 B
  is         I  S GROUND SMU3 B
 ICCAP_VALUES
  MASTER_SETUP_TYPE "~dc_idvg~"
  LINVT_VALUE ""
  LISTVT_VALUE ""
  TYPE "1"
  TEMP " 70.0000 "
  IS_TNOM " 0.00000 "
  MAIN.W "300.0n"
  MAIN.L "500.0n"
  MAIN.AD "102.0f"
  MAIN.AS "102.0f"
  MAIN.PD "1.280u"
  MAIN.PS "1.280u"
  MAIN.NF "1.000"
  MAIN.M "1"
  MAIN.NRD "0.000"
  MAIN.NRS "0.000"
  MAIN.LDRIFT1 "1E-06"
  MAIN.LDRIFT2 "1E-06"
  MAIN.SA "0.000"
  MAIN.SB "0.000"
  MAIN.SD "0.000"
  MAIN.SCA "0.000"
  MAIN.SCB "0.000"
  MAIN.SCC "0.000"
  MAIN.SC "0.000"
  MODULE "S560"
  PIN_D "14"
  PIN_G "7"
  PIN_S "8"
  PIN_B "13"
  PIN_E ""
  PIN_6 ""
  XY_ID ""
  FUNC "Small"
  STI "SA ref"
  WPE "WPE ref"
  COMMENT ""
  DIS_MEAS ""
  TypeTCI "10"
END_HEADER

BEGIN_DB
 ICCAP_VAR vb         0              
 ICCAP_VAR vd         0.1            
 ICCAP_VAR vs         0              

 #vg                    id                    ig                    ib                    is                   
  -0.5                  1e-13                 -1.6214e-09           1.63e-09              2e-13                
  -0.45                 -2e-13                -3.0344e-10           3.153e-10             6e-14                
  -0.4                  4e-14                 -5.694e-11            6.948e-11             6e-14                
  -0.35                 2e-14                 -1.076e-11            2.358e-11             2e-14                
  -0.3                  -6e-14                -1.86e-12             1.244e-11             1.2e-13              
  -0.25                 -4e-14                -2.8e-13              1.186e-11             1.6e-13              
  -0.2                  4e-14                 6e-14                 1.148e-11             2.4e-13              
  -0.15                 -4e-14                2.4e-13               1.028e-11             2.2e-13              
  -0.1                  -8e-14                3.4e-13               1.132e-11             1e-13                
  -0.05                 -4e-14                2.4e-13               1.132e-11             1.6e-13              
  0                     2e-14                 2.8e-13               1.028e-11             1.8e-13              
  0.05                  1.2e-13               5.8e-13               1.076e-11             -6e-14               
  0.1                   3e-13                 5e-13                 1.014e-11             -6e-14               
  0.15                  1.12e-12              6e-13                 1.176e-11             -1.06e-12            
  0.2                   3.66e-12              6.6e-13               1.016e-11             -3.6e-12             
  0.25                  1.158e-11             5.6e-13               9.88e-12              -1.152e-11           
  0.3                   3.726e-11             6.8e-13               9.98e-12              -3.722e-11           
  0.35                  1.211e-10             5.4e-13               9.2e-12               -1.2112e-10          
  0.4                   3.9308e-10            5.6e-13               1.006e-11             -3.9314e-10          
  0.45                  1.2686e-09            5.2e-13               9.72e-12              -1.2696e-09          
  0.5                   4.02e-09              6.2e-13               9.04e-12              -4.0182e-09          
  0.55                  1.2362e-08            4.6e-13               1.004e-11             -1.2344e-08          
  0.6                   3.5316e-08            7.2e-13               1.052e-11             -3.5274e-08          
  0.65                  9.0054e-08            5.2e-13               9.08e-12              -9.0076e-08          
  0.7                   1.9686e-07            8.2e-13               8.84e-12              -1.9686e-07          
  0.75                  3.704e-07             7.6e-13               8.28e-12              -3.7044e-07          
  0.8                   6.1058e-07            6.8e-13               9.88e-12              -6.106e-07           
  0.85                  9.085e-07             8.8e-13               9.58e-12              -9.0832e-07          
  0.9                   1.2472e-06            4.8e-13               9.48e-12              -1.2438e-06          
  0.95                  1.6108e-06            7.6e-13               9.76e-12              -1.6082e-06          
  1                     1.9934e-06            6.4e-13               8.76e-12              -1.9902e-06          
  1.05                  2.388e-06             7.2e-13               8.54e-12              -2.3844e-06          
  1.1                   2.789e-06             7.6e-13               8.66e-12              -2.7846e-06          
  1.15                  3.1944e-06            7.4e-13               8.2e-12               -3.1906e-06          
  1.2                   3.601e-06             8.2e-13               8.02e-12              -3.597e-06           
  1.25                  4.0048e-06            7.4e-13               8.26e-12              -4.0034e-06          
  1.3                   4.4132e-06            8.4e-13               7.4e-12               -4.4066e-06          
  1.35                  4.8088e-06            8.8e-13               8e-12                 -4.807e-06           
  1.4                   5.2064e-06            8e-13                 8.88e-12              -5.203e-06           
  1.45                  5.5874e-06            6.8e-13               8.28e-12              -5.5874e-06          
  1.5                   5.9704e-06            8.4e-13               7.24e-12              -5.9688e-06          
  1.55                  6.3516e-06            8.8e-13               6.6e-12               -6.3474e-06          
  1.6                   6.7184e-06            9.8e-13               7.18e-12              -6.7136e-06          
  1.65                  7.086e-06             8.2e-13               8.58e-12              -7.0814e-06          
  1.7                   7.4428e-06            8e-13                 7.84e-12              -7.4378e-06          
  1.75                  7.7952e-06            9.2e-13               7.74e-12              -7.7904e-06          
  1.8                   8.1406e-06            1.04e-12              7.16e-12              -8.1348e-06          
  1.85                  8.4744e-06            1.02e-12              7.2e-12               -8.4704e-06          
  1.9                   8.8056e-06            9.2e-13               7.98e-12              -8.8054e-06          
  1.95                  9.1288e-06            8.8e-13               7.62e-12              -9.1262e-06          
  2                     9.4476e-06            1e-12                 6.5e-12               -9.4444e-06          
  2.05                  9.7626e-06            9.4e-13               6.82e-12              -9.7588e-06          
  2.1                   1.0066e-05            1.02e-12              7.86e-12              -1.00634e-05         
  2.15                  1.0363e-05            1.02e-12              7.92e-12              -1.03598e-05         
  2.2                   1.06542e-05           1.02e-12              6.62e-12              -1.06504e-05         
  2.25                  1.094e-05             1.04e-12              7.12e-12              -1.09362e-05         
  2.3                   1.12128e-05           9e-13                 6.36e-12              -1.12104e-05         
  2.35                  1.1486e-05            9.4e-13               8e-12                 -1.14828e-05         
  2.4                   1.1754e-05            7.2e-13               7.36e-12              -1.1746e-05          
  2.45                  1.2012e-05            8.8e-13               5.44e-12              -1.2008e-05          
  2.5                   1.2268e-05            1.02e-12              6.12e-12              -1.2262e-05          
  2.55                  1.2516e-05            1.02e-12              6.96e-12              -1.251e-05           
  2.6                   1.2758e-05            1.06e-12              7.34e-12              -1.2752e-05          
  2.65                  1.2994e-05            1.1e-12               6.54e-12              -1.2988e-05          
  2.7                   1.3226e-05            1.08e-12              5.92e-12              -1.322e-05           
  2.75                  1.3452e-05            1.06e-12              7.24e-12              -1.3446e-05          
  2.8                   1.3664e-05            1.08e-12              7.34e-12              -1.366e-05           
  2.85                  1.3886e-05            1.04e-12              6.2e-12               -1.3874e-05          
  2.9                   1.4094e-05            9.6e-13               6.2e-12               -1.4088e-05          
  2.95                  1.4294e-05            1.04e-12              6.24e-12              -1.4288e-05          
  3                     1.4492e-05            1.24e-12              6e-12                 -1.4486e-05          
  3.05                  1.4688e-05            9.8e-13               7.1e-12               -1.4682e-05          
  3.1                   1.4886e-05            1e-12                 7.12e-12              -1.4874e-05          
  3.15                  1.5064e-05            1.1e-12               6.34e-12              -1.506e-05           
  3.2                   1.5244e-05            9.2e-13               6.28e-12              -1.5238e-05          
  3.25                  1.542e-05             1.08e-12              6.96e-12              -1.5416e-05          
  3.3                   1.5592e-05            1.04e-12              6.48e-12              -1.5588e-05          
  3.35                  1.576e-05             9.8e-13               5.66e-12              -1.5754e-05          
  3.4                   1.593e-05             1.1e-12               5.68e-12              -1.5918e-05          
  3.45                  1.6082e-05            1.08e-12              5.86e-12              -1.6076e-05          
  3.5                   1.6238e-05            1.08e-12              7.02e-12              -1.6232e-05          
  3.55                  1.6388e-05            1.14e-12              7.58e-12              -1.6382e-05          
  3.6                   1.6536e-05            1.1e-12               5.22e-12              -1.653e-05           
END_DB

BEGIN_DB
 ICCAP_VAR vb         -0.9           
 ICCAP_VAR vd         0.1            
 ICCAP_VAR vs         0              

 #vg                    id                    ig                    ib                    is                   
  -0.5                  -2.4e-13              -1.02e-12             -1.564e-11            1e-13                
  -0.45                 -1.6e-13              -4.2e-13              -1.396e-11            8e-14                
  -0.4                  -1.8e-13              -3e-13                -1.26e-11             2.2e-13              
  -0.35                 -6e-14                -2.2e-13              -1.262e-11            1e-13                
  -0.3                  -1.6e-13              -1.4e-13              -1.09e-11             1.8e-13              
  -0.25                 -6e-14                -6e-14                -9.4e-12              2.2e-13              
  -0.2                  -6e-14                2e-14                 -8.2e-12              1.6e-13              
  -0.15                 -2e-14                8e-14                 -7.7e-12              1.4e-13              
  -0.1                  -1.6e-13              1.6e-13               -8.36e-12             1.2e-13              
  -0.05                 -6e-14                2e-13                 -7.3e-12              1.6e-13              
  0                     -6e-14                3.2e-13               -6.72e-12             1.8e-13              
  0.05                  -1.2e-13              3e-13                 -5.26e-12             8e-14                
  0.1                   -1.4e-13              3.2e-13               -4.08e-12             6e-14                
  0.15                  -1e-13                5e-13                 -5.24e-12             1e-13                
  0.2                   0                     4.2e-13               -5.1e-12              1e-13                
  0.25                  0                     4.4e-13               -4.7e-12              1.2e-13              
  0.3                   4e-14                 3.2e-13               -3.3e-12              6e-14                
  0.35                  1e-13                 4.8e-13               -3.24e-12             -6e-14               
  0.4                   4e-13                 3.2e-13               -4.04e-12             -2e-13               
  0.45                  1.48e-12              4.8e-13               -3.94e-12             -1.54e-12            
  0.5                   5.96e-12              5e-13                 -3.26e-12             -5.88e-12            
  0.55                  2.222e-11             4.2e-13               -4.4e-12              -2.198e-11           
  0.6                   8.198e-11             5.2e-13               -1.6e-12              -8.178e-11           
  0.65                  3.0016e-10            6e-13                 -2.6e-12              -2.9978e-10          
  0.7                   1.06982e-09           5.6e-13               -3.8e-12              -1.06986e-09         
  0.75                  3.7528e-09            4.8e-13               -1.98e-12             -3.7496e-09          
  0.8                   1.258e-08             3.8e-13               -1.8e-12              -1.2556e-08          
  0.85                  3.8586e-08            4.2e-13               -1.12e-12             -3.8736e-08          
  0.9                   1.02308e-07           5.2e-13               -2.82e-12             -1.0232e-07          
  0.95                  2.2638e-07            7.4e-13               -3.06e-12             -2.2632e-07          
  1                     4.2152e-07            6.8e-13               -1.88e-12             -4.2142e-07          
  1.05                  6.8264e-07            5.8e-13               -1.04e-12             -6.8288e-07          
  1.1                   9.9248e-07            6.6e-13               -2.3e-12              -9.9282e-07          
  1.15                  1.3382e-06            5.4e-13               -2.28e-12             -1.3346e-06          
  1.2                   1.7034e-06            5e-13                 -8e-13                -1.6986e-06          
  1.25                  2.0804e-06            6.6e-13               -1.48e-12             -2.08e-06            
  1.3                   2.4712e-06            8e-13                 -2.32e-12             -2.4694e-06          
  1.35                  2.8646e-06            8e-13                 -1.12e-12             -2.861e-06           
  1.4                   3.2594e-06            8.4e-13               -1.58e-12             -3.2548e-06          
  1.45                  3.6546e-06            8.6e-13               3e-13                 -3.6486e-06          
  1.5                   4.0466e-06            8.4e-13               -1.46e-12             -4.0422e-06          
  1.55                  4.4328e-06            7.6e-13               -1.78e-12             -4.4308e-06          
  1.6                   4.817e-06             8.6e-13               -1.16e-12             -4.8158e-06          
  1.65                  5.1882e-06            9e-13                 -3.8e-13              -5.1826e-06          
  1.7                   5.5626e-06            9e-13                 -3.4e-13              -5.5596e-06          
  1.75                  5.9288e-06            8e-13                 -9.8e-13              -5.9274e-06          
  1.8                   6.2938e-06            8.2e-13               -1.52e-12             -6.2882e-06          
  1.85                  6.6462e-06            8.2e-13               -7e-13                -6.6446e-06          
  1.9                   6.9996e-06            7.4e-13               6e-14                 -6.9938e-06          
  1.95                  7.336e-06             1.02e-12              -7e-13                -7.3328e-06          
  2                     7.6746e-06            7.8e-13               -8.8e-13              -7.6704e-06          
  2.05                  8.0012e-06            9.4e-13               -6.2e-13              -7.9968e-06          
  2.1                   8.3202e-06            9.2e-13               -6.8e-13              -8.318e-06           
  2.15                  8.6302e-06            1.02e-12              1.2e-13               -8.6238e-06          
  2.2                   8.934e-06             9.4e-13               -9e-13                -8.9312e-06          
  2.25                  9.2432e-06            9.2e-13               -2.02e-12             -9.2392e-06          
  2.3                   9.5368e-06            1.06e-12              -6.8e-13              -9.5334e-06          
  2.35                  9.8258e-06            9.4e-13               1.06e-12              -9.8212e-06          
  2.4                   1.01056e-05           9.4e-13               -1.06e-12             -1.01014e-05         
  2.45                  1.0372e-05            1.02e-12              -1.32e-12             -1.03688e-05         
  2.5                   1.06398e-05           9.8e-13               -6.6e-13              -1.0636e-05          
  2.55                  1.0901e-05            1.08e-12              8e-14                 -1.08974e-05         
  2.6                   1.11556e-05           1.06e-12              8.4e-13               -1.11444e-05         
  2.65                  1.13966e-05           1.04e-12              -4e-13                -1.13984e-05         
  2.7                   1.1648e-05            9.8e-13               -2.4e-13              -1.1644e-05          
  2.75                  1.1878e-05            8.2e-13               3.8e-13               -1.1872e-05          
  2.8                   1.2108e-05            9.4e-13               2.6e-13               -1.2104e-05          
  2.85                  1.2334e-05            9.2e-13               3.8e-13               -1.233e-05           
  2.9                   1.2554e-05            1.04e-12              -4e-13                -1.2548e-05          
  2.95                  1.2776e-05            9.6e-13               -4.6e-13              -1.277e-05           
  3                     1.2986e-05            1.02e-12              1.8e-13               -1.2978e-05          
  3.05                  1.3182e-05            1.04e-12              5e-13                 -1.3176e-05          
  3.1                   1.338e-05             9.6e-13               8.2e-13               -1.3376e-05          
  3.15                  1.3574e-05            1e-12                 -2.6e-13              -1.3568e-05          
  3.2                   1.3758e-05            1.18e-12              3e-13                 -1.3758e-05          
  3.25                  1.3954e-05            1.1e-12               1.14e-12              -1.395e-05           
  3.3                   1.413e-05             1.14e-12              8.2e-13               -1.4124e-05          
  3.35                  1.4304e-05            1.22e-12              -1.12e-12             -1.4298e-05          
  3.4                   1.4476e-05            1.14e-12              -1.04e-12             -1.447e-05           
  3.45                  1.4642e-05            1.08e-12              4.8e-13               -1.4636e-05          
