! VERSION = 6.00
BEGIN_HEADER
 ICCAP_INPUTS
  vg         V  G GROUND SMU2 0.001 LIN        1    -0.5       3.6        83   0.05      
  vb         V  B GROUND SMU4 0.1 LIN        2    0          -3.6       5    -0.9      
  vd         V  D GROUND SMU1 0.1 LIN        3    0.1        3.3        3    1.6       
  vs         V  S GROUND SMU3 0.1 CON        0
 ICCAP_OUTPUTS
  id         I  D GROUND SMU1 B
  ig         I  G GROUND SMU2 B
  ib         I  B GROUND SMU4 B
  is         I  S GROUND SMU3 B
 ICCAP_VALUES
  MASTER_SETUP_TYPE "~dc_idvg~"
  LINVT_VALUE ""
  LISTVT_VALUE ""
  TYPE "1"
  TEMP "-40.0000 "
  IS_TNOM " 0.00000 "
  MAIN.W "10.00u"
  MAIN.L "500.0n"
  MAIN.AD "3.400p"
  MAIN.AS "3.400p"
  MAIN.PD "20.68u"
  MAIN.PS "20.68u"
  MAIN.NF "1.000"
  MAIN.M "1"
  MAIN.NRD "0.000"
  MAIN.NRS "0.000"
  MAIN.LDRIFT1 "1E-06"
  MAIN.LDRIFT2 "1E-06"
  MAIN.SA "0.000"
  MAIN.SB "0.000"
  MAIN.SD "0.000"
  MAIN.SCA "0.000"
  MAIN.SCB "0.000"
  MAIN.SCC "0.000"
  MAIN.SC "0.000"
  MODULE "S556"
  PIN_D "14"
  PIN_G "7"
  PIN_S "8"
  PIN_B "13"
  PIN_E ""
  PIN_6 ""
  XY_ID ""
  FUNC "Short"
  STI "SA ref"
  WPE "WPE ref"
  COMMENT ""
  DIS_MEAS ""
  TypeTCI "10"
END_HEADER

BEGIN_DB
 ICCAP_VAR vb         0              
 ICCAP_VAR vd         0.1            
 ICCAP_VAR vs         0              

 #vg                    id                    ig                    ib                    is                   
  -0.5                  4e-14                 -7.2e-13              5.06e-12              2e-14                
  -0.45                 2e-14                 -2.2e-13              4.7e-12               0                    
  -0.4                  8e-14                 8e-14                 4.6e-12               4e-14                
  -0.35                 2e-14                 -4e-14                3.44e-12              1.8e-13              
  -0.3                  4e-14                 -2e-14                4.18e-12              8e-14                
  -0.25                 0                     2e-13                 4.66e-12              8e-14                
  -0.2                  1.4e-13               6e-14                 3.3e-12               2.2e-13              
  -0.15                 6e-14                 3.8e-13               3.12e-12              1.2e-13              
  -0.1                  0                     3.6e-13               4.06e-12              1.2e-13              
  -0.05                 2e-14                 2.8e-13               3.84e-12              2.8e-13              
  0                     -4e-14                3.4e-13               4.44e-12              4e-14                
  0.05                  4e-14                 4.6e-13               4.08e-12              1.2e-13              
  0.1                   4e-14                 4.2e-13               2.54e-12              2e-14                
  0.15                  6e-14                 6e-13                 2.8e-12               0                    
  0.2                   6e-14                 4.4e-13               3.32e-12              -8e-14               
  0.25                  4e-14                 5.2e-13               4.52e-12              0                    
  0.3                   3.2e-13               4.6e-13               4.98e-12              -1.6e-13             
  0.35                  1.78e-12              5.6e-13               3.02e-12              -1.62e-12            
  0.4                   1.114e-11             6.4e-13               3.38e-12              -1.108e-11           
  0.45                  6.884e-11             5.4e-13               8.08e-12              -6.858e-11           
  0.5                   4.2504e-10            6.8e-13               3.62e-12              -4.2504e-10          
  0.55                  2.6092e-09            5e-13                 4.26e-12              -2.6092e-09          
  0.6                   1.5216e-08            4.4e-13               3.24e-12              -1.5232e-08          
  0.65                  8.14e-08              7.2e-13               2.38e-12              -8.1648e-08          
  0.7                   3.7776e-07            5.6e-13               4.02e-12              -3.7632e-07          
  0.75                  1.4286e-06            4.6e-13               2.4e-12               -1.4208e-06          
  0.8                   4.2116e-06            5.8e-13               2.82e-12              -4.2096e-06          
  0.85                  1.00044e-05           6.8e-13               3.64e-12              -9.9946e-06          
  0.9                   1.9706e-05            4.8e-13               2.8e-12               -1.969e-05           
  0.95                  3.348e-05             5.2e-13               2.82e-12              -3.347e-05           
  1                     5.0868e-05            5.8e-13               2.4e-12               -5.0832e-05          
  1.05                  7.1124e-05            5.6e-13               2.88e-12              -7.1114e-05          
  1.1                   9.3296e-05            7e-13                 2.82e-12              -9.3256e-05          
  1.15                  0.00011678            4.2e-13               3e-12                 -0.00011636          
  1.2                   0.00014076            7e-13                 1.74e-12              -0.00014036          
  1.25                  0.00016498            5.6e-13               2.48e-12              -0.00016462          
  1.3                   0.00018928            6.8e-13               3.22e-12              -0.00018892          
  1.35                  0.00021328            7.8e-13               3.72e-12              -0.00021288          
  1.4                   0.00023684            6.8e-13               1.08e-12              -0.00023648          
  1.45                  0.00026               8.4e-13               2.54e-12              -0.00025964          
  1.5                   0.00028276            8e-13                 2.5e-12               -0.00028236          
  1.55                  0.00030484            8.6e-13               3.34e-12              -0.00030446          
  1.6                   0.00032636            8e-13                 2.34e-12              -0.00032596          
  1.65                  0.00034732            8e-13                 1.9e-12               -0.00034692          
  1.7                   0.00036762            9e-13                 2.98e-12              -0.0003672           
  1.75                  0.00038724            7.4e-13               3.06e-12              -0.00038684          
  1.8                   0.00040628            8.8e-13               2.56e-12              -0.00040592          
  1.85                  0.00042474            7.8e-13               1.68e-12              -0.00042438          
  1.9                   0.00044264            8.4e-13               2.52e-12              -0.00044228          
  1.95                  0.00045988            9.2e-13               2.62e-12              -0.0004595           
  2                     0.00047664            7.2e-13               2.86e-12              -0.00047626          
  2.05                  0.00049278            8e-13                 2.32e-12              -0.00049242          
  2.1                   0.00050828            7.8e-13               1.68e-12              -0.00050792          
  2.15                  0.0005233             8e-13                 2.7e-12               -0.00052296          
  2.2                   0.00053772            8.2e-13               3.08e-12              -0.00053734          
  2.25                  0.00055168            9e-13                 2e-12                 -0.00055128          
  2.3                   0.00056506            8.4e-13               2.26e-12              -0.00056468          
  2.35                  0.00057794            7.8e-13               1.04e-12              -0.00057756          
  2.4                   0.00059034            8.8e-13               3.2e-12               -0.00058994          
  2.45                  0.00060228            7.2e-13               2.48e-12              -0.00060186          
  2.5                   0.0006137             7.8e-13               1.36e-12              -0.00061336          
  2.55                  0.00062474            7.6e-13               1.12e-12              -0.00062434          
  2.6                   0.00063528            8.4e-13               2.2e-12               -0.0006349           
  2.65                  0.0006454             9e-13                 3.08e-12              -0.00064502          
  2.7                   0.00065512            8.8e-13               1.86e-12              -0.00065472          
  2.75                  0.00066444            8.2e-13               2.12e-12              -0.00066408          
  2.8                   0.00067334            8.6e-13               2.46e-12              -0.00067296          
  2.85                  0.00068188            8.2e-13               3.08e-12              -0.0006815           
  2.9                   0.00069008            8.2e-13               1.78e-12              -0.00068968          
  2.95                  0.00069792            9.6e-13               2.44e-12              -0.00069752          
  3                     0.00070538            1.12e-12              2.28e-12              -0.000705            
  3.05                  0.00071252            8.4e-13               4.26e-12              -0.00071212          
  3.1                   0.00071932            8.6e-13               2.48e-12              -0.00071894          
  3.15                  0.00072588            1.02e-12              1.8e-12               -0.00072548          
  3.2                   0.00073208            8.2e-13               1.44e-12              -0.0007317           
  3.25                  0.00073804            9.4e-13               2.5e-12               -0.00073764          
  3.3                   0.00074368            7.6e-13               2.82e-12              -0.00074326          
  3.35                  0.00074902            9e-13                 1.32e-12              -0.00074862          
  3.4                   0.00075414            8.4e-13               2e-12                 -0.00075376          
  3.45                  0.00075896            9.2e-13               1.46e-12              -0.0007586           
  3.5                   0.00076362            8.6e-13               2.06e-12              -0.00076324          
  3.55                  0.00076798            9e-13                 1.12e-12              -0.0007676           
  3.6                   0.00077216            8.8e-13               1.8e-12               -0.00077174          
END_DB

BEGIN_DB
 ICCAP_VAR vb         -0.9           
 ICCAP_VAR vd         0.1            
 ICCAP_VAR vs         0              

 #vg                    id                    ig                    ib                    is                   
  -0.5                  -2e-14                -6e-13                -5.2e-12              1.8e-13              
  -0.45                 -6e-14                -4.8e-13              -6.1e-12              1.8e-13              
  -0.4                  4e-14                 -1.6e-13              -4.78e-12             6e-14                
  -0.35                 -1e-13                -6e-14                -3.42e-12             1.2e-13              
  -0.3                  2e-14                 -1.6e-13              -3.3e-12              2.6e-13              
  -0.25                 0                     0                     -4.62e-12             2.2e-13              
  -0.2                  2e-14                 2.2e-13               -3.18e-12             4e-14                
  -0.15                 2e-14                 -4e-14                -2.76e-12             1.2e-13              
  -0.1                  2e-14                 2e-13                 -3.04e-12             2.6e-13              
  -0.05                 2e-14                 1e-13                 -6.8e-13              1.2e-13              
  0                     6e-14                 3e-13                 -2.74e-12             1.6e-13              
  0.05                  4e-14                 3.2e-13               -2.62e-12             1.8e-13              
  0.1                   -2e-14                2.8e-13               -2.62e-12             1e-13                
  0.15                  2e-14                 3.4e-13               -2.02e-12             1.2e-13              
  0.2                   8e-14                 5.2e-13               -7.6e-13              2.2e-13              
  0.25                  0                     2.8e-13               -8.2e-13              8e-14                
  0.3                   4e-14                 4.2e-13               -2.34e-12             2.2e-13              
  0.35                  6e-14                 4.2e-13               -2.02e-12             1.6e-13              
  0.4                   0                     4.4e-13               -1.1e-12              1.8e-13              
  0.45                  0                     3.4e-13               -5.6e-13              1.8e-13              
  0.5                   0                     4.8e-13               -1.02e-12             1.4e-13              
  0.55                  5.4e-13               4.8e-13               -1.26e-12             -3e-13               
  0.6                   4e-12                 4.6e-13               -1.48e-12             -3.82e-12            
  0.65                  2.836e-11             4.6e-13               -1.56e-12             -2.818e-11           
  0.7                   2.0068e-10            6e-13                 -7.2e-13              -2.0038e-10          
  0.75                  1.3932e-09            3.6e-13               -4e-13                -1.3874e-09          
  0.8                   9.1448e-09            5e-13                 -1.86e-12             -9.0876e-09          
  0.85                  5.5374e-08            6.6e-13               -1.36e-12             -5.4864e-08          
  0.9                   2.8258e-07            4.2e-13               -8.2e-13              -2.8288e-07          
  0.95                  1.1606e-06            4e-13                 -9.8e-13              -1.16118e-06         
  1                     3.6902e-06            5e-13                 -6.4e-13              -3.681e-06           
  1.05                  9.166e-06             5.6e-13               -1.74e-12             -9.1612e-06          
  1.1                   1.8624e-05            5.8e-13               -2.4e-13              -1.8604e-05          
  1.15                  3.2372e-05            5.8e-13               -1.16e-12             -3.236e-05           
  1.2                   5.0068e-05            4.6e-13               -4.6e-13              -5.0024e-05          
  1.25                  7.076e-05             7.2e-13               -3.8e-13              -7.0718e-05          
  1.3                   9.3608e-05            5.8e-13               -7.8e-13              -9.3594e-05          
  1.35                  0.0001177             4.2e-13               -1.34e-12             -0.00011732          
  1.4                   0.0001423             6.2e-13               1.6e-13               -0.00014192          
  1.45                  0.00016702            6.6e-13               -6e-13                -0.00016666          
  1.5                   0.00019168            5.4e-13               -6.4e-13              -0.00019132          
  1.55                  0.00021592            7.8e-13               -1.12e-12             -0.00021554          
  1.6                   0.0002396             6.4e-13               -3e-13                -0.00023924          
  1.65                  0.00026282            9e-13                 -8e-14                -0.00026244          
  1.7                   0.00028532            7.2e-13               -5.8e-13              -0.00028494          
  1.75                  0.00030712            7.8e-13               -6e-14                -0.00030672          
  1.8                   0.0003283             8.6e-13               -3.4e-13              -0.00032796          
  1.85                  0.00034876            8.2e-13               3.4e-13               -0.00034836          
  1.9                   0.00036858            6e-13                 -3.4e-13              -0.00036822          
  1.95                  0.0003877             8.4e-13               -6.2e-13              -0.00038732          
  2                     0.00040618            7.6e-13               -5.2e-13              -0.0004058           
  2.05                  0.000424              8.8e-13               -2.4e-13              -0.00042366          
  2.1                   0.00044114            7.6e-13               2e-13                 -0.00044078          
  2.15                  0.00045772            8.8e-13               -1.8e-13              -0.00045732          
  2.2                   0.00047354            8.2e-13               -3.4e-13              -0.00047316          
  2.25                  0.0004889             7e-13                 -6.2e-13              -0.00048848          
  2.3                   0.00050356            7.8e-13               6.4e-13               -0.00050324          
  2.35                  0.00051776            9.4e-13               4.2e-13               -0.0005174           
  2.4                   0.00053136            7.8e-13               -9.4e-13              -0.00053094          
  2.45                  0.00054442            1.04e-12              -3.8e-13              -0.00054402          
  2.5                   0.000557              8e-13                 1.4e-13               -0.0005566           
  2.55                  0.00056902            9e-13                 5.8e-13               -0.00056866          
  2.6                   0.00058058            7.8e-13               -7.2e-13              -0.0005802           
  2.65                  0.00059164            9e-13                 -9e-13                -0.00059126          
  2.7                   0.00060226            7.8e-13               4e-13                 -0.00060188          
  2.75                  0.00061246            8.2e-13               3.6e-13               -0.0006121           
  2.8                   0.0006222             8e-13                 -5.8e-13              -0.00062178          
  2.85                  0.00063152            8.6e-13               -6.8e-13              -0.00063114          
  2.9                   0.00064046            9.2e-13               2e-13                 -0.00064008          
  2.95                  0.00064904            9e-13                 6e-13                 -0.00064868          
  3                     0.00065724            7.2e-13               -4.6e-13              -0.00065684          
  3.05                  0.00066506            1.02e-12              -4.6e-13              -0.00066468          
  3.1                   0.0006725             8.8e-13               -2e-14                -0.00067214          
  3.15                  0.00067966            9.4e-13               4.8e-13               -0.0006793           
  3.2                   0.00068644            8.4e-13               -6.6e-13              -0.00068608          
  3.25                  0.00069298            9.4e-13               -3.8e-13              -0.00069258          
  3.3                   0.00069918            9.2e-13               0                     -0.0006988           
  3.35                  0.00070508            8.8e-13               2e-13                 -0.0007047           
  3.4                   0.00071072            1.04e-12              7.2e-13               -0.00071034          
  3.45                  0.0007161             9.2e-13               -2.1e-12              -0.0007157           
