! VERSION = 6.00
BEGIN_HEADER
 ICCAP_INPUTS
  vd         V  D GROUND SMU1 0.1 LIN        1    0          3.6        37   0.1       
  vg         V  G GROUND SMU2 0.001 LIST       2 3 0.465 0.665 0.865
  vb         V  B GROUND SMU4 0.1 CON        0
  vs         V  S GROUND SMU3 0.1 CON        0
 ICCAP_OUTPUTS
  id         I  D GROUND SMU1 B
  ig         I  G GROUND SMU2 B
  ib         I  B GROUND SMU4 B
  is         I  S GROUND SMU3 B
 ICCAP_VALUES
  MASTER_SETUP_TYPE "~dc_idvd~"
  LINVT_VALUE ""
  LISTVT_VALUE "|idvg|100.0n|-200.0m|1.000m|3|200.0m|200.0m|"
  TYPE "1"
  TEMP " 70.0000 "
  IS_TNOM " 0.00000 "
  MAIN.W "10.00u"
  MAIN.L "500.0n"
  MAIN.AD "3.400p"
  MAIN.AS "3.400p"
  MAIN.PD "20.68u"
  MAIN.PS "20.68u"
  MAIN.NF "1.000"
  MAIN.M "1"
  MAIN.NRD "0.000"
  MAIN.NRS "0.000"
  MAIN.LDRIFT1 "1E-06"
  MAIN.LDRIFT2 "1E-06"
  MAIN.SA "0.000"
  MAIN.SB "0.000"
  MAIN.SD "0.000"
  MAIN.SCA "0.000"
  MAIN.SCB "0.000"
  MAIN.SCC "0.000"
  MAIN.SC "0.000"
  MODULE "S556"
  PIN_D "14"
  PIN_G "7"
  PIN_S "8"
  PIN_B "13"
  PIN_E ""
  PIN_6 ""
  XY_ID ""
  FUNC "Short"
  STI "SA ref"
  WPE "WPE ref"
  COMMENT ""
  DIS_MEAS ""
  TypeTCI "10"
END_HEADER

BEGIN_DB
 ICCAP_VAR vg         0.465          
 ICCAP_VAR vb         0              
 ICCAP_VAR vs         0              

 #vd                    id                    ig                    ib                    is                   
  0                     3.426e-11             -6e-13                4.52e-12              -1.606e-11           
  0.1                   1.4202e-08            -6.2e-13              3.86e-12              -1.4166e-08          
  0.2                   1.5478e-08            -4.6e-13              3.78e-12              -1.5442e-08          
  0.3                   1.6126e-08            -6.8e-13              3.92e-12              -1.611e-08           
  0.4                   1.6714e-08            -5.2e-13              2.76e-12              -1.6698e-08          
  0.5                   1.727e-08             -4e-13                3.04e-12              -1.725e-08           
  0.6                   1.7806e-08            -4.8e-13              3.4e-12               -1.776e-08           
  0.7                   1.831e-08             -4.6e-13              2.88e-12              -1.8298e-08          
  0.8                   1.8826e-08            -5.6e-13              3.46e-12              -1.882e-08           
  0.9                   1.9326e-08            -6.2e-13              2.5e-12               -1.931e-08           
  1                     1.9836e-08            -5.4e-13              4.04e-12              -1.9834e-08          
  1.1                   2.0312e-08            -4.2e-13              3.6e-12               -2.0328e-08          
  1.2                   2.0826e-08            -4e-13                2.86e-12              -2.0804e-08          
  1.3                   2.1282e-08            -2.2e-13              2.4e-12               -2.1304e-08          
  1.4                   2.18e-08              -3.4e-13              2.92e-12              -2.1782e-08          
  1.5                   2.2292e-08            -4e-13                1.94e-12              -2.23e-08            
  1.6                   2.2814e-08            -3e-13                1.26e-12              -2.2814e-08          
  1.7                   2.3346e-08            -3.4e-13              -2.4e-13              -2.3314e-08          
  1.8                   2.3814e-08            -4.6e-13              -1.84e-12             -2.3796e-08          
  1.9                   2.436e-08             -3.4e-13              -6.46e-12             -2.4316e-08          
  2                     2.4846e-08            -3.2e-13              -1.258e-11            -2.481e-08           
  2.1                   2.5394e-08            -4.2e-13              -2.054e-11            -2.5394e-08          
  2.2                   2.5954e-08            -3.2e-13              -3.184e-11            -2.5898e-08          
  2.3                   2.6514e-08            -4.4e-13              -4.724e-11            -2.6408e-08          
  2.4                   2.701e-08             -2.8e-13              -7.024e-11            -2.6948e-08          
  2.5                   2.7624e-08            -2.8e-13              -9.968e-11            -2.7494e-08          
  2.6                   2.8182e-08            -3.8e-13              -1.3934e-10           -2.8062e-08          
  2.7                   2.8784e-08            -2.4e-13              -1.8904e-10           -2.861e-08           
  2.8                   2.948e-08             -3e-13                -2.569e-10            -2.9202e-08          
  2.9                   3.019e-08             -3.4e-13              -3.4158e-10           -2.9788e-08          
  3                     3.0874e-08            -2e-13                -4.4832e-10           -3.0392e-08          
  3.1                   3.1624e-08            -2.2e-13              -5.8258e-10           -3.097e-08           
  3.2                   3.2336e-08            -3.2e-13              -7.4924e-10           -3.1564e-08          
  3.3                   3.3168e-08            -3.2e-13              -9.496e-10            -3.2166e-08          
  3.4                   3.4004e-08            -2.4e-13              -1.1912e-09           -3.2856e-08          
  3.5                   3.4912e-08            -3.2e-13              -1.4786e-09           -3.345e-08           
  3.6                   3.592e-08             -1.8e-13              -1.8156e-09           -3.4012e-08          
END_DB

BEGIN_DB
 ICCAP_VAR vg         0.665          
 ICCAP_VAR vb         0              
 ICCAP_VAR vs         0              

 #vd                    id                    ig                    ib                    is                   
  0                     1.0226e-09            -8e-14                4.04e-12              -1.0138e-09          
  0.1                   1.1434e-06            -1.4e-13              2.8e-12               -1.14122e-06         
  0.2                   1.2932e-06            -1.6e-13              2.84e-12              -1.2902e-06          
  0.3                   1.3598e-06            -2e-13                1.96e-12              -1.3582e-06          
  0.4                   1.4156e-06            -1.4e-13              2.92e-12              -1.4126e-06          
  0.5                   1.4652e-06            -2.2e-13              2.8e-12               -1.4632e-06          
  0.6                   1.5136e-06            -2.4e-13              2.02e-12              -1.5112e-06          
  0.7                   1.5574e-06            6e-14                 3.52e-12              -1.555e-06           
  0.8                   1.6e-06               -8e-14                2.6e-12               -1.598e-06           
  0.9                   1.6428e-06            -8e-14                2.26e-12              -1.6392e-06          
  1                     1.6836e-06            -6e-14                3.82e-12              -1.6806e-06          
  1.1                   1.7244e-06            -1.8e-13              2.1e-12               -1.72e-06            
  1.2                   1.7634e-06            -1e-13                9.2e-13               -1.7618e-06          
  1.3                   1.8028e-06            -6e-14                1.26e-12              -1.7996e-06          
  1.4                   1.8428e-06            -4e-14                -3.98e-12             -1.8384e-06          
  1.5                   1.8804e-06            -1.4e-13              -1.626e-11            -1.8762e-06          
  1.6                   1.9184e-06            -8e-14                -4.034e-11            -1.9146e-06          
  1.7                   1.9562e-06            -1.4e-13              -9.202e-11            -1.9526e-06          
  1.8                   1.9962e-06            -8e-14                -1.874e-10            -1.992e-06           
  1.9                   2.0346e-06            -1.2e-13              -3.4428e-10           -2.0304e-06          
  2                     2.073e-06             -2e-14                -6.0058e-10           -2.0702e-06          
  2.1                   2.1134e-06            -2e-14                -9.914e-10            -2.1082e-06          
  2.2                   2.1546e-06            0                     -1.5678e-09           -2.152e-06           
  2.3                   2.1926e-06            -8e-14                -2.384e-09            -2.1872e-06          
  2.4                   2.233e-06             -1.2e-13              -3.5286e-09           -2.228e-06           
  2.5                   2.2744e-06            -8e-14                -5.0902e-09           -2.2646e-06          
  2.6                   2.3154e-06            -8e-14                -7.1978e-09           -2.3046e-06          
  2.7                   2.3596e-06            2e-14                 -1.00014e-08          -2.3464e-06          
  2.8                   2.4006e-06            -1e-13                -1.369e-08            -2.3842e-06          
  2.9                   2.4464e-06            -4e-14                -1.849e-08            -2.4258e-06          
  3                     2.494e-06             -2.2e-13              -2.4674e-08           -2.4654e-06          
  3.1                   2.543e-06             -1.8e-13              -3.254e-08            -2.5078e-06          
  3.2                   2.5952e-06            -1.2e-13              -4.2332e-08           -2.55e-06            
  3.3                   2.6484e-06            0                     -5.4604e-08           -2.5922e-06          
  3.4                   2.705e-06             0                     -6.9526e-08           -2.635e-06           
  3.5                   2.7642e-06            2e-14                 -8.7516e-08           -2.6808e-06          
  3.6                   2.8342e-06            2e-14                 -1.08674e-07          -2.7174e-06          
END_DB

BEGIN_DB
 ICCAP_VAR vg         0.865          
 ICCAP_VAR vb         0              
 ICCAP_VAR vs         0              

 #vd                    id                    ig                    ib                    is                   
  0                     1.1712e-08            0                     4.2e-12               -1.0514e-08          
  0.1                   1.8572e-05            -8e-14                3.18e-12              -1.8566e-05          
  0.2                   2.3966e-05            -2e-14                2.26e-12              -2.3962e-05          
  0.3                   2.5814e-05            8e-14                 1.58e-12              -2.5818e-05          
  0.4                   2.687e-05             1e-13                 1.54e-12              -2.6872e-05          
  0.5                   2.7678e-05            -6e-14                2.46e-12              -2.7686e-05          
  0.6                   2.833e-05             1.4e-13               1.96e-12              -2.8336e-05          
  0.7                   2.8956e-05            1e-13                 2.66e-12              -2.8954e-05          
  0.8                   2.9518e-05            -1.6e-13              2.66e-12              -2.952e-05           
  0.9                   3.007e-05             -1e-13                1.4e-12               -3.0058e-05          
  1                     3.058e-05             -2e-13                3.04e-12              -3.0582e-05          
  1.1                   3.1092e-05            -1.2e-13              2.02e-12              -3.1076e-05          
  1.2                   3.1548e-05            2e-14                 4e-14                 -3.1554e-05          
  1.3                   3.2014e-05            -4e-14                -3.16e-12             -3.2002e-05          
  1.4                   3.2468e-05            -4e-14                -1.992e-11            -3.2428e-05          
  1.5                   3.2892e-05            -2.8e-13              -7.168e-11            -3.2904e-05          
  1.6                   3.3354e-05            -1.8e-13              -2.0674e-10           -3.3336e-05          
  1.7                   3.3776e-05            -4e-14                -5.2382e-10           -3.3776e-05          
  1.8                   3.421e-05             -1.2e-13              -1.1778e-09           -3.4188e-05          
  1.9                   3.4624e-05            -1e-13                -2.406e-09            -3.4618e-05          
  2                     3.5084e-05            -8e-14                -4.5408e-09           -3.5052e-05          
  2.1                   3.5506e-05            -2e-14                -8.0316e-09           -3.5482e-05          
  2.2                   3.5874e-05            -2e-14                -1.3444e-08           -3.5858e-05          
  2.3                   3.6302e-05            -8e-14                -2.149e-08            -3.6294e-05          
  2.4                   3.6748e-05            0                     -3.3e-08              -3.6706e-05          
  2.5                   3.7168e-05            -1e-13                -4.9206e-08           -3.7126e-05          
  2.6                   3.7602e-05            -1.2e-13              -7.1358e-08           -3.7528e-05          
  2.7                   3.805e-05             0                     -1.01128e-07          -3.7932e-05          
  2.8                   3.8476e-05            -2e-14                -1.4078e-07           -3.8316e-05          
  2.9                   3.8964e-05            -2e-14                -1.9296e-07           -3.8742e-05          
  3                     3.9448e-05            -1.2e-13              -2.6068e-07           -3.9146e-05          
  3.1                   3.989e-05             -6e-14                -3.478e-07            -3.9538e-05          
  3.2                   4.0434e-05            -2e-14                -4.5862e-07           -3.9952e-05          
  3.3                   4.0996e-05            -6e-14                -5.9716e-07           -4.0356e-05          
  3.4                   4.1588e-05            -2.2e-13              -7.6914e-07           -4.0796e-05          
  3.5                   4.2204e-05            -1e-13                -9.7968e-07           -4.1236e-05          
  3.6                   4.2914e-05            -2e-14                -1.2326e-06           -4.1644e-05          
END_DB

