! VERSION = 6.00
BEGIN_HEADER
 ICCAP_INPUTS
  vd         V  D GROUND SMU1 0.1 LIN        1    0          3.6        37   0.1       
  vg         V  G GROUND SMU2 0.001 LIN        2    1.472      3.6        5    0.532     
  vb         V  B GROUND SMU4 0.1 CON        -3.6
  vs         V  S GROUND SMU3 0.1 CON        0
 ICCAP_OUTPUTS
  id         I  D GROUND SMU1 B
  ig         I  G GROUND SMU2 B
  ib         I  B GROUND SMU4 B
  is         I  S GROUND SMU3 B
 ICCAP_VALUES
  MASTER_SETUP_TYPE "~dc_idvd~"
  LINVT_VALUE "|idvg|100.0n|100.0m|1.000m|5|3.600|"
  LISTVT_VALUE ""
  TYPE "1"
  TEMP " 27.0000 "
  IS_TNOM " 1.00000 "
  MAIN.W "2.000u"
  MAIN.L "10.00u"
  MAIN.AD "680.0f"
  MAIN.AS "680.0f"
  MAIN.PD "4.680u"
  MAIN.PS "4.680u"
  MAIN.NF "1.000"
  MAIN.M "1"
  MAIN.NRD "0.000"
  MAIN.NRS "0.000"
  MAIN.LDRIFT1 "1E-06"
  MAIN.LDRIFT2 "1E-06"
  MAIN.SA "0.000"
  MAIN.SB "0.000"
  MAIN.SD "0.000"
  MAIN.SCA "0.000"
  MAIN.SCB "0.000"
  MAIN.SCC "0.000"
  MAIN.SC "0.000"
  MODULE "S558"
  PIN_D "12"
  PIN_G "9"
  PIN_S "10"
  PIN_B "11"
  PIN_E ""
  PIN_6 ""
  XY_ID ""
  FUNC "W Scale"
  STI "SA ref"
  WPE "WPE ref"
  COMMENT ""
  DIS_MEAS ""
  TypeTCI "10"
END_HEADER

BEGIN_DB
 ICCAP_VAR vg         1.472          
 ICCAP_VAR vb         -3.6           
 ICCAP_VAR vs         0              

 #vd                    id                    ig                    ib                    is                   
  0                     1.1334e-10            7e-13                 -4.278e-11            -9.316e-11           
  0.1                   9.513e-08             5e-13                 -3.634e-11            -9.5098e-08          
  0.2                   1.1054e-07            5e-13                 -3.462e-11            -1.10446e-07         
  0.3                   1.1164e-07            4.2e-13               -3.402e-11            -1.11542e-07         
  0.4                   1.1182e-07            3e-13                 -3.232e-11            -1.11708e-07         
  0.5                   1.1192e-07            3.2e-13               -2.994e-11            -1.11818e-07         
  0.6                   1.12e-07              3.6e-13               -2.818e-11            -1.11922e-07         
  0.7                   1.1212e-07            3.8e-13               -2.838e-11            -1.11984e-07         
  0.8                   1.1216e-07            3.6e-13               -2.734e-11            -1.12034e-07         
  0.9                   1.1222e-07            2.4e-13               -2.57e-11             -1.12126e-07         
  1                     1.1226e-07            3.4e-13               -2.53e-11             -1.12176e-07         
  1.1                   1.123e-07             3.2e-13               -2.436e-11            -1.12232e-07         
  1.2                   1.1236e-07            4e-13                 -2.366e-11            -1.12256e-07         
  1.3                   1.1244e-07            3e-13                 -2.184e-11            -1.1231e-07          
  1.4                   1.1246e-07            4.4e-13               -2.18e-11             -1.12342e-07         
  1.5                   1.1248e-07            2.6e-13               -2.214e-11            -1.12382e-07         
  1.6                   1.1252e-07            2.2e-13               -2.218e-11            -1.12406e-07         
  1.7                   1.1254e-07            1.8e-13               -2.014e-11            -1.1243e-07          
  1.8                   1.1258e-07            2e-14                 -2.024e-11            -1.12506e-07         
  1.9                   1.1266e-07            1.2e-13               -2.046e-11            -1.12546e-07         
  2                     1.127e-07             1.2e-13               -2.166e-11            -1.12566e-07         
  2.1                   1.1272e-07            1.8e-13               -2.2e-11              -1.12602e-07         
  2.2                   1.1276e-07            1.8e-13               -2.594e-11            -1.1264e-07          
  2.3                   1.1278e-07            2e-13                 -3.36e-11             -1.12668e-07         
  2.4                   1.1282e-07            2e-13                 -4.392e-11            -1.12688e-07         
  2.5                   1.1284e-07            3e-13                 -6.03e-11             -1.12704e-07         
  2.6                   1.1288e-07            1.8e-13               -8.706e-11            -1.12754e-07         
  2.7                   1.13e-07              2.8e-13               -1.2434e-10           -1.1279e-07          
  2.8                   1.131e-07             2.4e-13               -1.7738e-10           -1.12824e-07         
  2.9                   1.1318e-07            1.8e-13               -2.4858e-10           -1.12852e-07         
  3                     1.1326e-07            2.2e-13               -3.4782e-10           -1.12868e-07         
  3.1                   1.1346e-07            1.4e-13               -4.7978e-10           -1.129e-07           
  3.2                   1.1364e-07            2.2e-13               -6.5224e-10           -1.12908e-07         
  3.3                   1.1388e-07            1.4e-13               -8.7944e-10           -1.12936e-07         
  3.4                   1.1418e-07            1.8e-13               -1.1712e-09           -1.1296e-07          
  3.5                   1.146e-07             1.2e-13               -1.5448e-09           -1.12962e-07         
  3.6                   1.1508e-07            1.8e-13               -2.016e-09            -1.12976e-07         
END_DB

BEGIN_DB
 ICCAP_VAR vg         2.004          
 ICCAP_VAR vb         -3.6           
 ICCAP_VAR vs         0              

 #vd                    id                    ig                    ib                    is                   
  0                     8.5346e-10            4.2e-13               -9.4e-12              -8.5114e-10          
  0.1                   1.2324e-06            2.4e-13               -9.96e-12             -1.2282e-06          
  0.2                   2.1682e-06            2.2e-13               -9.76e-12             -2.1642e-06          
  0.3                   2.8214e-06            2.8e-13               -8.66e-12             -2.8178e-06          
  0.4                   3.2204e-06            3e-13                 -1.014e-11            -3.2164e-06          
  0.5                   3.4108e-06            3.8e-13               -9.5e-12              -3.407e-06           
  0.6                   3.4736e-06            1.6e-13               -8.82e-12             -3.4696e-06          
  0.7                   3.4894e-06            2.2e-13               -1.064e-11            -3.4856e-06          
  0.8                   3.4954e-06            2.2e-13               -9.42e-12             -3.4914e-06          
  0.9                   3.4988e-06            2.4e-13               -9.04e-12             -3.4944e-06          
  1                     3.5004e-06            1.8e-13               -9.96e-12             -3.4964e-06          
  1.1                   3.5024e-06            3.2e-13               -8.44e-12             -3.4986e-06          
  1.2                   3.504e-06             2.2e-13               -8.4e-12              -3.5e-06             
  1.3                   3.5052e-06            1.6e-13               -9.86e-12             -3.5014e-06          
  1.4                   3.5066e-06            1e-13                 -9.22e-12             -3.503e-06           
  1.5                   3.508e-06             1.6e-13               -7.8e-12              -3.504e-06           
  1.6                   3.5088e-06            2.8e-13               -9.32e-12             -3.505e-06           
  1.7                   3.51e-06              1.4e-13               -8.96e-12             -3.5062e-06          
  1.8                   3.511e-06             2e-13                 -7.86e-12             -3.5072e-06          
  1.9                   3.5122e-06            1.8e-13               -1.046e-11            -3.5084e-06          
  2                     3.5132e-06            2e-13                 -9.38e-12             -3.5094e-06          
  2.1                   3.5138e-06            1.4e-13               -9.82e-12             -3.5102e-06          
  2.2                   3.5152e-06            4e-14                 -1.266e-11            -3.511e-06           
  2.3                   3.5156e-06            1.8e-13               -2.01e-11             -3.5116e-06          
  2.4                   3.5162e-06            2.2e-13               -3.7e-11              -3.5124e-06          
  2.5                   3.5174e-06            1.2e-13               -7.786e-11            -3.5136e-06          
  2.6                   3.5182e-06            2e-14                 -1.5546e-10           -3.5144e-06          
  2.7                   3.5194e-06            1.6e-13               -2.9572e-10           -3.515e-06           
  2.8                   3.5202e-06            1.8e-13               -5.3694e-10           -3.5156e-06          
  2.9                   3.5216e-06            1.2e-13               -9.1942e-10           -3.5164e-06          
  3                     3.5228e-06            1.8e-13               -1.5112e-09           -3.5172e-06          
  3.1                   3.5242e-06            1.4e-13               -2.3834e-09           -3.5178e-06          
  3.2                   3.526e-06             2.4e-13               -3.635e-09            -3.5184e-06          
  3.3                   3.5284e-06            4e-14                 -5.3898e-09           -3.5192e-06          
  3.4                   3.532e-06             6e-14                 -7.8098e-09           -3.52e-06            
  3.5                   3.5358e-06            1e-13                 -1.1076e-08           -3.5208e-06          
  3.6                   3.5406e-06            8e-14                 -1.5454e-08           -3.5212e-06          
END_DB

BEGIN_DB
 ICCAP_VAR vg         2.536          
 ICCAP_VAR vb         -3.6           
 ICCAP_VAR vs         0              

 #vd                    id                    ig                    ib                    is                   
  0                     1.5214e-09            4.6e-13               -5.46e-12             -1.3344e-09          
  0.1                   2.5434e-06            3.4e-13               -4.54e-12             -2.5394e-06          
  0.2                   4.8024e-06            3.2e-13               -5.9e-12              -4.7986e-06          
  0.3                   6.7704e-06            2.6e-13               -6.4e-12              -6.7668e-06          
  0.4                   8.451e-06             2.2e-13               -5.08e-12             -8.4472e-06          
  0.5                   9.8396e-06            3.2e-13               -6.32e-12             -9.836e-06           
  0.6                   1.09366e-05           2.8e-13               -7.16e-12             -1.09326e-05         
  0.7                   1.1764e-05            2e-13                 -5.9e-12              -1.1742e-05          
  0.8                   1.2318e-05            2.2e-13               -5.9e-12              -1.2298e-05          
  0.9                   1.2646e-05            1.8e-13               -5.44e-12             -1.2626e-05          
  1                     1.2804e-05            2.8e-13               -6.6e-12              -1.2784e-05          
  1.1                   1.2866e-05            2.6e-13               -6.44e-12             -1.2846e-05          
  1.2                   1.2892e-05            3.4e-13               -5.62e-12             -1.2872e-05          
  1.3                   1.2904e-05            2e-13                 -6.2e-12              -1.2884e-05          
  1.4                   1.2912e-05            1.6e-13               -5.62e-12             -1.2892e-05          
  1.5                   1.2918e-05            1.8e-13               -5.42e-12             -1.29e-05            
  1.6                   1.2924e-05            2.6e-13               -5.82e-12             -1.2904e-05          
  1.7                   1.293e-05             2.2e-13               -5.78e-12             -1.2908e-05          
  1.8                   1.2932e-05            1e-13                 -5.68e-12             -1.2912e-05          
  1.9                   1.2938e-05            1.4e-13               -6.52e-12             -1.2916e-05          
  2                     1.294e-05             2.2e-13               -5.62e-12             -1.292e-05           
  2.1                   1.2942e-05            8e-14                 -5.56e-12             -1.2922e-05          
  2.2                   1.2946e-05            1e-13                 -6.4e-12              -1.2926e-05          
  2.3                   1.295e-05             3e-13                 -5.4e-12              -1.293e-05           
  2.4                   1.2952e-05            2.4e-13               -5.7e-12              -1.2932e-05          
  2.5                   1.2956e-05            1.2e-13               -8.08e-12             -1.2936e-05          
  2.6                   1.2958e-05            1.4e-13               -1.14e-11             -1.2938e-05          
  2.7                   1.2962e-05            1.8e-13               -2.888e-11            -1.2942e-05          
  2.8                   1.2964e-05            1.8e-13               -6.306e-11            -1.2944e-05          
  2.9                   1.2966e-05            2.2e-13               -1.4566e-10           -1.2946e-05          
  3                     1.297e-05             2e-13                 -3.1936e-10           -1.295e-05           
  3.1                   1.2972e-05            1.8e-13               -6.5258e-10           -1.2952e-05          
  3.2                   1.2976e-05            2.6e-13               -1.2442e-09           -1.2954e-05          
  3.3                   1.298e-05             1e-13                 -2.2326e-09           -1.2956e-05          
  3.4                   1.2982e-05            3.4e-13               -3.8012e-09           -1.2958e-05          
  3.5                   1.2988e-05            2e-13                 -6.193e-09            -1.296e-05           
  3.6                   1.2992e-05            3e-13                 -9.7e-09              -1.2962e-05          
END_DB

BEGIN_DB
 ICCAP_VAR vg         3.068          
 ICCAP_VAR vb         -3.6           
 ICCAP_VAR vs         0              

 #vd                    id                    ig                    ib                    is                   
  0                     2.1372e-09            2.8e-13               -3.68e-12             -1.8492e-09          
  0.1                   3.6474e-06            3.2e-13               -3.58e-12             -3.6432e-06          
  0.2                   7.0596e-06            2.8e-13               -4.94e-12             -7.0558e-06          
  0.3                   1.02232e-05           2.2e-13               -5.5e-12              -1.02194e-05         
  0.4                   1.315e-05             3e-13                 -5.14e-12             -1.313e-05           
  0.5                   1.5808e-05            3.8e-13               -5.28e-12             -1.5788e-05          
  0.6                   1.8194e-05            1.4e-13               -3.92e-12             -1.8174e-05          
  0.7                   2.031e-05             1.4e-13               -4.6e-12              -2.029e-05           
  0.8                   2.2144e-05            2.8e-13               -5.46e-12             -2.2124e-05          
  0.9                   2.3692e-05            2.4e-13               -3.76e-12             -2.3672e-05          
  1                     2.496e-05             2.2e-13               -5.04e-12             -2.494e-05           
  1.1                   2.5952e-05            2.2e-13               -4.82e-12             -2.5932e-05          
  1.2                   2.6678e-05            2.6e-13               -4.24e-12             -2.6658e-05          
  1.3                   2.7166e-05            2.6e-13               -5e-12                -2.7146e-05          
  1.4                   2.7454e-05            1.8e-13               -4.46e-12             -2.7434e-05          
  1.5                   2.7604e-05            1.8e-13               -3.48e-12             -2.7584e-05          
  1.6                   2.7676e-05            3.2e-13               -5.36e-12             -2.7656e-05          
  1.7                   2.7712e-05            1e-13                 -4.6e-12              -2.7692e-05          
  1.8                   2.7732e-05            2e-13                 -3.44e-12             -2.7712e-05          
  1.9                   2.7748e-05            2.4e-13               -4.5e-12              -2.7726e-05          
  2                     2.7758e-05            2.6e-13               -4.92e-12             -2.7738e-05          
  2.1                   2.7768e-05            1.6e-13               -3.92e-12             -2.7748e-05          
  2.2                   2.7776e-05            1.6e-13               -4.24e-12             -2.7756e-05          
  2.3                   2.7784e-05            8e-14                 -5.18e-12             -2.7764e-05          
  2.4                   2.779e-05             1.6e-13               -4.08e-12             -2.777e-05           
  2.5                   2.7796e-05            1.6e-13               -5.26e-12             -2.7778e-05          
  2.6                   2.7804e-05            1.2e-13               -5.18e-12             -2.7784e-05          
  2.7                   2.781e-05             3.2e-13               -4.02e-12             -2.779e-05           
  2.8                   2.7816e-05            2.4e-13               -5.22e-12             -2.7796e-05          
  2.9                   2.7822e-05            2e-13                 -5.68e-12             -2.7802e-05          
  3                     2.7826e-05            1e-13                 -1.004e-11            -2.7806e-05          
  3.1                   2.7832e-05            3e-13                 -2.692e-11            -2.7812e-05          
  3.2                   2.7836e-05            2.8e-13               -6.886e-11            -2.7816e-05          
  3.3                   2.784e-05             1.8e-13               -1.6942e-10           -2.782e-05           
  3.4                   2.7846e-05            6e-14                 -3.9472e-10           -2.7826e-05          
  3.5                   2.7852e-05            2e-14                 -8.4678e-10           -2.7832e-05          
  3.6                   2.7858e-05            2e-13                 -1.685e-09            -2.7834e-05          
END_DB

BEGIN_DB
 ICCAP_VAR vg         3.6            
 ICCAP_VAR vb         -3.6           
 ICCAP_VAR vs         0              

 #vd                    id                    ig                    ib                    is                   
  0                     2.42e-09              4.6e-13               -3.1e-12              -2.1598e-09          
  0.1                   4.4838e-06            3.4e-13               -1.98e-12             -4.4796e-06          
  0.2                   8.7846e-06            4e-13                 -4.7e-12              -8.7806e-06          
  0.3                   1.2896e-05            3.2e-13               -3.38e-12             -1.2876e-05          
  0.4                   1.6808e-05            3.8e-13               -4.32e-12             -1.6788e-05          
  0.5                   2.0512e-05            2.6e-13               -4.5e-12              -2.0492e-05          
  0.6                   2.3992e-05            2e-13                 -4.3e-12              -2.3972e-05          
  0.7                   2.7248e-05            3.2e-13               -4.36e-12             -2.7228e-05          
  0.8                   3.0268e-05            2.2e-13               -3.14e-12             -3.0248e-05          
