! VERSION = 6.00
BEGIN_HEADER
 ICCAP_INPUTS
  vd         V  D GROUND SMU1 0.1 LIN        1    0          3.6        37   0.1       
  vg         V  G GROUND SMU2 0.001 LIST       2 3 1.165 1.365 1.565
  vb         V  B GROUND SMU4 0.1 CON        -3.6
  vs         V  S GROUND SMU3 0.1 CON        0
 ICCAP_OUTPUTS
  id         I  D GROUND SMU1 B
  ig         I  G GROUND SMU2 B
  ib         I  B GROUND SMU4 B
  is         I  S GROUND SMU3 B
 ICCAP_VALUES
  MASTER_SETUP_TYPE "~dc_idvd~"
  LINVT_VALUE ""
  LISTVT_VALUE "|idvg|100.0n|-200.0m|1.000m|3|200.0m|200.0m|"
  TYPE "1"
  TEMP " 27.0000 "
  IS_TNOM " 1.00000 "
  MAIN.W "600.0n"
  MAIN.L "10.00u"
  MAIN.AD "204.0f"
  MAIN.AS "204.0f"
  MAIN.PD "1.880u"
  MAIN.PS "1.880u"
  MAIN.NF "1.000"
  MAIN.M "1"
  MAIN.NRD "0.000"
  MAIN.NRS "0.000"
  MAIN.LDRIFT1 "1E-06"
  MAIN.LDRIFT2 "1E-06"
  MAIN.SA "0.000"
  MAIN.SB "0.000"
  MAIN.SD "0.000"
  MAIN.SCA "0.000"
  MAIN.SCB "0.000"
  MAIN.SCC "0.000"
  MAIN.SC "0.000"
  MODULE "S559"
  PIN_D "12"
  PIN_G "9"
  PIN_S "10"
  PIN_B "11"
  PIN_E ""
  PIN_6 ""
  XY_ID ""
  FUNC "W Scale"
  STI "SA ref"
  WPE "WPE ref"
  COMMENT ""
  DIS_MEAS ""
  TypeTCI "10"
END_HEADER

BEGIN_DB
 ICCAP_VAR vg         1.165          
 ICCAP_VAR vb         -3.6           
 ICCAP_VAR vs         0              

 #vd                    id                    ig                    ib                    is                   
  0                     0                     0                     -2.016e-11            1.2e-13              
  0.1                   2.344e-11             -2e-14                -1.75e-11             -2.304e-11           
  0.2                   2.394e-11             -1e-13                -1.414e-11            -2.362e-11           
  0.3                   2.406e-11             -1.6e-13              -1.344e-11            -2.39e-11            
  0.4                   2.426e-11             -1.6e-13              -1.19e-11             -2.394e-11           
  0.5                   2.45e-11              -1e-13                -9.8e-12              -2.406e-11           
  0.6                   2.444e-11             -1.6e-13              -9.12e-12             -2.39e-11            
  0.7                   2.444e-11             -8e-14                -9.52e-12             -2.396e-11           
  0.8                   2.456e-11             -2.4e-13              -9.42e-12             -2.388e-11           
  0.9                   2.46e-11              -1.6e-13              -6.64e-12             -2.404e-11           
  1                     2.48e-11              -4e-14                -7.54e-12             -2.424e-11           
  1.1                   2.484e-11             -2.8e-13              -7.14e-12             -2.414e-11           
  1.2                   2.49e-11              2e-14                 -6.2e-12              -2.434e-11           
  1.3                   2.488e-11             -1e-13                -5.92e-12             -2.422e-11           
  1.4                   2.494e-11             -1.8e-13              -6.36e-12             -2.41e-11            
  1.5                   2.514e-11             -1.6e-13              -6.08e-12             -2.428e-11           
  1.6                   2.512e-11             -2e-14                -4.98e-12             -2.432e-11           
  1.7                   2.51e-11              -6e-14                -5.38e-12             -2.44e-11            
  1.8                   2.51e-11              6e-14                 -6.1e-12              -2.452e-11           
  1.9                   2.518e-11             -1.2e-13              -5.02e-12             -2.436e-11           
  2                     2.534e-11             -8e-14                -3.7e-12              -2.436e-11           
  2.1                   2.548e-11             -1.6e-13              -4.16e-12             -2.428e-11           
  2.2                   2.54e-11              -8e-14                -4.88e-12             -2.448e-11           
  2.3                   2.524e-11             2e-14                 -3.66e-12             -2.466e-11           
  2.4                   2.538e-11             0                     -4.32e-12             -2.446e-11           
  2.5                   2.54e-11              -1.6e-13              -4.14e-12             -2.456e-11           
  2.6                   2.544e-11             -8e-14                -4.16e-12             -2.466e-11           
  2.7                   2.562e-11             -1.4e-13              -3.9e-12              -2.454e-11           
  2.8                   2.556e-11             -6e-14                -3.7e-12              -2.454e-11           
  2.9                   2.57e-11              -6e-14                -4.44e-12             -2.456e-11           
  3                     2.566e-11             -4e-14                -3.96e-12             -2.466e-11           
  3.1                   2.584e-11             -6e-14                -2.9e-12              -2.468e-11           
  3.2                   2.606e-11             -6e-14                -4.38e-12             -2.462e-11           
  3.3                   2.608e-11             -4e-14                -4.58e-12             -2.48e-11            
  3.4                   2.616e-11             -1.6e-13              -3.8e-12              -2.472e-11           
  3.5                   2.628e-11             -1e-13                -3.64e-12             -2.472e-11           
  3.6                   2.656e-11             -6e-14                -6.32e-12             -2.466e-11           
END_DB

BEGIN_DB
 ICCAP_VAR vg         1.365          
 ICCAP_VAR vb         -3.6           
 ICCAP_VAR vs         0              

 #vd                    id                    ig                    ib                    is                   
  0                     6.78e-12              1.4e-13               -2.94e-12             -7.52e-12            
  0.1                   5.7938e-09            -1.4e-13              -3.74e-12             -5.7934e-09          
  0.2                   6.1254e-09            8e-14                 -3.38e-12             -6.1218e-09          
  0.3                   6.1506e-09            2e-14                 -3.02e-12             -6.1446e-09          
  0.4                   6.1658e-09            2e-14                 -2.16e-12             -6.1596e-09          
  0.5                   6.178e-09             2e-14                 -3.38e-12             -6.176e-09           
  0.6                   6.1916e-09            4e-14                 -4.28e-12             -6.1854e-09          
  0.7                   6.1992e-09            8e-14                 -3.34e-12             -6.1954e-09          
  0.8                   6.2084e-09            1e-13                 -2.44e-12             -6.204e-09           
  0.9                   6.2158e-09            -2e-14                -3.3e-12              -6.2122e-09          
  1                     6.2254e-09            2e-14                 -3.54e-12             -6.2228e-09          
  1.1                   6.2332e-09            -4e-14                -4.4e-12              -6.2248e-09          
  1.2                   6.2402e-09            6e-14                 -2.96e-12             -6.2366e-09          
  1.3                   6.2458e-09            -2e-14                -2.5e-12              -6.2434e-09          
  1.4                   6.2496e-09            -2e-14                -3.24e-12             -6.2466e-09          
  1.5                   6.2588e-09            -1e-13                -4.24e-12             -6.2544e-09          
  1.6                   6.261e-09             8e-14                 -3.2e-12              -6.257e-09           
  1.7                   6.269e-09             -1e-13                -3e-12                -6.2638e-09          
  1.8                   6.2752e-09            0                     -2.9e-12              -6.2694e-09          
  1.9                   6.2818e-09            -4e-14                -2.88e-12             -6.2746e-09          
  2                     6.2834e-09            -4e-14                -4.34e-12             -6.275e-09           
  2.1                   6.2896e-09            0                     -3.2e-12              -6.2848e-09          
  2.2                   6.2924e-09            8e-14                 -6.36e-12             -6.2918e-09          
  2.3                   6.2996e-09            -2e-14                -3.9e-12              -6.2942e-09          
  2.4                   6.3064e-09            8e-14                 -6.24e-12             -6.2988e-09          
  2.5                   6.3136e-09            6e-14                 -6.5e-12              -6.3054e-09          
  2.6                   6.32e-09              1.8e-13               -8.78e-12             -6.3134e-09          
  2.7                   6.3278e-09            2e-14                 -1.096e-11            -6.316e-09           
  2.8                   6.3342e-09            2e-14                 -1.448e-11            -6.3238e-09          
  2.9                   6.3468e-09            6e-14                 -1.98e-11             -6.3228e-09          
  3                     6.3554e-09            2e-14                 -2.728e-11            -6.3284e-09          
  3.1                   6.3702e-09            8e-14                 -3.632e-11            -6.3344e-09          
  3.2                   6.384e-09             -6e-14                -4.672e-11            -6.334e-09           
  3.3                   6.4062e-09            8e-14                 -6.31e-11             -6.3432e-09          
  3.4                   6.4324e-09            -1e-13                -8.24e-11             -6.3474e-09          
  3.5                   6.4596e-09            8e-14                 -1.0764e-10           -6.3516e-09          
  3.6                   6.4952e-09            0                     -1.369e-10            -6.3562e-09          
END_DB

BEGIN_DB
 ICCAP_VAR vg         1.565          
 ICCAP_VAR vb         -3.6           
 ICCAP_VAR vs         0              

 #vd                    id                    ig                    ib                    is                   
  0                     5.894e-11             0                     -2.42e-12             -5.986e-11           
  0.1                   6.8406e-08            4e-14                 -2.68e-12             -6.8378e-08          
  0.2                   9.0538e-08            4e-14                 -2.26e-12             -9.0508e-08          
  0.3                   9.3464e-08            0                     -2.24e-12             -9.3458e-08          
  0.4                   9.3838e-08            1.4e-13               -2.16e-12             -9.3826e-08          
  0.5                   9.4004e-08            2.4e-13               -3.66e-12             -9.3962e-08          
  0.6                   9.4118e-08            0                     -3.16e-12             -9.4116e-08          
  0.7                   9.4224e-08            6e-14                 -2.06e-12             -9.4234e-08          
  0.8                   9.432e-08             1.4e-13               -2.24e-12             -9.4332e-08          
  0.9                   9.4436e-08            4e-14                 -3.32e-12             -9.4392e-08          
  1                     9.4492e-08            6e-14                 -4.96e-12             -9.4472e-08          
  1.1                   9.4556e-08            6e-14                 -3.74e-12             -9.4574e-08          
  1.2                   9.4652e-08            -8e-14                -2.16e-12             -9.4634e-08          
  1.3                   9.4712e-08            4e-14                 -3.18e-12             -9.4706e-08          
  1.4                   9.4778e-08            8e-14                 -3.92e-12             -9.4792e-08          
  1.5                   9.4836e-08            -6e-14                -3.56e-12             -9.482e-08           
  1.6                   9.4908e-08            6e-14                 -2.54e-12             -9.487e-08           
  1.7                   9.4952e-08            8e-14                 -1.74e-12             -9.4944e-08          
  1.8                   9.5008e-08            4e-14                 -3.28e-12             -9.5006e-08          
  1.9                   9.507e-08             1.4e-13               -4.14e-12             -9.5054e-08          
  2                     9.515e-08             4e-14                 -3.72e-12             -9.5126e-08          
  2.1                   9.5202e-08            8e-14                 -3.18e-12             -9.517e-08           
  2.2                   9.5238e-08            0                     -6.68e-12             -9.521e-08           
  2.3                   9.5282e-08            6e-14                 -1.04e-11             -9.525e-08           
  2.4                   9.5396e-08            8e-14                 -1.528e-11            -9.539e-08           
  2.5                   9.542e-08             -4e-14                -2.36e-11             -9.539e-08           
  2.6                   9.547e-08             -4e-14                -3.862e-11            -9.5446e-08          
  2.7                   9.554e-08             6e-14                 -5.992e-11            -9.547e-08           
  2.8                   9.5616e-08            8e-14                 -9.232e-11            -9.5548e-08          
  2.9                   9.5718e-08            -2e-14                -1.347e-10            -9.5554e-08          
  3                     9.5826e-08            1.4e-13               -1.9302e-10           -9.5614e-08          
  3.1                   9.5936e-08            4e-14                 -2.7588e-10           -9.5666e-08          
  3.2                   9.6156e-08            1.6e-13               -3.8428e-10           -9.5676e-08          
  3.3                   9.6288e-08            6e-14                 -5.2726e-10           -9.5766e-08          
  3.4                   9.6566e-08            -2e-14                -7.1302e-10           -9.5814e-08          
  3.5                   9.6832e-08            -4e-14                -9.53e-10             -9.5846e-08          
  3.6                   9.7172e-08            -2e-14                -1.2606e-09           -9.5866e-08          
END_DB

