! VERSION = 6.00
BEGIN_HEADER
 ICCAP_INPUTS
  vd         V  D GROUND SMU1 0.1 LIN        1    0          3.6        37   0.1       
  vg         V  G GROUND SMU2 0.001 LIN        2    0.656      3.6        5    0.736     
  vb         V  B GROUND SMU4 0.1 CON        0
  vs         V  S GROUND SMU3 0.1 CON        0
 ICCAP_OUTPUTS
  id         I  D GROUND SMU1 B
  ig         I  G GROUND SMU2 B
  ib         I  B GROUND SMU4 B
  is         I  S GROUND SMU3 B
 ICCAP_VALUES
  MASTER_SETUP_TYPE "~dc_idvd~"
  LINVT_VALUE "|idvg|100.0n|100.0m|1.000m|5|3.600|"
  LISTVT_VALUE ""
  TYPE "1"
  TEMP " 70.0000 "
  IS_TNOM " 0.00000 "
  MAIN.W "2.000u"
  MAIN.L "3.000u"
  MAIN.AD "680.0f"
  MAIN.AS "680.0f"
  MAIN.PD "4.680u"
  MAIN.PS "4.680u"
  MAIN.NF "1.000"
  MAIN.M "1"
  MAIN.NRD "0.000"
  MAIN.NRS "0.000"
  MAIN.LDRIFT1 "1E-06"
  MAIN.LDRIFT2 "1E-06"
  MAIN.SA "0.000"
  MAIN.SB "0.000"
  MAIN.SD "0.000"
  MAIN.SCA "0.000"
  MAIN.SCB "0.000"
  MAIN.SCC "0.000"
  MAIN.SC "0.000"
  MODULE "S558"
  PIN_D "14"
  PIN_G "7"
  PIN_S "8"
  PIN_B "13"
  PIN_E ""
  PIN_6 ""
  XY_ID ""
  FUNC "LW Scale"
  STI "SA ref"
  WPE "WPE ref"
  COMMENT ""
  DIS_MEAS ""
  TypeTCI "10"
END_HEADER

BEGIN_DB
 ICCAP_VAR vg         0.656          
 ICCAP_VAR vb         0              
 ICCAP_VAR vs         0              

 #vd                    id                    ig                    ib                    is                   
  0                     2.713e-10             -4e-14                4.21e-11              -1.999e-10           
  0.1                   2.7214e-07            -1.8e-13              3.76e-11              -2.7208e-07          
  0.2                   3.0718e-07            -2.4e-13              3.636e-11             -3.0726e-07          
  0.3                   3.1104e-07            -3.2e-13              3.462e-11             -3.1132e-07          
  0.4                   3.1296e-07            -3e-13                3.304e-11             -3.1286e-07          
  0.5                   3.1412e-07            -2e-13                3.26e-11              -3.1424e-07          
  0.6                   3.1536e-07            -2.6e-13              3.204e-11             -3.1522e-07          
  0.7                   3.1634e-07            -1.6e-13              3.072e-11             -3.162e-07           
  0.8                   3.1732e-07            -6e-14                2.952e-11             -3.1718e-07          
  0.9                   3.1816e-07            -3e-13                2.948e-11             -3.182e-07           
  1                     3.1898e-07            -1.4e-13              2.904e-11             -3.1896e-07          
  1.1                   3.1976e-07            -2.4e-13              2.8e-11               -3.1968e-07          
  1.2                   3.2052e-07            -3.6e-13              2.6e-11               -3.2048e-07          
  1.3                   3.2114e-07            -1.6e-13              2.648e-11             -3.2106e-07          
  1.4                   3.2176e-07            -1.6e-13              2.594e-11             -3.2174e-07          
  1.5                   3.223e-07             -3e-13                2.444e-11             -3.2238e-07          
  1.6                   3.2296e-07            -2e-13                2.146e-11             -3.23e-07            
  1.7                   3.2364e-07            -4e-14                1.87e-11              -3.2372e-07          
  1.8                   3.2414e-07            -1.6e-13              9.8e-12               -3.2416e-07          
  1.9                   3.246e-07             -8e-14                -4.52e-12             -3.247e-07           
  2                     3.251e-07             -1.8e-13              -2.948e-11            -3.2518e-07          
  2.1                   3.2566e-07            -1e-13                -6.568e-11            -3.2562e-07          
  2.2                   3.2618e-07            -1.4e-13              -1.229e-10            -3.2618e-07          
  2.3                   3.2686e-07            -2.2e-13              -2.0576e-10           -3.265e-07           
  2.4                   3.2734e-07            -2.8e-13              -3.2028e-10           -3.27e-07            
  2.5                   3.2804e-07            -1.2e-13              -4.7806e-10           -3.2752e-07          
  2.6                   3.2872e-07            -6e-14                -6.9242e-10           -3.2798e-07          
  2.7                   3.2948e-07            -2.6e-13              -9.72e-10             -3.2846e-07          
  2.8                   3.3028e-07            -2e-13                -1.3428e-09           -3.2898e-07          
  2.9                   3.3114e-07            -1.4e-13              -1.821e-09            -3.2922e-07          
  3                     3.3214e-07            -1.8e-13              -2.4328e-09           -3.2954e-07          
  3.1                   3.3324e-07            -2.6e-13              -3.2068e-09           -3.301e-07           
  3.2                   3.3452e-07            -1.4e-13              -4.1774e-09           -3.3042e-07          
  3.3                   3.3626e-07            -1.6e-13              -5.3744e-09           -3.309e-07           
  3.4                   3.381e-07             -6e-14                -6.8302e-09           -3.3138e-07          
  3.5                   3.4024e-07            -1.4e-13              -8.584e-09            -3.3156e-07          
  3.6                   3.4264e-07            -2e-14                -1.06636e-08          -3.3204e-07          
END_DB

BEGIN_DB
 ICCAP_VAR vg         1.392          
 ICCAP_VAR vb         0              
 ICCAP_VAR vs         0              

 #vd                    id                    ig                    ib                    is                   
  0                     1.6738e-09            4e-13                 1.382e-11             -1.5068e-09          
  0.1                   5.6194e-06            1.2e-13               1.328e-11             -5.6156e-06          
  0.2                   1.012e-05             3.4e-13               1.292e-11             -1.01162e-05         
  0.3                   1.3528e-05            3e-13                 1.372e-11             -1.3522e-05          
  0.4                   1.5902e-05            1.2e-13               1.318e-11             -1.5896e-05          
  0.5                   1.7336e-05            1.8e-13               1.138e-11             -1.733e-05           
  0.6                   1.8032e-05            1e-13                 1.224e-11             -1.8026e-05          
  0.7                   1.831e-05             6e-14                 1.242e-11             -1.8304e-05          
  0.8                   1.8424e-05            1.8e-13               1.162e-11             -1.8418e-05          
  0.9                   1.8484e-05            8e-14                 1.268e-11             -1.848e-05           
  1                     1.8526e-05            2e-13                 1.16e-11              -1.852e-05           
  1.1                   1.8558e-05            2.2e-13               1.096e-11             -1.8552e-05          
  1.2                   1.8584e-05            -2e-14                1.248e-11             -1.8578e-05          
  1.3                   1.8608e-05            -4e-14                1.128e-11             -1.8604e-05          
  1.4                   1.8632e-05            2e-14                 1.094e-11             -1.8626e-05          
  1.5                   1.8652e-05            -4e-14                1.196e-11             -1.8644e-05          
  1.6                   1.8672e-05            0                     1.014e-11             -1.8664e-05          
  1.7                   1.869e-05             8e-14                 1.034e-11             -1.8686e-05          
  1.8                   1.871e-05             4e-14                 9.68e-12              -1.8702e-05          
  1.9                   1.8724e-05            2e-14                 3.9e-12               -1.872e-05           
  2                     1.8742e-05            6e-14                 -1.13e-11             -1.8736e-05          
  2.1                   1.8756e-05            -4e-14                -5.66e-11             -1.8754e-05          
  2.2                   1.8774e-05            0                     -1.6582e-10           -1.8768e-05          
  2.3                   1.8786e-05            8e-14                 -3.9886e-10           -1.8778e-05          
  2.4                   1.8798e-05            4e-14                 -8.5408e-10           -1.8792e-05          
  2.5                   1.8812e-05            2.4e-13               -1.6736e-09           -1.8806e-05          
  2.6                   1.8826e-05            2e-14                 -3.045e-09            -1.8818e-05          
  2.7                   1.8844e-05            1e-13                 -5.2062e-09           -1.8834e-05          
  2.8                   1.8864e-05            1e-13                 -8.4782e-09           -1.8848e-05          
  2.9                   1.8878e-05            -4e-14                -1.3232e-08           -1.886e-05           
  3                     1.8902e-05            0                     -1.9926e-08           -1.8876e-05          
  3.1                   1.8924e-05            -2e-14                -2.9134e-08           -1.8888e-05          
  3.2                   1.8946e-05            2e-14                 -4.1558e-08           -1.8896e-05          
  3.3                   1.8972e-05            8e-14                 -5.8016e-08           -1.891e-05           
  3.4                   1.9006e-05            -6e-14                -7.968e-08            -1.892e-05           
  3.5                   1.9048e-05            0                     -1.07726e-07          -1.8932e-05          
  3.6                   1.9092e-05            -6e-14                -1.4352e-07           -1.8944e-05          
END_DB

BEGIN_DB
 ICCAP_VAR vg         2.128          
 ICCAP_VAR vb         0              
 ICCAP_VAR vs         0              

 #vd                    id                    ig                    ib                    is                   
  0                     1.799e-09             5.4e-13               8.42e-12              -2.2352e-09          
  0.1                   1.126e-05             3.8e-13               7.96e-12              -1.1254e-05          
  0.2                   2.152e-05             2.8e-13               7.56e-12              -2.1514e-05          
  0.3                   3.0748e-05            3.6e-13               7.98e-12              -3.0742e-05          
  0.4                   3.897e-05             4e-13                 6.56e-12              -3.8966e-05          
  0.5                   4.6164e-05            1.8e-13               7.84e-12              -4.616e-05           
  0.6                   5.2316e-05            2e-13                 7.66e-12              -5.2312e-05          
  0.7                   5.7452e-05            2e-13                 7.7e-12               -5.7446e-05          
  0.8                   6.1572e-05            3.8e-13               7.6e-12               -6.157e-05           
  0.9                   6.471e-05             2.4e-13               7.48e-12              -6.4706e-05          
  1                     6.6936e-05            2.2e-13               7.32e-12              -6.6932e-05          
  1.1                   6.8368e-05            1.8e-13               8.5e-12               -6.8362e-05          
  1.2                   6.9204e-05            1.6e-13               6.04e-12              -6.9196e-05          
  1.3                   6.9658e-05            2.8e-13               7.1e-12               -6.9654e-05          
  1.4                   6.9916e-05            2.6e-13               7.7e-12               -6.9914e-05          
  1.5                   7.0078e-05            1.6e-13               6.92e-12              -7.0072e-05          
  1.6                   7.0192e-05            1e-13                 8.12e-12              -7.019e-05           
  1.7                   7.0284e-05            1.6e-13               7.82e-12              -7.0282e-05          
  1.8                   7.0364e-05            3.2e-13               7.24e-12              -7.0354e-05          
  1.9                   7.043e-05             3.2e-13               7.7e-12               -7.0422e-05          
  2                     7.0484e-05            2.6e-13               7.18e-12              -7.0478e-05          
  2.1                   7.054e-05             1.4e-13               6.7e-12               -7.0534e-05          
  2.2                   7.0596e-05            -2e-14                6.88e-12              -7.059e-05           
  2.3                   7.0646e-05            2e-13                 4.32e-12              -7.064e-05           
  2.4                   7.069e-05             2.8e-13               -5.08e-12             -7.0686e-05          
  2.5                   7.0744e-05            2.2e-13               -3.52e-11             -7.0738e-05          
  2.6                   7.0784e-05            2.4e-13               -1.2292e-10           -7.078e-05           
  2.7                   7.082e-05             1.8e-13               -3.429e-10            -7.0818e-05          
  2.8                   7.0864e-05            1.8e-13               -8.4204e-10           -7.0858e-05          
  2.9                   7.0898e-05            0                     -1.863e-09            -7.0898e-05          
  3                     7.094e-05             1.2e-13               -3.7888e-09           -7.0932e-05          
  3.1                   7.098e-05             1e-13                 -7.1564e-09           -7.097e-05           
  3.2                   7.1024e-05            4e-14                 -1.271e-08            -7.1008e-05          
  3.3                   7.1072e-05            1.4e-13               -2.1348e-08           -7.1048e-05          
  3.4                   7.1122e-05            2.4e-13               -3.431e-08            -7.1082e-05          
  3.5                   7.1174e-05            4e-14                 -5.3042e-08           -7.1114e-05          
  3.6                   7.123e-05             8e-14                 -7.9308e-08           -7.1146e-05          
END_DB

BEGIN_DB
 ICCAP_VAR vg         2.864          
 ICCAP_VAR vb         0              
 ICCAP_VAR vs         0              

 #vd                    id                    ig                    ib                    is                   
  0                     2.003e-09             6e-13                 4.96e-12              -3.1628e-09          
  0.1                   1.5628e-05            4.8e-13               5.68e-12              -1.5622e-05          
  0.2                   3.0458e-05            3.4e-13               4.28e-12              -3.0452e-05          
  0.3                   4.4442e-05            3e-13                 6.1e-12               -4.4436e-05          
  0.4                   5.7606e-05            3.2e-13               5.46e-12              -5.7602e-05          
  0.5                   6.9904e-05            1.8e-13               5.16e-12              -6.9898e-05          
  0.6                   8.1294e-05            2.8e-13               5.9e-12               -8.1294e-05          
  0.7                   9.18e-05              2.8e-13               5.14e-12              -9.1798e-05          
  0.8                   0.000101372           3.2e-13               6.12e-12              -0.00010137          
  0.9                   0.000109986           2.6e-13               5.46e-12              -0.000109986         
  1                     0.00011776            1.8e-13               6.3e-12               -0.00011742          
  1.1                   0.00012446            2.4e-13               5.06e-12              -0.00012414          
  1.2                   0.0001302             1e-13                 4.5e-12               -0.00012988          
  1.3                   0.000135              2e-13                 6.06e-12              -0.00013466          
  1.4                   0.00013886            0                     5.9e-12               -0.00013852          
  1.5                   0.00014184            2e-13                 5.28e-12              -0.00014152          
  1.6                   0.00014402            2.2e-13               5.12e-12              -0.00014368          
  1.7                   0.0001455             1.2e-13               5.28e-12              -0.00014518          
  1.8                   0.00014646            1.4e-13               5.34e-12              -0.00014614          
  1.9                   0.00014706            2.2e-13               5.96e-12              -0.00014674          
  2                     0.00014746            2.8e-13               5.42e-12              -0.00014714          
  2.1                   0.00014774            2.6e-13               6.32e-12              -0.00014742          
  2.2                   0.00014794            1.2e-13               5.6e-12               -0.00014762          
  2.3                   0.0001481             4e-14                 5e-12                 -0.00014778          
  2.4                   0.00014822            1.4e-13               5.08e-12              -0.0001479           
  2.5                   0.00014834            1.6e-13               5.38e-12              -0.00014802          
  2.6                   0.00014846            2.2e-13               4.8e-12               -0.00014814          
  2.7                   0.00014854            2.6e-13               3.64e-12              -0.00014822          
  2.8                   0.00014864            1.2e-13               -9.2e-13              -0.0001483           
  2.9                   0.00014872            1e-13                 -1.182e-11            -0.0001484           
  3                     0.0001488             1.8e-13               -5.246e-11            -0.00014848          
  3.1                   0.00014886            2e-13                 -1.6916e-10           -0.00014854          
  3.2                   0.00014894            2.8e-13               -4.615e-10            -0.00014862          
  3.3                   0.000149              1.6e-13               -1.1308e-09           -0.00014868          
  3.4                   0.00014908            3.4e-13               -2.5306e-09           -0.00014876          
  3.5                   0.00014914            1.8e-13               -5.2324e-09           -0.0001488           
  3.6                   0.0001492             1.2e-13               -1.00836e-08          -0.00014888          
END_DB

BEGIN_DB
 ICCAP_VAR vg         3.6            
 ICCAP_VAR vb         0              
 ICCAP_VAR vs         0              

 #vd                    id                    ig                    ib                    is                   
  0                     2.0068e-09            7.4e-13               5.66e-12              -3.2648e-09          
  0.1                   1.8616e-05            5.6e-13               4.88e-12              -1.861e-05           
  0.2                   3.6626e-05            4.2e-13               5.38e-12              -3.662e-05           
  0.3                   5.3976e-05            6e-13                 4.04e-12              -5.3972e-05          
  0.4                   7.0708e-05            4.6e-13               4.26e-12              -7.0706e-05          
  0.5                   8.6776e-05            4.4e-13               4.32e-12              -8.6772e-05          
  0.6                   0.000102116           3.4e-13               3.94e-12              -0.000102112         
  0.7                   0.00011686            2.8e-13               5.22e-12              -0.00011654          
  0.8                   0.00013076            2.8e-13               3.88e-12              -0.00013044          
