! VERSION = 6.00
BEGIN_HEADER
 ICCAP_INPUTS
  vg         V  G GROUND SMU2 0.001 LIN        1    -0.5       3.6        83   0.05      
  vb         V  B GROUND SMU4 0.1 LIN        2    0          -3.6       5    -0.9      
  vd         V  D GROUND SMU1 0.1 LIN        3    0.1        3.3        3    1.6       
  vs         V  S GROUND SMU3 0.1 CON        0
 ICCAP_OUTPUTS
  id         I  D GROUND SMU1 B
  ig         I  G GROUND SMU2 B
  ib         I  B GROUND SMU4 B
  is         I  S GROUND SMU3 B
 ICCAP_VALUES
  MASTER_SETUP_TYPE "~dc_idvg~"
  LINVT_VALUE ""
  LISTVT_VALUE ""
  TYPE "1"
  TEMP " 70.0000 "
  IS_TNOM " 0.00000 "
  MAIN.W "300.0n"
  MAIN.L "10.00u"
  MAIN.AD "102.0f"
  MAIN.AS "102.0f"
  MAIN.PD "1.280u"
  MAIN.PS "1.280u"
  MAIN.NF "1.000"
  MAIN.M "1"
  MAIN.NRD "0.000"
  MAIN.NRS "0.000"
  MAIN.LDRIFT1 "1E-06"
  MAIN.LDRIFT2 "1E-06"
  MAIN.SA "0.000"
  MAIN.SB "0.000"
  MAIN.SD "0.000"
  MAIN.SCA "0.000"
  MAIN.SCB "0.000"
  MAIN.SCC "0.000"
  MAIN.SC "0.000"
  MODULE "S547"
  PIN_D "14"
  PIN_G "7"
  PIN_S "8"
  PIN_B "13"
  PIN_E ""
  PIN_6 ""
  XY_ID ""
  FUNC "Narrow"
  STI "SA ref"
  WPE "WPE ref"
  COMMENT ""
  DIS_MEAS ""
  TypeTCI "10"
END_HEADER

BEGIN_DB
 ICCAP_VAR vb         0              
 ICCAP_VAR vd         0.1            
 ICCAP_VAR vs         0              

 #vg                    id                    ig                    ib                    is                   
  -0.5                  2.2e-13               -1.5958e-09           1.5918e-09            1.8e-13              
  -0.45                 -1.6e-13              -2.9828e-10           2.9738e-10            -2e-14               
  -0.4                  -4e-14                -5.578e-11            5.514e-11             6e-14                
  -0.35                 2e-14                 -1.024e-11            9.3e-12               1.2e-13              
  -0.3                  6e-14                 -1.6e-12              -2e-14                1e-13                
  -0.25                 4e-14                 1.2e-13               -1.34e-12             2.2e-13              
  -0.2                  -2e-14                4e-13                 -1.58e-12             1.6e-13              
  -0.15                 6e-14                 6.4e-13               -1.3e-12              1.4e-13              
  -0.1                  6e-14                 5.6e-13               -1.2e-12              2.2e-13              
  -0.05                 4e-14                 5.4e-13               -1.3e-12              2.4e-13              
  0                     -2e-14                7e-13                 -2.22e-12             1.8e-13              
  0.05                  6e-14                 7.6e-13               -1.74e-12             8e-14                
  0.1                   2.2e-13               7e-13                 -3.6e-13              4e-14                
  0.15                  5.6e-13               8.8e-13               -6.4e-13              -5e-13               
  0.2                   1.98e-12              7.4e-13               -1.04e-12             -1.72e-12            
  0.25                  6.38e-12              1e-12                 -1.28e-12             -6.34e-12            
  0.3                   2.12e-11              8.2e-13               -8.8e-13              -2.108e-11           
  0.35                  7.072e-11             8e-13                 -1.26e-12             -7.05e-11            
  0.4                   2.2934e-10            8.4e-13               -6.2e-13              -2.2906e-10          
  0.45                  7.0648e-10            8.2e-13               -3.4e-13              -7.0588e-10          
  0.5                   1.9514e-09            8.6e-13               -1.42e-12             -1.9506e-09          
  0.55                  4.6944e-09            9e-13                 -1.36e-12             -4.6924e-09          
  0.6                   9.6728e-09            8.4e-13               -2.16e-12             -9.6668e-09          
  0.65                  1.7386e-08            6.4e-13               -1.76e-12             -1.7362e-08          
  0.7                   2.7734e-08            9.2e-13               1e-13                 -2.772e-08           
  0.75                  4.0458e-08            8e-13                 -1.74e-12             -4.045e-08           
  0.8                   5.494e-08             8e-13                 -1.18e-12             -5.4922e-08          
  0.85                  7.082e-08             8.4e-13               -2.44e-12             -7.0782e-08          
  0.9                   8.7552e-08            9.4e-13               -1.78e-12             -8.755e-08           
  0.95                  1.04964e-07           9.8e-13               -1.16e-12             -1.04964e-07         
  1                     1.2286e-07            8.4e-13               -1.8e-12              -1.2282e-07          
  1.05                  1.4106e-07            9.8e-13               -1.68e-12             -1.4104e-07          
  1.1                   1.5938e-07            1.04e-12              -1.04e-12             -1.5934e-07          
  1.15                  1.7778e-07            9.2e-13               -3.4e-13              -1.7778e-07          
  1.2                   1.9622e-07            9.4e-13               -1.04e-12             -1.962e-07           
  1.25                  2.1462e-07            9.6e-13               -1.92e-12             -2.1462e-07          
  1.3                   2.33e-07              1e-12                 -1.46e-12             -2.33e-07            
  1.35                  2.512e-07             1.1e-12               1.4e-13               -2.5118e-07          
  1.4                   2.6928e-07            1.1e-12               -1.78e-12             -2.6928e-07          
  1.45                  2.8722e-07            1.12e-12              -2e-12                -2.872e-07           
  1.5                   3.0506e-07            1.14e-12              -1.96e-12             -3.0506e-07          
  1.55                  3.226e-07             9.6e-13               -6e-13                -3.2262e-07          
  1.6                   3.3998e-07            1.2e-12               8e-14                 -3.3998e-07          
  1.65                  3.572e-07             1.04e-12              -1.52e-12             -3.5718e-07          
  1.7                   3.7416e-07            1.18e-12              -1.44e-12             -3.7416e-07          
  1.75                  3.9084e-07            1e-12                 -1.6e-12              -3.9086e-07          
  1.8                   4.0738e-07            1.16e-12              -1.3e-12              -4.074e-07           
  1.85                  4.2364e-07            1.08e-12              -1.6e-12              -4.2366e-07          
  1.9                   4.3968e-07            9.6e-13               -9.6e-13              -4.397e-07           
  1.95                  4.5546e-07            1.12e-12              -1.36e-12             -4.5548e-07          
  2                     4.7098e-07            1.04e-12              -1.02e-12             -4.7104e-07          
  2.05                  4.8632e-07            1.16e-12              -1.02e-12             -4.8634e-07          
  2.1                   5.0132e-07            1.04e-12              -1.7e-12              -5.0132e-07          
  2.15                  5.1612e-07            1.1e-12               -2.52e-12             -5.161e-07           
  2.2                   5.3058e-07            1.12e-12              -1.14e-12             -5.3062e-07          
  2.25                  5.4488e-07            1.04e-12              -3.6e-13              -5.449e-07           
  2.3                   5.5884e-07            1.22e-12              8e-14                 -5.5886e-07          
  2.35                  5.7262e-07            1.08e-12              -1.84e-12             -5.7264e-07          
  2.4                   5.8606e-07            1.06e-12              -1.3e-12              -5.8608e-07          
  2.45                  5.9928e-07            1.28e-12              -5e-13                -5.993e-07           
  2.5                   6.1228e-07            1.14e-12              -1.24e-12             -6.1232e-07          
  2.55                  6.2498e-07            1.18e-12              -1.2e-12              -6.2502e-07          
  2.6                   6.374e-07             1.34e-12              -1.5e-12              -6.3744e-07          
  2.65                  6.4952e-07            1.26e-12              -8.2e-13              -6.496e-07           
  2.7                   6.6146e-07            1.18e-12              1.2e-13               -6.6148e-07          
  2.75                  6.731e-07             1.22e-12              -1.02e-12             -6.7318e-07          
  2.8                   6.8456e-07            1.22e-12              -1.82e-12             -6.846e-07           
  2.85                  6.9574e-07            1.14e-12              -8.6e-13              -6.9578e-07          
  2.9                   7.0658e-07            1.24e-12              -7.6e-13              -7.0664e-07          
  2.95                  7.1726e-07            1.26e-12              -5.2e-13              -7.1734e-07          
  3                     7.2772e-07            9.8e-13               -8.4e-13              -7.2776e-07          
  3.05                  7.3788e-07            1.28e-12              -1.7e-12              -7.379e-07           
  3.1                   7.478e-07             1.22e-12              -1.4e-12              -7.478e-07           
  3.15                  7.5746e-07            1.04e-12              -2.6e-13              -7.5748e-07          
  3.2                   7.669e-07             1.2e-12               -2.8e-13              -7.6694e-07          
  3.25                  7.761e-07             1.2e-12               -2.54e-12             -7.762e-07           
  3.3                   7.8512e-07            1.24e-12              -2.18e-12             -7.8518e-07          
  3.35                  7.9386e-07            1.26e-12              -6.4e-13              -7.9388e-07          
  3.4                   8.024e-07             1.22e-12              3e-13                 -8.0248e-07          
  3.45                  8.1072e-07            1.3e-12               -7.6e-13              -8.1074e-07          
  3.5                   8.1878e-07            1.32e-12              -1.76e-12             -8.1884e-07          
  3.55                  8.2666e-07            1.26e-12              -1.44e-12             -8.2672e-07          
  3.6                   8.3438e-07            1.24e-12              -5.6e-13              -8.3442e-07          
END_DB

BEGIN_DB
 ICCAP_VAR vb         -0.9           
 ICCAP_VAR vd         0.1            
 ICCAP_VAR vs         0              

 #vg                    id                    ig                    ib                    is                   
  -0.5                  -1.4e-13              -8e-13                -2.266e-11            1.4e-13              
  -0.45                 -6e-14                -3.8e-13              -2.026e-11            0                    
  -0.4                  -1e-13                -1.4e-13              -1.85e-11             -2e-14               
  -0.35                 -4e-14                -8e-14                -1.886e-11            2e-13                
  -0.3                  -1e-13                6e-14                 -1.726e-11            1.2e-13              
  -0.25                 -2e-14                4e-14                 -1.57e-11             1e-13                
  -0.2                  -6e-14                1.4e-13               -1.508e-11            2e-13                
  -0.15                 -4e-14                -2e-14                -1.338e-11            2.6e-13              
  -0.1                  -4e-14                3.2e-13               -1.376e-11            1.8e-13              
  -0.05                 -1e-13                1.4e-13               -1.322e-11            1.8e-13              
  0                     -4e-14                2.8e-13               -1.34e-11             1.6e-13              
  0.05                  -1e-13                3.4e-13               -1.234e-11            2e-13                
  0.1                   0                     5.4e-13               -1.116e-11            8e-14                
  0.15                  -8e-14                4.8e-13               -1.118e-11            1e-13                
  0.2                   -8e-14                5.8e-13               -1.088e-11            1.2e-13              
  0.25                  -2e-14                5.2e-13               -1.078e-11            1.2e-13              
  0.3                   -2e-14                6e-13                 -1.054e-11            2e-13                
  0.35                  0                     6.2e-13               -1.022e-11            -4e-14               
  0.4                   1.4e-13               5e-13                 -9.36e-12             1e-13                
  0.45                  6.6e-13               8.2e-13               -9.02e-12             -6.2e-13             
  0.5                   2.62e-12              6.8e-13               -9.94e-12             -2.56e-12            
  0.55                  1.014e-11             5.8e-13               -9.68e-12             -9.9e-12             
  0.6                   3.812e-11             5.8e-13               -8.38e-12             -3.798e-11           
  0.65                  1.396e-10             5e-13                 -7.54e-12             -1.393e-10           
  0.7                   4.769e-10             8.6e-13               -8.64e-12             -4.7674e-10          
  0.75                  1.4526e-09            6.2e-13               -7.28e-12             -1.4522e-09          
  0.8                   3.75e-09              6.6e-13               -9.84e-12             -3.7486e-09          
  0.85                  8.1536e-09            6.8e-13               -7.9e-12              -8.1566e-09          
  0.9                   1.5104e-08            5.4e-13               -7.74e-12             -1.5088e-08          
  0.95                  2.4586e-08            5.8e-13               -6.92e-12             -2.455e-08           
  1                     3.6178e-08            7.8e-13               -7.4e-12              -3.6158e-08          
  1.05                  4.9456e-08            7.4e-13               -7.3e-12              -4.9454e-08          
  1.1                   6.394e-08             7e-13                 -7.4e-12              -6.3908e-08          
  1.15                  7.9278e-08            9.4e-13               -7.16e-12             -7.9272e-08          
  1.2                   9.5232e-08            8.2e-13               -6.98e-12             -9.5204e-08          
  1.25                  1.11566e-07           1e-12                 -7.48e-12             -1.11562e-07         
  1.3                   1.2828e-07            8.4e-13               -6.1e-12              -1.2824e-07          
  1.35                  1.4506e-07            9.2e-13               -5.72e-12             -1.4504e-07          
  1.4                   1.6196e-07            8.2e-13               -6.22e-12             -1.6192e-07          
  1.45                  1.7886e-07            1e-12                 -7.14e-12             -1.7886e-07          
  1.5                   1.9584e-07            9.2e-13               -6.38e-12             -1.958e-07           
  1.55                  2.127e-07             1.02e-12              -4.9e-12              -2.1268e-07          
  1.6                   2.2942e-07            8.4e-13               -5.8e-12              -2.2942e-07          
  1.65                  2.4614e-07            1.06e-12              -6.34e-12             -2.4612e-07          
  1.7                   2.627e-07             9.8e-13               -6.74e-12             -2.627e-07           
  1.75                  2.7906e-07            9.6e-13               -6.14e-12             -2.7906e-07          
  1.8                   2.9532e-07            1.1e-12               -4.84e-12             -2.9532e-07          
  1.85                  3.1132e-07            8.8e-13               -5.38e-12             -3.1132e-07          
  1.9                   3.2724e-07            9.8e-13               -6.32e-12             -3.2722e-07          
  1.95                  3.429e-07             1.16e-12              -6.56e-12             -3.429e-07           
  2                     3.5838e-07            9.2e-13               -6.78e-12             -3.584e-07           
  2.05                  3.7366e-07            9.8e-13               -4.98e-12             -3.7368e-07          
  2.1                   3.8868e-07            8.6e-13               -5.28e-12             -3.8868e-07          
  2.15                  4.0352e-07            1e-12                 -5.86e-12             -4.0354e-07          
  2.2                   4.1808e-07            9.8e-13               -6.34e-12             -4.181e-07           
  2.25                  4.3248e-07            1.04e-12              -5e-12                -4.325e-07           
  2.3                   4.466e-07             1.1e-12               -3.96e-12             -4.4664e-07          
  2.35                  4.605e-07             9.2e-13               -6.16e-12             -4.6052e-07          
  2.4                   4.7414e-07            1.18e-12              -6.42e-12             -4.7416e-07          
  2.45                  4.8756e-07            1.12e-12              -5.68e-12             -4.8756e-07          
  2.5                   5.0072e-07            1.12e-12              -4.14e-12             -5.0076e-07          
  2.55                  5.1366e-07            1.12e-12              -4.46e-12             -5.137e-07           
  2.6                   5.2632e-07            1.18e-12              -6e-12                -5.2634e-07          
  2.65                  5.3872e-07            1.04e-12              -4.64e-12             -5.387e-07           
  2.7                   5.5086e-07            1.14e-12              -4.56e-12             -5.509e-07           
  2.75                  5.6288e-07            1.06e-12              -4.84e-12             -5.6288e-07          
  2.8                   5.7446e-07            1.18e-12              -4.6e-12              -5.7454e-07          
  2.85                  5.859e-07             1.06e-12              -4.44e-12             -5.8594e-07          
  2.9                   5.9706e-07            1.14e-12              -5.98e-12             -5.971e-07           
  2.95                  6.08e-07              1.2e-12               -5.26e-12             -6.0804e-07          
  3                     6.1872e-07            9.8e-13               -4.32e-12             -6.1874e-07          
  3.05                  6.2918e-07            1.26e-12              -4.8e-12              -6.2922e-07          
  3.1                   6.3938e-07            1.14e-12              -4.96e-12             -6.3944e-07          
  3.15                  6.4946e-07            1.14e-12              -4.94e-12             -6.4942e-07          
  3.2                   6.5914e-07            1.16e-12              -3.92e-12             -6.5916e-07          
  3.25                  6.6868e-07            1.12e-12              -3.78e-12             -6.6868e-07          
  3.3                   6.7794e-07            1.26e-12              -4.98e-12             -6.7798e-07          
  3.35                  6.87e-07              1.08e-12              -5.1e-12              -6.8706e-07          
  3.4                   6.959e-07             1.24e-12              -3.84e-12             -6.9592e-07          
  3.45                  7.0446e-07            1.24e-12              -3.48e-12             -7.0454e-07          
