! VERSION = 6.00
BEGIN_HEADER
 ICCAP_INPUTS
  vd         V  D GROUND SMU1 0.1 LIN        1    0          3.6        37   0.1       
  vg         V  G GROUND SMU2 0.001 LIN        2    1.464      3.6        5    0.534     
  vb         V  B GROUND SMU4 0.1 CON        -3.6
  vs         V  S GROUND SMU3 0.1 CON        0
 ICCAP_OUTPUTS
  id         I  D GROUND SMU1 B
  ig         I  G GROUND SMU2 B
  ib         I  B GROUND SMU4 B
  is         I  S GROUND SMU3 B
 ICCAP_VALUES
  MASTER_SETUP_TYPE "~dc_idvd~"
  LINVT_VALUE "|idvg|100.0n|100.0m|1.000m|5|3.600|"
  LISTVT_VALUE ""
  TYPE "1"
  TEMP " 27.0000 "
  IS_TNOM " 1.00000 "
  MAIN.W "5.000u"
  MAIN.L "10.00u"
  MAIN.AD "1.700p"
  MAIN.AS "1.700p"
  MAIN.PD "10.68u"
  MAIN.PS "10.68u"
  MAIN.NF "1.000"
  MAIN.M "1"
  MAIN.NRD "0.000"
  MAIN.NRS "0.000"
  MAIN.LDRIFT1 "1E-06"
  MAIN.LDRIFT2 "1E-06"
  MAIN.SA "0.000"
  MAIN.SB "0.000"
  MAIN.SD "0.000"
  MAIN.SCA "0.000"
  MAIN.SCB "0.000"
  MAIN.SCC "0.000"
  MAIN.SC "0.000"
  MODULE "S558"
  PIN_D "20"
  PIN_G "1"
  PIN_S "2"
  PIN_B "19"
  PIN_E ""
  PIN_6 ""
  XY_ID ""
  FUNC "W Scale"
  STI "SA ref"
  WPE "WPE ref"
  COMMENT ""
  DIS_MEAS ""
  TypeTCI "10"
END_HEADER

BEGIN_DB
 ICCAP_VAR vg         1.464          
 ICCAP_VAR vb         -3.6           
 ICCAP_VAR vs         0              

 #vd                    id                    ig                    ib                    is                   
  0                     3.1844e-10            5.8e-13               -4.194e-11            -2.5776e-10          
  0.1                   2.4224e-07            4e-13                 -3.736e-11            -2.4208e-07          
  0.2                   2.791e-07             4e-13                 -3.394e-11            -2.791e-07           
  0.3                   2.8176e-07            5e-13                 -3.278e-11            -2.816e-07           
  0.4                   2.8226e-07            3.6e-13               -3.176e-11            -2.8216e-07          
  0.5                   2.8264e-07            4.8e-13               -3.052e-11            -2.825e-07           
  0.6                   2.829e-07             4e-13                 -2.802e-11            -2.8278e-07          
  0.7                   2.831e-07             3.6e-13               -2.782e-11            -2.8296e-07          
  0.8                   2.8332e-07            3e-13                 -2.732e-11            -2.8308e-07          
  0.9                   2.8338e-07            3.4e-13               -2.626e-11            -2.8324e-07          
  1                     2.8354e-07            3.4e-13               -2.388e-11            -2.8342e-07          
  1.1                   2.8374e-07            3.8e-13               -2.394e-11            -2.8358e-07          
  1.2                   2.8388e-07            3.8e-13               -2.332e-11            -2.8372e-07          
  1.3                   2.84e-07              3.4e-13               -2.304e-11            -2.8388e-07          
  1.4                   2.8418e-07            3.4e-13               -2.09e-11             -2.84e-07            
  1.5                   2.843e-07             3.6e-13               -2.082e-11            -2.8412e-07          
  1.6                   2.8446e-07            3e-13                 -2.124e-11            -2.8432e-07          
  1.7                   2.8458e-07            2.8e-13               -1.862e-11            -2.8442e-07          
  1.8                   2.8466e-07            3.2e-13               -1.922e-11            -2.8456e-07          
  1.9                   2.8478e-07            4e-13                 -2.102e-11            -2.8466e-07          
  2                     2.8496e-07            4.2e-13               -2.26e-11             -2.8478e-07          
  2.1                   2.8502e-07            4.2e-13               -2.754e-11            -2.8486e-07          
  2.2                   2.8512e-07            3.2e-13               -3.516e-11            -2.8498e-07          
  2.3                   2.8524e-07            3.6e-13               -5.072e-11            -2.8506e-07          
  2.4                   2.8542e-07            2.6e-13               -7.706e-11            -2.852e-07           
  2.5                   2.8554e-07            4e-13                 -1.1834e-10           -2.853e-07           
  2.6                   2.857e-07             3.8e-13               -1.789e-10            -2.8542e-07          
  2.7                   2.8594e-07            3.6e-13               -2.701e-10            -2.855e-07           
  2.8                   2.8614e-07            3.2e-13               -3.9614e-10           -2.856e-07           
  2.9                   2.8642e-07            3.2e-13               -5.712e-10            -2.8566e-07          
  3                     2.8676e-07            2.2e-13               -8.1046e-10           -2.858e-07           
  3.1                   2.8718e-07            2.8e-13               -1.1308e-09           -2.859e-07           
  3.2                   2.8766e-07            4e-13                 -1.5572e-09           -2.8598e-07          
  3.3                   2.8836e-07            1.8e-13               -2.1128e-09           -2.8604e-07          
  3.4                   2.8912e-07            3e-13                 -2.8364e-09           -2.8616e-07          
  3.5                   2.901e-07             3e-13                 -3.7598e-09           -2.8624e-07          
  3.6                   2.9138e-07            1.6e-13               -4.9234e-09           -2.863e-07           
END_DB

BEGIN_DB
 ICCAP_VAR vg         1.998          
 ICCAP_VAR vb         -3.6           
 ICCAP_VAR vs         0              

 #vd                    id                    ig                    ib                    is                   
  0                     2.0536e-09            3.2e-13               -9.72e-12             -1.8162e-09          
  0.1                   3.2262e-06            2.4e-13               -9.72e-12             -3.222e-06           
  0.2                   5.6788e-06            3.2e-13               -1.002e-11            -5.6746e-06          
  0.3                   7.3894e-06            3.8e-13               -9.94e-12             -7.3852e-06          
  0.4                   8.4272e-06            2.6e-13               -1.082e-11            -8.4236e-06          
  0.5                   8.9108e-06            3.2e-13               -1.076e-11            -8.907e-06           
  0.6                   9.0604e-06            3.4e-13               -8.6e-12              -9.056e-06           
  0.7                   9.096e-06             4e-13                 -9.82e-12             -9.092e-06           
  0.8                   9.1086e-06            2.6e-13               -1e-11                -9.1048e-06          
  0.9                   9.1162e-06            2.6e-13               -8.94e-12             -9.1122e-06          
  1                     9.1216e-06            2.6e-13               -9.52e-12             -9.1176e-06          
  1.1                   9.1256e-06            3e-13                 -1.05e-11             -9.122e-06           
  1.2                   9.1296e-06            3.8e-13               -8.28e-12             -9.1262e-06          
  1.3                   9.1336e-06            2.8e-13               -9.44e-12             -9.1296e-06          
  1.4                   9.1368e-06            3.2e-13               -9.4e-12              -9.1326e-06          
  1.5                   9.1396e-06            2.6e-13               -8.04e-12             -9.136e-06           
  1.6                   9.1428e-06            2.6e-13               -9.5e-12              -9.1384e-06          
  1.7                   9.1456e-06            2.4e-13               -9.06e-12             -9.1412e-06          
  1.8                   9.1478e-06            2.8e-13               -7.62e-12             -9.144e-06           
  1.9                   9.1504e-06            3.8e-13               -8.98e-12             -9.146e-06           
  2                     9.1528e-06            3.2e-13               -9.9e-12              -9.1486e-06          
  2.1                   9.1552e-06            3.2e-13               -1.008e-11            -9.1512e-06          
  2.2                   9.1574e-06            3.4e-13               -1.672e-11            -9.1534e-06          
  2.3                   9.1596e-06            2.8e-13               -3.234e-11            -9.1556e-06          
  2.4                   9.1614e-06            3.2e-13               -7.024e-11            -9.1574e-06          
  2.5                   9.164e-06             4.4e-13               -1.5888e-10           -9.1598e-06          
  2.6                   9.1662e-06            2.6e-13               -3.34e-10             -9.1622e-06          
  2.7                   9.1686e-06            4e-13                 -6.5652e-10           -9.1644e-06          
  2.8                   9.1712e-06            2.8e-13               -1.2172e-09           -9.1666e-06          
  2.9                   9.1744e-06            3.2e-13               -2.132e-09            -9.1684e-06          
  3                     9.1778e-06            2.6e-13               -3.5554e-09           -9.1702e-06          
  3.1                   9.1816e-06            3.2e-13               -5.6784e-09           -9.1722e-06          
  3.2                   9.1872e-06            3e-13                 -8.7538e-09           -9.1734e-06          
  3.3                   9.1924e-06            2.6e-13               -1.3084e-08           -9.1748e-06          
  3.4                   9.1998e-06            4e-13                 -1.9078e-08           -9.177e-06           
  3.5                   9.2094e-06            4.2e-13               -2.7244e-08           -9.1788e-06          
  3.6                   9.2224e-06            3.8e-13               -3.8146e-08           -9.1804e-06          
END_DB

BEGIN_DB
 ICCAP_VAR vg         2.532          
 ICCAP_VAR vb         -3.6           
 ICCAP_VAR vs         0              

 #vd                    id                    ig                    ib                    is                   
  0                     2.8284e-09            3.4e-13               -4.26e-12             -2.92e-09            
  0.1                   6.6652e-06            2e-13                 -6.16e-12             -6.661e-06           
  0.2                   1.2602e-05            3.4e-13               -6.06e-12             -1.2582e-05          
  0.3                   1.777e-05             2.2e-13               -7.08e-12             -1.775e-05           
  0.4                   2.2184e-05            2.4e-13               -4.76e-12             -2.2164e-05          
  0.5                   2.5834e-05            3.8e-13               -6.1e-12              -2.5814e-05          
  0.6                   2.872e-05             2.8e-13               -7.12e-12             -2.8698e-05          
  0.7                   3.0868e-05            3.8e-13               -5.18e-12             -3.0848e-05          
  0.8                   3.2318e-05            2.4e-13               -6.3e-12              -3.2298e-05          
  0.9                   3.316e-05             3.2e-13               -6.16e-12             -3.3138e-05          
  1                     3.3552e-05            2.4e-13               -4.88e-12             -3.3532e-05          
  1.1                   3.3704e-05            2.6e-13               -6.54e-12             -3.3684e-05          
  1.2                   3.3764e-05            3.2e-13               -6.64e-12             -3.3744e-05          
  1.3                   3.3794e-05            3.2e-13               -5.22e-12             -3.3776e-05          
  1.4                   3.3814e-05            3e-13                 -6.94e-12             -3.3794e-05          
  1.5                   3.383e-05             3.6e-13               -6.14e-12             -3.381e-05           
  1.6                   3.3842e-05            3.4e-13               -4.5e-12              -3.3822e-05          
  1.7                   3.3852e-05            2.2e-13               -6.96e-12             -3.3832e-05          
  1.8                   3.3862e-05            3.8e-13               -6.72e-12             -3.3842e-05          
  1.9                   3.3872e-05            2.6e-13               -4.98e-12             -3.3852e-05          
  2                     3.388e-05             4e-13                 -5.42e-12             -3.386e-05           
  2.1                   3.3888e-05            3e-13                 -6.18e-12             -3.3868e-05          
  2.2                   3.3896e-05            3.8e-13               -7.82e-12             -3.3876e-05          
  2.3                   3.3904e-05            3e-13                 -6.3e-12              -3.3884e-05          
  2.4                   3.3912e-05            2e-13                 -6.78e-12             -3.3892e-05          
  2.5                   3.3918e-05            3.4e-13               -8.9e-12              -3.3898e-05          
  2.6                   3.3926e-05            3.2e-13               -1.95e-11             -3.3904e-05          
  2.7                   3.393e-05             2.6e-13               -4.604e-11            -3.3912e-05          
  2.8                   3.3938e-05            3.4e-13               -1.2026e-10           -3.3918e-05          
  2.9                   3.3944e-05            2.6e-13               -3.0184e-10           -3.3924e-05          
  3                     3.395e-05             3.2e-13               -6.8368e-10           -3.3928e-05          
  3.1                   3.3956e-05            4.2e-13               -1.4342e-09           -3.3936e-05          
  3.2                   3.3962e-05            3.2e-13               -2.797e-09            -3.3938e-05          
  3.3                   3.397e-05             3.6e-13               -5.1104e-09           -3.3946e-05          
  3.4                   3.398e-05             3.8e-13               -8.8438e-09           -3.3952e-05          
  3.5                   3.3992e-05            3.2e-13               -1.4616e-08           -3.3956e-05          
  3.6                   3.4006e-05            4.2e-13               -2.3134e-08           -3.3962e-05          
END_DB

BEGIN_DB
 ICCAP_VAR vg         3.066          
 ICCAP_VAR vb         -3.6           
 ICCAP_VAR vs         0              

 #vd                    id                    ig                    ib                    is                   
  0                     3.1226e-09            2.6e-13               -3.12e-12             -3.6706e-09          
  0.1                   9.5416e-06            2.4e-13               -3.8e-12              -9.5374e-06          
  0.2                   1.8488e-05            3.8e-13               -3.4e-12              -1.8468e-05          
  0.3                   2.6782e-05            3.4e-13               -5.16e-12             -2.6762e-05          
  0.4                   3.4438e-05            2.2e-13               -4.84e-12             -3.4418e-05          
  0.5                   4.1416e-05            2.8e-13               -4.2e-12              -4.1396e-05          
  0.6                   4.7688e-05            3.2e-13               -5.16e-12             -4.7668e-05          
  0.7                   5.325e-05             3.4e-13               -4.64e-12             -5.323e-05           
  0.8                   5.8078e-05            4.2e-13               -4.76e-12             -5.8058e-05          
  0.9                   6.2154e-05            3e-13                 -4.96e-12             -6.2136e-05          
  1                     6.5498e-05            3.6e-13               -4.32e-12             -6.548e-05           
  1.1                   6.8108e-05            4e-13                 -5e-12                -6.809e-05           
  1.2                   7.0012e-05            3.2e-13               -4.72e-12             -6.9992e-05          
  1.3                   7.1278e-05            3e-13                 -4.2e-12              -7.1258e-05          
  1.4                   7.2016e-05            3e-13                 -5.06e-12             -7.1998e-05          
  1.5                   7.2392e-05            3.6e-13               -5.62e-12             -7.2374e-05          
  1.6                   7.2566e-05            3.8e-13               -3.28e-12             -7.2548e-05          
  1.7                   7.2652e-05            3e-13                 -4.92e-12             -7.2632e-05          
  1.8                   7.2702e-05            2.8e-13               -4.9e-12              -7.2684e-05          
  1.9                   7.2736e-05            3.2e-13               -3.4e-12              -7.2718e-05          
  2                     7.2766e-05            3e-13                 -4.36e-12             -7.2744e-05          
  2.1                   7.2786e-05            3.4e-13               -5.06e-12             -7.2768e-05          
  2.2                   7.2806e-05            4e-13                 -3.6e-12              -7.2786e-05          
  2.3                   7.2824e-05            3.6e-13               -5.32e-12             -7.2804e-05          
  2.4                   7.284e-05             2.8e-13               -4.66e-12             -7.282e-05           
  2.5                   7.2856e-05            3.4e-13               -2.64e-12             -7.2836e-05          
  2.6                   7.287e-05             3e-13                 -5.26e-12             -7.285e-05           
  2.7                   7.2884e-05            3e-13                 -5.04e-12             -7.2864e-05          
  2.8                   7.2898e-05            3.6e-13               -3.96e-12             -7.2876e-05          
  2.9                   7.291e-05             4.2e-13               -8.48e-12             -7.2892e-05          
  3                     7.2924e-05            3.8e-13               -1.682e-11            -7.2902e-05          
  3.1                   7.2934e-05            3e-13                 -4.622e-11            -7.2914e-05          
  3.2                   7.2944e-05            3.4e-13               -1.339e-10            -7.2926e-05          
  3.3                   7.2956e-05            3.4e-13               -3.4812e-10           -7.2936e-05          
  3.4                   7.2966e-05            3.6e-13               -8.3148e-10           -7.2944e-05          
  3.5                   7.2978e-05            2.8e-13               -1.831e-09            -7.2956e-05          
  3.6                   7.299e-05             3e-13                 -3.7328e-09           -7.2966e-05          
END_DB

BEGIN_DB
 ICCAP_VAR vg         3.6            
 ICCAP_VAR vb         -3.6           
 ICCAP_VAR vs         0              

 #vd                    id                    ig                    ib                    is                   
  0                     3.2654e-09            3e-13                 -4.04e-12             -4.3176e-09          
  0.1                   1.1704e-05            2.6e-13               -2.94e-12             -1.1684e-05          
  0.2                   2.2936e-05            3.8e-13               -4.18e-12             -2.2916e-05          
  0.3                   3.3664e-05            3.2e-13               -3.4e-12              -3.3644e-05          
  0.4                   4.39e-05              3e-13                 -4.12e-12             -4.388e-05           
  0.5                   5.36e-05              2.8e-13               -4.04e-12             -5.358e-05           
  0.6                   6.2722e-05            3.4e-13               -3.32e-12             -6.27e-05            
  0.7                   7.1266e-05            3.6e-13               -4.4e-12              -7.1246e-05          
  0.8                   7.9196e-05            2.8e-13               -4.28e-12             -7.9178e-05          
