! VERSION = 6.00
BEGIN_HEADER
 ICCAP_INPUTS
  vd         V  D GROUND SMU1 0.1 LIN        1    0          3.6        37   0.1       
  vg         V  G GROUND SMU2 0.001 LIST       2 3 0.454 0.654 0.854
  vb         V  B GROUND SMU4 0.1 CON        -3.6
  vs         V  S GROUND SMU3 0.1 CON        0
 ICCAP_OUTPUTS
  id         I  D GROUND SMU1 B
  ig         I  G GROUND SMU2 B
  ib         I  B GROUND SMU4 B
  is         I  S GROUND SMU3 B
 ICCAP_VALUES
  MASTER_SETUP_TYPE "~dc_idvd~"
  LINVT_VALUE ""
  LISTVT_VALUE "|idvg|100.0n|-200.0m|1.000m|3|200.0m|200.0m|"
  TYPE "1"
  TEMP " 27.0000 "
  IS_TNOM " 1.00000 "
  MAIN.W "5.000u"
  MAIN.L "330.0n"
  MAIN.AD "1.700p"
  MAIN.AS "1.700p"
  MAIN.PD "10.68u"
  MAIN.PS "10.68u"
  MAIN.NF "1.000"
  MAIN.M "1"
  MAIN.NRD "0.000"
  MAIN.NRS "0.000"
  MAIN.LDRIFT1 "1E-06"
  MAIN.LDRIFT2 "1E-06"
  MAIN.SA "0.000"
  MAIN.SB "0.000"
  MAIN.SD "0.000"
  MAIN.SCA "0.000"
  MAIN.SCB "0.000"
  MAIN.SCC "0.000"
  MAIN.SC "0.000"
  MODULE "S557"
  PIN_D "14"
  PIN_G "7"
  PIN_S "8"
  PIN_B "13"
  PIN_E ""
  PIN_6 ""
  XY_ID ""
  FUNC "Additional"
  STI "SA ref"
  WPE "WPE ref"
  COMMENT ""
  DIS_MEAS ""
  TypeTCI "10"
END_HEADER

BEGIN_DB
 ICCAP_VAR vg         0.454          
 ICCAP_VAR vb         -3.6           
 ICCAP_VAR vs         0              

 #vd                    id                    ig                    ib                    is                   
  0                     1.6e-13               -3.8e-13              -2.01e-11             -3.4e-13             
  0.1                   2.3776e-10            -4.6e-13              -1.684e-11            -2.376e-10           
  0.2                   3.3492e-10            -4.4e-13              -1.5e-11              -3.3474e-10          
  0.3                   4.5102e-10            -3.6e-13              -1.228e-11            -4.5066e-10          
  0.4                   5.9704e-10            -4.6e-13              -1.226e-11            -5.9654e-10          
  0.5                   7.7954e-10            -2e-13                -9.8e-12              -7.7878e-10          
  0.6                   1.007e-09             -4.6e-13              -1.048e-11            -1.00526e-09         
  0.7                   1.2858e-09            -2.4e-13              -8.6e-12              -1.2846e-09          
  0.8                   1.6336e-09            -3e-13                -8.4e-12              -1.6304e-09          
  0.9                   2.0582e-09            -4e-13                -8.4e-12              -2.0552e-09          
  1                     2.5808e-09            -3.8e-13              -7.96e-12             -2.5774e-09          
  1.1                   3.221e-09             -3.8e-13              -7.48e-12             -3.2182e-09          
  1.2                   3.9952e-09            -2.6e-13              -6.8e-12              -3.9918e-09          
  1.3                   4.9398e-09            -1.6e-13              -7.76e-12             -4.934e-09           
  1.4                   6.0822e-09            -1e-13                -6.6e-12              -6.0864e-09          
  1.5                   7.4682e-09            -2.4e-13              -7.26e-12             -7.4632e-09          
  1.6                   9.13e-09              -2.8e-13              -6.46e-12             -9.1248e-09          
  1.7                   1.11156e-08           -1.6e-13              -8.04e-12             -1.111e-08           
  1.8                   1.3502e-08            -3e-13                -9.96e-12             -1.3456e-08          
  1.9                   1.6324e-08            -8e-14                -1.364e-11            -1.629e-08           
  2                     1.9698e-08            -6e-14                -2.254e-11            -1.9656e-08          
  2.1                   2.3714e-08            -6e-14                -3.622e-11            -2.3658e-08          
  2.2                   2.8464e-08            -3e-13                -5.896e-11            -2.8388e-08          
  2.3                   3.4076e-08            -4.4e-13              -9.57e-11             -3.3962e-08          
  2.4                   4.0672e-08            -1e-13                -1.5646e-10           -4.0492e-08          
  2.5                   4.8456e-08            -1e-13                -2.534e-10            -4.8166e-08          
  2.6                   5.7572e-08            -2e-14                -4.0388e-10           -5.7136e-08          
  2.7                   6.8208e-08            -2.2e-13              -6.3294e-10           -6.7566e-08          
  2.8                   8.0698e-08            -2e-14                -9.812e-10            -7.9718e-08          
  2.9                   9.5226e-08            -2e-13                -1.5038e-09           -9.3728e-08          
  3                     1.1238e-07            -1.8e-13              -2.2674e-09           -1.09992e-07         
  3.1                   1.3222e-07            -1.6e-13              -3.3776e-09           -1.288e-07           
  3.2                   1.5534e-07            -2e-13                -4.9448e-09           -1.5014e-07          
  3.3                   1.8214e-07            -3.2e-13              -7.146e-09            -1.7486e-07          
  3.4                   2.1346e-07            -1.4e-13              -1.01726e-08          -2.0296e-07          
  3.5                   2.4946e-07            -4e-14                -1.4296e-08           -2.3502e-07          
  3.6                   2.9128e-07            -2.4e-13              -1.9786e-08           -2.7136e-07          
END_DB

BEGIN_DB
 ICCAP_VAR vg         0.654          
 ICCAP_VAR vb         -3.6           
 ICCAP_VAR vs         0              

 #vd                    id                    ig                    ib                    is                   
  0                     1.0544e-10            -1.6e-13              -2.96e-12             -1.1072e-10          
  0.1                   7.5658e-08            6e-14                 -1.9e-12              -7.5638e-08          
  0.2                   1.10392e-07           1.2e-13               -3.98e-12             -1.1038e-07          
  0.3                   1.4924e-07            4e-14                 -3.12e-12             -1.4906e-07          
  0.4                   1.9524e-07            -2e-13                -3.72e-12             -1.9508e-07          
  0.5                   2.4978e-07            -1.6e-13              -3.7e-12              -2.4962e-07          
  0.6                   3.1388e-07            -8e-14                -3.36e-12             -3.1362e-07          
  0.7                   3.887e-07             0                     -3.56e-12             -3.883e-07           
  0.8                   4.7558e-07            -1e-13                -7.4e-13              -4.7598e-07          
  0.9                   5.763e-07             -1.8e-13              -3.52e-12             -5.764e-07           
  1                     6.923e-07             -1.2e-13              -4.78e-12             -6.9232e-07          
  1.1                   8.2512e-07            8e-14                 -3e-12                -8.267e-07           
  1.2                   9.7744e-07            6e-14                 -4.68e-12             -9.7564e-07          
  1.3                   1.14616e-06           -1e-13                -6.26e-12             -1.14548e-06         
  1.4                   1.3412e-06            6e-14                 -1.028e-11            -1.3368e-06          
  1.5                   1.5468e-06            -4e-14                -2.774e-11            -1.5424e-06          
  1.6                   1.7874e-06            -2e-14                -6.914e-11            -1.791e-06           
  1.7                   2.0616e-06            2e-14                 -1.5924e-10           -2.0614e-06          
  1.8                   2.3574e-06            6e-14                 -3.4524e-10           -2.3392e-06          
  1.9                   2.6832e-06            -2e-14                -6.9774e-10           -2.6794e-06          
  2                     3.027e-06             0                     -1.3122e-09           -3.0202e-06          
  2.1                   3.4182e-06            -8e-14                -2.37e-09             -3.4254e-06          
  2.2                   3.8598e-06            -8e-14                -4.0798e-09           -3.8528e-06          
  2.3                   4.326e-06             0                     -6.7542e-09           -4.3162e-06          
  2.4                   4.8258e-06            -1e-13                -1.09138e-08          -4.8148e-06          
  2.5                   5.3694e-06            1e-13                 -1.7124e-08           -5.3532e-06          
  2.6                   5.9582e-06            -6e-14                -2.6444e-08           -5.9382e-06          
  2.7                   6.6096e-06            2e-14                 -3.9838e-08           -6.5556e-06          
  2.8                   7.2808e-06            1e-13                 -5.9028e-08           -7.2148e-06          
  2.9                   8.0136e-06            2e-14                 -8.6202e-08           -7.9306e-06          
  3                     8.8088e-06            1.2e-13               -1.2398e-07           -8.679e-06           
  3.1                   9.6616e-06            -6e-14                -1.7566e-07           -9.4874e-06          
  3.2                   1.05782e-05           -4e-14                -2.452e-07            -1.03336e-05         
  3.3                   1.1584e-05            -6e-14                -3.3702e-07           -1.1233e-05          
  3.4                   1.2656e-05            -1.2e-13              -4.5696e-07           -1.2174e-05          
  3.5                   1.3808e-05            1.4e-13               -6.116e-07            -1.3176e-05          
  3.6                   1.5058e-05            1.6e-13               -8.0422e-07           -1.4224e-05          
END_DB

BEGIN_DB
 ICCAP_VAR vg         0.854          
 ICCAP_VAR vb         -3.6           
 ICCAP_VAR vs         0              

 #vd                    id                    ig                    ib                    is                   
  0                     3.0646e-09            6e-14                 -1.54e-12             -3.4196e-09          
  0.1                   4.9814e-06            2.6e-13               -2.34e-12             -4.9774e-06          
  0.2                   7.2018e-06            4.2e-13               -3.44e-12             -7.1968e-06          
  0.3                   9.0204e-06            1.2e-13               -2.3e-12              -9.0164e-06          
  0.4                   1.08058e-05           -8e-14                -2.9e-12              -1.079e-05           
  0.5                   1.2598e-05            -4e-14                -2.58e-12             -1.2586e-05          
  0.6                   1.4424e-05            -4e-14                -2.82e-12             -1.4408e-05          
  0.7                   1.6334e-05            0                     -2.36e-12             -1.6326e-05          
  0.8                   1.83e-05              6e-14                 -2.48e-12             -1.828e-05           
  0.9                   2.0328e-05            1.2e-13               -2.64e-12             -2.0312e-05          
  1                     2.2428e-05            0                     -2.68e-12             -2.2404e-05          
  1.1                   2.4592e-05            0                     -3.08e-12             -2.4572e-05          
  1.2                   2.6832e-05            6e-14                 -4.94e-12             -2.682e-05           
  1.3                   2.9146e-05            -6e-14                -1.412e-11            -2.9126e-05          
  1.4                   3.152e-05             -1.4e-13              -4.964e-11            -3.1506e-05          
  1.5                   3.398e-05             8e-14                 -1.6868e-10           -3.3964e-05          
  1.6                   3.6496e-05            4e-14                 -4.855e-10            -3.6488e-05          
  1.7                   3.91e-05              0                     -1.2238e-09           -3.9092e-05          
  1.8                   4.1766e-05            1e-13                 -2.7648e-09           -4.1744e-05          
  1.9                   4.4518e-05            4e-14                 -5.7008e-09           -4.4478e-05          
  2                     4.7294e-05            -1e-13                -1.08792e-08          -4.7262e-05          
  2.1                   5.0166e-05            1.2e-13               -1.9518e-08           -5.017e-05           
  2.2                   5.3118e-05            -4e-14                -3.3238e-08           -5.3066e-05          
  2.3                   5.6138e-05            8e-14                 -5.425e-08            -5.608e-05           
  2.4                   5.9268e-05            -1.6e-13              -8.545e-08            -5.9138e-05          
  2.5                   6.2396e-05            8e-14                 -1.3068e-07           -6.2292e-05          
  2.6                   6.568e-05             1e-13                 -1.9528e-07           -6.5464e-05          
  2.7                   6.901e-05             2.4e-13               -2.857e-07            -6.8712e-05          
  2.8                   7.2448e-05            0                     -4.1068e-07           -7.2014e-05          
  2.9                   7.5976e-05            -1e-13                -5.8116e-07           -7.5376e-05          
  3                     7.9646e-05            -6e-14                -8.1084e-07           -7.8816e-05          
  3.1                   8.3446e-05            1.8e-13               -1.11598e-06          -8.23e-05            
  3.2                   8.74e-05              6e-14                 -1.5142e-06           -8.5878e-05          
  3.3                   9.1562e-05            2e-14                 -2.0274e-06           -8.951e-05           
  3.4                   9.594e-05             1.6e-13               -2.68e-06             -9.3228e-05          
  3.5                   0.000100534           2.6e-13               -3.4966e-06           -9.7012e-05          
  3.6                   0.000105414           8e-14                 -4.5038e-06           -0.000100888         
END_DB

