! VERSION = 6.00
BEGIN_HEADER
 ICCAP_INPUTS
  vd         V  D GROUND SMU1 0.1 LIN        1    0          3.6        37   0.1       
  vg         V  G GROUND SMU2 0.001 LIN        2    0.704      3.6        5    0.724     
  vb         V  B GROUND SMU4 0.1 CON        0
  vs         V  S GROUND SMU3 0.1 CON        0
 ICCAP_OUTPUTS
  id         I  D GROUND SMU1 B
  ig         I  G GROUND SMU2 B
  ib         I  B GROUND SMU4 B
  is         I  S GROUND SMU3 B
 ICCAP_VALUES
  MASTER_SETUP_TYPE "~dc_idvd~"
  LINVT_VALUE "|idvg|100.0n|100.0m|1.000m|5|3.600|"
  LISTVT_VALUE ""
  TYPE "1"
  TEMP " 27.0000 "
  IS_TNOM " 1.00000 "
  MAIN.W "10.00u"
  MAIN.L "3.000u"
  MAIN.AD "3.400p"
  MAIN.AS "3.400p"
  MAIN.PD "20.68u"
  MAIN.PS "20.68u"
  MAIN.NF "1.000"
  MAIN.M "1"
  MAIN.NRD "0.000"
  MAIN.NRS "0.000"
  MAIN.LDRIFT1 "1E-06"
  MAIN.LDRIFT2 "1E-06"
  MAIN.SA "0.000"
  MAIN.SB "0.000"
  MAIN.SD "0.000"
  MAIN.SCA "0.000"
  MAIN.SCB "0.000"
  MAIN.SCC "0.000"
  MAIN.SC "0.000"
  MODULE "S557"
  PIN_D "20"
  PIN_G "1"
  PIN_S "2"
  PIN_B "19"
  PIN_E ""
  PIN_6 ""
  XY_ID ""
  FUNC "L Scale"
  STI "SA ref"
  WPE "WPE ref"
  COMMENT ""
  DIS_MEAS ""
  TypeTCI "10"
END_HEADER

BEGIN_DB
 ICCAP_VAR vg         0.704          
 ICCAP_VAR vb         0              
 ICCAP_VAR vs         0              

 #vd                    id                    ig                    ib                    is                   
  0                     2.1706e-09            0                     2.636e-11             -1.4826e-09          
  0.1                   1.5184e-06            -8e-14                2.228e-11             -1.514e-06           
  0.2                   1.6832e-06            2e-14                 2.032e-11             -1.68e-06            
  0.3                   1.7056e-06            4e-14                 1.994e-11             -1.7022e-06          
  0.4                   1.718e-06             4e-14                 1.976e-11             -1.7142e-06          
  0.5                   1.7272e-06            0                     1.962e-11             -1.7234e-06          
  0.6                   1.735e-06             4e-14                 1.842e-11             -1.7308e-06          
  0.7                   1.742e-06             2e-14                 1.78e-11              -1.7376e-06          
  0.8                   1.747e-06             -4e-14                1.856e-11             -1.7436e-06          
  0.9                   1.7532e-06            8e-14                 1.678e-11             -1.7494e-06          
  1                     1.7588e-06            4e-14                 1.69e-11              -1.7552e-06          
  1.1                   1.7638e-06            -4e-14                1.696e-11             -1.7604e-06          
  1.2                   1.769e-06             6e-14                 1.572e-11             -1.7648e-06          
  1.3                   1.7732e-06            1e-13                 1.51e-11              -1.7692e-06          
  1.4                   1.7774e-06            0                     1.418e-11             -1.7732e-06          
  1.5                   1.7818e-06            1.4e-13               1.034e-11             -1.7778e-06          
  1.6                   1.7852e-06            6e-14                 2.24e-12              -1.7816e-06          
  1.7                   1.7888e-06            -2e-14                -1.59e-11             -1.7856e-06          
  1.8                   1.793e-06             8e-14                 -5.668e-11            -1.7892e-06          
  1.9                   1.7966e-06            6e-14                 -1.2836e-10           -1.7926e-06          
  2                     1.7998e-06            8e-14                 -2.5068e-10           -1.7958e-06          
  2.1                   1.8032e-06            6e-14                 -4.5004e-10           -1.7992e-06          
  2.2                   1.8072e-06            8e-14                 -7.5138e-10           -1.8024e-06          
  2.3                   1.8106e-06            2e-14                 -1.1946e-09           -1.8056e-06          
  2.4                   1.8144e-06            0                     -1.8162e-09           -1.8086e-06          
  2.5                   1.8178e-06            0                     -2.6808e-09           -1.8112e-06          
  2.6                   1.8216e-06            1.6e-13               -3.8572e-09           -1.8142e-06          
  2.7                   1.8262e-06            6e-14                 -5.4328e-09           -1.8174e-06          
  2.8                   1.8318e-06            6e-14                 -7.506e-09            -1.8204e-06          
  2.9                   1.837e-06             6e-14                 -1.0211e-08           -1.8226e-06          
  3                     1.8428e-06            2e-14                 -1.3714e-08           -1.8254e-06          
  3.1                   1.85e-06              1.6e-13               -1.817e-08            -1.8282e-06          
  3.2                   1.8584e-06            8e-14                 -2.3772e-08           -1.8306e-06          
  3.3                   1.8678e-06            4e-14                 -3.0706e-08           -1.8328e-06          
  3.4                   1.878e-06             4e-14                 -3.9208e-08           -1.8354e-06          
  3.5                   1.8908e-06            1.4e-13               -4.9438e-08           -1.8374e-06          
  3.6                   1.9054e-06            6e-14                 -6.1588e-08           -1.8402e-06          
END_DB

BEGIN_DB
 ICCAP_VAR vg         1.428          
 ICCAP_VAR vb         0              
 ICCAP_VAR vs         0              

 #vd                    id                    ig                    ib                    is                   
  0                     2.4474e-08            4e-13                 7.86e-12              -2.3746e-08          
  0.1                   3.5396e-05            2.2e-13               9.34e-12              -3.5374e-05          
  0.2                   6.3582e-05            1.6e-13               7.92e-12              -6.3564e-05          
  0.3                   8.4716e-05            3.2e-13               6.88e-12              -8.4696e-05          
  0.4                   9.9192e-05            2.4e-13               7.46e-12              -9.9176e-05          
  0.5                   0.00010768            2.8e-13               7.28e-12              -0.000107666         
  0.6                   0.000111648           2e-13                 6.74e-12              -0.000111632         
  0.7                   0.00011334            1.4e-13               7.32e-12              -0.000113188         
  0.8                   0.00011402            1.6e-13               7.14e-12              -0.00011386          
  0.9                   0.00011438            2.4e-13               6.14e-12              -0.000114224         
  1                     0.00011464            1.8e-13               6.14e-12              -0.000114486         
  1.1                   0.00011486            2.2e-13               6.52e-12              -0.00011469          
  1.2                   0.00011502            1.8e-13               6.06e-12              -0.000114872         
  1.3                   0.00011518            1.4e-13               6.76e-12              -0.000115026         
  1.4                   0.00011532            2.6e-13               5.34e-12              -0.000115176         
  1.5                   0.00011548            1e-13                 5.54e-12              -0.00011531          
  1.6                   0.00011558            2.2e-13               7.26e-12              -0.00011543          
  1.7                   0.0001157             2.2e-13               4.42e-12              -0.000115542         
  1.8                   0.00011582            2.6e-13               -1.44e-12             -0.00011565          
  1.9                   0.00011592            1.6e-13               -2.448e-11            -0.000115758         
  2                     0.00011602            2.2e-13               -1.1302e-10           -0.000115864         
  2.1                   0.00011612            2.8e-13               -3.7054e-10           -0.00011596          
  2.2                   0.00011622            1.8e-13               -1.0144e-09           -0.0001158           
  2.3                   0.00011632            1.8e-13               -2.4386e-09           -0.0001159           
  2.4                   0.0001164             2.4e-13               -5.2468e-09           -0.00011598          
  2.5                   0.0001165             1.8e-13               -1.03256e-08          -0.00011608          
  2.6                   0.00011658            1.8e-13               -1.8882e-08           -0.00011616          
  2.7                   0.00011668            2.6e-13               -3.2412e-08           -0.00011624          
  2.8                   0.00011678            1.8e-13               -5.2924e-08           -0.00011632          
  2.9                   0.00011688            2e-13                 -8.2748e-08           -0.0001164           
  3                     0.000117              1.2e-13               -1.249e-07            -0.00011648          
  3.1                   0.00011714            1.8e-13               -1.8328e-07           -0.00011656          
  3.2                   0.00011728            2.8e-13               -2.6256e-07           -0.00011664          
  3.3                   0.00011748            1.4e-13               -3.6816e-07           -0.0001167           
  3.4                   0.00011768            1.6e-13               -5.0772e-07           -0.00011678          
  3.5                   0.00011794            2.2e-13               -6.8956e-07           -0.00011684          
  3.6                   0.00011824            1.4e-13               -9.2328e-07           -0.00011692          
END_DB

BEGIN_DB
 ICCAP_VAR vg         2.152          
 ICCAP_VAR vb         0              
 ICCAP_VAR vs         0              

 #vd                    id                    ig                    ib                    is                   
  0                     4.9706e-08            4.2e-13               5.22e-12              -4.5116e-08          
  0.1                   7.1646e-05            2.6e-13               4.12e-12              -7.1624e-05          
  0.2                   0.00013708            2.6e-13               4.24e-12              -0.00013668          
  0.3                   0.00019576            3.4e-13               2.3e-12               -0.00019536          
  0.4                   0.00024788            2.8e-13               5.02e-12              -0.0002475           
  0.5                   0.0002933             2.2e-13               3.74e-12              -0.0002929           
  0.6                   0.00033184            2.8e-13               4.5e-12               -0.00033144          
  0.7                   0.00036368            3e-13                 4.74e-12              -0.00036328          
  0.8                   0.00038886            2.8e-13               3.94e-12              -0.00038846          
  0.9                   0.0004076             2.8e-13               5.14e-12              -0.0004072           
  1                     0.00042054            2.4e-13               4.52e-12              -0.00042014          
  1.1                   0.00042858            3.8e-13               3.72e-12              -0.00042818          
  1.2                   0.0004331             3.2e-13               5.26e-12              -0.0004327           
  1.3                   0.00043556            3e-13                 4.24e-12              -0.00043518          
  1.4                   0.000437              2.8e-13               3.78e-12              -0.00043662          
  1.5                   0.00043794            3.2e-13               5.02e-12              -0.00043754          
  1.6                   0.00043862            3e-13                 4.2e-12               -0.00043824          
  1.7                   0.00043918            2.8e-13               3.58e-12              -0.00043878          
  1.8                   0.00043964            2.4e-13               4.46e-12              -0.00043924          
  1.9                   0.00044002            3e-13                 3.9e-12               -0.00043964          
  2                     0.0004404             3.4e-13               3.62e-12              -0.00044             
  2.1                   0.00044072            3.2e-13               3.4e-12               -0.00044032          
  2.2                   0.00044102            2.4e-13               -2e-13                -0.00044064          
  2.3                   0.00044132            2.4e-13               -1.506e-11            -0.00044092          
  2.4                   0.0004416             3e-13                 -7.692e-11            -0.0004412           
  2.5                   0.00044184            2.4e-13               -2.9104e-10           -0.00044144          
  2.6                   0.00044208            1.4e-13               -9.1504e-10           -0.0004417           
  2.7                   0.00044232            1.8e-13               -2.5034e-09           -0.00044192          
  2.8                   0.00044254            1.6e-13               -6.0832e-09           -0.00044216          
  2.9                   0.00044278            2.2e-13               -1.3344e-08           -0.00044238          
  3                     0.000443              1.8e-13               -2.6908e-08           -0.0004426           
  3.1                   0.00044324            2.2e-13               -5.0382e-08           -0.0004428           
  3.2                   0.0004435             3.2e-13               -8.8648e-08           -0.00044302          
  3.3                   0.00044374            2.6e-13               -1.4778e-07           -0.00044322          
  3.4                   0.00044402            2.2e-13               -2.3606e-07           -0.00044338          
  3.5                   0.00044432            2.2e-13               -3.6312e-07           -0.00044358          
  3.6                   0.0004447             2.6e-13               -5.4094e-07           -0.00044376          
END_DB

BEGIN_DB
 ICCAP_VAR vg         2.876          
 ICCAP_VAR vb         0              
 ICCAP_VAR vs         0              

 #vd                    id                    ig                    ib                    is                   
  0                     6.5204e-08            3.2e-13               3.96e-12              -6.059e-08           
  0.1                   9.8534e-05            3e-13                 5e-12                 -9.8512e-05          
  0.2                   0.00019238            2.8e-13               4.78e-12              -0.000192            
  0.3                   0.00028088            3.8e-13               2.96e-12              -0.0002805           
  0.4                   0.00036424            3.4e-13               2.54e-12              -0.00036386          
  0.5                   0.0004421             3.2e-13               3.9e-12               -0.00044172          
  0.6                   0.00051408            4.2e-13               2.5e-12               -0.0005137           
  0.7                   0.00058024            3e-13                 2.92e-12              -0.00057986          
  0.8                   0.00064028            3.4e-13               3.7e-12               -0.0006399           
  0.9                   0.00069392            3.2e-13               2.94e-12              -0.00069354          
  1                     0.0007413             3.4e-13               3.2e-12               -0.00074092          
  1.1                   0.00078226            4.2e-13               3.92e-12              -0.00078186          
  1.2                   0.0008167             2.2e-13               2.98e-12              -0.0008163           
  1.3                   0.00084492            2.6e-13               3.6e-12               -0.00084454          
  1.4                   0.00086704            3.2e-13               3.14e-12              -0.00086666          
  1.5                   0.0008836             3.2e-13               2.5e-12               -0.0008832           
  1.6                   0.0008952             3e-13                 3.8e-12               -0.00089478          
  1.7                   0.0009028             3.4e-13               2.84e-12              -0.00090238          
  1.8                   0.00090758            2.4e-13               2.3e-12               -0.00090722          
  1.9                   0.0009106             3.2e-13               3.54e-12              -0.00091022          
  2                     0.00091256            3.6e-13               2.48e-12              -0.00091218          
  2.1                   0.00091392            3e-13                 2.74e-12              -0.00091352          
  2.2                   0.00091494            3.2e-13               3.8e-12               -0.00091456          
  2.3                   0.00091576            3.4e-13               2.34e-12              -0.00091536          
  2.4                   0.00091642            3.4e-13               2.72e-12              -0.00091602          
  2.5                   0.00091698            3.8e-13               3.7e-12               -0.0009166           
  2.6                   0.0009175             2e-13                 6.8e-13               -0.0009171           
  2.7                   0.00091794            2.8e-13               -7.32e-12             -0.00091756          
  2.8                   0.00091834            3.4e-13               -3.81e-11             -0.00091798          
  2.9                   0.00091874            3.4e-13               -1.5462e-10           -0.00091834          
  3                     0.0009191             1.4e-13               -5.2014e-10           -0.00091868          
  3.1                   0.00091942            2.2e-13               -1.5414e-09           -0.00091904          
  3.2                   0.00091974            2.8e-13               -4.0742e-09           -0.00091934          
  3.3                   0.00092002            2e-13                 -9.7158e-09           -0.00091962          
  3.4                   0.00092032            2.4e-13               -2.1238e-08           -0.00091988          
  3.5                   0.00092058            3.4e-13               -4.2876e-08           -0.00092016          
  3.6                   0.00092088            3e-13                 -8.0718e-08           -0.00092038          
END_DB

BEGIN_DB
 ICCAP_VAR vg         3.6            
 ICCAP_VAR vb         0              
 ICCAP_VAR vs         0              

 #vd                    id                    ig                    ib                    is                   
  0                     7.6256e-08            4.4e-13               3.66e-12              -6.5596e-08          
  0.1                   0.00011546            2.8e-13               3.08e-12              -0.00011506          
  0.2                   0.00022738            3.6e-13               2.06e-12              -0.00022698          
  0.3                   0.00033548            4.8e-13               3.18e-12              -0.00033508          
  0.4                   0.00043994            3.8e-13               2.22e-12              -0.00043954          
  0.5                   0.00054032            3.6e-13               2.5e-12               -0.00053994          
  0.6                   0.00063622            3.8e-13               2.06e-12              -0.00063584          
  0.7                   0.00072772            3.6e-13               1.82e-12              -0.00072732          
  0.8                   0.0008144             3.4e-13               2.34e-12              -0.000814            
