! VERSION = 6.00
BEGIN_HEADER
 ICCAP_INPUTS
  vd         V  D GROUND SMU1 0.1 LIN        1    0          3.6        37   0.1       
  vg         V  G GROUND SMU2 0.001 LIN        2    0.464      3.6        5    0.784     
  vb         V  B GROUND SMU4 0.1 CON        0
  vs         V  S GROUND SMU3 0.1 CON        0
 ICCAP_OUTPUTS
  id         I  D GROUND SMU1 B
  ig         I  G GROUND SMU2 B
  ib         I  B GROUND SMU4 B
  is         I  S GROUND SMU3 B
 ICCAP_VALUES
  MASTER_SETUP_TYPE "~dc_idvd~"
  LINVT_VALUE "|idvg|100.0n|100.0m|1.000m|5|3.600|"
  LISTVT_VALUE ""
  TYPE "1"
  TEMP " 27.0000 "
  IS_TNOM " 1.00000 "
  MAIN.W "300.0n"
  MAIN.L "300.0n"
  MAIN.AD "102.0f"
  MAIN.AS "102.0f"
  MAIN.PD "1.280u"
  MAIN.PS "1.280u"
  MAIN.NF "1.000"
  MAIN.M "1"
  MAIN.NRD "0.000"
  MAIN.NRS "0.000"
  MAIN.LDRIFT1 "1E-06"
  MAIN.LDRIFT2 "1E-06"
  MAIN.SA "0.000"
  MAIN.SB "0.000"
  MAIN.SD "0.000"
  MAIN.SCA "0.000"
  MAIN.SCB "0.000"
  MAIN.SCC "0.000"
  MAIN.SC "0.000"
  MODULE "S560"
  PIN_D "20"
  PIN_G "1"
  PIN_S "2"
  PIN_B "19"
  PIN_E ""
  PIN_6 ""
  XY_ID ""
  FUNC "Additional"
  STI "SA ref"
  WPE "WPE ref"
  COMMENT ""
  DIS_MEAS ""
  TypeTCI "10"
END_HEADER

BEGIN_DB
 ICCAP_VAR vg         0.464          
 ICCAP_VAR vb         0              
 ICCAP_VAR vs         0              

 #vd                    id                    ig                    ib                    is                   
  0                     7.928e-11             -6e-14                2.472e-11             -5.394e-11           
  0.1                   3.9272e-08            -1.2e-13              2.23e-11              -3.9134e-08          
  0.2                   5.6734e-08            -1.2e-13              2.166e-11             -5.6722e-08          
  0.3                   7.5976e-08            -6e-14                2.026e-11             -7.5846e-08          
  0.4                   9.7826e-08            -1.6e-13              1.92e-11              -9.7888e-08          
  0.5                   1.2258e-07            -4e-14                1.886e-11             -1.2244e-07          
  0.6                   1.4902e-07            0                     1.804e-11             -1.4978e-07          
  0.7                   1.8092e-07            -8e-14                1.746e-11             -1.8094e-07          
  0.8                   2.1554e-07            -2e-14                1.738e-11             -2.1436e-07          
  0.9                   2.5238e-07            -1.2e-13              1.734e-11             -2.521e-07           
  1                     2.9422e-07            2e-14                 1.598e-11             -2.9414e-07          
  1.1                   3.3992e-07            4e-14                 1.574e-11             -3.4016e-07          
  1.2                   3.9156e-07            -6e-14                1.58e-11              -3.9108e-07          
  1.3                   4.4736e-07            -4e-14                1.446e-11             -4.47e-07            
  1.4                   5.0878e-07            1.4e-13               1.056e-11             -5.0848e-07          
  1.5                   5.756e-07             0                     3.04e-12              -5.759e-07           
  1.6                   6.4876e-07            2e-14                 -1.266e-11            -6.4938e-07          
  1.7                   7.3028e-07            0                     -4.618e-11            -7.2944e-07          
  1.8                   8.1904e-07            0                     -1.1138e-10           -8.1796e-07          
  1.9                   9.159e-07             4e-14                 -2.2702e-10           -9.1404e-07          
  2                     1.01966e-06           4e-14                 -4.2098e-10           -1.01902e-06         
  2.1                   1.13426e-06           0                     -7.3758e-10           -1.13224e-06         
  2.2                   1.2574e-06            -2e-14                -1.2332e-09           -1.2536e-06          
  2.3                   1.3914e-06            -2e-14                -1.991e-09            -1.3858e-06          
  2.4                   1.5322e-06            6e-14                 -3.1186e-09           -1.5272e-06          
  2.5                   1.6888e-06            2e-14                 -4.7692e-09           -1.6796e-06          
  2.6                   1.8554e-06            8e-14                 -7.1652e-09           -1.8446e-06          
  2.7                   2.0356e-06            1.2e-13               -1.05644e-08          -2.0202e-06          
  2.8                   2.2286e-06            -8e-14                -1.5354e-08           -2.2086e-06          
  2.9                   2.4376e-06            8e-14                 -2.1994e-08           -2.4124e-06          
  3                     2.6642e-06            0                     -3.1124e-08           -2.6296e-06          
  3.1                   2.9104e-06            1.6e-13               -4.3444e-08           -2.8634e-06          
  3.2                   3.1786e-06            1.4e-13               -5.9884e-08           -3.1144e-06          
  3.3                   3.4702e-06            1.2e-13               -8.1522e-08           -3.384e-06           
  3.4                   3.7866e-06            1.6e-13               -1.0963e-07           -3.6738e-06          
  3.5                   4.1318e-06            1e-13                 -1.4546e-07           -3.979e-06           
  3.6                   4.5094e-06            4e-14                 -1.9108e-07           -4.3164e-06          
END_DB

BEGIN_DB
 ICCAP_VAR vg         1.248          
 ICCAP_VAR vb         0              
 ICCAP_VAR vs         0              

 #vd                    id                    ig                    ib                    is                   
  0                     3.0194e-09            2.4e-13               8.36e-12              -4.3654e-09          
  0.1                   1.0688e-05            1.8e-13               8.58e-12              -1.0666e-05          
  0.2                   1.9126e-05            1.6e-13               6.26e-12              -1.9102e-05          
  0.3                   2.5244e-05            2.2e-13               6.92e-12              -2.5228e-05          
  0.4                   2.9494e-05            2e-13                 7.14e-12              -2.9478e-05          
  0.5                   3.2492e-05            2e-13                 6.74e-12              -3.2478e-05          
  0.6                   3.4744e-05            2.2e-13               7.9e-12               -3.473e-05           
  0.7                   3.6552e-05            2.2e-13               7.42e-12              -3.652e-05           
  0.8                   3.8074e-05            1.4e-13               6.56e-12              -3.8062e-05          
  0.9                   3.9406e-05            3e-13                 6.52e-12              -3.9392e-05          
  1                     4.0606e-05            2e-13                 6.6e-12               -4.0584e-05          
  1.1                   4.17e-05              2.4e-13               5.98e-12              -4.1682e-05          
  1.2                   4.2722e-05            1.4e-13               6.94e-12              -4.2702e-05          
  1.3                   4.3694e-05            2.8e-13               3e-12                 -4.3674e-05          
  1.4                   4.4614e-05            1.8e-13               -8.94e-12             -4.4592e-05          
  1.5                   4.5506e-05            3e-13                 -4.514e-11            -4.548e-05           
  1.6                   4.6382e-05            2.8e-13               -1.4966e-10           -4.6354e-05          
  1.7                   4.7224e-05            2.6e-13               -4.074e-10            -4.7214e-05          
  1.8                   4.806e-05             2e-13                 -9.67e-10             -4.8044e-05          
  1.9                   4.8886e-05            1.2e-13               -2.0776e-09           -4.8866e-05          
  2                     4.9694e-05            1.8e-13               -4.085e-09            -4.966e-05           
  2.1                   5.0514e-05            3.2e-13               -7.5022e-09           -5.0486e-05          
  2.2                   5.1328e-05            1.4e-13               -1.2992e-08           -5.1292e-05          
  2.3                   5.2134e-05            2.6e-13               -2.1404e-08           -5.2088e-05          
  2.4                   5.2946e-05            2e-13                 -3.3806e-08           -5.29e-05            
  2.5                   5.3778e-05            2.4e-13               -5.1646e-08           -5.3702e-05          
  2.6                   5.4614e-05            2e-13                 -7.6686e-08           -5.4516e-05          
  2.7                   5.5458e-05            1.6e-13               -1.1109e-07           -5.533e-05           
  2.8                   5.6338e-05            1.6e-13               -1.5772e-07           -5.6154e-05          
  2.9                   5.7234e-05            2.2e-13               -2.2014e-07           -5.6996e-05          
  3                     5.8176e-05            1.8e-13               -3.0292e-07           -5.7854e-05          
  3.1                   5.916e-05             3.2e-13               -4.1116e-07           -5.873e-05           
  3.2                   6.0204e-05            2.2e-13               -5.5118e-07           -5.9636e-05          
  3.3                   6.1322e-05            1.8e-13               -7.296e-07            -6.0574e-05          
  3.4                   6.2534e-05            1.2e-13               -9.5526e-07           -6.1558e-05          
  3.5                   6.3848e-05            0                     -1.2358e-06           -6.2582e-05          
  3.6                   6.5294e-05            1.2e-13               -1.5814e-06           -6.3696e-05          
END_DB

BEGIN_DB
 ICCAP_VAR vg         2.032          
 ICCAP_VAR vb         0              
 ICCAP_VAR vs         0              

 #vd                    id                    ig                    ib                    is                   
  0                     1.3638e-08            4.8e-13               6.34e-12              -1.283e-08           
  0.1                   2.0998e-05            3e-13                 4.68e-12              -2.0978e-05          
  0.2                   3.9814e-05            2.8e-13               4.94e-12              -3.9794e-05          
  0.3                   5.5712e-05            3e-13                 4.24e-12              -5.5688e-05          
  0.4                   6.8526e-05            3e-13                 4.38e-12              -6.8504e-05          
  0.5                   7.8476e-05            3e-13                 5.5e-12               -7.8454e-05          
  0.6                   8.6038e-05            2.4e-13               3.98e-12              -8.6016e-05          
  0.7                   9.1822e-05            2.6e-13               3.52e-12              -9.1806e-05          
  0.8                   9.6312e-05            3e-13                 4.68e-12              -9.63e-05            
  0.9                   9.989e-05             2.8e-13               3.18e-12              -9.9874e-05          
  1                     0.00010283            2.4e-13               4e-12                 -0.000102808         
  1.1                   0.000105316           2.6e-13               4.3e-12               -0.000105322         
  1.2                   0.00010747            2.8e-13               3.76e-12              -0.000107458         
  1.3                   0.00010936            3.8e-13               2.64e-12              -0.000109344         
  1.4                   0.000111072           2.6e-13               -3.2e-12              -0.000111054         
  1.5                   0.000112624           2.6e-13               -2.456e-11            -0.000112618         
  1.6                   0.00011422            1.4e-13               -8.412e-11            -0.000114066         
  1.7                   0.00011556            3.2e-13               -2.437e-10            -0.000115404         
  1.8                   0.00011686            1.2e-13               -6.134e-10            -0.000116694         
  1.9                   0.00011808            1.8e-13               -1.3992e-09           -0.00011766          
  2                     0.00011924            2.4e-13               -2.9404e-09           -0.00011884          
  2.1                   0.00012038            2.2e-13               -5.7592e-09           -0.00011998          
  2.2                   0.0001215             2.6e-13               -1.05962e-08          -0.0001211           
  2.3                   0.00012262            2.4e-13               -1.8484e-08           -0.0001222           
  2.4                   0.00012372            3.4e-13               -3.0756e-08           -0.00012328          
  2.5                   0.00012478            1.6e-13               -4.9236e-08           -0.00012434          
  2.6                   0.00012588            2.6e-13               -7.6208e-08           -0.0001254           
  2.7                   0.00012694            1.8e-13               -1.14468e-07          -0.00012644          
  2.8                   0.00012804            2.2e-13               -1.6772e-07           -0.00012748          
  2.9                   0.00012914            1.6e-13               -2.4056e-07           -0.00012852          
  3                     0.0001303             2.4e-13               -3.3898e-07           -0.00012956          
  3.1                   0.0001315             2.2e-13               -4.6982e-07           -0.00013064          
  3.2                   0.00013278            3.2e-13               -6.417e-07            -0.00013174          
  3.3                   0.00013412            2.8e-13               -8.645e-07            -0.00013286          
  3.4                   0.0001356             2.6e-13               -1.15136e-06          -0.00013404          
  3.5                   0.00013716            1.4e-13               -1.514e-06            -0.00013526          
  3.6                   0.00013894            2.4e-13               -1.9692e-06           -0.00013658          
END_DB

BEGIN_DB
 ICCAP_VAR vg         2.816          
 ICCAP_VAR vb         0              
 ICCAP_VAR vs         0              

 #vd                    id                    ig                    ib                    is                   
  0                     1.8294e-08            5.2e-13               3.4e-12               -1.7474e-08          
  0.1                   2.7786e-05            4e-13                 4.98e-12              -2.7764e-05          
  0.2                   5.3718e-05            3.8e-13               3.5e-12               -5.37e-05            
  0.3                   7.6914e-05            3.4e-13               2.18e-12              -7.6892e-05          
  0.4                   9.6954e-05            4.6e-13               3.38e-12              -9.6936e-05          
  0.5                   0.000113702           4e-13                 2.76e-12              -0.000113678         
  0.6                   0.0001275             3e-13                 3.94e-12              -0.00012712          
  0.7                   0.00013852            3e-13                 2.6e-12               -0.00013814          
  0.8                   0.00014738            3.4e-13               2.96e-12              -0.00014698          
  0.9                   0.00015448            3.2e-13               4.04e-12              -0.00015408          
  1                     0.00016026            4.2e-13               3.16e-12              -0.00015986          
  1.1                   0.00016504            3.4e-13               4.1e-12               -0.00016464          
  1.2                   0.00016904            3.8e-13               3.28e-12              -0.00016866          
  1.3                   0.00017246            3.2e-13               1.38e-12              -0.0001721           
  1.4                   0.00017546            4.2e-13               3.8e-13               -0.00017506          
  1.5                   0.00017808            3.2e-13               -1.04e-11             -0.00017766          
  1.6                   0.0001804             3.4e-13               -4.286e-11            -0.00018             
  1.7                   0.0001825             3.4e-13               -1.2858e-10           -0.00018214          
  1.8                   0.00018444            3.8e-13               -3.4324e-10           -0.00018406          
  1.9                   0.00018622            4e-13                 -8.1752e-10           -0.00018582          
  2                     0.00018786            2.2e-13               -1.7854e-09           -0.00018746          
  2.1                   0.0001894             3.2e-13               -3.628e-09            -0.00018902          
  2.2                   0.00019088            3.4e-13               -6.922e-09            -0.00019046          
  2.3                   0.00019226            2e-13                 -1.2492e-08           -0.00019186          
  2.4                   0.00019358            1.6e-13               -2.1462e-08           -0.0001932           
  2.5                   0.00019488            3e-13                 -3.54e-08             -0.00019448          
  2.6                   0.00019618            2e-13                 -5.63e-08             -0.00019574          
  2.7                   0.00019742            4.2e-13               -8.677e-08            -0.00019694          
  2.8                   0.00019866            1.8e-13               -1.3002e-07           -0.00019814          
  2.9                   0.00019992            2.8e-13               -1.904e-07            -0.00019932          
  3                     0.00020118            2.8e-13               -2.7364e-07           -0.00020052          
  3.1                   0.00020248            3e-13                 -3.8618e-07           -0.00020168          
  3.2                   0.0002038             3.2e-13               -5.3604e-07           -0.00020288          
  3.3                   0.0002052             3.6e-13               -7.3304e-07           -0.00020408          
  3.4                   0.0002067             4.6e-13               -9.9068e-07           -0.00020532          
  3.5                   0.00020832            2.2e-13               -1.3212e-06           -0.0002066           
  3.6                   0.00020986            2e-13                 -1.7416e-06           -0.00020772          
END_DB

BEGIN_DB
 ICCAP_VAR vg         3.6            
 ICCAP_VAR vb         0              
 ICCAP_VAR vs         0              

 #vd                    id                    ig                    ib                    is                   
  0                     2.066e-08             5.8e-13               3.96e-12              -1.9722e-08          
  0.1                   3.22e-05              3.8e-13               3.8e-12               -3.218e-05           
  0.2                   6.285e-05             4.6e-13               2.6e-12               -6.2832e-05          
  0.3                   9.1076e-05            3.6e-13               2.34e-12              -9.1058e-05          
  0.4                   0.00011656            4.2e-13               2.08e-12              -0.00011618          
  0.5                   0.00013874            3.4e-13               3.2e-12               -0.00013834          
  0.6                   0.00015768            4.2e-13               2.6e-12               -0.0001573           
  0.7                   0.00017372            3.4e-13               2.24e-12              -0.00017332          
  0.8                   0.00018712            2.8e-13               3.02e-12              -0.00018672          
