! VERSION = 6.00
BEGIN_HEADER
 ICCAP_INPUTS
  vd         V  D GROUND SMU1 0.1 LIN        1    0          3.6        37   0.1       
  vg         V  G GROUND SMU2 0.001 LIST       2 3 1.196 1.396 1.596
  vb         V  B GROUND SMU4 0.1 CON        -3.6
  vs         V  S GROUND SMU3 0.1 CON        0
 ICCAP_OUTPUTS
  id         I  D GROUND SMU1 B
  ig         I  G GROUND SMU2 B
  ib         I  B GROUND SMU4 B
  is         I  S GROUND SMU3 B
 ICCAP_VALUES
  MASTER_SETUP_TYPE "~dc_idvd~"
  LINVT_VALUE ""
  LISTVT_VALUE "|idvg|100.0n|-200.0m|1.000m|3|200.0m|200.0m|"
  TYPE "1"
  TEMP "-40.0000 "
  IS_TNOM " 0.00000 "
  MAIN.W "10.00u"
  MAIN.L "10.00u"
  MAIN.AD "3.400p"
  MAIN.AS "3.400p"
  MAIN.PD "20.68u"
  MAIN.PS "20.68u"
  MAIN.NF "1.000"
  MAIN.M "1"
  MAIN.NRD "0.000"
  MAIN.NRS "0.000"
  MAIN.LDRIFT1 "1E-06"
  MAIN.LDRIFT2 "1E-06"
  MAIN.SA "0.000"
  MAIN.SB "0.000"
  MAIN.SD "0.000"
  MAIN.SCA "0.000"
  MAIN.SCB "0.000"
  MAIN.SCC "0.000"
  MAIN.SC "0.000"
  MODULE "S557"
  PIN_D "16"
  PIN_G "5"
  PIN_S "6"
  PIN_B "15"
  PIN_E ""
  PIN_6 ""
  XY_ID ""
  FUNC "Large"
  STI "SA ref"
  WPE "WPE ref"
  COMMENT ""
  DIS_MEAS ""
  TypeTCI "10"
END_HEADER

BEGIN_DB
 ICCAP_VAR vg         1.196          
 ICCAP_VAR vb         -3.6           
 ICCAP_VAR vs         0              

 #vd                    id                    ig                    ib                    is                   
  0                     2.8e-13               2.8e-13               -9.64e-12             6e-14                
  0.1                   9.652e-11             -2.4e-13              -8.98e-12             -9.648e-11           
  0.2                   9.77e-11              -4e-14                -9.04e-12             -9.734e-11           
  0.3                   9.8e-11               -2.8e-13              -6.6e-12              -9.78e-11            
  0.4                   9.836e-11             1.6e-13               -7.24e-12             -9.808e-11           
  0.5                   9.844e-11             0                     -6.66e-12             -9.808e-11           
  0.6                   9.862e-11             -5.4e-13              -5.02e-12             -9.804e-11           
  0.7                   9.886e-11             4e-14                 -6.24e-12             -9.814e-11           
  0.8                   9.914e-11             -2.4e-13              -3.58e-12             -9.84e-11            
  0.9                   9.914e-11             -1.6e-13              -5.22e-12             -9.876e-11           
  1                     9.934e-11             -1.8e-13              -3.12e-12             -9.878e-11           
  1.1                   9.948e-11             -5e-13                -5.56e-12             -9.878e-11           
  1.2                   9.968e-11             2.2e-13               -3.36e-12             -9.898e-11           
  1.3                   9.978e-11             -1.4e-13              -3.96e-12             -9.9e-11             
  1.4                   9.996e-11             -2.2e-13              -2.96e-12             -9.912e-11           
  1.5                   9.99e-11              -2.8e-13              -3.66e-12             -9.938e-11           
  1.6                   9.994e-11             4e-14                 -3.44e-12             -9.926e-11           
  1.7                   1.0028e-10            -1e-13                -3.02e-12             -9.942e-11           
  1.8                   1.0042e-10            -2.2e-13              -4.14e-12             -9.948e-11           
  1.9                   1.0048e-10            -2e-14                -3.04e-12             -9.982e-11           
  2                     1.006e-10             -8e-14                -3.74e-12             -9.976e-11           
  2.1                   1.0062e-10            -1.6e-13              -3.16e-12             -9.964e-11           
  2.2                   1.0062e-10            -4e-14                -3.24e-12             -9.976e-11           
  2.3                   1.0084e-10            -1.6e-13              -2.76e-12             -9.984e-11           
  2.4                   1.0092e-10            3.4e-13               -2.8e-12              -1.001e-10           
  2.5                   1.0114e-10            -4.2e-13              -3.14e-12             -1.0006e-10          
  2.6                   1.0126e-10            3.4e-13               -2.44e-12             -9.996e-11           
  2.7                   1.0146e-10            -4.2e-13              -3.34e-12             -1.0022e-10          
  2.8                   1.0156e-10            2.2e-13               -2.68e-12             -1.002e-10           
  2.9                   1.0174e-10            -2.8e-13              -2.82e-12             -1.0034e-10          
  3                     1.021e-10             1e-13                 -2.76e-12             -1.0042e-10          
  3.1                   1.0252e-10            4.8e-13               -2.84e-12             -1.0048e-10          
  3.2                   1.0292e-10            8e-14                 -4.22e-12             -1.0056e-10          
  3.3                   1.0336e-10            -8e-14                -4.12e-12             -1.0056e-10          
  3.4                   1.041e-10             -6e-14                -4.32e-12             -1.0078e-10          
  3.5                   1.0486e-10            -3e-13                -5.36e-12             -1.0072e-10          
  3.6                   1.057e-10             1e-13                 -6.8e-12              -1.0082e-10          
END_DB

BEGIN_DB
 ICCAP_VAR vg         1.396          
 ICCAP_VAR vb         -3.6           
 ICCAP_VAR vs         0              

 #vd                    id                    ig                    ib                    is                   
  0                     8.804e-11             3.2e-13               -5.4e-13              -9.224e-11           
  0.1                   9.5484e-08            5.4e-13               -1.24e-12             -9.5486e-08          
  0.2                   9.8538e-08            4.4e-13               -2.44e-12             -9.8532e-08          
  0.3                   9.8842e-08            -4e-14                -3.3e-12              -9.8848e-08          
  0.4                   9.9072e-08            -1.6e-13              -1.62e-12             -9.906e-08           
  0.5                   9.923e-08             1.8e-13               -2.74e-12             -9.92e-08            
  0.6                   9.9384e-08            1.2e-13               -1.64e-12             -9.9366e-08          
  0.7                   9.951e-08             -2.2e-13              -2.72e-12             -9.9492e-08          
  0.8                   9.9626e-08            1.4e-13               -1.68e-12             -9.9586e-08          
  0.9                   9.9716e-08            1.4e-13               -2.54e-12             -9.9694e-08          
  1                     9.9798e-08            8e-14                 -3.28e-12             -9.9792e-08          
  1.1                   9.99e-08              1e-13                 -2.48e-12             -9.9906e-08          
  1.2                   9.9966e-08            2e-14                 -2.32e-12             -9.9982e-08          
  1.3                   1.0016e-07            1.4e-13               -2.3e-12              -1.00052e-07         
  1.4                   1.0022e-07            1.8e-13               -2.68e-12             -1.00106e-07         
  1.5                   1.0028e-07            -2.2e-13              -2.52e-12             -1.00194e-07         
  1.6                   1.0036e-07            3.6e-13               -1.14e-12             -1.00278e-07         
  1.7                   1.0044e-07            2.4e-13               -2.72e-12             -1.0036e-07          
  1.8                   1.0052e-07            -1e-13                -2.68e-12             -1.00418e-07         
  1.9                   1.0058e-07            8e-14                 -3.28e-12             -1.00492e-07         
  2                     1.0062e-07            2.4e-13               -5.9e-12              -1.00544e-07         
  2.1                   1.007e-07             -1.2e-13              -7.96e-12             -1.00604e-07         
  2.2                   1.0076e-07            1.4e-13               -1.4e-11              -1.00648e-07         
  2.3                   1.0082e-07            2e-14                 -2.23e-11             -1.00732e-07         
  2.4                   1.009e-07             -1.8e-13              -3.708e-11            -1.00796e-07         
  2.5                   1.0098e-07            -1e-13                -5.946e-11            -1.00846e-07         
  2.6                   1.011e-07             2e-13                 -9.216e-11            -1.00908e-07         
  2.7                   1.0118e-07            1.2e-13               -1.3656e-10           -1.00974e-07         
  2.8                   1.0132e-07            2.2e-13               -2.025e-10            -1.01014e-07         
  2.9                   1.0142e-07            0                     -2.9122e-10           -1.01064e-07         
  3                     1.0164e-07            1.2e-13               -4.114e-10            -1.01112e-07         
  3.1                   1.0184e-07            -2.4e-13              -5.7096e-10           -1.01186e-07         
  3.2                   1.021e-07             3.4e-13               -7.8608e-10           -1.01246e-07         
  3.3                   1.0244e-07            1.6e-13               -1.0632e-09           -1.01256e-07         
  3.4                   1.0282e-07            1.6e-13               -1.4238e-09           -1.0131e-07          
  3.5                   1.0332e-07            -3.6e-13              -1.8804e-09           -1.01354e-07         
  3.6                   1.0396e-07            6e-14                 -2.4504e-09           -1.01424e-07         
END_DB

BEGIN_DB
 ICCAP_VAR vg         1.596          
 ICCAP_VAR vb         -3.6           
 ICCAP_VAR vs         0              

 #vd                    id                    ig                    ib                    is                   
  0                     8.451e-10             2e-13                 -7e-13                -8.6334e-10          
  0.1                   1.5772e-06            1.6e-13               -5.2e-13              -1.573e-06           
  0.2                   2.0144e-06            8e-14                 -1.66e-12             -2.0106e-06          
  0.3                   2.0606e-06            1e-13                 -1.24e-12             -2.0568e-06          
  0.4                   2.0672e-06            -4.2e-13              -2.2e-12              -2.0634e-06          
  0.5                   2.0702e-06            -2e-14                -3.12e-12             -2.0664e-06          
  0.6                   2.0728e-06            -2e-13                -1.46e-12             -2.069e-06           
  0.7                   2.0746e-06            1.2e-13               -1.88e-12             -2.0708e-06          
  0.8                   2.0764e-06            3e-13                 -1.6e-12              -2.0724e-06          
  0.9                   2.0778e-06            2.2e-13               -1.16e-12             -2.074e-06           
  1                     2.0792e-06            4e-14                 -2.44e-12             -2.0752e-06          
  1.1                   2.0804e-06            -1.2e-13              -2.98e-12             -2.0764e-06          
  1.2                   2.0818e-06            2e-14                 1.12e-12              -2.078e-06           
  1.3                   2.0826e-06            -8e-14                -1.4e-12              -2.0788e-06          
  1.4                   2.0838e-06            4e-14                 -2.98e-12             -2.0798e-06          
  1.5                   2.0848e-06            1.2e-13               -7e-13                -2.081e-06           
  1.6                   2.086e-06             -2e-13                -2.34e-12             -2.082e-06           
  1.7                   2.0866e-06            8e-14                 -2.2e-12              -2.0828e-06          
  1.8                   2.0876e-06            -4.2e-13              -2.26e-12             -2.0838e-06          
  1.9                   2.0886e-06            2e-14                 -6.24e-12             -2.085e-06           
  2                     2.0892e-06            1.6e-13               -1.336e-11            -2.0856e-06          
  2.1                   2.0904e-06            1.2e-13               -3.062e-11            -2.0864e-06          
  2.2                   2.091e-06             2e-14                 -7.026e-11            -2.0872e-06          
  2.3                   2.092e-06             -4.2e-13              -1.4038e-10           -2.0882e-06          
  2.4                   2.093e-06             -3.8e-13              -2.661e-10            -2.0888e-06          
  2.5                   2.094e-06             1.2e-13               -4.754e-10            -2.0896e-06          
  2.6                   2.0952e-06            1e-13                 -8.0236e-10           -2.0904e-06          
  2.7                   2.0966e-06            0                     -1.293e-09            -2.0914e-06          
  2.8                   2.0978e-06            2e-13                 -2.0144e-09           -2.092e-06           
  2.9                   2.0998e-06            -4e-14                -3.0368e-09           -2.0928e-06          
  3                     2.1016e-06            -1.2e-13              -4.4682e-09           -2.0932e-06          
  3.1                   2.1044e-06            -4e-14                -6.4364e-09           -2.0938e-06          
  3.2                   2.1076e-06            1e-13                 -9.0986e-09           -2.0946e-06          
  3.3                   2.1116e-06            -1e-13                -1.2664e-08           -2.0952e-06          
  3.4                   2.117e-06             6e-14                 -1.7364e-08           -2.096e-06           
  3.5                   2.124e-06             6.4e-13               -2.3504e-08           -2.0966e-06          
  3.6                   2.1324e-06            -5.8e-13              -3.1376e-08           -2.0972e-06          
END_DB

