! VERSION = 6.00
BEGIN_HEADER
 ICCAP_INPUTS
  vd         V  D GROUND SMU1 0.1 LIN        1    0          3.6        37   0.1       
  vg         V  G GROUND SMU2 0.001 LIN        2    1.512      3.6        5    0.522     
  vb         V  B GROUND SMU4 0.1 CON        -3.6
  vs         V  S GROUND SMU3 0.1 CON        0
 ICCAP_OUTPUTS
  id         I  D GROUND SMU1 B
  ig         I  G GROUND SMU2 B
  ib         I  B GROUND SMU4 B
  is         I  S GROUND SMU3 B
 ICCAP_VALUES
  MASTER_SETUP_TYPE "~dc_idvd~"
  LINVT_VALUE "|idvg|100.0n|100.0m|1.000m|5|3.600|"
  LISTVT_VALUE ""
  TYPE "1"
  TEMP "-40.0000 "
  IS_TNOM " 0.00000 "
  MAIN.W "2.000u"
  MAIN.L "3.000u"
  MAIN.AD "680.0f"
  MAIN.AS "680.0f"
  MAIN.PD "4.680u"
  MAIN.PS "4.680u"
  MAIN.NF "1.000"
  MAIN.M "1"
  MAIN.NRD "0.000"
  MAIN.NRS "0.000"
  MAIN.LDRIFT1 "1E-06"
  MAIN.LDRIFT2 "1E-06"
  MAIN.SA "0.000"
  MAIN.SB "0.000"
  MAIN.SD "0.000"
  MAIN.SCA "0.000"
  MAIN.SCB "0.000"
  MAIN.SCC "0.000"
  MAIN.SC "0.000"
  MODULE "S558"
  PIN_D "14"
  PIN_G "7"
  PIN_S "8"
  PIN_B "13"
  PIN_E ""
  PIN_6 ""
  XY_ID ""
  FUNC "LW Scale"
  STI "SA ref"
  WPE "WPE ref"
  COMMENT ""
  DIS_MEAS ""
  TypeTCI "10"
END_HEADER

BEGIN_DB
 ICCAP_VAR vg         1.512          
 ICCAP_VAR vb         -3.6           
 ICCAP_VAR vs         0              

 #vd                    id                    ig                    ib                    is                   
  0                     4.1372e-10            8.6e-13               -2.516e-11            -3.1774e-10          
  0.1                   3.8446e-07            5.4e-13               -2.086e-11            -3.84e-07            
  0.2                   4.341e-07             4.6e-13               -2.096e-11            -4.3422e-07          
  0.3                   4.3902e-07            2.8e-13               -1.956e-11            -4.3886e-07          
  0.4                   4.408e-07             2.6e-13               -1.804e-11            -4.408e-07           
  0.5                   4.422e-07             3.2e-13               -1.682e-11            -4.4208e-07          
  0.6                   4.432e-07             2.8e-13               -1.744e-11            -4.4316e-07          
  0.7                   4.4498e-07            3.2e-13               -1.704e-11            -4.4482e-07          
  0.8                   4.4564e-07            3.8e-13               -1.496e-11            -4.4538e-07          
  0.9                   4.46e-07              3.4e-13               -1.53e-11             -4.4586e-07          
  1                     4.465e-07             3.6e-13               -1.564e-11            -4.4664e-07          
  1.1                   4.4704e-07            8e-14                 -1.446e-11            -4.4688e-07          
  1.2                   4.4824e-07            1.4e-13               -1.442e-11            -4.478e-07           
  1.3                   4.485e-07             2.6e-13               -1.348e-11            -4.4842e-07          
  1.4                   4.4908e-07            2.8e-13               -1.32e-11             -4.4888e-07          
  1.5                   4.4974e-07            2.4e-13               -1.09e-11             -4.4922e-07          
  1.6                   4.4972e-07            1.8e-13               -1.038e-11            -4.5016e-07          
  1.7                   4.5044e-07            1e-13                 -1.168e-11            -4.5012e-07          
  1.8                   4.51e-07              2e-13                 -1.252e-11            -4.5052e-07          
  1.9                   4.5116e-07            1.8e-13               -1.324e-11            -4.5112e-07          
  2                     4.5162e-07            1.2e-13               -1.566e-11            -4.5162e-07          
  2.1                   4.522e-07             1.4e-13               -2.324e-11            -4.5216e-07          
  2.2                   4.5228e-07            3.4e-13               -3.72e-11             -4.521e-07           
  2.3                   4.5278e-07            1.2e-13               -6.166e-11            -4.5238e-07          
  2.4                   4.5316e-07            1.4e-13               -1.0066e-10           -4.5334e-07          
  2.5                   4.5374e-07            2.6e-13               -1.6546e-10           -4.533e-07           
  2.6                   4.5406e-07            0                     -2.64e-10             -4.5442e-07          
  2.7                   4.5518e-07            6e-14                 -4.0722e-10           -4.5478e-07          
  2.8                   4.5522e-07            2.6e-13               -6.1352e-10           -4.5464e-07          
  2.9                   4.5648e-07            2e-13                 -9.0348e-10           -4.5528e-07          
  3                     4.5734e-07            1.6e-13               -1.3018e-09           -4.5644e-07          
  3.1                   4.5788e-07            1.8e-13               -1.8466e-09           -4.559e-07           
  3.2                   4.5934e-07            1.6e-13               -2.582e-09            -4.5666e-07          
  3.3                   4.6046e-07            1.2e-13               -3.549e-09            -4.5678e-07          
  3.4                   4.6224e-07            2e-14                 -4.815e-09            -4.5698e-07          
  3.5                   4.6396e-07            4e-14                 -6.4534e-09           -4.5744e-07          
  3.6                   4.664e-07             1.8e-13               -8.533e-09            -4.5828e-07          
END_DB

BEGIN_DB
 ICCAP_VAR vg         2.034          
 ICCAP_VAR vb         -3.6           
 ICCAP_VAR vs         0              

 #vd                    id                    ig                    ib                    is                   
  0                     2.2088e-09            4.6e-13               -6.56e-12             -2.0678e-09          
  0.1                   5.848e-06             3e-13                 -6.62e-12             -5.8442e-06          
  0.2                   1.02286e-05           2.8e-13               -5.08e-12             -1.02254e-05         
  0.3                   1.3238e-05            3.4e-13               -1.024e-11            -1.3222e-05          
  0.4                   1.5042e-05            2e-13                 -4.7e-12              -1.5024e-05          
  0.5                   1.5924e-05            2.6e-13               -6.04e-12             -1.5904e-05          
  0.6                   1.6268e-05            8e-14                 -5.7e-12              -1.6248e-05          
  0.7                   1.6394e-05            2.6e-13               -5.32e-12             -1.6378e-05          
  0.8                   1.6456e-05            2e-13                 -6.06e-12             -1.644e-05           
  0.9                   1.6498e-05            1.8e-13               -5.84e-12             -1.6484e-05          
  1                     1.6532e-05            2.4e-13               -4.46e-12             -1.6512e-05          
  1.1                   1.6556e-05            1.4e-13               -5.84e-12             -1.6536e-05          
  1.2                   1.6574e-05            1.6e-13               -4.9e-12              -1.6556e-05          
  1.3                   1.6596e-05            1.4e-13               -5.88e-12             -1.6574e-05          
  1.4                   1.661e-05             2.6e-13               -6.1e-12              -1.659e-05           
  1.5                   1.6624e-05            3.2e-13               -4.28e-12             -1.6604e-05          
  1.6                   1.664e-05             1.2e-13               -4.22e-12             -1.6622e-05          
  1.7                   1.6654e-05            1.6e-13               -5.4e-12              -1.6636e-05          
  1.8                   1.667e-05             2.6e-13               -4.2e-12              -1.665e-05           
  1.9                   1.6682e-05            2.2e-13               -5.34e-12             -1.6662e-05          
  2                     1.6694e-05            1.2e-13               -5.88e-12             -1.6674e-05          
  2.1                   1.6708e-05            1.4e-13               -8.2e-12              -1.6688e-05          
  2.2                   1.6718e-05            2e-13                 -2.066e-11            -1.6698e-05          
  2.3                   1.6726e-05            8e-14                 -5.418e-11            -1.6706e-05          
  2.4                   1.6736e-05            2.4e-13               -1.3332e-10           -1.6718e-05          
  2.5                   1.675e-05             2e-13                 -3.1252e-10           -1.673e-05           
  2.6                   1.676e-05             1e-13                 -6.721e-10            -1.6742e-05          
  2.7                   1.6772e-05            1.6e-13               -1.3348e-09           -1.6752e-05          
  2.8                   1.6784e-05            1e-13                 -2.4758e-09           -1.6762e-05          
  2.9                   1.6794e-05            1.4e-13               -4.3366e-09           -1.677e-05           
  3                     1.6806e-05            1.8e-13               -7.2528e-09           -1.6778e-05          
  3.1                   1.682e-05             3.8e-13               -1.1612e-08           -1.6788e-05          
  3.2                   1.6836e-05            1e-13                 -1.7964e-08           -1.68e-05            
  3.3                   1.6856e-05            2.6e-13               -2.6972e-08           -1.6808e-05          
  3.4                   1.6874e-05            5e-13                 -3.9532e-08           -1.6812e-05          
  3.5                   1.6898e-05            5e-13                 -5.6808e-08           -1.6822e-05          
  3.6                   1.6926e-05            6e-13                 -8.0394e-08           -1.6824e-05          
END_DB

BEGIN_DB
 ICCAP_VAR vg         2.556          
 ICCAP_VAR vb         -3.6           
 ICCAP_VAR vs         0              

 #vd                    id                    ig                    ib                    is                   
  0                     2.6238e-09            4.8e-13               -4.56e-12             -3.2566e-09          
  0.1                   1.2146e-05            4.4e-13               -3.72e-12             -1.2126e-05          
  0.2                   2.2922e-05            2e-13                 -3.7e-12              -2.2904e-05          
  0.3                   3.2272e-05            4.2e-13               -1.72e-12             -3.2254e-05          
  0.4                   4.0202e-05            2.4e-13               -4.36e-12             -4.0186e-05          
  0.5                   4.6696e-05            2.6e-13               -4.36e-12             -4.6676e-05          
  0.6                   5.1764e-05            2.4e-13               -2.52e-12             -5.1746e-05          
  0.7                   5.5506e-05            3e-13                 -4.54e-12             -5.5488e-05          
  0.8                   5.8052e-05            2.2e-13               -3.7e-12              -5.8036e-05          
  0.9                   5.9618e-05            1.6e-13               -2.86e-12             -5.9602e-05          
  1                     6.0488e-05            2e-13                 -3.96e-12             -6.047e-05           
  1.1                   6.094e-05             3.2e-13               -3.5e-12              -6.092e-05           
  1.2                   6.1182e-05            4.2e-13               -2.54e-12             -6.1168e-05          
  1.3                   6.1344e-05            2.6e-13               -3.92e-12             -6.1324e-05          
  1.4                   6.1444e-05            3.6e-13               -2.72e-12             -6.1432e-05          
  1.5                   6.154e-05             3.2e-13               -2.88e-12             -6.1518e-05          
  1.6                   6.1612e-05            2.4e-13               -4.8e-12              -6.1588e-05          
  1.7                   6.1666e-05            1e-13                 -2.96e-12             -6.165e-05           
  1.8                   6.172e-05             1.2e-13               -3.06e-12             -6.1704e-05          
  1.9                   6.1772e-05            1.8e-13               -4.06e-12             -6.1756e-05          
  2                     6.1816e-05            1e-13                 -2.94e-12             -6.1804e-05          
  2.1                   6.1864e-05            3.6e-13               -2.72e-12             -6.1844e-05          
  2.2                   6.19e-05              3e-13                 -3.72e-12             -6.1888e-05          
  2.3                   6.1946e-05            1.6e-13               -4.24e-12             -6.1928e-05          
  2.4                   6.1978e-05            2.6e-13               -7.7e-12              -6.1964e-05          
  2.5                   6.2016e-05            1.6e-13               -2.06e-11             -6.2002e-05          
  2.6                   6.2054e-05            2.8e-13               -5.606e-11            -6.2032e-05          
  2.7                   6.2086e-05            0                     -1.6232e-10           -6.2068e-05          
  2.8                   6.2124e-05            1.6e-13               -4.1946e-10           -6.2108e-05          
  2.9                   6.216e-05             2.6e-13               -9.782e-10            -6.2138e-05          
  3                     6.219e-05             3e-13                 -2.1118e-09           -6.2168e-05          
  3.1                   6.2228e-05            1.8e-13               -4.2164e-09           -6.2204e-05          
  3.2                   6.2258e-05            3.2e-13               -7.8912e-09           -6.2226e-05          
  3.3                   6.2288e-05            4.4e-13               -1.399e-08            -6.2244e-05          
  3.4                   6.231e-05             5.4e-13               -2.3572e-08           -6.2274e-05          
  3.5                   6.2352e-05            6.6e-13               -3.8162e-08           -6.2292e-05          
  3.6                   6.2392e-05            1.04e-12              -5.9706e-08           -6.2306e-05          
END_DB

BEGIN_DB
 ICCAP_VAR vg         3.078          
 ICCAP_VAR vb         -3.6           
 ICCAP_VAR vs         0              

 #vd                    id                    ig                    ib                    is                   
  0                     9.032e-09             5.4e-13               -2.3e-12              -2.1978e-09          
  0.1                   1.707e-05             1.8e-13               -2.02e-12             -1.7052e-05          
  0.2                   3.308e-05             3e-13                 -3.64e-12             -3.306e-05           
  0.3                   4.7922e-05            2.6e-13               -7.8e-13              -4.7904e-05          
  0.4                   6.1592e-05            2e-13                 -2.8e-12              -6.1574e-05          
  0.5                   7.3994e-05            3e-13                 -3.46e-12             -7.3976e-05          
  0.6                   8.5058e-05            3.8e-13               -2.28e-12             -8.5042e-05          
  0.7                   9.4776e-05            3e-13                 -2.26e-12             -9.476e-05           
  0.8                   0.000103118           3e-13                 -3.5e-12              -0.000103102         
  0.9                   0.000110062           1.6e-13               -3.24e-12             -0.00011004          
  1                     0.0001158             2.4e-13               -2.68e-12             -0.000115644         
  1.1                   0.0001201             3.6e-13               -1.96e-12             -0.00011972          
  1.2                   0.00012324            3e-13                 -2.48e-12             -0.00012286          
  1.3                   0.0001254             2.2e-13               -2.64e-12             -0.000125            
  1.4                   0.00012676            2e-13                 -8.4e-13              -0.00012638          
  1.5                   0.0001276             1.4e-13               -2.38e-12             -0.00012722          
  1.6                   0.0001281             8e-14                 -3.12e-12             -0.00012772          
  1.7                   0.00012842            -2e-14                -1.64e-12             -0.00012804          
  1.8                   0.00012866            2e-13                 -2.48e-12             -0.00012828          
  1.9                   0.00012884            2.2e-13               -2.14e-12             -0.00012846          
  2                     0.00012898            2.4e-13               -1.68e-12             -0.0001286           
  2.1                   0.0001291             1.4e-13               -3.06e-12             -0.0001287           
  2.2                   0.0001292             1.8e-13               -2.22e-12             -0.0001288           
  2.3                   0.0001293             1.8e-13               -2.44e-12             -0.0001289           
  2.4                   0.00012938            2e-13                 -3.16e-12             -0.000129            
  2.5                   0.00012946            3.2e-13               -1.76e-12             -0.00012908          
  2.6                   0.00012952            3.8e-13               -6.76e-12             -0.00012914          
  2.7                   0.0001296             3.2e-13               -6.66e-12             -0.00012922          
  2.8                   0.00012966            8e-14                 -1.394e-11            -0.0001293           
  2.9                   0.00012974            1.8e-13               -4.594e-11            -0.00012936          
  3                     0.0001298             1.6e-13               -1.3388e-10           -0.00012942          
  3.1                   0.00012986            1.6e-13               -3.643e-10            -0.00012948          
  3.2                   0.00012992            1.8e-13               -9.0554e-10           -0.00012954          
  3.3                   0.00012996            1.2e-13               -2.0654e-09           -0.00012958          
  3.4                   0.00013002            2.6e-13               -4.3622e-09           -0.00012964          
  3.5                   0.00013008            4.2e-13               -8.61e-09             -0.00012968          
  3.6                   0.00013012            6.4e-13               -1.6066e-08           -0.00012972          
END_DB

BEGIN_DB
 ICCAP_VAR vg         3.6            
 ICCAP_VAR vb         -3.6           
 ICCAP_VAR vs         0              

 #vd                    id                    ig                    ib                    is                   
  0                     1.0572e-08            4.2e-13               2e-14                 -9.876e-09           
  0.1                   2.0446e-05            3e-13                 -1.56e-12             -2.0426e-05          
  0.2                   4.0122e-05            2.2e-13               -1.82e-12             -4.0102e-05          
  0.3                   5.8922e-05            2.6e-13               -2.12e-12             -5.8906e-05          
  0.4                   7.6844e-05            2e-13                 -3.28e-12             -7.6828e-05          
  0.5                   9.378e-05             4.2e-13               -2.2e-12              -9.3766e-05          
  0.6                   0.000109636           2e-13                 -1.94e-12             -0.00010962          
  0.7                   0.00012454            2.4e-13               -1.94e-12             -0.00012414          
  0.8                   0.00013812            2.6e-13               -3.48e-12             -0.00013774          
