! VERSION = 6.00
BEGIN_HEADER
 ICCAP_INPUTS
  vg         V  G GROUND SMU2 0.001 LIN        1    -0.5       3.6        83   0.05      
  vb         V  B GROUND SMU4 0.1 LIN        2    0          -3.6       5    -0.9      
  vd         V  D GROUND SMU1 0.1 LIN        3    0.1        3.3        3    1.6       
  vs         V  S GROUND SMU3 0.1 CON        0
 ICCAP_OUTPUTS
  id         I  D GROUND SMU1 B
  ig         I  G GROUND SMU2 B
  ib         I  B GROUND SMU4 B
  is         I  S GROUND SMU3 B
 ICCAP_VALUES
  MASTER_SETUP_TYPE "~dc_idvg~"
  LINVT_VALUE ""
  LISTVT_VALUE ""
  TYPE "1"
  TEMP " 27.0000 "
  IS_TNOM " 1.00000 "
  MAIN.W "5.000u"
  MAIN.L "5.000u"
  MAIN.AD "1.700p"
  MAIN.AS "1.700p"
  MAIN.PD "10.68u"
  MAIN.PS "10.68u"
  MAIN.NF "1.000"
  MAIN.M "1"
  MAIN.NRD "0.000"
  MAIN.NRS "0.000"
  MAIN.LDRIFT1 "1E-06"
  MAIN.LDRIFT2 "1E-06"
  MAIN.SA "0.000"
  MAIN.SB "0.000"
  MAIN.SD "0.000"
  MAIN.SCA "0.000"
  MAIN.SCB "0.000"
  MAIN.SCC "0.000"
  MAIN.SC "0.000"
  MODULE "S557"
  PIN_D "12"
  PIN_G "9"
  PIN_S "10"
  PIN_B "11"
  PIN_E ""
  PIN_6 ""
  XY_ID ""
  FUNC "LW Scale"
  STI "SA ref"
  WPE "WPE ref"
  COMMENT ""
  DIS_MEAS ""
  TypeTCI "10"
END_HEADER

BEGIN_DB
 ICCAP_VAR vb         0              
 ICCAP_VAR vd         0.1            
 ICCAP_VAR vs         0              

 #vg                    id                    ig                    ib                    is                   
  -0.5                  2e-14                 -4.356e-11            5.158e-11             0                    
  -0.45                 2e-13                 -6.56e-12             1.506e-11             0                    
  -0.4                  -1e-13                -1.08e-12             1.03e-11              2.6e-13              
  -0.35                 1e-13                 -1.2e-13              8.62e-12              2e-14                
  -0.3                  -4e-14                2e-14                 7.68e-12              1.4e-13              
  -0.25                 -2e-14                4e-14                 7.32e-12              1e-13                
  -0.2                  -4e-14                2e-13                 8.28e-12              -4e-14               
  -0.15                 1.6e-13               8e-14                 8.46e-12              1e-13                
  -0.1                  -1e-13                2.8e-13               8e-12                 0                    
  -0.05                 1.2e-13               2.4e-13               7.66e-12              4e-14                
  0                     -1e-13                2.2e-13               7.3e-12               -8e-14               
  0.05                  1.2e-13               2e-13                 7.48e-12              6e-14                
  0.1                   1e-13                 3.4e-13               7.98e-12              -2e-14               
  0.15                  7.2e-13               4e-13                 8.24e-12              -5.8e-13             
  0.2                   2.4e-12               3.6e-13               6.56e-12              -2.24e-12            
  0.25                  9.42e-12              3.4e-13               6.68e-12              -9.26e-12            
  0.3                   3.778e-11             3.8e-13               7.26e-12              -3.75e-11            
  0.35                  1.534e-10             3.2e-13               7.92e-12              -1.5308e-10          
  0.4                   6.206e-10             4.8e-13               6.42e-12              -6.2094e-10          
  0.45                  2.4866e-09            4.8e-13               6.94e-12              -2.4836e-09          
  0.5                   9.3946e-09            5e-13                 5.82e-12              -9.3898e-09          
  0.55                  3.1996e-08            3.8e-13               5.9e-12               -3.1958e-08          
  0.6                   9.2334e-08            4.8e-13               6.38e-12              -9.2328e-08          
  0.65                  2.2328e-07            3.8e-13               5.88e-12              -2.2306e-07          
  0.7                   4.5394e-07            4.4e-13               5.8e-12               -4.5362e-07          
  0.75                  8e-07                 5.6e-13               5.94e-12              -7.9978e-07          
  0.8                   1.2544e-06            4e-13                 5.88e-12              -1.2498e-06          
  0.85                  1.7984e-06            4e-13                 5.16e-12              -1.7942e-06          
  0.9                   2.4088e-06            5e-13                 6.16e-12              -2.405e-06           
  0.95                  3.0706e-06            5.6e-13               6.12e-12              -3.0664e-06          
  1                     3.7702e-06            6.4e-13               6e-12                 -3.7662e-06          
  1.05                  4.5014e-06            6.2e-13               4.44e-12              -4.4972e-06          
  1.1                   5.251e-06             6.2e-13               3.96e-12              -5.2468e-06          
  1.15                  6.016e-06             8e-13                 6.18e-12              -6.0118e-06          
  1.2                   6.7928e-06            7.2e-13               6.08e-12              -6.7884e-06          
  1.25                  7.5768e-06            6.8e-13               5.42e-12              -7.5726e-06          
  1.3                   8.3686e-06            5.6e-13               5.32e-12              -8.3646e-06          
  1.35                  9.1604e-06            7.6e-13               5.36e-12              -9.1564e-06          
  1.4                   9.9514e-06            6.4e-13               5.88e-12              -9.9472e-06          
  1.45                  1.07418e-05           8.4e-13               5.2e-12               -1.07378e-05         
  1.5                   1.1542e-05            5e-13                 4.62e-12              -1.152e-05           
  1.55                  1.2324e-05            6e-13                 4.5e-12               -1.2304e-05          
  1.6                   1.3102e-05            6.8e-13               5.46e-12              -1.308e-05           
  1.65                  1.3876e-05            6.6e-13               5.78e-12              -1.3856e-05          
  1.7                   1.4642e-05            7.2e-13               4.62e-12              -1.4622e-05          
  1.75                  1.5398e-05            6.8e-13               4.64e-12              -1.5378e-05          
  1.8                   1.6148e-05            7.6e-13               5.46e-12              -1.6126e-05          
  1.85                  1.6884e-05            7.2e-13               5.96e-12              -1.6864e-05          
  1.9                   1.7612e-05            7e-13                 4.5e-12               -1.7592e-05          
  1.95                  1.833e-05             7.8e-13               4.92e-12              -1.8308e-05          
  2                     1.9036e-05            7.8e-13               5.16e-12              -1.9014e-05          
  2.05                  1.973e-05             9e-13                 5.42e-12              -1.971e-05           
  2.1                   2.041e-05             7.8e-13               4.74e-12              -2.0388e-05          
  2.15                  2.1078e-05            7e-13                 4.3e-12               -2.1058e-05          
  2.2                   2.1732e-05            7.2e-13               4.8e-12               -2.171e-05           
  2.25                  2.2374e-05            8e-13                 5.36e-12              -2.2354e-05          
  2.3                   2.3e-05               8e-13                 4.9e-12               -2.298e-05           
  2.35                  2.3614e-05            6.4e-13               4.36e-12              -2.3594e-05          
  2.4                   2.4212e-05            8.6e-13               4e-12                 -2.4192e-05          
  2.45                  2.4796e-05            6.6e-13               4.84e-12              -2.4776e-05          
  2.5                   2.5368e-05            7.8e-13               4.92e-12              -2.5348e-05          
  2.55                  2.5922e-05            7.6e-13               4.38e-12              -2.5902e-05          
  2.6                   2.6462e-05            7.6e-13               3.92e-12              -2.6442e-05          
  2.65                  2.6988e-05            7.6e-13               4.64e-12              -2.6968e-05          
  2.7                   2.75e-05              9.2e-13               4.96e-12              -2.7478e-05          
  2.75                  2.7998e-05            8.2e-13               3.88e-12              -2.7976e-05          
  2.8                   2.8478e-05            8.4e-13               3.32e-12              -2.8458e-05          
  2.85                  2.8944e-05            8e-13                 4.34e-12              -2.8924e-05          
  2.9                   2.9398e-05            9.6e-13               4.76e-12              -2.9378e-05          
  2.95                  2.9838e-05            9.2e-13               5e-12                 -2.9816e-05          
  3                     3.0262e-05            8.8e-13               3.66e-12              -3.024e-05           
  3.05                  3.067e-05             8e-13                 4.46e-12              -3.065e-05           
  3.1                   3.1066e-05            7.8e-13               4.36e-12              -3.1046e-05          
  3.15                  3.145e-05             8.6e-13               5.34e-12              -3.143e-05           
  3.2                   3.182e-05             8.2e-13               3.66e-12              -3.18e-05            
  3.25                  3.2176e-05            8.8e-13               3.8e-12               -3.2156e-05          
  3.3                   3.252e-05             9e-13                 4.4e-12               -3.2498e-05          
  3.35                  3.285e-05             8.2e-13               4.56e-12              -3.283e-05           
  3.4                   3.317e-05             8.6e-13               3.7e-12               -3.315e-05           
  3.45                  3.3474e-05            7e-13                 3.44e-12              -3.3452e-05          
  3.5                   3.3768e-05            9.2e-13               4.48e-12              -3.3748e-05          
  3.55                  3.405e-05             8e-13                 4.68e-12              -3.4028e-05          
  3.6                   3.432e-05             7.8e-13               4.04e-12              -3.43e-05            
END_DB

BEGIN_DB
 ICCAP_VAR vb         -0.9           
 ICCAP_VAR vd         0.1            
 ICCAP_VAR vs         0              

 #vg                    id                    ig                    ib                    is                   
  -0.5                  8e-14                 -6.4e-13              -9.7e-12              2.6e-13              
  -0.45                 1e-13                 -4e-13                -9.46e-12             1.8e-13              
  -0.4                  8e-14                 -2.8e-13              -7.42e-12             2.2e-13              
  -0.35                 4e-14                 -2.8e-13              -5.84e-12             1.4e-13              
  -0.3                  6e-14                 -1.4e-13              -5.92e-12             1.6e-13              
  -0.25                 4e-14                 -1.4e-13              -6.48e-12             1.4e-13              
  -0.2                  4e-14                 -1.8e-13              -5.06e-12             2.8e-13              
  -0.15                 1.8e-13               6e-14                 -4.54e-12             0                    
  -0.1                  6e-14                 -8e-14                -4.56e-12             4.2e-13              
  -0.05                 1e-13                 6e-14                 -2.38e-12             0                    
  0                     -1e-13                1e-13                 -3.9e-12              1.6e-13              
  0.05                  2e-14                 6e-14                 -3.54e-12             1.4e-13              
  0.1                   8e-14                 3.4e-13               -2.98e-12             1e-13                
  0.15                  6e-14                 2e-13                 -2.22e-12             8e-14                
  0.2                   0                     3e-13                 -1.82e-12             6e-14                
  0.25                  0                     1.2e-13               -2.8e-12              1.2e-13              
  0.3                   4e-14                 2.8e-13               -2.88e-12             -6e-14               
  0.35                  -2e-14                3e-13                 -1.76e-12             8e-14                
  0.4                   3.4e-13               2.8e-13               -2.24e-12             -2.4e-13             
  0.45                  1.16e-12              2.6e-13               -8.4e-13              -8.6e-13             
  0.5                   4.96e-12              2.6e-13               -1.76e-12             -4.96e-12            
  0.55                  2.322e-11             3.2e-13               -1.82e-12             -2.308e-11           
  0.6                   1.0684e-10            4e-13                 -1.9e-12              -1.0658e-10          
  0.65                  4.897e-10             4.6e-13               -1.3e-12              -4.8944e-10          
  0.7                   2.1712e-09            2.2e-13               -4e-13                -2.1686e-09          
  0.75                  9.0166e-09            4.2e-13               -1.34e-12             -9.0132e-09          
  0.8                   3.2522e-08            3.8e-13               -8.4e-13              -3.2466e-08          
  0.85                  9.7458e-08            2.6e-13               -2.18e-12             -9.7454e-08          
  0.9                   2.3738e-07            4.8e-13               4e-14                 -2.3724e-07          
  0.95                  4.8106e-07            4.2e-13               -1.18e-12             -4.8082e-07          
  1                     8.3734e-07            5.2e-13               -1.28e-12             -8.3708e-07          
  1.05                  1.2982e-06            4.6e-13               -1.4e-13              -1.294e-06           
  1.1                   1.8374e-06            4e-13                 -4e-13                -1.833e-06           
  1.15                  2.4376e-06            4e-13                 -1.3e-12              -2.4332e-06          
  1.2                   3.0838e-06            4.8e-13               -1.16e-12             -3.0798e-06          
  1.25                  3.7648e-06            4.6e-13               -3.6e-13              -3.7606e-06          
  1.3                   4.474e-06             5e-13                 -4e-14                -4.4698e-06          
  1.35                  5.1994e-06            5.2e-13               -1.06e-12             -5.1952e-06          
  1.4                   5.9382e-06            6e-13                 -1.08e-12             -5.934e-06           
  1.45                  6.6868e-06            5.8e-13               -1.2e-13              -6.6824e-06          
  1.5                   7.4448e-06            5.8e-13               -4e-14                -7.4404e-06          
  1.55                  8.203e-06             6.4e-13               -3e-13                -8.1988e-06          
  1.6                   8.9606e-06            5.8e-13               -1.04e-12             -8.9564e-06          
  1.65                  9.7204e-06            7.4e-13               2.34e-12              -9.7162e-06          
  1.7                   1.04778e-05           6.6e-13               1.2e-13               -1.04734e-05         
  1.75                  1.1228e-05            6.2e-13               1.8e-13               -1.12234e-05         
  1.8                   1.1984e-05            5.6e-13               -5.8e-13              -1.1962e-05          
  1.85                  1.2722e-05            5.2e-13               -5e-13                -1.2702e-05          
  1.9                   1.3456e-05            6e-13                 -3e-13                -1.3436e-05          
  1.95                  1.4178e-05            6.8e-13               2e-13                 -1.4158e-05          
  2                     1.4894e-05            7e-13                 -7.4e-13              -1.4872e-05          
  2.05                  1.5598e-05            6.2e-13               -4e-13                -1.5578e-05          
  2.1                   1.629e-05             7.2e-13               -1.8e-13              -1.627e-05           
  2.15                  1.6974e-05            5.6e-13               8e-13                 -1.6954e-05          
  2.2                   1.7642e-05            6.8e-13               1e-13                 -1.7622e-05          
  2.25                  1.8302e-05            7.4e-13               -6e-13                -1.8282e-05          
  2.3                   1.8944e-05            7.6e-13               -4.6e-13              -1.8924e-05          
  2.35                  1.9578e-05            7.2e-13               5.4e-13               -1.9556e-05          
  2.4                   2.0196e-05            7.6e-13               5.8e-13               -2.0174e-05          
  2.45                  2.0798e-05            7.6e-13               3.8e-13               -2.0778e-05          
  2.5                   2.139e-05             6.6e-13               -3.8e-13              -2.137e-05           
  2.55                  2.1966e-05            7.6e-13               9.6e-13               -2.1944e-05          
  2.6                   2.2526e-05            6.8e-13               4.6e-13               -2.2506e-05          
  2.65                  2.3072e-05            6e-13                 -6e-13                -2.3052e-05          
  2.7                   2.3606e-05            7.8e-13               -2.8e-13              -2.3584e-05          
  2.75                  2.4124e-05            6.2e-13               -1.4e-13              -2.4104e-05          
  2.8                   2.4628e-05            7.4e-13               6.6e-13               -2.4608e-05          
  2.85                  2.5118e-05            6.4e-13               -2e-13                -2.5098e-05          
  2.9                   2.5592e-05            6.6e-13               -5.2e-13              -2.5572e-05          
  2.95                  2.6054e-05            7.2e-13               3.4e-13               -2.6034e-05          
  3                     2.6502e-05            6.4e-13               1e-12                 -2.648e-05           
  3.05                  2.6934e-05            7.2e-13               4e-13                 -2.6914e-05          
  3.1                   2.7352e-05            7.8e-13               1.8e-13               -2.7332e-05          
  3.15                  2.7758e-05            7.6e-13               4.4e-13               -2.7738e-05          
  3.2                   2.815e-05             8.8e-13               5e-13                 -2.813e-05           
  3.25                  2.8528e-05            7.6e-13               4.4e-13               -2.8508e-05          
  3.3                   2.8894e-05            8.4e-13               4.8e-13               -2.8874e-05          
  3.35                  2.9246e-05            8.4e-13               -2.2e-13              -2.9226e-05          
  3.4                   2.9588e-05            9.6e-13               6.8e-13               -2.9566e-05          
  3.45                  2.9914e-05            8.6e-13               1.06e-12              -2.9894e-05          
