! VERSION = 6.00
BEGIN_HEADER
 ICCAP_INPUTS
  vd         V  D GROUND SMU1 0.1 LIN        1    0          3.6        37   0.1       
  vg         V  G GROUND SMU2 0.001 LIN        2    0.668      3.6        5    0.733     
  vb         V  B GROUND SMU4 0.1 CON        0
  vs         V  S GROUND SMU3 0.1 CON        0
 ICCAP_OUTPUTS
  id         I  D GROUND SMU1 B
  ig         I  G GROUND SMU2 B
  ib         I  B GROUND SMU4 B
  is         I  S GROUND SMU3 B
 ICCAP_VALUES
  MASTER_SETUP_TYPE "~dc_idvd~"
  LINVT_VALUE "|idvg|100.0n|100.0m|1.000m|5|3.600|"
  LISTVT_VALUE ""
  TYPE "1"
  TEMP " 70.0000 "
  IS_TNOM " 0.00000 "
  MAIN.W "600.0n"
  MAIN.L "1.200u"
  MAIN.AD "204.0f"
  MAIN.AS "204.0f"
  MAIN.PD "1.880u"
  MAIN.PS "1.880u"
  MAIN.NF "1.000"
  MAIN.M "1"
  MAIN.NRD "0.000"
  MAIN.NRS "0.000"
  MAIN.LDRIFT1 "1E-06"
  MAIN.LDRIFT2 "1E-06"
  MAIN.SA "0.000"
  MAIN.SB "0.000"
  MAIN.SD "0.000"
  MAIN.SCA "0.000"
  MAIN.SCB "0.000"
  MAIN.SCC "0.000"
  MAIN.SC "0.000"
  MODULE "S559"
  PIN_D "14"
  PIN_G "7"
  PIN_S "8"
  PIN_B "13"
  PIN_E ""
  PIN_6 ""
  XY_ID ""
  FUNC "LW Scale"
  STI "SA ref"
  WPE "WPE ref"
  COMMENT ""
  DIS_MEAS ""
  TypeTCI "10"
END_HEADER

BEGIN_DB
 ICCAP_VAR vg         0.668          
 ICCAP_VAR vb         0              
 ICCAP_VAR vs         0              

 #vd                    id                    ig                    ib                    is                   
  0                     2.0552e-10            4e-14                 3.938e-11             -1.5522e-10          
  0.1                   1.9152e-07            0                     3.656e-11             -1.9162e-07          
  0.2                   2.1968e-07            -2.2e-13              3.656e-11             -2.1968e-07          
  0.3                   2.2556e-07            -2.4e-13              3.326e-11             -2.2558e-07          
  0.4                   2.2914e-07            -3.6e-13              3.218e-11             -2.2908e-07          
  0.5                   2.3206e-07            -3e-13                3.238e-11             -2.3208e-07          
  0.6                   2.3456e-07            -1.2e-13              3.156e-11             -2.3444e-07          
  0.7                   2.3654e-07            -1.2e-13              3.07e-11              -2.366e-07           
  0.8                   2.388e-07             -1.6e-13              2.902e-11             -2.389e-07           
  0.9                   2.4092e-07            -2.4e-13              2.876e-11             -2.4088e-07          
  1                     2.4266e-07            -2.2e-13              2.872e-11             -2.427e-07           
  1.1                   2.4438e-07            -1.8e-13              2.652e-11             -2.4436e-07          
  1.2                   2.4596e-07            -1.6e-13              2.682e-11             -2.4592e-07          
  1.3                   2.4758e-07            -8e-14                2.636e-11             -2.4752e-07          
  1.4                   2.4904e-07            -2e-13                2.52e-11              -2.4892e-07          
  1.5                   2.5046e-07            -1.8e-13              2.278e-11             -2.504e-07           
  1.6                   2.5174e-07            -2.4e-13              2.19e-11              -2.5186e-07          
  1.7                   2.5318e-07            -2.8e-13              1.834e-11             -2.5318e-07          
  1.8                   2.545e-07             -1.6e-13              1.014e-11             -2.5448e-07          
  1.9                   2.557e-07             -1.2e-13              -4.22e-12             -2.5578e-07          
  2                     2.5696e-07            -1e-13                -2.518e-11            -2.5692e-07          
  2.1                   2.582e-07             -1e-13                -5.816e-11            -2.5806e-07          
  2.2                   2.594e-07             -1.2e-13              -1.0874e-10           -2.592e-07           
  2.3                   2.605e-07             -1.2e-13              -1.8078e-10           -2.6038e-07          
  2.4                   2.6172e-07            -6e-14                -2.7916e-10           -2.6136e-07          
  2.5                   2.6286e-07            -2e-14                -4.1594e-10           -2.624e-07           
  2.6                   2.6412e-07            -6e-14                -6.0056e-10           -2.6342e-07          
  2.7                   2.6534e-07            -4e-14                -8.4136e-10           -2.6452e-07          
  2.8                   2.665e-07             -3e-13                -1.1578e-09           -2.6532e-07          
  2.9                   2.676e-07             -1.6e-13              -1.5666e-09           -2.6594e-07          
  3                     2.6898e-07            -1.8e-13              -2.0882e-09           -2.6672e-07          
  3.1                   2.7078e-07            -1.8e-13              -2.75e-09             -2.6788e-07          
  3.2                   2.722e-07             0                     -3.5808e-09           -2.6888e-07          
  3.3                   2.7442e-07            2e-14                 -4.5984e-09           -2.6952e-07          
  3.4                   2.7616e-07            -1e-13                -5.8482e-09           -2.7058e-07          
  3.5                   2.787e-07             1e-13                 -7.3396e-09           -2.7106e-07          
  3.6                   2.8122e-07            -1.2e-13              -9.1026e-09           -2.721e-07           
END_DB

BEGIN_DB
 ICCAP_VAR vg         1.401          
 ICCAP_VAR vb         0              
 ICCAP_VAR vs         0              

 #vd                    id                    ig                    ib                    is                   
  0                     1.4774e-09            4.2e-13               1.412e-11             -1.2668e-09          
  0.1                   4.1754e-06            3.4e-13               1.356e-11             -4.1716e-06          
  0.2                   7.5208e-06            3e-13                 1.33e-11              -7.5162e-06          
  0.3                   1.0055e-05            2.2e-13               1.25e-11              -1.00532e-05         
  0.4                   1.184e-05             3e-13                 1.288e-11             -1.1838e-05          
  0.5                   1.2966e-05            2.8e-13               1.304e-11             -1.2958e-05          
  0.6                   1.3582e-05            1.2e-13               1.206e-11             -1.3576e-05          
  0.7                   1.3894e-05            1e-13                 1.284e-11             -1.389e-05           
  0.8                   1.4062e-05            1.6e-13               1.162e-11             -1.4058e-05          
  0.9                   1.4172e-05            2.2e-13               1.248e-11             -1.4164e-05          
  1                     1.4246e-05            1.2e-13               1.214e-11             -1.424e-05           
  1.1                   1.4308e-05            1.4e-13               1.094e-11             -1.4302e-05          
  1.2                   1.436e-05             1.2e-13               1.146e-11             -1.435e-05           
  1.3                   1.4406e-05            -1.6e-13              1.202e-11             -1.44e-05            
  1.4                   1.4448e-05            -8e-14                1.114e-11             -1.4444e-05          
  1.5                   1.449e-05             8e-14                 1.15e-11              -1.4484e-05          
  1.6                   1.4522e-05            6e-14                 1.138e-11             -1.4516e-05          
  1.7                   1.4556e-05            6e-14                 1.056e-11             -1.4554e-05          
  1.8                   1.459e-05             -2e-14                7.78e-12              -1.4586e-05          
  1.9                   1.4622e-05            0                     -2.36e-12             -1.4618e-05          
  2                     1.4656e-05            1.2e-13               -2.694e-11            -1.4644e-05          
  2.1                   1.468e-05             2.2e-13               -8.878e-11            -1.4674e-05          
  2.2                   1.471e-05             0                     -2.3066e-10           -1.4706e-05          
  2.3                   1.4738e-05            0                     -5.0932e-10           -1.4732e-05          
  2.4                   1.4772e-05            0                     -1.0174e-09           -1.476e-05           
  2.5                   1.4792e-05            -6e-14                -1.8874e-09           -1.4784e-05          
  2.6                   1.4822e-05            -1.2e-13              -3.2892e-09           -1.4814e-05          
  2.7                   1.4848e-05            1e-13                 -5.4274e-09           -1.4842e-05          
  2.8                   1.4878e-05            1.4e-13               -8.5644e-09           -1.4868e-05          
  2.9                   1.49e-05              -8e-14                -1.3044e-08           -1.488e-05           
  3                     1.4928e-05            2e-14                 -1.9252e-08           -1.491e-05           
  3.1                   1.496e-05             -2e-14                -2.7704e-08           -1.4938e-05          
  3.2                   1.5002e-05            2e-14                 -3.8962e-08           -1.4954e-05          
  3.3                   1.5044e-05            0                     -5.3828e-08           -1.4986e-05          
  3.4                   1.5086e-05            2e-14                 -7.3172e-08           -1.5006e-05          
  3.5                   1.5132e-05            2e-14                 -9.809e-08            -1.503e-05           
  3.6                   1.5184e-05            1.4e-13               -1.2968e-07           -1.5046e-05          
END_DB

BEGIN_DB
 ICCAP_VAR vg         2.134          
 ICCAP_VAR vb         0              
 ICCAP_VAR vs         0              

 #vd                    id                    ig                    ib                    is                   
  0                     1.9254e-09            4.4e-13               8.8e-12               -2.0576e-09          
  0.1                   8.1822e-06            3.8e-13               9e-12                 -8.1778e-06          
  0.2                   1.5636e-05            2.8e-13               8.08e-12              -1.5632e-05          
  0.3                   2.2334e-05            2e-13                 8.46e-12              -2.2322e-05          
  0.4                   2.8264e-05            3.2e-13               6.54e-12              -2.826e-05           
  0.5                   3.3428e-05            2.2e-13               7.98e-12              -3.3422e-05          
  0.6                   3.7808e-05            4e-13                 8e-12                 -3.7804e-05          
  0.7                   4.1434e-05            2.2e-13               6.88e-12              -4.1438e-05          
  0.8                   4.433e-05             1e-13                 7.84e-12              -4.4322e-05          
  0.9                   4.6526e-05            2.2e-13               7.98e-12              -4.652e-05           
  1                     4.8088e-05            2.2e-13               6.58e-12              -4.81e-05            
  1.1                   4.9198e-05            2.4e-13               8.2e-12               -4.9192e-05          
  1.2                   4.9894e-05            3e-13                 7e-12                 -4.99e-05            
  1.3                   5.0374e-05            1.4e-13               6.72e-12              -5.0366e-05          
  1.4                   5.0692e-05            1e-13                 8.48e-12              -5.0686e-05          
  1.5                   5.0928e-05            2.6e-13               7.48e-12              -5.0922e-05          
  1.6                   5.1108e-05            2e-13                 6.84e-12              -5.11e-05            
  1.7                   5.1256e-05            6e-14                 7.64e-12              -5.1238e-05          
  1.8                   5.1378e-05            3.2e-13               6.62e-12              -5.1392e-05          
  1.9                   5.1496e-05            8e-14                 7.72e-12              -5.1494e-05          
  2                     5.1626e-05            1.6e-13               7.28e-12              -5.1596e-05          
  2.1                   5.1726e-05            2.6e-13               4.74e-12              -5.1744e-05          
  2.2                   5.1842e-05            2e-13                 2.4e-13               -5.1838e-05          
  2.3                   5.194e-05             2.4e-13               -1.432e-11            -5.1942e-05          
  2.4                   5.2042e-05            2.6e-13               -5.91e-11             -5.2028e-05          
  2.5                   5.212e-05             1.8e-13               -1.6796e-10           -5.2108e-05          
  2.6                   5.2182e-05            6e-14                 -4.1802e-10           -5.2168e-05          
  2.7                   5.2256e-05            8e-14                 -9.3622e-10           -5.2258e-05          
  2.8                   5.234e-05             0                     -1.9334e-09           -5.233e-05           
  2.9                   5.2406e-05            8e-14                 -3.7052e-09           -5.2398e-05          
  3                     5.2476e-05            8e-14                 -6.682e-09            -5.2438e-05          
  3.1                   5.2548e-05            8e-14                 -1.1437e-08           -5.2524e-05          
  3.2                   5.2616e-05            1.2e-13               -1.868e-08            -5.2594e-05          
  3.3                   5.2696e-05            -4e-14                -2.9272e-08           -5.266e-05           
  3.4                   5.2768e-05            2.8e-13               -4.4418e-08           -5.2708e-05          
  3.5                   5.2826e-05            1.8e-13               -6.5364e-08           -5.2766e-05          
  3.6                   5.2938e-05            2e-13                 -9.4e-08              -5.2844e-05          
END_DB

BEGIN_DB
 ICCAP_VAR vg         2.867          
 ICCAP_VAR vb         0              
 ICCAP_VAR vs         0              

 #vd                    id                    ig                    ib                    is                   
  0                     2.1084e-09            7.2e-13               5.4e-12               -2.541e-09           
  0.1                   1.124e-05             4.6e-13               6.68e-12              -1.1234e-05          
  0.2                   2.1884e-05            4.6e-13               4.92e-12              -2.188e-05           
  0.3                   3.1888e-05            3.2e-13               6.74e-12              -3.188e-05           
  0.4                   4.1248e-05            2.8e-13               5.04e-12              -4.1238e-05          
  0.5                   4.9924e-05            2.8e-13               5.36e-12              -4.9922e-05          
  0.6                   5.7888e-05            2e-13                 4.58e-12              -5.788e-05           
  0.7                   6.5134e-05            2.4e-13               5.4e-12               -6.513e-05           
  0.8                   7.165e-05             2.2e-13               5.2e-12               -7.1652e-05          
  0.9                   7.7408e-05            3.6e-13               5.64e-12              -7.7406e-05          
  1                     8.2448e-05            2.4e-13               5.02e-12              -8.2438e-05          
  1.1                   8.6752e-05            2e-13                 6.02e-12              -8.6746e-05          
  1.2                   9.0344e-05            1.8e-13               5e-12                 -9.0344e-05          
  1.3                   9.3286e-05            2.8e-13               4.44e-12              -9.329e-05           
  1.4                   9.5596e-05            3.2e-13               5.6e-12               -9.5602e-05          
  1.5                   9.7374e-05            3.2e-13               5.84e-12              -9.7366e-05          
  1.6                   9.8688e-05            4e-14                 4.78e-12              -9.8678e-05          
  1.7                   9.9656e-05            1e-13                 5.6e-12               -9.9622e-05          
  1.8                   0.000100312           1.4e-13               5.3e-12               -0.00010031          
  1.9                   0.000100824           1.2e-13               4.38e-12              -0.000100814         
  2                     0.000101224           4e-13                 5.32e-12              -0.000101214         
  2.1                   0.000101546           1.8e-13               5.78e-12              -0.000101514         
  2.2                   0.000101774           6e-14                 5.1e-12               -0.000101768         
  2.3                   0.000101988           2.8e-13               5.88e-12              -0.000102004         
  2.4                   0.0001022             2e-13                 3.94e-12              -0.000102178         
  2.5                   0.000102368           1e-13                 5.4e-13               -0.000102358         
  2.6                   0.000102524           2e-13                 -5.86e-12             -0.000102514         
  2.7                   0.000102666           2.4e-13               -3.352e-11            -0.000102662         
  2.8                   0.0001028             1.8e-13               -1.0002e-10           -0.00010282          
  2.9                   0.000102928           1.4e-13               -2.5746e-10           -0.000102922         
  3                     0.000103056           1.6e-13               -6.1004e-10           -0.0001028           
  3.1                   0.00010316            1.4e-13               -1.3268e-09           -0.00010292          
  3.2                   0.000103268           2e-13                 -2.6928e-09           -0.00010304          
  3.3                   0.000103374           2.2e-13               -5.1434e-09           -0.00010312          
  3.4                   0.000103478           -2e-14                -9.32e-09             -0.00010324          
  3.5                   0.000103584           1.6e-13               -1.6066e-08           -0.00010332          
  3.6                   0.000103692           1.2e-13               -2.6436e-08           -0.00010344          
END_DB

BEGIN_DB
 ICCAP_VAR vg         3.6            
 ICCAP_VAR vb         0              
 ICCAP_VAR vs         0              

 #vd                    id                    ig                    ib                    is                   
  0                     2.1978e-09            6.2e-13               6.68e-12              -2.98e-09            
  0.1                   1.3376e-05            5.6e-13               4.78e-12              -1.3372e-05          
  0.2                   2.6284e-05            3.2e-13               3.46e-12              -2.6278e-05          
  0.3                   3.8664e-05            3.4e-13               5.64e-12              -3.866e-05           
  0.4                   5.0532e-05            3e-13                 4.64e-12              -5.0522e-05          
  0.5                   6.182e-05             2.4e-13               3.26e-12              -6.1818e-05          
  0.6                   7.2496e-05            2.4e-13               5.5e-12               -7.2502e-05          
  0.7                   8.2576e-05            2.2e-13               3.6e-12               -8.2562e-05          
  0.8                   9.2e-05               3.2e-13               3.46e-12              -9.199e-05           
