! VERSION = 6.00
BEGIN_HEADER
 ICCAP_INPUTS
  vd         V  D GROUND SMU1 0.1 LIN        1    0          3.6        37   0.1       
  vg         V  G GROUND SMU2 0.001 LIST       2 3 1.168 1.368 1.568
  vb         V  B GROUND SMU4 0.1 CON        -3.6
  vs         V  S GROUND SMU3 0.1 CON        0
 ICCAP_OUTPUTS
  id         I  D GROUND SMU1 B
  ig         I  G GROUND SMU2 B
  ib         I  B GROUND SMU4 B
  is         I  S GROUND SMU3 B
 ICCAP_VALUES
  MASTER_SETUP_TYPE "~dc_idvd~"
  LINVT_VALUE ""
  LISTVT_VALUE "|idvg|100.0n|-200.0m|1.000m|3|200.0m|200.0m|"
  TYPE "1"
  TEMP " 27.0000 "
  IS_TNOM " 1.00000 "
  MAIN.W "2.000u"
  MAIN.L "10.00u"
  MAIN.AD "680.0f"
  MAIN.AS "680.0f"
  MAIN.PD "4.680u"
  MAIN.PS "4.680u"
  MAIN.NF "1.000"
  MAIN.M "1"
  MAIN.NRD "0.000"
  MAIN.NRS "0.000"
  MAIN.LDRIFT1 "1E-06"
  MAIN.LDRIFT2 "1E-06"
  MAIN.SA "0.000"
  MAIN.SB "0.000"
  MAIN.SD "0.000"
  MAIN.SCA "0.000"
  MAIN.SCB "0.000"
  MAIN.SCC "0.000"
  MAIN.SC "0.000"
  MODULE "S558"
  PIN_D "12"
  PIN_G "9"
  PIN_S "10"
  PIN_B "11"
  PIN_E ""
  PIN_6 ""
  XY_ID ""
  FUNC "W Scale"
  STI "SA ref"
  WPE "WPE ref"
  COMMENT ""
  DIS_MEAS ""
  TypeTCI "10"
END_HEADER

BEGIN_DB
 ICCAP_VAR vg         1.168          
 ICCAP_VAR vb         -3.6           
 ICCAP_VAR vs         0              

 #vd                    id                    ig                    ib                    is                   
  0                     4e-14                 8e-14                 -2.06e-11             2.2e-13              
  0.1                   7.728e-11             -1.6e-13              -1.648e-11            -7.682e-11           
  0.2                   7.912e-11             -2e-14                -1.558e-11            -7.906e-11           
  0.3                   7.942e-11             -2.4e-13              -1.324e-11            -7.894e-11           
  0.4                   7.954e-11             -8e-14                -1.16e-11             -7.912e-11           
  0.5                   7.96e-11              -1.6e-13              -1.048e-11            -7.93e-11            
  0.6                   7.976e-11             -1.8e-13              -9.88e-12             -7.928e-11           
  0.7                   7.984e-11             -1e-13                -8.2e-12              -7.93e-11            
  0.8                   8e-11                 -1.4e-13              -7.6e-12              -7.954e-11           
  0.9                   7.984e-11             -8e-14                -7.66e-12             -7.946e-11           
  1                     7.988e-11             -1.2e-13              -6.94e-12             -7.946e-11           
  1.1                   8.002e-11             -1e-13                -6.44e-12             -7.944e-11           
  1.2                   8.008e-11             -1.2e-13              -6.28e-12             -7.936e-11           
  1.3                   8.01e-11              -2e-13                -6.04e-12             -7.924e-11           
  1.4                   8.026e-11             -1.6e-13              -7.12e-12             -7.952e-11           
  1.5                   8.042e-11             0                     -5.4e-12              -7.972e-11           
  1.6                   8.054e-11             -1.2e-13              -5.52e-12             -7.952e-11           
  1.7                   8.038e-11             -1.6e-13              -4.7e-12              -7.966e-11           
  1.8                   8.036e-11             -2e-14                -5.48e-12             -7.956e-11           
  1.9                   8.052e-11             -4e-14                -4.86e-12             -7.976e-11           
  2                     8.032e-11             -8e-14                -4.62e-12             -7.97e-11            
  2.1                   8.048e-11             2e-14                 -5.4e-12              -7.98e-11            
  2.2                   8.052e-11             -1.2e-13              -4.2e-12              -7.962e-11           
  2.3                   8.078e-11             -1e-13                -5.18e-12             -7.96e-11            
  2.4                   8.072e-11             -6e-14                -3.28e-12             -7.976e-11           
  2.5                   8.08e-11              0                     -5.18e-12             -7.996e-11           
  2.6                   8.098e-11             -8e-14                -3.9e-12              -7.98e-11            
  2.7                   8.106e-11             -1.4e-13              -5.76e-12             -7.988e-11           
  2.8                   8.096e-11             0                     -4.48e-12             -8.002e-11           
  2.9                   8.116e-11             -8e-14                -4.58e-12             -7.966e-11           
  3                     8.134e-11             -4e-14                -5.34e-12             -7.978e-11           
  3.1                   8.16e-11              0                     -3.44e-12             -7.992e-11           
  3.2                   8.206e-11             2e-14                 -5.74e-12             -7.98e-11            
  3.3                   8.234e-11             -1.2e-13              -4.16e-12             -7.99e-11            
  3.4                   8.29e-11              1.2e-13               -5.7e-12              -8.018e-11           
  3.5                   8.332e-11             -1e-13                -5.48e-12             -8.002e-11           
  3.6                   8.394e-11             8e-14                 -6.36e-12             -8.02e-11            
END_DB

BEGIN_DB
 ICCAP_VAR vg         1.368          
 ICCAP_VAR vb         -3.6           
 ICCAP_VAR vs         0              

 #vd                    id                    ig                    ib                    is                   
  0                     2.488e-11             -4e-14                -2.86e-12             -2.734e-11           
  0.1                   1.9232e-08            0                     -2.84e-12             -1.9216e-08          
  0.2                   2.0342e-08            -8e-14                -4.06e-12             -2.032e-08           
  0.3                   2.04e-08              -2e-14                -3.22e-12             -2.0376e-08          
  0.4                   2.0424e-08            -4e-14                -2.52e-12             -2.0402e-08          
  0.5                   2.044e-08             6e-14                 -2.96e-12             -2.0412e-08          
  0.6                   2.045e-08             1.2e-13               -3.92e-12             -2.0426e-08          
  0.7                   2.0466e-08            2e-14                 -3.06e-12             -2.0444e-08          
  0.8                   2.0472e-08            -6e-14                -1.98e-12             -2.0452e-08          
  0.9                   2.0482e-08            8e-14                 -2.46e-12             -2.0458e-08          
  1                     2.049e-08             1.6e-13               -4.34e-12             -2.0472e-08          
  1.1                   2.0496e-08            -2e-14                -3.6e-12              -2.0478e-08          
  1.2                   2.0508e-08            2e-14                 -3.02e-12             -2.0488e-08          
  1.3                   2.0518e-08            6e-14                 -2.6e-12              -2.0492e-08          
  1.4                   2.0528e-08            1e-13                 -3.38e-12             -2.0504e-08          
  1.5                   2.0534e-08            0                     -3.88e-12             -2.0512e-08          
  1.6                   2.0544e-08            -2e-14                -3.54e-12             -2.0524e-08          
  1.7                   2.055e-08             0                     -3.04e-12             -2.0526e-08          
  1.8                   2.056e-08             -4e-14                -3.14e-12             -2.0528e-08          
  1.9                   2.056e-08             4e-14                 -3.58e-12             -2.0542e-08          
  2                     2.0566e-08            1e-13                 -3.7e-12              -2.0544e-08          
  2.1                   2.0574e-08            2e-14                 -3.8e-12              -2.0548e-08          
  2.2                   2.0584e-08            2e-14                 -5.78e-12             -2.056e-08           
  2.3                   2.0588e-08            1.8e-13               -8.44e-12             -2.056e-08           
  2.4                   2.06e-08              -4e-14                -1.156e-11            -2.0564e-08          
  2.5                   2.0604e-08            -6e-14                -1.644e-11            -2.0562e-08          
  2.6                   2.0614e-08            -1e-13                -2.102e-11            -2.0564e-08          
  2.7                   2.0632e-08            4e-14                 -3.23e-11             -2.0574e-08          
  2.8                   2.065e-08             6e-14                 -4.508e-11            -2.0578e-08          
  2.9                   2.0658e-08            -6e-14                -6.258e-11            -2.0578e-08          
  3                     2.0694e-08            -1.4e-13              -8.618e-11            -2.0588e-08          
  3.1                   2.0728e-08            0                     -1.1662e-10           -2.0594e-08          
  3.2                   2.0772e-08            -2e-14                -1.5866e-10           -2.0596e-08          
  3.3                   2.0838e-08            0                     -2.1124e-10           -2.0604e-08          
  3.4                   2.0906e-08            1.4e-13               -2.7868e-10           -2.0608e-08          
  3.5                   2.0994e-08            8e-14                 -3.6168e-10           -2.0614e-08          
  3.6                   2.111e-08             6e-14                 -4.676e-10            -2.0622e-08          
END_DB

BEGIN_DB
 ICCAP_VAR vg         1.568          
 ICCAP_VAR vb         -3.6           
 ICCAP_VAR vs         0              

 #vd                    id                    ig                    ib                    is                   
  0                     1.9092e-10            2e-14                 -2.28e-12             -2.0492e-10          
  0.1                   2.3216e-07            1e-13                 -1.52e-12             -2.3198e-07          
  0.2                   3.0618e-07            1e-13                 -3.04e-12             -3.0608e-07          
  0.3                   3.1722e-07            1e-13                 -3.42e-12             -3.171e-07           
  0.4                   3.1844e-07            2e-14                 -2.82e-12             -3.183e-07           
  0.5                   3.1886e-07            2.2e-13               -2.02e-12             -3.187e-07           
  0.6                   3.191e-07             2e-14                 -3.1e-12              -3.1896e-07          
  0.7                   3.1928e-07            2e-14                 -3e-12                -3.192e-07           
  0.8                   3.1952e-07            1e-13                 1.4e-13               -3.1944e-07          
  0.9                   3.1976e-07            6e-14                 -3.14e-12             -3.1962e-07          
  1                     3.1992e-07            1e-13                 -3.1e-12              -3.1974e-07          
  1.1                   3.1998e-07            0                     -3.2e-12              -3.1982e-07          
  1.2                   3.2008e-07            0                     -3.32e-12             -3.1998e-07          
  1.3                   3.202e-07             -2e-14                -2.36e-12             -3.2016e-07          
  1.4                   3.2036e-07            -2e-14                -2.54e-12             -3.202e-07           
  1.5                   3.205e-07             4e-14                 -3.28e-12             -3.2036e-07          
  1.6                   3.206e-07             8e-14                 -3.2e-12              -3.2044e-07          
  1.7                   3.2066e-07            8e-14                 -2.6e-12              -3.2052e-07          
  1.8                   3.2082e-07            4e-14                 -3.02e-12             -3.2064e-07          
  1.9                   3.2088e-07            8e-14                 -3.28e-12             -3.2072e-07          
  2                     3.2092e-07            1.4e-13               -6.34e-12             -3.208e-07           
  2.1                   3.2102e-07            2e-14                 -7.88e-12             -3.2088e-07          
  2.2                   3.2118e-07            2e-13                 -1.566e-11            -3.21e-07            
  2.3                   3.212e-07             -2e-14                -2.89e-11             -3.2106e-07          
  2.4                   3.2134e-07            4e-14                 -4.972e-11            -3.211e-07           
  2.5                   3.2144e-07            8e-14                 -8.368e-11            -3.2124e-07          
  2.6                   3.216e-07             -1e-13                -1.3682e-10           -3.2132e-07          
  2.7                   3.2176e-07            -2e-14                -2.1574e-10           -3.214e-07           
  2.8                   3.2192e-07            2e-14                 -3.2778e-10           -3.215e-07           
  2.9                   3.2214e-07            0                     -4.8292e-10           -3.2152e-07          
  3                     3.2248e-07            6e-14                 -6.9932e-10           -3.2158e-07          
  3.1                   3.2284e-07            4e-14                 -9.902e-10            -3.2174e-07          
  3.2                   3.2328e-07            4e-14                 -1.381e-09            -3.2176e-07          
  3.3                   3.2388e-07            0                     -1.8954e-09           -3.2186e-07          
  3.4                   3.246e-07             4e-14                 -2.568e-09            -3.2186e-07          
  3.5                   3.255e-07             -6e-14                -3.4322e-09           -3.2196e-07          
  3.6                   3.267e-07             -2e-14                -4.5318e-09           -3.2194e-07          
END_DB

