! VERSION = 6.00
BEGIN_HEADER
 ICCAP_INPUTS
  vg         V  G GROUND SMU2 0.001 LIN        1    -0.5       3.6        83   0.05      
  vb         V  B GROUND SMU4 0.1 LIN        2    0          -3.6       5    -0.9      
  vd         V  D GROUND SMU1 0.1 LIN        3    0.1        3.3        3    1.6       
  vs         V  S GROUND SMU3 0.1 CON        0
 ICCAP_OUTPUTS
  id         I  D GROUND SMU1 B
  ig         I  G GROUND SMU2 B
  ib         I  B GROUND SMU4 B
  is         I  S GROUND SMU3 B
 ICCAP_VALUES
  MASTER_SETUP_TYPE "~dc_idvg~"
  LINVT_VALUE ""
  LISTVT_VALUE ""
  TYPE "1"
  TEMP " 27.0000 "
  IS_TNOM " 1.00000 "
  MAIN.W "10.00u"
  MAIN.L "300.0n"
  MAIN.AD "3.400p"
  MAIN.AS "3.400p"
  MAIN.PD "20.68u"
  MAIN.PS "20.68u"
  MAIN.NF "1.000"
  MAIN.M "1"
  MAIN.NRD "0.000"
  MAIN.NRS "0.000"
  MAIN.LDRIFT1 "1E-06"
  MAIN.LDRIFT2 "1E-06"
  MAIN.SA "0.000"
  MAIN.SB "0.000"
  MAIN.SD "0.000"
  MAIN.SCA "0.000"
  MAIN.SCB "0.000"
  MAIN.SCC "0.000"
  MAIN.SC "0.000"
  MODULE "S556"
  PIN_D "20"
  PIN_G "1"
  PIN_S "2"
  PIN_B "19"
  PIN_E ""
  PIN_6 ""
  XY_ID ""
  FUNC "Additional"
  STI "SA ref"
  WPE "WPE ref"
  COMMENT ""
  DIS_MEAS ""
  TypeTCI "10"
END_HEADER

BEGIN_DB
 ICCAP_VAR vb         0              
 ICCAP_VAR vd         0.1            
 ICCAP_VAR vs         0              

 #vg                    id                    ig                    ib                    is                   
  -0.5                  1.4e-13               -4.58e-11             5.332e-11             0                    
  -0.45                 2e-14                 -6.96e-12             1.558e-11             0                    
  -0.4                  1.4e-13               -1.02e-12             9.66e-12              1.4e-13              
  -0.35                 2.2e-13               -8e-14                8.7e-12               -4e-14               
  -0.3                  6e-14                 1.2e-13               8.42e-12              -2e-14               
  -0.25                 2e-13                 2.4e-13               7.62e-12              -4e-14               
  -0.2                  4.4e-13               2.4e-13               7.72e-12              -4.2e-13             
  -0.15                 1.52e-12              2.8e-13               7.58e-12              -1.24e-12            
  -0.1                  5.2e-12               3.4e-13               9.22e-12              -4.92e-12            
  -0.05                 1.96e-11              3.4e-13               7.36e-12              -1.942e-11           
  0                     7.582e-11             4.2e-13               7.02e-12              -7.564e-11           
  0.05                  2.9478e-10            4.8e-13               7.68e-12              -2.945e-10           
  0.1                   1.135e-09             5e-13                 7.26e-12              -1.13452e-09         
  0.15                  4.3188e-09            4e-13                 8.24e-12              -4.3162e-09          
  0.2                   1.5724e-08            4.2e-13               7.72e-12              -1.571e-08           
  0.25                  5.3434e-08            4e-13                 6.4e-12               -5.3406e-08          
  0.3                   1.6492e-07            4.4e-13               7.1e-12               -1.6476e-07          
  0.35                  4.715e-07             4.8e-13               6.86e-12              -4.7146e-07          
  0.4                   1.2556e-06            3.6e-13               6.72e-12              -1.2506e-06          
  0.45                  3.1104e-06            5.4e-13               6.24e-12              -3.1028e-06          
  0.5                   7.0084e-06            5.6e-13               7.64e-12              -6.9998e-06          
  0.55                  1.426e-05             3.6e-13               6.1e-12               -1.424e-05           
  0.6                   2.5838e-05            4.6e-13               5.7e-12               -2.5814e-05          
  0.65                  4.2252e-05            5.2e-13               6.12e-12              -4.22e-05            
  0.7                   6.2942e-05            6.4e-13               6.4e-12               -6.2924e-05          
  0.75                  8.7264e-05            6e-13                 6.1e-12               -8.7214e-05          
  0.8                   0.000113986           5.6e-13               5.54e-12              -0.000114006         
  0.85                  0.00014256            5e-13                 5.44e-12              -0.0001422           
  0.9                   0.0001716             5.4e-13               5.82e-12              -0.00017122          
  0.95                  0.00020098            5.6e-13               5.98e-12              -0.00020054          
  1                     0.00023004            5.6e-13               5.74e-12              -0.00022968          
  1.05                  0.00025898            6.8e-13               4.82e-12              -0.0002586           
  1.1                   0.00028724            5.4e-13               5.6e-12               -0.00028688          
  1.15                  0.00031492            7e-13                 6.82e-12              -0.00031446          
  1.2                   0.00034182            5e-13                 5.28e-12              -0.00034142          
  1.25                  0.00036808            6.8e-13               4.92e-12              -0.00036766          
  1.3                   0.00039368            6.4e-13               5.52e-12              -0.00039324          
  1.35                  0.00041844            6.8e-13               6.32e-12              -0.00041802          
  1.4                   0.0004425             6e-13                 5.3e-12               -0.0004421           
  1.45                  0.0004658             7.4e-13               4.84e-12              -0.00046546          
  1.5                   0.0004885             6.6e-13               4.68e-12              -0.00048814          
  1.55                  0.00051046            6.8e-13               5.42e-12              -0.00051002          
  1.6                   0.00053164            7e-13                 5.54e-12              -0.00053126          
  1.65                  0.00055226            7.6e-13               4.58e-12              -0.00055182          
  1.7                   0.00057222            7.4e-13               4.84e-12              -0.00057182          
  1.75                  0.0005915             7.2e-13               5.1e-12               -0.0005911           
  1.8                   0.00061022            8e-13                 5.62e-12              -0.00060984          
  1.85                  0.00062828            7.8e-13               4.66e-12              -0.00062786          
  1.9                   0.00064582            7.6e-13               4.32e-12              -0.0006454           
  1.95                  0.00066272            7.8e-13               4.34e-12              -0.00066228          
  2                     0.00067912            7.6e-13               5.64e-12              -0.00067872          
  2.05                  0.00069498            6.8e-13               5.28e-12              -0.00069458          
  2.1                   0.00071028            8e-13                 4.58e-12              -0.00070988          
  2.15                  0.00072516            7.6e-13               4.52e-12              -0.00072474          
  2.2                   0.00073946            7.6e-13               5.34e-12              -0.00073906          
  2.25                  0.00075336            7.2e-13               5.46e-12              -0.00075296          
  2.3                   0.00076676            8.2e-13               4.78e-12              -0.00076636          
  2.35                  0.00077978            8.2e-13               3.54e-12              -0.00077938          
  2.4                   0.00079228            7.2e-13               4.44e-12              -0.0007919           
  2.45                  0.00080442            7.8e-13               5.38e-12              -0.00080404          
  2.5                   0.0008162             8.4e-13               4.1e-12               -0.00081576          
  2.55                  0.0008275             8.2e-13               4.06e-12              -0.0008271           
  2.6                   0.00083842            8e-13                 3.86e-12              -0.000838            
  2.65                  0.000849              7.8e-13               5.14e-12              -0.00084862          
  2.7                   0.00085922            7.6e-13               4.44e-12              -0.0008588           
  2.75                  0.00086914            8.4e-13               3.36e-12              -0.00086872          
  2.8                   0.00087868            7.4e-13               3.34e-12              -0.00087826          
  2.85                  0.00088788            8.8e-13               2.18e-12              -0.00088748          
  2.9                   0.00089674            8.2e-13               4.16e-12              -0.00089634          
  2.95                  0.00090538            9e-13                 4.16e-12              -0.00090498          
  3                     0.0009137             8.4e-13               3.94e-12              -0.00091326          
  3.05                  0.00092166            7.6e-13               3.64e-12              -0.00092126          
  3.1                   0.00092938            8.8e-13               5.08e-12              -0.000929            
  3.15                  0.0009369             8.2e-13               3.86e-12              -0.00093644          
  3.2                   0.00094408            8.6e-13               3.68e-12              -0.0009437           
  3.25                  0.00095106            8.2e-13               3.4e-12               -0.00095066          
  3.3                   0.00095776            8.6e-13               4.04e-12              -0.00095734          
  3.35                  0.00096428            8.2e-13               4.12e-12              -0.00096388          
  3.4                   0.00097056            8e-13                 4.08e-12              -0.00097014          
  3.45                  0.0009766             8.4e-13               3.66e-12              -0.0009762           
  3.5                   0.00098244            8.8e-13               3.88e-12              -0.00098202          
  3.55                  0.00098802            8.2e-13               4.36e-12              -0.00098762          
  3.6                   0.0009934             9.8e-13               3.06e-12              -0.00099302          
END_DB

BEGIN_DB
 ICCAP_VAR vb         -0.9           
 ICCAP_VAR vd         0.1            
 ICCAP_VAR vs         0              

 #vg                    id                    ig                    ib                    is                   
  -0.5                  -2e-14                -6.2e-13              -1.034e-11            1.6e-13              
  -0.45                 1.2e-13               -2.6e-13              -8.76e-12             4e-14                
  -0.4                  0                     -2.4e-13              -7.28e-12             0                    
  -0.35                 1e-13                 -1.8e-13              -6.28e-12             1.6e-13              
  -0.3                  0                     8e-14                 -6.26e-12             -4e-14               
  -0.25                 8e-14                 4e-14                 -5.92e-12             8e-14                
  -0.2                  1.4e-13               0                     -5.5e-12              1e-13                
  -0.15                 8e-14                 1.8e-13               -4.46e-12             -2e-14               
  -0.1                  5e-13                 1.6e-13               -3.54e-12             -4.4e-13             
  -0.05                 1.84e-12              1.8e-13               -3.92e-12             -1.84e-12            
  0                     7.78e-12              8e-14                 -3.96e-12             -7.52e-12            
  0.05                  3.22e-11              2.4e-13               -3.18e-12             -3.21e-11            
  0.1                   1.331e-10             2.4e-13               -3.3e-12              -1.3316e-10          
  0.15                  5.4912e-10            3.6e-13               -1.68e-12             -5.4864e-10          
  0.2                   2.2128e-09            2.4e-13               -2.16e-12             -2.2102e-09          
  0.25                  8.627e-09             3.4e-13               -3.18e-12             -8.6222e-09          
  0.3                   3.12e-08              2.4e-13               -2.14e-12             -3.1192e-08          
  0.35                  1.0263e-07            3.8e-13               -2.12e-12             -1.02606e-07         
  0.4                   3.0554e-07            4.2e-13               -1.36e-12             -3.0606e-07          
  0.45                  8.504e-07             4.6e-13               -1.98e-12             -8.5038e-07          
  0.5                   2.1944e-06            3e-13                 -1.06e-12             -2.1884e-06          
  0.55                  5.2086e-06            4e-13                 -1.08e-12             -5.204e-06           
  0.6                   1.11016e-05           6.2e-13               -1.48e-12             -1.10956e-05         
  0.65                  2.1106e-05            3.4e-13               -2e-12                -2.1076e-05          
  0.7                   3.5872e-05            4.2e-13               -6.2e-13              -3.5864e-05          
  0.75                  5.5392e-05            5.4e-13               -7.8e-13              -5.5382e-05          
  0.8                   7.8724e-05            4.8e-13               -1.88e-12             -7.8676e-05          
  0.85                  0.000105022           5.8e-13               -1.42e-12             -0.000104962         
  0.9                   0.00013318            4.4e-13               -9.2e-13              -0.00013278          
  0.95                  0.0001622             3.8e-13               -2.2e-13              -0.0001618           
  1                     0.00019158            5.6e-13               -6e-13                -0.00019112          
  1.05                  0.00022092            4.4e-13               -1.12e-12             -0.0002205           
  1.1                   0.00024986            6.2e-13               -1.36e-12             -0.00024944          
  1.15                  0.00027826            5.6e-13               -6.6e-13              -0.00027786          
  1.2                   0.00030602            5.8e-13               6e-14                 -0.0003056           
  1.25                  0.00033302            5.6e-13               -4.2e-13              -0.00033262          
  1.3                   0.0003594             6.8e-13               2.8e-13               -0.00035902          
  1.35                  0.00038492            7e-13                 -4e-13                -0.00038456          
  1.4                   0.00040972            6.2e-13               4e-14                 -0.00040936          
  1.45                  0.00043376            6.6e-13               1.2e-13               -0.0004333           
  1.5                   0.00045706            6.8e-13               -5e-13                -0.00045668          
  1.55                  0.00047962            6.4e-13               -7.2e-13              -0.00047922          
  1.6                   0.0005014             5.8e-13               2.6e-13               -0.000501            
  1.65                  0.00052256            6.6e-13               3.4e-13               -0.00052216          
  1.7                   0.00054306            6.8e-13               -3.4e-13              -0.00054268          
  1.75                  0.00056282            6.4e-13               -1.46e-12             -0.00056242          
  1.8                   0.00058198            8e-13                 -4.2e-13              -0.0005816           
  1.85                  0.00060048            7.2e-13               8.6e-13               -0.00060008          
  1.9                   0.00061842            7e-13                 -7.8e-13              -0.00061802          
  1.95                  0.00063572            6.6e-13               -5.2e-13              -0.00063534          
  2                     0.0006525             7.2e-13               -8e-14                -0.0006521           
  2.05                  0.00066872            7.4e-13               4.4e-13               -0.00066834          
  2.1                   0.00068436            7.4e-13               8e-14                 -0.00068396          
  2.15                  0.00069952            7.2e-13               -9.6e-13              -0.00069912          
  2.2                   0.0007141             8e-13                 1.96e-12              -0.0007137           
  2.25                  0.0007283             6.8e-13               -1.2e-13              -0.0007279           
  2.3                   0.00074192            7.4e-13               9e-13                 -0.00074156          
  2.35                  0.00075516            7.6e-13               -3.8e-13              -0.0007548           
  2.4                   0.00076798            7.8e-13               -1.4e-13              -0.00076756          
  2.45                  0.0007803             7.8e-13               2.4e-13               -0.00077992          
  2.5                   0.00079228            7.8e-13               7.6e-13               -0.0007919           
  2.55                  0.00080376            8e-13                 -8e-14                -0.0008034           
  2.6                   0.00081494            7.2e-13               -1.8e-13              -0.00081454          
  2.65                  0.0008257             8e-13                 -4.4e-13              -0.0008253           
  2.7                   0.00083612            8e-13                 7e-13                 -0.00083566          
  2.75                  0.00084616            7.4e-13               6e-14                 -0.00084576          
  2.8                   0.00085584            8.2e-13               -6.6e-13              -0.0008554           
  2.85                  0.00086518            7.6e-13               -8.4e-13              -0.00086478          
  2.9                   0.00087422            7.6e-13               6.6e-13               -0.00087384          
  2.95                  0.00088298            8.2e-13               3e-13                 -0.0008826           
  3                     0.00089142            8.4e-13               -6.6e-13              -0.000891            
  3.05                  0.00089954            8.2e-13               -5.8e-13              -0.00089914          
  3.1                   0.0009074             7.8e-13               8e-14                 -0.00090698          
  3.15                  0.00091502            8.6e-13               3.6e-13               -0.00091462          
  3.2                   0.00092226            8.4e-13               -6e-13                -0.00092188          
  3.25                  0.0009294             8.4e-13               -1.4e-13              -0.00092898          
  3.3                   0.00093618            8e-13                 8.2e-13               -0.0009358           
  3.35                  0.00094274            7.2e-13               4.4e-13               -0.00094238          
  3.4                   0.00094914            8.4e-13               1e-13                 -0.00094872          
  3.45                  0.00095524            7.8e-13               -1e-13                -0.00095486          
