! VERSION = 6.00
BEGIN_HEADER
 ICCAP_INPUTS
  vg         V  G GROUND SMU2 0.001 LIN        1    -0.5       3.6        83   0.05      
  vb         V  B GROUND SMU4 0.1 LIN        2    0          -3.6       5    -0.9      
  vd         V  D GROUND SMU1 0.1 LIN        3    0.1        3.3        3    1.6       
  vs         V  S GROUND SMU3 0.1 CON        0
 ICCAP_OUTPUTS
  id         I  D GROUND SMU1 B
  ig         I  G GROUND SMU2 B
  ib         I  B GROUND SMU4 B
  is         I  S GROUND SMU3 B
 ICCAP_VALUES
  MASTER_SETUP_TYPE "~dc_idvg~"
  LINVT_VALUE ""
  LISTVT_VALUE ""
  TYPE "1"
  TEMP " 125.000 "
  IS_TNOM " 0.00000 "
  MAIN.W "300.0n"
  MAIN.L "10.00u"
  MAIN.AD "102.0f"
  MAIN.AS "102.0f"
  MAIN.PD "1.280u"
  MAIN.PS "1.280u"
  MAIN.NF "1.000"
  MAIN.M "1"
  MAIN.NRD "0.000"
  MAIN.NRS "0.000"
  MAIN.LDRIFT1 "1E-06"
  MAIN.LDRIFT2 "1E-06"
  MAIN.SA "0.000"
  MAIN.SB "0.000"
  MAIN.SD "0.000"
  MAIN.SCA "0.000"
  MAIN.SCB "0.000"
  MAIN.SCC "0.000"
  MAIN.SC "0.000"
  MODULE "S547"
  PIN_D "14"
  PIN_G "7"
  PIN_S "8"
  PIN_B "13"
  PIN_E ""
  PIN_6 ""
  XY_ID ""
  FUNC "Narrow"
  STI "SA ref"
  WPE "WPE ref"
  COMMENT ""
  DIS_MEAS ""
  TypeTCI "10"
END_HEADER

BEGIN_DB
 ICCAP_VAR vb         0              
 ICCAP_VAR vd         0.1            
 ICCAP_VAR vs         0              

 #vg                    id                    ig                    ib                    is                   
  -0.5                  4.6e-13               -5.4724e-08           5.469e-08             4.4e-13              
  -0.45                 -1.2e-12              -1.2908e-08           1.291e-08             1.6e-13              
  -0.4                  -1.16e-12             -3.0386e-09           3.0354e-09            1.2e-13              
  -0.35                 8e-14                 -7.137e-10            7.1074e-10            1.4e-13              
  -0.3                  8e-14                 -1.6638e-10           1.6246e-10            2.4e-13              
  -0.25                 1.2e-13               -3.856e-11            3.528e-11             4e-14                
  -0.2                  8e-14                 -8.62e-12             5.72e-12              8e-14                
  -0.15                 1.6e-13               -1.46e-12             -6.2e-13              1e-13                
  -0.1                  3.4e-13               2.2e-13               -2.54e-12             4e-14                
  -0.05                 3.4e-13               7e-13                 -3.7e-12              6e-14                
  0                     4.6e-13               6.6e-13               -3.78e-12             -2.6e-13             
  0.05                  1.16e-12              6.8e-13               -3.6e-12              -7.4e-13             
  0.1                   2.84e-12              7e-13                 -3.32e-12             -2.44e-12            
  0.15                  7.42e-12              6.6e-13               -3.72e-12             -6.86e-12            
  0.2                   1.976e-11             8.6e-13               -3.42e-12             -1.956e-11           
  0.25                  5.43e-11              8.6e-13               -3.54e-12             -5.38e-11            
  0.3                   1.4792e-10            1.08e-12              -4.5e-12              -1.4736e-10          
  0.35                  3.9752e-10            1.12e-12              -3.7e-12              -3.9716e-10          
  0.4                   1.01776e-09           9.6e-13               -3.26e-12             -1.01638e-09         
  0.45                  2.4116e-09            5.4e-13               -3.56e-12             -2.4104e-09          
  0.5                   5.1142e-09            8.8e-13               -3.26e-12             -5.1128e-09          
  0.55                  9.6582e-09            6.4e-13               -4.08e-12             -9.6626e-09          
  0.6                   1.6296e-08            7.8e-13               -3.44e-12             -1.6276e-08          
  0.65                  2.4984e-08            1e-12                 -3.24e-12             -2.4972e-08          
  0.7                   3.5412e-08            1.12e-12              -2.82e-12             -3.5396e-08          
  0.75                  4.7248e-08            1.02e-12              -3.22e-12             -4.7212e-08          
  0.8                   6.0036e-08            1.14e-12              -3.9e-12              -6.0014e-08          
  0.85                  7.3592e-08            1.3e-12               -4.04e-12             -7.3598e-08          
  0.9                   8.764e-08             9.8e-13               -3.52e-12             -8.7638e-08          
  0.95                  1.01992e-07           1.3e-12               -3e-12                -1.01982e-07         
  1                     1.166e-07             1.1e-12               -2.88e-12             -1.1656e-07          
  1.05                  1.3134e-07            1.16e-12              -4.18e-12             -1.313e-07           
  1.1                   1.4608e-07            1.06e-12              -3.72e-12             -1.4604e-07          
  1.15                  1.608e-07             1.26e-12              -2.98e-12             -1.6078e-07          
  1.2                   1.7548e-07            1.12e-12              -2.72e-12             -1.7544e-07          
  1.25                  1.9012e-07            1.3e-12               -3.24e-12             -1.9008e-07          
  1.3                   2.0466e-07            1.28e-12              -3.88e-12             -2.0462e-07          
  1.35                  2.1908e-07            1.22e-12              -3.4e-12              -2.1904e-07          
  1.4                   2.3336e-07            1.22e-12              -3.44e-12             -2.333e-07           
  1.45                  2.4748e-07            1.36e-12              -2.46e-12             -2.4746e-07          
  1.5                   2.6152e-07            1.24e-12              -3.9e-12              -2.6148e-07          
  1.55                  2.7536e-07            1.42e-12              -2.84e-12             -2.7534e-07          
  1.6                   2.8898e-07            1.26e-12              -4.38e-12             -2.8896e-07          
  1.65                  3.0252e-07            1.36e-12              -2.62e-12             -3.025e-07           
  1.7                   3.1584e-07            1.46e-12              -2.44e-12             -3.1582e-07          
  1.75                  3.2898e-07            1.3e-12               -3.96e-12             -3.2894e-07          
  1.8                   3.4194e-07            1.42e-12              -3.64e-12             -3.419e-07           
  1.85                  3.5468e-07            1.32e-12              -3.06e-12             -3.5468e-07          
  1.9                   3.6736e-07            1.38e-12              -2.08e-12             -3.6734e-07          
  1.95                  3.7976e-07            1.46e-12              -3.06e-12             -3.7974e-07          
  2                     3.92e-07              1.32e-12              -3.92e-12             -3.9198e-07          
  2.05                  4.0408e-07            1.38e-12              -3.66e-12             -4.0406e-07          
  2.1                   4.159e-07             1.52e-12              -3.26e-12             -4.159e-07           
  2.15                  4.276e-07             1.38e-12              -2.4e-12              -4.2762e-07          
  2.2                   4.3908e-07            1.42e-12              -3.12e-12             -4.3908e-07          
  2.25                  4.5044e-07            1.44e-12              -3.78e-12             -4.5042e-07          
  2.3                   4.6152e-07            1.52e-12              -3.92e-12             -4.6152e-07          
  2.35                  4.7248e-07            1.34e-12              -4.14e-12             -4.725e-07           
  2.4                   4.8318e-07            1.46e-12              -2.54e-12             -4.8318e-07          
  2.45                  4.9374e-07            1.52e-12              -2.76e-12             -4.9374e-07          
  2.5                   5.0412e-07            1.32e-12              -4.26e-12             -5.0414e-07          
  2.55                  5.1434e-07            1.62e-12              -3.9e-12              -5.1432e-07          
  2.6                   5.2434e-07            1.6e-12               -2.62e-12             -5.2432e-07          
  2.65                  5.3416e-07            1.56e-12              -2.18e-12             -5.3416e-07          
  2.7                   5.4382e-07            1.62e-12              -3.72e-12             -5.4378e-07          
  2.75                  5.5328e-07            1.58e-12              -3.74e-12             -5.5332e-07          
  2.8                   5.6256e-07            1.5e-12               -3.1e-12              -5.626e-07           
  2.85                  5.717e-07             1.62e-12              -2.14e-12             -5.717e-07           
  2.9                   5.8062e-07            1.56e-12              -2.88e-12             -5.8062e-07          
  2.95                  5.8938e-07            1.6e-12               -3.7e-12              -5.894e-07           
  3                     5.98e-07              1.58e-12              -3.14e-12             -5.98e-07            
  3.05                  6.0638e-07            1.54e-12              -3.08e-12             -6.0642e-07          
  3.1                   6.1464e-07            1.56e-12              -2.32e-12             -6.1464e-07          
  3.15                  6.2276e-07            1.58e-12              -3.3e-12              -6.2278e-07          
  3.2                   6.3066e-07            1.6e-12               -4.06e-12             -6.3064e-07          
  3.25                  6.3842e-07            1.56e-12              -3.76e-12             -6.3842e-07          
  3.3                   6.4598e-07            1.42e-12              -3.06e-12             -6.46e-07            
  3.35                  6.5342e-07            1.76e-12              -2.38e-12             -6.5344e-07          
  3.4                   6.607e-07             1.46e-12              -3.44e-12             -6.6076e-07          
  3.45                  6.6784e-07            1.7e-12               -3.86e-12             -6.6784e-07          
  3.5                   6.7478e-07            1.7e-12               -3.56e-12             -6.7482e-07          
  3.55                  6.8158e-07            1.74e-12              -2.74e-12             -6.8164e-07          
  3.6                   6.8828e-07            1.62e-12              -3.4e-12              -6.8832e-07          
END_DB

BEGIN_DB
 ICCAP_VAR vb         -0.9           
 ICCAP_VAR vd         0.1            
 ICCAP_VAR vs         0              

 #vg                    id                    ig                    ib                    is                   
  -0.5                  1.6e-13               -1e-12                -4.278e-11            5e-13                
  -0.45                 2.2e-13               -4.2e-13              -3.86e-11             2e-13                
  -0.4                  1.8e-13               -3.6e-13              -3.718e-11            3.4e-13              
  -0.35                 2.6e-13               -1.4e-13              -3.564e-11            3.4e-13              
  -0.3                  2e-13                 2e-14                 -3.254e-11            2.8e-13              
  -0.25                 2.8e-13               -8e-14                -3.022e-11            5e-13                
  -0.2                  2.2e-13               1.6e-13               -2.814e-11            3.8e-13              
  -0.15                 3e-13                 2.2e-13               -2.724e-11            3.4e-13              
  -0.1                  1.8e-13               1.6e-13               -2.694e-11            4.2e-13              
  -0.05                 1.8e-13               2.6e-13               -2.572e-11            4e-13                
  0                     2.8e-13               2.4e-13               -2.474e-11            4.4e-13              
  0.05                  2.6e-13               4e-13                 -2.274e-11            4.4e-13              
  0.1                   2.4e-13               4.6e-13               -2.214e-11            4.6e-13              
  0.15                  2e-13                 7e-13                 -2.14e-11             4.2e-13              
  0.2                   2.4e-13               4e-13                 -2.158e-11            4.2e-13              
  0.25                  3.6e-13               4.8e-13               -2.114e-11            4.2e-13              
  0.3                   3.6e-13               6.6e-13               -1.988e-11            1e-13                
  0.35                  9.4e-13               6.8e-13               -1.938e-11            -3.4e-13             
  0.4                   2.3e-12               6.6e-13               -1.826e-11            -1.8e-12             
  0.45                  6.86e-12              8e-13                 -1.83e-11             -6.46e-12            
  0.5                   2.092e-11             7.8e-13               -1.852e-11            -2.024e-11           
  0.55                  6.458e-11             8.4e-13               -1.846e-11            -6.39e-11            
  0.6                   1.9544e-10            6.6e-13               -1.806e-11            -1.9448e-10          
  0.65                  5.6658e-10            8.4e-13               -1.614e-11            -5.657e-10           
  0.7                   1.5004e-09            6.6e-13               -1.558e-11            -1.4984e-09          
  0.75                  3.5204e-09            8e-13                 -1.76e-11             -3.519e-09           
  0.8                   7.1712e-09            9.2e-13               -1.66e-11             -7.1676e-09          
  0.85                  1.2818e-08            6.8e-13               -1.618e-11            -1.2802e-08          
  0.9                   2.0428e-08            9.6e-13               -1.476e-11            -2.0404e-08          
  0.95                  2.9728e-08            9.2e-13               -1.514e-11            -2.9708e-08          
  1                     4.0336e-08            9.2e-13               -1.58e-11             -4.0338e-08          
  1.05                  5.2002e-08            9.6e-13               -1.568e-11            -5.1986e-08          
  1.1                   6.4312e-08            9e-13                 -1.518e-11            -6.43e-08            
  1.15                  7.7106e-08            1.16e-12              -1.368e-11            -7.7096e-08          
  1.2                   9.0236e-08            8.8e-13               -1.404e-11            -9.0218e-08          
  1.25                  1.03572e-07           1.2e-12               -1.514e-11            -1.03552e-07         
  1.3                   1.1712e-07            9.4e-13               -1.388e-11            -1.1708e-07          
  1.35                  1.3066e-07            1.02e-12              -1.34e-11             -1.3062e-07          
  1.4                   1.4422e-07            1.16e-12              -1.38e-11             -1.4418e-07          
  1.45                  1.5776e-07            1.22e-12              -1.4e-11              -1.5772e-07          
  1.5                   1.713e-07             1.18e-12              -1.288e-11            -1.7126e-07          
  1.55                  1.8466e-07            1.28e-12              -1.166e-11            -1.8464e-07          
  1.6                   1.9798e-07            1.08e-12              -1.33e-11             -1.9794e-07          
  1.65                  2.1122e-07            1.26e-12              -1.324e-11            -2.1118e-07          
  1.7                   2.2434e-07            1.14e-12              -1.316e-11            -2.243e-07           
  1.75                  2.373e-07             1.32e-12              -1.172e-11            -2.3726e-07          
  1.8                   2.5014e-07            1.4e-12               -1.196e-11            -2.501e-07           
  1.85                  2.6282e-07            1.36e-12              -1.246e-11            -2.628e-07           
  1.9                   2.754e-07             1.42e-12              -1.192e-11            -2.7538e-07          
  1.95                  2.8778e-07            1.36e-12              -1.272e-11            -2.8776e-07          
  2                     3.0004e-07            1.2e-12               -1.2e-11              -3.0002e-07          
  2.05                  3.1214e-07            1.42e-12              -1.216e-11            -3.1212e-07          
  2.1                   3.2404e-07            1.1e-12               -1.17e-11             -3.24e-07            
  2.15                  3.358e-07             1.32e-12              -1.2e-11              -3.358e-07           
  2.2                   3.4734e-07            1.22e-12              -1.214e-11            -3.4734e-07          
  2.25                  3.5878e-07            1.4e-12               -1.106e-11            -3.5878e-07          
  2.3                   3.7e-07               1.24e-12              -1.164e-11            -3.7e-07             
  2.35                  3.811e-07             1.52e-12              -1.196e-11            -3.811e-07           
  2.4                   3.92e-07              1.28e-12              -1.192e-11            -3.9196e-07          
  2.45                  4.0268e-07            1.48e-12              -1.164e-11            -4.0266e-07          
  2.5                   4.1326e-07            1.36e-12              -1.016e-11            -4.1326e-07          
  2.55                  4.2364e-07            1.46e-12              -1.154e-11            -4.236e-07           
  2.6                   4.3378e-07            1.44e-12              -1.184e-11            -4.3378e-07          
  2.65                  4.4382e-07            1.44e-12              -1.114e-11            -4.438e-07           
  2.7                   4.5362e-07            1.54e-12              -1.036e-11            -4.5364e-07          
  2.75                  4.6332e-07            1.42e-12              -1.006e-11            -4.6332e-07          
  2.8                   4.7278e-07            1.28e-12              -1.138e-11            -4.7278e-07          
  2.85                  4.8208e-07            1.58e-12              -1.044e-11            -4.8208e-07          
  2.9                   4.912e-07             1.52e-12              -1.108e-11            -4.9124e-07          
  2.95                  5.0022e-07            1.6e-12               -1.006e-11            -5.0022e-07          
  3                     5.09e-07              1.44e-12              -1.018e-11            -5.0902e-07          
  3.05                  5.1764e-07            1.3e-12               -1.144e-11            -5.1764e-07          
  3.1                   5.2608e-07            1.62e-12              -1.108e-11            -5.2608e-07          
  3.15                  5.344e-07             1.32e-12              -1.038e-11            -5.344e-07           
  3.2                   5.4252e-07            1.48e-12              -9.76e-12             -5.4252e-07          
  3.25                  5.5052e-07            1.5e-12               -1.08e-11             -5.505e-07           
  3.3                   5.5828e-07            1.58e-12              -1.134e-11            -5.5832e-07          
  3.35                  5.659e-07             1.72e-12              -1.036e-11            -5.6594e-07          
  3.4                   5.7346e-07            1.56e-12              -9.98e-12             -5.7346e-07          
  3.45                  5.8078e-07            1.68e-12              -9.94e-12             -5.8076e-07          
