! VERSION = 6.00
BEGIN_HEADER
 ICCAP_INPUTS
  vd         V  D GROUND SMU1 0.1 LIN        1    0          3.6        37   0.1       
  vg         V  G GROUND SMU2 0.001 LIST       2 3 0.166 0.366 0.566
  vb         V  B GROUND SMU4 0.1 CON        0
  vs         V  S GROUND SMU3 0.1 CON        0
 ICCAP_OUTPUTS
  id         I  D GROUND SMU1 B
  ig         I  G GROUND SMU2 B
  ib         I  B GROUND SMU4 B
  is         I  S GROUND SMU3 B
 ICCAP_VALUES
  MASTER_SETUP_TYPE "~dc_idvd~"
  LINVT_VALUE ""
  LISTVT_VALUE "|idvg|100.0n|-200.0m|1.000m|3|200.0m|200.0m|"
  TYPE "1"
  TEMP " 27.0000 "
  IS_TNOM " 1.00000 "
  MAIN.W "150.0n"
  MAIN.L "330.0n"
  MAIN.AD "100.5f"
  MAIN.AS "100.5f"
  MAIN.PD "1.340u"
  MAIN.PS "1.340u"
  MAIN.NF "1.000"
  MAIN.M "1"
  MAIN.NRD "0.000"
  MAIN.NRS "0.000"
  MAIN.LDRIFT1 "1E-06"
  MAIN.LDRIFT2 "1E-06"
  MAIN.SA "0.000"
  MAIN.SB "0.000"
  MAIN.SD "0.000"
  MAIN.SCA "0.000"
  MAIN.SCB "0.000"
  MAIN.SCC "0.000"
  MAIN.SC "0.000"
  MODULE "S547"
  PIN_D "12"
  PIN_G "9"
  PIN_S "10"
  PIN_B "11"
  PIN_E ""
  PIN_6 ""
  XY_ID ""
  FUNC "Additional"
  STI "SA ref"
  WPE "WPE ref"
  COMMENT ""
  DIS_MEAS ""
  TypeTCI "10"
END_HEADER

BEGIN_DB
 ICCAP_VAR vg         0.166          
 ICCAP_VAR vb         0              
 ICCAP_VAR vs         0              

 #vd                    id                    ig                    ib                    is                   
  0                     -4.2e-13              -6.4e-13              2.76e-12              1.2e-13              
  0.1                   1.3e-11               -4.8e-13              2.84e-12              -1.308e-11           
  0.2                   1.806e-11             -5.8e-13              3e-12                 -1.766e-11           
  0.3                   2.338e-11             -4.2e-13              1.8e-12               -2.32e-11            
  0.4                   2.938e-11             -4.4e-13              1.68e-12              -2.93e-11            
  0.5                   3.66e-11              -3.2e-13              2.32e-12              -3.622e-11           
  0.6                   4.458e-11             -3.2e-13              2.22e-12              -4.414e-11           
  0.7                   5.378e-11             -3.2e-13              1.4e-12               -5.35e-11            
  0.8                   6.446e-11             -4.8e-13              2.62e-12              -6.398e-11           
  0.9                   7.7e-11               -3e-13                2.1e-12               -7.644e-11           
  1                     9.11e-11              -3e-13                1.42e-12              -9.036e-11           
  1.1                   1.0744e-10            -2.4e-13              2.26e-12              -1.0664e-10          
  1.2                   1.2648e-10            -2.4e-13              1.04e-12              -1.2562e-10          
  1.3                   1.4836e-10            -2.6e-13              1.82e-12              -1.4786e-10          
  1.4                   1.7344e-10            -2.6e-13              6.6e-13               -1.731e-10           
  1.5                   2.0334e-10            -3.4e-13              2.8e-12               -2.0218e-10          
  1.6                   2.3654e-10            -2.4e-13              1.48e-12              -2.367e-10           
  1.7                   2.7676e-10            -3.2e-13              1.24e-12              -2.7576e-10          
  1.8                   3.2188e-10            -2.6e-13              1.5e-12               -3.2072e-10          
  1.9                   3.7454e-10            -2.6e-13              1.44e-12              -3.7236e-10          
  2                     4.3416e-10            -2.8e-13              9.6e-13               -4.31e-10            
  2.1                   5.0344e-10            -1.4e-13              1.18e-12              -5.0036e-10          
  2.2                   5.844e-10             -6e-14                1.5e-12               -5.809e-10           
  2.3                   6.7524e-10            -1.8e-13              -5.6e-13              -6.7092e-10          
  2.4                   7.809e-10             -1.8e-13              -9.6e-13              -7.757e-10           
  2.5                   9.0586e-10            -2.6e-13              -3.32e-12             -8.9808e-10          
  2.6                   1.0476e-09            -2e-13                -5.98e-12             -1.03166e-09         
  2.7                   1.215e-09             -1.6e-13              -9.06e-12             -1.2046e-09          
  2.8                   1.409e-09             -1.6e-13              -1.45e-11             -1.3886e-09          
  2.9                   1.6354e-09            -2.4e-13              -2.264e-11            -1.604e-09           
  3                     1.9032e-09            -8e-14                -3.566e-11            -1.857e-09           
  3.1                   2.2092e-09            -1.8e-13              -5.08e-11             -2.1494e-09          
  3.2                   2.5686e-09            -1.6e-13              -7.378e-11            -2.4958e-09          
  3.3                   2.9928e-09            -1.4e-13              -1.0376e-10           -2.873e-09           
  3.4                   3.4722e-09            -1.2e-13              -1.4636e-10           -3.3356e-09          
  3.5                   4.0638e-09            -6e-14                -2.0374e-10           -3.848e-09           
  3.6                   4.7266e-09            -4e-14                -2.7962e-10           -4.4416e-09          
END_DB

BEGIN_DB
 ICCAP_VAR vg         0.366          
 ICCAP_VAR vb         0              
 ICCAP_VAR vs         0              

 #vd                    id                    ig                    ib                    is                   
  0                     2.9e-12               2e-14                 4.92e-12              -3.56e-12            
  0.1                   3.0588e-09            -4e-14                1.96e-12              -3.0542e-09          
  0.2                   4.4748e-09            -1.4e-13              1.54e-12              -4.466e-09           
  0.3                   5.9872e-09            1e-13                 1.44e-12              -5.9844e-09          
  0.4                   7.6962e-09            -1.8e-13              6.6e-13               -7.6928e-09          
  0.5                   9.5952e-09            -2e-14                1.78e-12              -9.596e-09           
  0.6                   1.1658e-08            -6e-14                1.32e-12              -1.1648e-08          
  0.7                   1.3966e-08            2e-14                 1.84e-12              -1.395e-08           
  0.8                   1.657e-08             -1.2e-13              4.6e-13               -1.6552e-08          
  0.9                   1.95e-08              2e-14                 7.4e-13               -1.9482e-08          
  1                     2.2828e-08            0                     1.22e-12              -2.2798e-08          
  1.1                   2.6514e-08            -2e-14                2.04e-12              -2.6526e-08          
  1.2                   3.0692e-08            4e-14                 1.24e-12              -3.0678e-08          
  1.3                   3.529e-08             0                     9.4e-13               -3.5324e-08          
  1.4                   4.0534e-08            4e-14                 1e-13                 -4.0466e-08          
  1.5                   4.627e-08             -2e-14                4.2e-13               -4.6256e-08          
  1.6                   5.2764e-08            0                     -1.58e-12             -5.2774e-08          
  1.7                   5.9856e-08            2e-14                 -5.58e-12             -5.9834e-08          
  1.8                   6.7812e-08            0                     -1.238e-11            -6.776e-08           
  1.9                   7.6548e-08            0                     -2.298e-11            -7.6514e-08          
  2                     8.6228e-08            -1.2e-13              -4.4e-11              -8.607e-08           
  2.1                   9.6778e-08            0                     -7.514e-11            -9.6592e-08          
  2.2                   1.0892e-07            0                     -1.2478e-10           -1.08182e-07         
  2.3                   1.2172e-07            1.6e-13               -2.0362e-10           -1.2092e-07          
  2.4                   1.3578e-07            0                     -3.2198e-10           -1.3548e-07          
  2.5                   1.5148e-07            -4e-14                -4.9556e-10           -1.5076e-07          
  2.6                   1.6876e-07            -4e-14                -7.5224e-10           -1.6774e-07          
  2.7                   1.8762e-07            -1.2e-13              -1.1202e-09           -1.8654e-07          
  2.8                   2.0848e-07            2e-14                 -1.6448e-09           -2.0654e-07          
  2.9                   2.3144e-07            2e-14                 -2.3792e-09           -2.2912e-07          
  3                     2.5654e-07            1e-13                 -3.3988e-09           -2.528e-07           
  3.1                   2.8366e-07            -2e-14                -4.7768e-09           -2.7892e-07          
  3.2                   3.131e-07             -2e-14                -6.632e-09            -3.0674e-07          
  3.3                   3.457e-07             4e-14                 -9.072e-09            -3.3684e-07          
  3.4                   3.8124e-07            0                     -1.226e-08            -3.6892e-07          
  3.5                   4.197e-07             -2e-14                -1.6342e-08           -4.0318e-07          
  3.6                   4.6192e-07            -4e-14                -2.1496e-08           -4.4038e-07          
END_DB

BEGIN_DB
 ICCAP_VAR vg         0.566          
 ICCAP_VAR vb         0              
 ICCAP_VAR vs         0              

 #vd                    id                    ig                    ib                    is                   
  0                     2.4786e-10            1e-13                 1.98e-12              -2.4552e-10          
  0.1                   2.2552e-07            8e-14                 2.42e-12              -2.2532e-07          
  0.2                   3.2314e-07            4e-14                 1e-12                 -3.2296e-07          
  0.3                   4.059e-07             1.6e-13               1.26e-12              -4.0588e-07          
  0.4                   4.8416e-07            2e-14                 1.34e-12              -4.8428e-07          
  0.5                   5.5958e-07            1.2e-13               2.02e-12              -5.5966e-07          
  0.6                   6.3372e-07            6e-14                 1.24e-12              -6.3304e-07          
  0.7                   7.0638e-07            -1.2e-13              6e-13                 -7.0626e-07          
  0.8                   7.794e-07             4e-14                 1.02e-12              -7.7942e-07          
  0.9                   8.5274e-07            4e-14                 8.8e-13               -8.5272e-07          
  1                     9.2748e-07            -2e-14                1.8e-13               -9.2728e-07          
  1.1                   1.00364e-06           4e-14                 7.2e-13               -1.00388e-06         
  1.2                   1.08156e-06           -1e-13                1.16e-12              -1.08182e-06         
  1.3                   1.1634e-06            0                     3.2e-13               -1.16192e-06         
  1.4                   1.2464e-06            0                     -2.58e-12             -1.242e-06           
  1.5                   1.3302e-06            2e-14                 -8.76e-12             -1.3262e-06          
  1.6                   1.4166e-06            2e-14                 -2.8e-11              -1.4126e-06          
  1.7                   1.5052e-06            -1e-13                -6.542e-11            -1.5012e-06          
  1.8                   1.596e-06             8e-14                 -1.3828e-10           -1.589e-06           
  1.9                   1.689e-06             -4e-14                -2.7154e-10           -1.6844e-06          
  2                     1.7848e-06            -4e-14                -4.924e-10            -1.7812e-06          
  2.1                   1.8836e-06            6e-14                 -8.4362e-10           -1.879e-06           
  2.2                   1.9864e-06            1e-13                 -1.386e-09            -1.9816e-06          
  2.3                   2.093e-06             1.2e-13               -2.1914e-09           -2.0862e-06          
  2.4                   2.2016e-06            -2e-14                -3.355e-09            -2.1934e-06          
  2.5                   2.3152e-06            2e-14                 -5.0144e-09           -2.3048e-06          
  2.6                   2.4308e-06            1e-13                 -7.333e-09            -2.419e-06           
  2.7                   2.5498e-06            -1.6e-13              -1.05096e-08          -2.5342e-06          
  2.8                   2.6732e-06            -2e-14                -1.486e-08            -2.6546e-06          
  2.9                   2.801e-06             1.2e-13               -2.0676e-08           -2.7762e-06          
  3                     2.933e-06             1.2e-13               -2.8392e-08           -2.9004e-06          
  3.1                   3.0702e-06            4e-14                 -3.8484e-08           -3.028e-06           
  3.2                   3.2138e-06            6e-14                 -5.1474e-08           -3.1588e-06          
  3.3                   3.3644e-06            0                     -6.7972e-08           -3.2912e-06          
  3.4                   3.522e-06             -4e-14                -8.8678e-08           -3.4298e-06          
  3.5                   3.69e-06              8e-14                 -1.14268e-07          -3.571e-06           
  3.6                   3.8658e-06            2e-14                 -1.4538e-07           -3.7162e-06          
END_DB

