! VERSION = 6.00
BEGIN_HEADER
 ICCAP_INPUTS
  vd         V  D GROUND SMU1 0.1 LIN        1    0          3.6        37   0.1       
  vg         V  G GROUND SMU2 0.001 LIST       2 3 0.512 0.712 0.912
  vb         V  B GROUND SMU4 0.1 CON        0
  vs         V  S GROUND SMU3 0.1 CON        0
 ICCAP_OUTPUTS
  id         I  D GROUND SMU1 B
  ig         I  G GROUND SMU2 B
  ib         I  B GROUND SMU4 B
  is         I  S GROUND SMU3 B
 ICCAP_VALUES
  MASTER_SETUP_TYPE "~dc_idvd~"
  LINVT_VALUE ""
  LISTVT_VALUE "|idvg|100.0n|-200.0m|1.000m|3|200.0m|200.0m|"
  TYPE "1"
  TEMP " 27.0000 "
  IS_TNOM " 1.00000 "
  MAIN.W "10.00u"
  MAIN.L "500.0n"
  MAIN.AD "3.400p"
  MAIN.AS "3.400p"
  MAIN.PD "20.68u"
  MAIN.PS "20.68u"
  MAIN.NF "1.000"
  MAIN.M "1"
  MAIN.NRD "0.000"
  MAIN.NRS "0.000"
  MAIN.LDRIFT1 "1E-06"
  MAIN.LDRIFT2 "1E-06"
  MAIN.SA "0.000"
  MAIN.SB "0.000"
  MAIN.SD "0.000"
  MAIN.SCA "0.000"
  MAIN.SCB "0.000"
  MAIN.SCC "0.000"
  MAIN.SC "0.000"
  MODULE "S556"
  PIN_D "14"
  PIN_G "7"
  PIN_S "8"
  PIN_B "13"
  PIN_E ""
  PIN_6 ""
  XY_ID ""
  FUNC "Short"
  STI "SA ref"
  WPE "WPE ref"
  COMMENT ""
  DIS_MEAS ""
  TypeTCI "10"
END_HEADER

BEGIN_DB
 ICCAP_VAR vg         0.512          
 ICCAP_VAR vb         0              
 ICCAP_VAR vs         0              

 #vd                    id                    ig                    ib                    is                   
  0                     2.29e-11              -6.4e-13              2.2e-12               -1.284e-11           
  0.1                   6.8718e-09            -5.8e-13              2.64e-12              -6.8726e-09          
  0.2                   7.4078e-09            -4e-13                2.04e-12              -7.3912e-09          
  0.3                   7.741e-09             -5.4e-13              1.46e-12              -7.7348e-09          
  0.4                   8.0372e-09            -3.6e-13              1.72e-12              -8.0324e-09          
  0.5                   8.3204e-09            -4.4e-13              1.58e-12              -8.3016e-09          
  0.6                   8.5862e-09            -2.2e-13              2.82e-12              -8.5794e-09          
  0.7                   8.8546e-09            -3.8e-13              2.06e-12              -8.8418e-09          
  0.8                   9.1072e-09            -2.6e-13              1.8e-12               -9.1026e-09          
  0.9                   9.3658e-09            -3.8e-13              1.68e-12              -9.379e-09           
  1                     9.6382e-09            -3.4e-13              1.88e-12              -9.6356e-09          
  1.1                   9.8754e-09            -2e-13                2.5e-12               -9.8702e-09          
  1.2                   1.01236e-08           -3e-13                2.68e-12              -1.01334e-08         
  1.3                   1.04164e-08           -2.6e-13              1.34e-12              -1.04098e-08         
  1.4                   1.0682e-08            -8e-14                2.14e-12              -1.0681e-08          
  1.5                   1.0922e-08            -3.4e-13              1.18e-12              -1.09092e-08         
  1.6                   1.118e-08             -3.6e-13              6.4e-13               -1.11972e-08         
  1.7                   1.147e-08             -1.6e-13              1.22e-12              -1.1429e-08          
  1.8                   1.1752e-08            -1e-13                4e-13                 -1.169e-08           
  1.9                   1.2014e-08            -2.6e-13              -2.24e-12             -1.1966e-08          
  2                     1.2252e-08            -2.2e-13              -4.06e-12             -1.2262e-08          
  2.1                   1.2542e-08            -1e-13                -8.2e-12              -1.2548e-08          
  2.2                   1.2874e-08            -2.4e-13              -1.478e-11            -1.2836e-08          
  2.3                   1.3138e-08            -2.4e-13              -2.238e-11            -1.3096e-08          
  2.4                   1.3482e-08            -4e-13                -3.288e-11            -1.3394e-08          
  2.5                   1.3782e-08            -2.6e-13              -4.756e-11            -1.3774e-08          
  2.6                   1.419e-08             -1.4e-13              -6.72e-11             -1.4044e-08          
  2.7                   1.4478e-08            -2.6e-13              -9.396e-11            -1.4364e-08          
  2.8                   1.4842e-08            -2.8e-13              -1.2882e-10           -1.4754e-08          
  2.9                   1.5282e-08            -2e-13                -1.7332e-10           -1.5036e-08          
  3                     1.5608e-08            -2e-13                -2.2974e-10           -1.535e-08           
  3.1                   1.6018e-08            -2e-13                -3.0318e-10           -1.5692e-08          
  3.2                   1.6536e-08            -2.4e-13              -3.9242e-10           -1.6122e-08          
  3.3                   1.697e-08             -1.8e-13              -4.9906e-10           -1.6386e-08          
  3.4                   1.7408e-08            -5.2e-13              -6.3424e-10           -1.6734e-08          
  3.5                   1.7982e-08            -1.2e-13              -7.8768e-10           -1.7108e-08          
  3.6                   1.8476e-08            4e-14                 -9.692e-10            -1.7476e-08          
END_DB

BEGIN_DB
 ICCAP_VAR vg         0.712          
 ICCAP_VAR vb         0              
 ICCAP_VAR vs         0              

 #vd                    id                    ig                    ib                    is                   
  0                     1.3706e-09            2e-14                 2.68e-12              -1.1816e-09          
  0.1                   9.8446e-07            4e-14                 2.74e-12              -9.8466e-07          
  0.2                   1.10666e-06           -1.4e-13              1.06e-12              -1.10708e-06         
  0.3                   1.1698e-06            -1.6e-13              1.74e-12              -1.1652e-06          
  0.4                   1.222e-06             -4e-14                1.92e-12              -1.2186e-06          
  0.5                   1.2692e-06            0                     1.86e-12              -1.2642e-06          
  0.6                   1.3122e-06            -1.4e-13              1.12e-12              -1.3082e-06          
  0.7                   1.3546e-06            -6e-14                1.92e-12              -1.3506e-06          
  0.8                   1.3938e-06            4e-14                 2.26e-12              -1.3916e-06          
  0.9                   1.4356e-06            1.6e-13               1.6e-12               -1.4338e-06          
  1                     1.4758e-06            -1.4e-13              1.96e-12              -1.472e-06           
  1.1                   1.5148e-06            -8e-14                1.76e-12              -1.5112e-06          
  1.2                   1.5518e-06            4e-14                 1.02e-12              -1.5474e-06          
  1.3                   1.5884e-06            -2e-14                1.32e-12              -1.5872e-06          
  1.4                   1.6284e-06            -1e-13                -1.86e-12             -1.625e-06           
  1.5                   1.6666e-06            -1.2e-13              -9.88e-12             -1.6634e-06          
  1.6                   1.7038e-06            -4e-14                -2.788e-11            -1.7006e-06          
  1.7                   1.7428e-06            2e-14                 -6.724e-11            -1.7396e-06          
  1.8                   1.78e-06              -1.8e-13              -1.4198e-10           -1.776e-06           
  1.9                   1.82e-06              -1.2e-13              -2.7254e-10           -1.8172e-06          
  2                     1.87e-06              0                     -4.8812e-10           -1.8672e-06          
  2.1                   1.9088e-06            -4e-14                -8.2208e-10           -1.9042e-06          
  2.2                   1.9462e-06            4e-14                 -1.3226e-09           -1.94e-06            
  2.3                   1.9898e-06            -6e-14                -2.0444e-09           -1.983e-06           
  2.4                   2.0298e-06            -1.8e-13              -3.0642e-09           -2.022e-06           
  2.5                   2.0712e-06            -2e-14                -4.4752e-09           -2.0634e-06          
  2.6                   2.112e-06             -1.2e-13              -6.3828e-09           -2.0938e-06          
  2.7                   2.1486e-06            -1.4e-13              -8.9614e-09           -2.1366e-06          
  2.8                   2.1934e-06            0                     -1.2406e-08           -2.1768e-06          
  2.9                   2.2378e-06            1.2e-13               -1.6902e-08           -2.2164e-06          
  3                     2.2858e-06            2e-13                 -2.2772e-08           -2.2602e-06          
  3.1                   2.336e-06             2e-14                 -3.0304e-08           -2.3022e-06          
  3.2                   2.3898e-06            -6e-14                -3.9992e-08           -2.355e-06           
  3.3                   2.4546e-06            0                     -5.1872e-08           -2.3974e-06          
  3.4                   2.5134e-06            -1e-13                -6.6508e-08           -2.4432e-06          
  3.5                   2.5768e-06            -1.6e-13              -8.4336e-08           -2.4894e-06          
  3.6                   2.646e-06             -1e-13                -1.05588e-07          -2.537e-06           
END_DB

BEGIN_DB
 ICCAP_VAR vg         0.912          
 ICCAP_VAR vb         0              
 ICCAP_VAR vs         0              

 #vd                    id                    ig                    ib                    is                   
  0                     1.852e-08             1.4e-13               2.3e-12               -1.8222e-08          
  0.1                   2.0406e-05            8e-14                 2.1e-12               -2.0384e-05          
  0.2                   2.6272e-05            1e-13                 4.6e-13               -2.625e-05           
  0.3                   2.8362e-05            1.8e-13               2.4e-12               -2.8358e-05          
  0.4                   2.958e-05             -2e-14                8e-13                 -2.9548e-05          
  0.5                   3.0484e-05            -8e-14                1e-12                 -3.0472e-05          
  0.6                   3.1266e-05            2e-13                 2.4e-12               -3.1258e-05          
  0.7                   3.1994e-05            1.8e-13               1.46e-12              -3.1964e-05          
  0.8                   3.2672e-05            -1e-13                6.2e-13               -3.2664e-05          
  0.9                   3.3332e-05            -2e-13                1.96e-12              -3.3304e-05          
  1                     3.3928e-05            4e-14                 1e-12                 -3.3896e-05          
  1.1                   3.4502e-05            -8e-14                1.24e-12              -3.4486e-05          
  1.2                   3.5064e-05            -1.2e-13              1.54e-12              -3.504e-05           
  1.3                   3.5618e-05            -4e-14                -2.42e-12             -3.5594e-05          
  1.4                   3.6174e-05            2.4e-13               -1.314e-11            -3.6138e-05          
  1.5                   3.6688e-05            1.8e-13               -5.34e-11             -3.6684e-05          
  1.6                   3.7202e-05            -1e-13                -1.724e-10            -3.7188e-05          
  1.7                   3.7728e-05            2e-14                 -4.665e-10            -3.7714e-05          
  1.8                   3.8262e-05            -2.4e-13              -1.0968e-09           -3.8222e-05          
  1.9                   3.8752e-05            -2e-13                -2.3292e-09           -3.8732e-05          
  2                     3.925e-05             -2.2e-13              -4.5278e-09           -3.923e-05           
  2.1                   3.976e-05             -8e-14                -8.1986e-09           -3.9738e-05          
  2.2                   4.0252e-05            -2e-14                -1.3976e-08           -4.0228e-05          
  2.3                   4.077e-05             4e-14                 -2.2666e-08           -4.0714e-05          
  2.4                   4.128e-05             8e-14                 -3.5312e-08           -4.123e-05           
  2.5                   4.1798e-05            -1.8e-13              -5.3226e-08           -4.1728e-05          
  2.6                   4.2326e-05            -1.8e-13              -7.8098e-08           -4.2278e-05          
  2.7                   4.2888e-05            -8e-14                -1.11862e-07          -4.2748e-05          
  2.8                   4.344e-05             -6e-14                -1.5702e-07           -4.3246e-05          
  2.9                   4.3994e-05            -1e-13                -2.1698e-07           -4.3744e-05          
  3                     4.4542e-05            -4e-14                -2.9592e-07           -4.4242e-05          
  3.1                   4.519e-05             -4e-14                -3.9862e-07           -4.4784e-05          
  3.2                   4.5814e-05            1e-13                 -5.2938e-07           -4.5278e-05          
  3.3                   4.6504e-05            -2.4e-13              -6.941e-07            -4.579e-05           
  3.4                   4.722e-05             -1.2e-13              -9.0028e-07           -4.633e-05           
  3.5                   4.7994e-05            -2e-14                -1.15206e-06          -4.6828e-05          
  3.6                   4.8794e-05            -8e-14                -1.4558e-06           -4.7334e-05          
END_DB

