! VERSION = 6.00
BEGIN_HEADER
 ICCAP_INPUTS
  vd         V  D GROUND SMU1 0.1 LIN        1    0          3.6        37   0.1       
  vg         V  G GROUND SMU2 0.001 LIN        2    1.412      3.6        5    0.547     
  vb         V  B GROUND SMU4 0.1 CON        -3.6
  vs         V  S GROUND SMU3 0.1 CON        0
 ICCAP_OUTPUTS
  id         I  D GROUND SMU1 B
  ig         I  G GROUND SMU2 B
  ib         I  B GROUND SMU4 B
  is         I  S GROUND SMU3 B
 ICCAP_VALUES
  MASTER_SETUP_TYPE "~dc_idvd~"
  LINVT_VALUE "|idvg|100.0n|100.0m|1.000m|5|3.600|"
  LISTVT_VALUE ""
  TYPE "1"
  TEMP "-40.0000 "
  IS_TNOM " 0.00000 "
  MAIN.W "10.00u"
  MAIN.L "500.0n"
  MAIN.AD "3.400p"
  MAIN.AS "3.400p"
  MAIN.PD "20.68u"
  MAIN.PS "20.68u"
  MAIN.NF "1.000"
  MAIN.M "1"
  MAIN.NRD "0.000"
  MAIN.NRS "0.000"
  MAIN.LDRIFT1 "1E-06"
  MAIN.LDRIFT2 "1E-06"
  MAIN.SA "0.000"
  MAIN.SB "0.000"
  MAIN.SD "0.000"
  MAIN.SCA "0.000"
  MAIN.SCB "0.000"
  MAIN.SCC "0.000"
  MAIN.SC "0.000"
  MODULE "S556"
  PIN_D "14"
  PIN_G "7"
  PIN_S "8"
  PIN_B "13"
  PIN_E ""
  PIN_6 ""
  XY_ID ""
  FUNC "Short"
  STI "SA ref"
  WPE "WPE ref"
  COMMENT ""
  DIS_MEAS ""
  TypeTCI "10"
END_HEADER

BEGIN_DB
 ICCAP_VAR vg         1.412          
 ICCAP_VAR vb         -3.6           
 ICCAP_VAR vs         0              

 #vd                    id                    ig                    ib                    is                   
  0                     3.085e-09             6.6e-13               -2.446e-11            -2.3388e-09          
  0.1                   2.9672e-06            4e-13                 -1.906e-11            -2.964e-06           
  0.2                   3.8198e-06            5.2e-13               -1.994e-11            -3.8168e-06          
  0.3                   4.375e-06             2.6e-13               -1.882e-11            -4.3738e-06          
  0.4                   4.8526e-06            2.4e-13               -1.784e-11            -4.8556e-06          
  0.5                   5.3012e-06            2.6e-13               -1.728e-11            -5.2946e-06          
  0.6                   5.727e-06             3.2e-13               -1.562e-11            -5.726e-06           
  0.7                   6.1542e-06            2.8e-13               -1.518e-11            -6.1466e-06          
  0.8                   6.5706e-06            2e-13                 -1.594e-11            -6.5488e-06          
  0.9                   6.9802e-06            -2e-14                -1.466e-11            -6.9766e-06          
  1                     7.4036e-06            -2e-14                -1.436e-11            -7.3994e-06          
  1.1                   7.8236e-06            8e-14                 -1.454e-11            -7.828e-06           
  1.2                   8.2612e-06            3.8e-13               -1.284e-11            -8.2516e-06          
  1.3                   8.6636e-06            4e-13                 -1.242e-11            -8.6692e-06          
  1.4                   9.1214e-06            2.8e-13               -1.308e-11            -9.1344e-06          
  1.5                   9.5916e-06            1.6e-13               -1.726e-11            -9.5704e-06          
  1.6                   1.0032e-05            2.2e-13               -2.796e-11            -1.00236e-05         
  1.7                   1.04988e-05           2.6e-13               -6.082e-11            -1.05056e-05         
  1.8                   1.101e-05             2.6e-13               -1.4666e-10           -1.099e-05           
  1.9                   1.1518e-05            2.2e-13               -3.4234e-10           -1.15166e-05         
  2                     1.2024e-05            4e-14                 -7.3678e-10           -1.2006e-05          
  2.1                   1.2534e-05            1.2e-13               -1.4736e-09           -1.2486e-05          
  2.2                   1.307e-05             1.2e-13               -2.7684e-09           -1.3044e-05          
  2.3                   1.362e-05             4e-14                 -4.8988e-09           -1.3576e-05          
  2.4                   1.4174e-05            1.6e-13               -8.2782e-09           -1.414e-05           
  2.5                   1.4712e-05            2.6e-13               -1.3448e-08           -1.4686e-05          
  2.6                   1.5302e-05            2e-14                 -2.113e-08            -1.5266e-05          
  2.7                   1.589e-05             2e-13                 -3.2334e-08           -1.5854e-05          
  2.8                   1.648e-05             4e-14                 -4.841e-08            -1.644e-05           
  2.9                   1.7126e-05            3e-13                 -7.0614e-08           -1.6982e-05          
  3                     1.7728e-05            3e-13                 -1.02014e-07          -1.7612e-05          
  3.1                   1.839e-05             3.8e-13               -1.445e-07            -1.8164e-05          
  3.2                   1.9004e-05            6.2e-13               -2.0266e-07           -1.8772e-05          
  3.3                   1.9714e-05            4.8e-13               -2.7856e-07           -1.9374e-05          
  3.4                   2.032e-05             4.6e-13               -3.79e-07             -1.9894e-05          
  3.5                   2.103e-05             5.4e-13               -5.0376e-07           -2.0324e-05          
  3.6                   2.1592e-05            1.06e-12              -6.5834e-07           -2.0752e-05          
END_DB

BEGIN_DB
 ICCAP_VAR vg         1.959          
 ICCAP_VAR vb         -3.6           
 ICCAP_VAR vs         0              

 #vd                    id                    ig                    ib                    is                   
  0                     1.1175e-07            4.4e-13               -5.2e-12              -9.0664e-08          
  0.1                   0.00019958            3.2e-13               -4.18e-12             -0.00019924          
  0.2                   0.00034392            4e-13                 -5.86e-12             -0.00034358          
  0.3                   0.00043994            5.2e-13               -5.84e-12             -0.00043944          
  0.4                   0.00050062            2.8e-13               -5.84e-12             -0.00050042          
  0.5                   0.00053942            2.4e-13               -6.72e-12             -0.00053914          
  0.6                   0.00056512            1.6e-13               -6.5e-12              -0.00056492          
  0.7                   0.0005841             2.6e-13               -4.96e-12             -0.00058362          
  0.8                   0.0005988             3e-13                 -6.14e-12             -0.0005984           
  0.9                   0.00061072            4e-13                 -4.74e-12             -0.0006105           
  1                     0.00062154            4e-13                 -5.5e-12              -0.00062114          
  1.1                   0.00063108            3.6e-13               -6.9e-12              -0.00063086          
  1.2                   0.0006401             2.2e-13               -5.18e-12             -0.00063958          
  1.3                   0.0006481             1.4e-13               -6e-12                -0.00064798          
  1.4                   0.00065618            1.8e-13               -8e-12                -0.00065586          
  1.5                   0.00066388            1.6e-13               -1.218e-11            -0.0006633           
  1.6                   0.00067112            2.2e-13               -4.324e-11            -0.00067074          
  1.7                   0.00067816            1.2e-13               -1.5604e-10           -0.00067766          
  1.8                   0.00068494            1.6e-13               -5.102e-10            -0.0006847           
  1.9                   0.00069166            1.6e-13               -1.5082e-09           -0.00069152          
  2                     0.00069842            1e-13                 -3.9866e-09           -0.00069794          
  2.1                   0.00070486            2e-13                 -9.5476e-09           -0.00070452          
  2.2                   0.00071112            3e-13                 -2.0934e-08           -0.00071076          
  2.3                   0.00071726            4.4e-13               -4.2462e-08           -0.00071704          
  2.4                   0.00072356            5.2e-13               -8.0384e-08           -0.00072284          
  2.5                   0.00072914            5.6e-13               -1.4366e-07           -0.0007275           
  2.6                   0.00073392            1e-12                 -2.4446e-07           -0.00073248          
  2.7                   0.0007386             1.3e-12               -3.9732e-07           -0.00073614          
  2.8                   0.00074176            2.1e-12               -6.2484e-07           -0.00073952          
  2.9                   0.0007446             3.24e-12              -9.5108e-07           -0.00074118          
  3                     0.0007436             4.72e-12              -1.4112e-06           -0.00073636          
  3.1                   0.0007423             6.56e-12              -2.0486e-06           -0.0007369           
  3.2                   0.00074272            9.06e-12              -2.911e-06            -0.00073548          
  3.3                   0.00074294            1.25e-11              -4.0902e-06           -0.0007338           
  3.4                   0.00073962            1.696e-11             -5.6162e-06           -0.00072738          
  3.5                   0.00073628            2.25e-11              -7.6382e-06           -0.00072202          
  3.6                   0.00073078            2.932e-11             -1.02168e-05          -0.00071476          
END_DB

BEGIN_DB
 ICCAP_VAR vg         2.506          
 ICCAP_VAR vb         -3.6           
 ICCAP_VAR vs         0              

 #vd                    id                    ig                    ib                    is                   
  0                     1.6214e-07            5e-13                 -2.88e-12             -1.4722e-07          
  0.1                   0.00041148            3.6e-13               -2.36e-12             -0.00041108          
  0.2                   0.0007679             3.2e-13               -3.74e-12             -0.00076762          
  0.3                   0.00105764            4.4e-13               -4.8e-12              -0.0010573           
  0.4                   0.0012826             2e-14                 -3.7e-12              -0.0012808           
  0.5                   0.0014486             2.6e-13               -3.54e-12             -0.0014468           
  0.6                   0.0015678             2.8e-13               -4.58e-12             -0.001566            
  0.7                   0.0016524             3e-13                 -3.34e-12             -0.0016504           
  0.8                   0.0017128             3.6e-13               -2.46e-12             -0.0017108           
  0.9                   0.0017564             1.6e-13               -4.08e-12             -0.0017546           
  1                     0.0017892             2.8e-13               -3.16e-12             -0.0017876           
  1.1                   0.0018148             3e-13                 -3.1e-12              -0.0018132           
  1.2                   0.0018358             2.2e-13               -4.24e-12             -0.0018342           
  1.3                   0.0018534             2e-13                 -2.98e-12             -0.0018518           
  1.4                   0.001869              2.4e-13               -3.26e-12             -0.0018674           
  1.5                   0.001883              1.8e-13               -6.72e-12             -0.0018812           
  1.6                   0.0018954             1.4e-13               -1.648e-11            -0.001894            
  1.7                   0.0019076             0                     -5.526e-11            -0.0019058           
  1.8                   0.0019186             2.8e-13               -1.9948e-10           -0.0019168           
  1.9                   0.001929              3.8e-13               -6.4258e-10           -0.0019272           
  2                     0.001939              -4e-14                -1.8704e-09           -0.0019374           
  2.1                   0.0019488             4e-14                 -4.929e-09            -0.001947            
  2.2                   0.001958              1.2e-13               -1.1886e-08           -0.0019564           
  2.3                   0.0019668             3.6e-13               -2.64e-08             -0.0019652           
  2.4                   0.0019754             4.6e-13               -5.461e-08            -0.0019734           
  2.5                   0.0019832             1.04e-12              -1.0615e-07           -0.001981            
  2.6                   0.0019906             1.4e-12               -1.9508e-07           -0.001988            
  2.7                   0.001997              2.24e-12              -3.4204e-07           -0.0019942           
  2.8                   0.0020032             3.3e-12               -5.7414e-07           -0.0019992           
  2.9                   0.0020074             5.72e-12              -9.3014e-07           -0.0020022           
  3                     0.0020094             8.92e-12              -1.463e-06            -0.0020004           
  3.1                   0.0020074             1.34e-11              -2.232e-06            -0.0019996           
  3.2                   0.0020072             1.942e-11             -3.3206e-06           -0.0019966           
  3.3                   0.0020054             2.808e-11             -4.8392e-06           -0.001994            
  3.4                   0.0020014             3.938e-11             -6.9468e-06           -0.0019856           
  3.5                   0.0019938             5.422e-11             -9.7864e-06           -0.001972            
  3.6                   0.0019838             7.312e-11             -1.3656e-05           -0.001946            
END_DB

BEGIN_DB
 ICCAP_VAR vg         3.053          
 ICCAP_VAR vb         -3.6           
 ICCAP_VAR vs         0              

 #vd                    id                    ig                    ib                    is                   
  0                     1.8052e-07            4.8e-13               -2.08e-12             -1.8212e-07          
  0.1                   0.00054656            4e-13                 -1e-12                -0.00054618          
  0.2                   0.00104758            3.2e-13               -3.76e-12             -0.00104724          
  0.3                   0.0014868             3e-13                 -3.46e-12             -0.0014852           
  0.4                   0.001858              2.4e-13               -2.32e-12             -0.0018562           
  0.5                   0.002162              2.8e-13               -2.52e-12             -0.0021602           
  0.6                   0.002404              2.8e-13               -3e-12                -0.002402            
  0.7                   0.0025932             3.6e-13               -2.56e-12             -0.0025914           
  0.8                   0.0027386             4e-13                 -2.76e-12             -0.002737            
  0.9                   0.0028486             2.6e-13               -3.26e-12             -0.0028468           
  1                     0.0029318             1.4e-13               -2.4e-12              -0.00293             
  1.1                   0.0029952             2.4e-13               -3.02e-12             -0.0029932           
  1.2                   0.0030436             3.2e-13               -3.86e-12             -0.0030418           
  1.3                   0.0030818             2.8e-13               -1.2e-12              -0.00308             
  1.4                   0.0031126             1e-13                 -2.96e-12             -0.0031108           
  1.5                   0.0031378             2.6e-13               -2.88e-12             -0.0031362           
  1.6                   0.0031594             1.6e-13               -5.06e-12             -0.0031578           
  1.7                   0.0031782             3e-13                 -1.496e-11            -0.0031764           
  1.8                   0.0031948             3.8e-13               -5.126e-11            -0.0031932           
  1.9                   0.0032098             2.4e-13               -1.8028e-10           -0.0032084           
  2                     0.003224              1e-13                 -5.7788e-10           -0.0032222           
  2.1                   0.0032368             2.4e-13               -1.6686e-09           -0.0032352           
  2.2                   0.003249              3e-13                 -4.4158e-09           -0.0032472           
  2.3                   0.0032602             2.6e-13               -1.07168e-08          -0.0032582           
  2.4                   0.0032704             3.4e-13               -2.4034e-08           -0.0032686           
  2.5                   0.0032806             5.6e-13               -5.0344e-08           -0.0032786           
  2.6                   0.0032902             1.16e-12              -9.9242e-08           -0.0032876           
  2.7                   0.0032982             2.12e-12              -1.8544e-07           -0.0032952           
  2.8                   0.0033058             3.44e-12              -3.2984e-07           -0.003302            
  2.9                   0.0033118             5.78e-12              -5.641e-07            -0.0033076           
  3                     0.0033164             9.76e-12              -9.2884e-07           -0.0033108           
  3.1                   0.0033158             1.544e-11             -1.4906e-06           -0.0033094           
  3.2                   0.0033178             2.36e-11              -2.3094e-06           -0.0033102           
  3.3                   0.0033188             3.51e-11              -3.4986e-06           -0.0033084           
  3.4                   0.0033172             5.112e-11             -5.1734e-06           -0.0033054           
  3.5                   0.003315              7.29e-11              -7.5564e-06           -0.003298            
  3.6                   0.0033076             1.0198e-10            -1.08498e-05          -0.0032868           
END_DB

BEGIN_DB
 ICCAP_VAR vg         3.6            
 ICCAP_VAR vb         -3.6           
 ICCAP_VAR vs         0              

 #vd                    id                    ig                    ib                    is                   
  0                     2.0156e-07            5.6e-13               -1.22e-12             -2.0936e-07          
  0.1                   0.00063138            2.6e-13               -1.06e-12             -0.00063102          
  0.2                   0.0012272             4.4e-13               -1.68e-12             -0.0012254           
  0.3                   0.001768              4e-13                 -2.68e-12             -0.0017662           
  0.4                   0.0022478             3.4e-13               -2.4e-12              -0.002246            
  0.5                   0.0026636             2.2e-13               -1.34e-12             -0.0026616           
  0.6                   0.0030164             3.2e-13               -2.48e-12             -0.0030146           
  0.7                   0.003312              2.6e-13               -2.94e-12             -0.0033102           
  0.8                   0.0035556             4.2e-13               -1.58e-12             -0.0035536           
