! VERSION = 6.00
BEGIN_HEADER
 ICCAP_INPUTS
  vg         V  G GROUND SMU2 0.001 LIN        1    -0.5       3.6        83   0.05      
  vb         V  B GROUND SMU4 0.1 LIN        2    0          -3.6       5    -0.9      
  vd         V  D GROUND SMU1 0.1 LIN        3    0.1        3.3        3    1.6       
  vs         V  S GROUND SMU3 0.1 CON        0
 ICCAP_OUTPUTS
  id         I  D GROUND SMU1 B
  ig         I  G GROUND SMU2 B
  ib         I  B GROUND SMU4 B
  is         I  S GROUND SMU3 B
 ICCAP_VALUES
  MASTER_SETUP_TYPE "~dc_idvg~"
  LINVT_VALUE ""
  LISTVT_VALUE ""
  TYPE "1"
  TEMP " 27.0000 "
  IS_TNOM " 1.00000 "
  MAIN.W "600.0n"
  MAIN.L "330.0n"
  MAIN.AD "204.0f"
  MAIN.AS "204.0f"
  MAIN.PD "1.880u"
  MAIN.PS "1.880u"
  MAIN.NF "1.000"
  MAIN.M "1"
  MAIN.NRD "0.000"
  MAIN.NRS "0.000"
  MAIN.LDRIFT1 "1E-06"
  MAIN.LDRIFT2 "1E-06"
  MAIN.SA "0.000"
  MAIN.SB "0.000"
  MAIN.SD "0.000"
  MAIN.SCA "0.000"
  MAIN.SCB "0.000"
  MAIN.SCC "0.000"
  MAIN.SC "0.000"
  MODULE "S559"
  PIN_D "20"
  PIN_G "1"
  PIN_S "2"
  PIN_B "19"
  PIN_E ""
  PIN_6 ""
  XY_ID ""
  FUNC "Additional"
  STI "SA ref"
  WPE "WPE ref"
  COMMENT ""
  DIS_MEAS ""
  TypeTCI "10"
END_HEADER

BEGIN_DB
 ICCAP_VAR vb         0              
 ICCAP_VAR vd         0.1            
 ICCAP_VAR vs         0              

 #vg                    id                    ig                    ib                    is                   
  -0.5                  -1.2e-13              -4.358e-11            5.164e-11             -6e-14               
  -0.45                 0                     -6.48e-12             1.532e-11             0                    
  -0.4                  4e-14                 -1e-12                1.218e-11             0                    
  -0.35                 -2e-14                -1.6e-13              8.26e-12              0                    
  -0.3                  2e-14                 1.4e-13               8e-12                 -2e-14               
  -0.25                 1e-13                 2e-13                 7.68e-12              8e-14                
  -0.2                  2e-14                 3e-13                 7.96e-12              -1.2e-13             
  -0.15                 8e-14                 1.6e-13               8.34e-12              2e-14                
  -0.1                  4e-14                 3e-13                 8.24e-12              -1.8e-13             
  -0.05                 2e-13                 2.4e-13               8.08e-12              -4e-14               
  0                     4.4e-13               3.6e-13               6.78e-12              -4.4e-13             
  0.05                  1.9e-12               3.4e-13               7.14e-12              -1.82e-12            
  0.1                   7.3e-12               3.4e-13               8.36e-12              -7.22e-12            
  0.15                  2.882e-11             3.8e-13               8.3e-12               -2.884e-11           
  0.2                   1.1302e-10            3.4e-13               6.92e-12              -1.1284e-10          
  0.25                  4.423e-10             4e-13                 6.76e-12              -4.4236e-10          
  0.3                   1.7146e-09            2.6e-13               6.94e-12              -1.7134e-09          
  0.35                  6.4942e-09            4e-13                 7.84e-12              -6.4904e-09          
  0.4                   2.2868e-08            4e-13                 7.2e-12               -2.2926e-08          
  0.45                  7.2406e-08            4.6e-13               6.44e-12              -7.2368e-08          
  0.5                   1.9434e-07            4.8e-13               6.6e-12               -1.9418e-07          
  0.55                  4.4418e-07            5.2e-13               7.14e-12              -4.439e-07           
  0.6                   8.759e-07             4.8e-13               6.48e-12              -8.7586e-07          
  0.65                  1.5288e-06            5e-13                 6.2e-12               -1.5244e-06          
  0.7                   2.3868e-06            5.6e-13               6.9e-12               -2.3828e-06          
  0.75                  3.4372e-06            5.4e-13               6.6e-12               -3.4322e-06          
  0.8                   4.641e-06             5.8e-13               5.6e-12               -4.636e-06           
  0.85                  5.9804e-06            5e-13                 6.12e-12              -5.976e-06           
  0.9                   7.3994e-06            6.2e-13               5.98e-12              -7.398e-06           
  0.95                  8.8716e-06            4.8e-13               6.1e-12               -8.8672e-06          
  1                     1.03832e-05           6e-13                 5.32e-12              -1.03766e-05         
  1.05                  1.1928e-05            5.2e-13               6.02e-12              -1.1906e-05          
  1.1                   1.346e-05             5e-13                 5.66e-12              -1.3444e-05          
  1.15                  1.4996e-05            6.6e-13               6.52e-12              -1.497e-05           
  1.2                   1.6502e-05            5.6e-13               5.48e-12              -1.6484e-05          
  1.25                  1.7982e-05            6.4e-13               5.1e-12               -1.7956e-05          
  1.3                   1.9448e-05            5.8e-13               3.18e-12              -1.9432e-05          
  1.35                  2.0854e-05            7.6e-13               6.24e-12              -2.084e-05           
  1.4                   2.226e-05             5.2e-13               5.98e-12              -2.2236e-05          
  1.45                  2.3606e-05            6.8e-13               4.62e-12              -2.3584e-05          
  1.5                   2.491e-05             7e-13                 4.86e-12              -2.489e-05           
  1.55                  2.62e-05              7.2e-13               5.48e-12              -2.617e-05           
  1.6                   2.7434e-05            7.2e-13               5.86e-12              -2.7424e-05          
  1.65                  2.8654e-05            6.8e-13               4.34e-12              -2.8638e-05          
  1.7                   2.9834e-05            7.6e-13               4.9e-12               -2.9814e-05          
  1.75                  3.0972e-05            7.4e-13               5.44e-12              -3.0944e-05          
  1.8                   3.2076e-05            6.8e-13               5.62e-12              -3.2068e-05          
  1.85                  3.3168e-05            7e-13                 4.56e-12              -3.3136e-05          
  1.9                   3.422e-05             7.6e-13               4.28e-12              -3.42e-05            
  1.95                  3.5226e-05            7.2e-13               4.8e-12               -3.522e-05           
  2                     3.6222e-05            7.6e-13               5.88e-12              -3.6212e-05          
  2.05                  3.7184e-05            6.8e-13               4.92e-12              -3.7162e-05          
  2.1                   3.8104e-05            8e-13                 4.5e-12               -3.8084e-05          
  2.15                  3.9014e-05            7.8e-13               5.12e-12              -3.8994e-05          
  2.2                   3.9904e-05            8e-13                 7.82e-12              -3.9886e-05          
  2.25                  4.0754e-05            7e-13                 5e-12                 -4.0734e-05          
  2.3                   4.1584e-05            8e-13                 4.36e-12              -4.1564e-05          
  2.35                  4.2392e-05            7.6e-13               4.5e-12               -4.237e-05           
  2.4                   4.3174e-05            7.4e-13               4.88e-12              -4.3152e-05          
  2.45                  4.3936e-05            7.4e-13               4.8e-12               -4.3914e-05          
  2.5                   4.4672e-05            7.4e-13               3.78e-12              -4.4656e-05          
  2.55                  4.5396e-05            7.8e-13               3.94e-12              -4.5372e-05          
  2.6                   4.609e-05             7.4e-13               4.88e-12              -4.6066e-05          
  2.65                  4.6766e-05            8.4e-13               5.22e-12              -4.6746e-05          
  2.7                   4.7416e-05            7.2e-13               3.76e-12              -4.7398e-05          
  2.75                  4.806e-05             7.2e-13               4.82e-12              -4.8036e-05          
  2.8                   4.8672e-05            7.8e-13               3.9e-12               -4.8652e-05          
  2.85                  4.927e-05             8.8e-13               4.48e-12              -4.9246e-05          
  2.9                   4.9848e-05            8.6e-13               4.48e-12              -4.9842e-05          
  2.95                  5.0424e-05            7.8e-13               3.6e-12               -5.0404e-05          
  3                     5.0972e-05            7.4e-13               4.22e-12              -5.0948e-05          
  3.05                  5.15e-05              7.6e-13               4.94e-12              -5.1482e-05          
  3.1                   5.201e-05             8e-13                 4.6e-12               -5.1988e-05          
  3.15                  5.2512e-05            8.2e-13               3.68e-12              -5.249e-05           
  3.2                   5.2994e-05            7.8e-13               3.5e-12               -5.2978e-05          
  3.25                  5.3466e-05            8e-13                 6.2e-12               -5.3448e-05          
  3.3                   5.393e-05             8.2e-13               4.82e-12              -5.3908e-05          
  3.35                  5.437e-05             9.4e-13               3.7e-12               -5.4348e-05          
  3.4                   5.4794e-05            9.2e-13               3.34e-12              -5.4774e-05          
  3.45                  5.521e-05             8e-13                 3.88e-12              -5.5192e-05          
  3.5                   5.5612e-05            8.2e-13               4.88e-12              -5.559e-05           
  3.55                  5.6004e-05            7.6e-13               3.36e-12              -5.5986e-05          
  3.6                   5.638e-05             8e-13                 3.12e-12              -5.6358e-05          
END_DB

BEGIN_DB
 ICCAP_VAR vb         -0.9           
 ICCAP_VAR vd         0.1            
 ICCAP_VAR vs         0              

 #vg                    id                    ig                    ib                    is                   
  -0.5                  -6e-14                -6.6e-13              -1.022e-11            2e-14                
  -0.45                 -2e-14                -2.8e-13              -8.96e-12             -1.2e-13             
  -0.4                  4e-14                 -1.6e-13              -8.06e-12             2e-14                
  -0.35                 0                     -4e-14                -6.12e-12             1e-13                
  -0.3                  8e-14                 -1.4e-13              -5.44e-12             -2e-14               
  -0.25                 -4e-14                -2e-14                -6.04e-12             1e-13                
  -0.2                  6e-14                 8e-14                 -5.3e-12              0                    
  -0.15                 2e-14                 4e-14                 -4.84e-12             1e-13                
  -0.1                  4e-14                 1.8e-13               -3.7e-12              -4e-14               
  -0.05                 2e-14                 1.8e-13               -3.58e-12             0                    
  0                     8e-14                 2.4e-13               -3.26e-12             1e-13                
  0.05                  8e-14                 3e-13                 -3.56e-12             4e-14                
  0.1                   2e-13                 2e-13                 -3e-12                -1.2e-13             
  0.15                  7.2e-13               2.6e-13               -2.52e-12             -5.6e-13             
  0.2                   2.84e-12              2.8e-13               -2.12e-12             -2.58e-12            
  0.25                  1.18e-11              4e-13                 -2.5e-12              -1.17e-11            
  0.3                   5.016e-11             3.8e-13               -2.76e-12             -4.992e-11           
  0.35                  2.1316e-10            4.2e-13               -2.6e-12              -2.1308e-10          
  0.4                   8.9218e-10            4.2e-13               -2e-12                -8.9242e-10          
  0.45                  3.6422e-09            2.6e-13               -1.3e-12              -3.6388e-09          
  0.5                   1.388e-08             4e-13                 -1e-12                -1.3858e-08          
  0.55                  4.7376e-08            3.4e-13               -2.56e-12             -4.7342e-08          
  0.6                   1.3686e-07            4.6e-13               -6.6e-13              -1.3668e-07          
  0.65                  3.338e-07             4.8e-13               -5.8e-13              -3.3364e-07          
  0.7                   6.9802e-07            5.2e-13               -1.64e-12             -6.9762e-07          
  0.75                  1.2788e-06            2.8e-13               -7.4e-13              -1.2744e-06          
  0.8                   2.0682e-06            4.4e-13               -3.8e-13              -2.065e-06           
  0.85                  3.0554e-06            5.2e-13               -5.2e-13              -3.054e-06           
  0.9                   4.2066e-06            5.6e-13               -1.64e-12             -4.2006e-06          
  0.95                  5.483e-06             5.6e-13               -1.38e-12             -5.4852e-06          
  1                     6.8536e-06            5.2e-13               3.4e-13               -6.8484e-06          
  1.05                  8.295e-06             4.8e-13               -6.4e-13              -8.29e-06            
  1.1                   9.7806e-06            5.6e-13               -1.02e-12             -9.772e-06           
  1.15                  1.1297e-05            5.8e-13               -1.12e-12             -1.12846e-05         
  1.2                   1.2816e-05            4.2e-13               6.2e-13               -1.28e-05            
  1.25                  1.4326e-05            6.6e-13               -4.6e-13              -1.431e-05           
  1.3                   1.5826e-05            5.4e-13               -5e-13                -1.5806e-05          
  1.35                  1.7292e-05            6e-13                 -1.28e-12             -1.7276e-05          
  1.4                   1.8718e-05            6e-13                 -2e-13                -1.8692e-05          
  1.45                  2.0122e-05            6.8e-13               7.2e-13               -2.01e-05            
  1.5                   2.1492e-05            6.8e-13               -5.4e-13              -2.1474e-05          
  1.55                  2.2824e-05            6.8e-13               -6.2e-13              -2.2802e-05          
  1.6                   2.4112e-05            6.2e-13               -5.8e-13              -2.4094e-05          
  1.65                  2.5374e-05            6.8e-13               3.4e-13               -2.5354e-05          
  1.7                   2.66e-05              6.4e-13               2e-13                 -2.6582e-05          
  1.75                  2.7786e-05            6.8e-13               -1e-13                -2.7766e-05          
  1.8                   2.8942e-05            7e-13                 1.2e-13               -2.8922e-05          
  1.85                  3.0044e-05            6.6e-13               -1.02e-12             -3.0026e-05          
  1.9                   3.1138e-05            7e-13                 9e-13                 -3.1134e-05          
  1.95                  3.2206e-05            7.4e-13               -1.6e-13              -3.2188e-05          
  2                     3.3236e-05            7.6e-13               -2.4e-13              -3.3214e-05          
  2.05                  3.4234e-05            7.4e-13               3.4e-13               -3.4214e-05          
  2.1                   3.5194e-05            6.4e-13               9.6e-13               -3.5168e-05          
  2.15                  3.6132e-05            7.2e-13               4.8e-13               -3.6108e-05          
  2.2                   3.7038e-05            7.2e-13               -5e-13                -3.7032e-05          
  2.25                  3.794e-05             6.4e-13               -6.6e-13              -3.792e-05           
  2.3                   3.8786e-05            6.6e-13               1.02e-12              -3.8778e-05          
  2.35                  3.962e-05             7.4e-13               4e-13                 -3.9602e-05          
  2.4                   4.0428e-05            8e-13                 3.2e-13               -4.041e-05           
  2.45                  4.1212e-05            8e-13                 -4.8e-13              -4.1192e-05          
  2.5                   4.1978e-05            7.4e-13               2.4e-13               -4.1956e-05          
  2.55                  4.2716e-05            7.8e-13               6e-13                 -4.2698e-05          
  2.6                   4.3436e-05            8.2e-13               3.4e-13               -4.34e-05            
  2.65                  4.4118e-05            8.2e-13               -6.4e-13              -4.4096e-05          
  2.7                   4.479e-05             7.4e-13               8.6e-13               -4.477e-05           
  2.75                  4.5446e-05            7.8e-13               -6e-14                -4.5426e-05          
  2.8                   4.608e-05             8.2e-13               1.4e-13               -4.606e-05           
  2.85                  4.6698e-05            8e-13                 -2.6e-13              -4.668e-05           
  2.9                   4.7298e-05            8.4e-13               4e-14                 -4.7272e-05          
  2.95                  4.787e-05             7.6e-13               5.4e-13               -4.7848e-05          
  3                     4.8434e-05            8.6e-13               6.4e-13               -4.8412e-05          
  3.05                  4.8982e-05            8.2e-13               2.8e-13               -4.896e-05           
  3.1                   4.9512e-05            9.4e-13               -1.06e-12             -4.949e-05           
  3.15                  5.0026e-05            8.6e-13               2.8e-13               -5.0006e-05          
  3.2                   5.0524e-05            7.4e-13               1.28e-12              -5.0504e-05          
  3.25                  5.1008e-05            8.2e-13               3.8e-13               -5.0986e-05          
  3.3                   5.148e-05             8.6e-13               4e-14                 -5.146e-05           
  3.35                  5.1934e-05            7.6e-13               -1.6e-13              -5.1914e-05          
  3.4                   5.2378e-05            8.8e-13               8.4e-13               -5.2354e-05          
  3.45                  5.2806e-05            7.8e-13               9.6e-13               -5.2782e-05          
