! VERSION = 6.00
BEGIN_HEADER
 ICCAP_INPUTS
  vd         V  D GROUND SMU1 0.1 LIN        1    0          3.6        37   0.1       
  vg         V  G GROUND SMU2 0.001 LIN        2    0.732      3.6        5    0.717     
  vb         V  B GROUND SMU4 0.1 CON        0
  vs         V  S GROUND SMU3 0.1 CON        0
 ICCAP_OUTPUTS
  id         I  D GROUND SMU1 B
  ig         I  G GROUND SMU2 B
  ib         I  B GROUND SMU4 B
  is         I  S GROUND SMU3 B
 ICCAP_VALUES
  MASTER_SETUP_TYPE "~dc_idvd~"
  LINVT_VALUE "|idvg|100.0n|100.0m|1.000m|5|3.600|"
  LISTVT_VALUE ""
  TYPE "1"
  TEMP " 27.0000 "
  IS_TNOM " 1.00000 "
  MAIN.W "10.00u"
  MAIN.L "1.200u"
  MAIN.AD "3.400p"
  MAIN.AS "3.400p"
  MAIN.PD "20.68u"
  MAIN.PS "20.68u"
  MAIN.NF "1.000"
  MAIN.M "1"
  MAIN.NRD "0.000"
  MAIN.NRS "0.000"
  MAIN.LDRIFT1 "1E-06"
  MAIN.LDRIFT2 "1E-06"
  MAIN.SA "0.000"
  MAIN.SB "0.000"
  MAIN.SD "0.000"
  MAIN.SCA "0.000"
  MAIN.SCB "0.000"
  MAIN.SCC "0.000"
  MAIN.SC "0.000"
  MODULE "S556"
  PIN_D "12"
  PIN_G "9"
  PIN_S "10"
  PIN_B "11"
  PIN_E ""
  PIN_6 ""
  XY_ID ""
  FUNC "L Scale"
  STI "SA ref"
  WPE "WPE ref"
  COMMENT ""
  DIS_MEAS ""
  TypeTCI "10"
END_HEADER

BEGIN_DB
 ICCAP_VAR vg         0.732          
 ICCAP_VAR vb         0              
 ICCAP_VAR vs         0              

 #vd                    id                    ig                    ib                    is                   
  0                     3.3902e-09            4e-14                 2.538e-11             -3.0702e-09          
  0.1                   3.807e-06             -8e-14                2.206e-11             -3.8022e-06          
  0.2                   4.2864e-06            -2e-14                2.19e-11              -4.285e-06           
  0.3                   4.3764e-06            8e-14                 1.87e-11              -4.372e-06           
  0.4                   4.4262e-06            -1e-13                1.908e-11             -4.4228e-06          
  0.5                   4.4656e-06            -8e-14                1.966e-11             -4.4616e-06          
  0.6                   4.4998e-06            4e-14                 1.754e-11             -4.4966e-06          
  0.7                   4.5306e-06            -8e-14                1.71e-11              -4.5268e-06          
  0.8                   4.5588e-06            -1.2e-13              1.772e-11             -4.5558e-06          
  0.9                   4.5842e-06            -1.2e-13              1.648e-11             -4.5804e-06          
  1                     4.6082e-06            -8e-14                1.596e-11             -4.6056e-06          
  1.1                   4.632e-06             -8e-14                1.612e-11             -4.6288e-06          
  1.2                   4.655e-06             -8e-14                1.542e-11             -4.6512e-06          
  1.3                   4.675e-06             -8e-14                1.458e-11             -4.673e-06           
  1.4                   4.6956e-06            -2.6e-13              1.196e-11             -4.6918e-06          
  1.5                   4.7138e-06            -1.8e-13              3.92e-12              -4.7088e-06          
  1.6                   4.7324e-06            0                     -1.836e-11            -4.7278e-06          
  1.7                   4.7506e-06            -1e-13                -6.756e-11            -4.7478e-06          
  1.8                   4.7698e-06            -4e-14                -1.7196e-10           -4.764e-06           
  1.9                   4.7862e-06            -1.4e-13              -3.6696e-10           -4.7828e-06          
  2                     4.8042e-06            -1e-13                -7.006e-10            -4.7996e-06          
  2.1                   4.8236e-06            0                     -1.2372e-09           -4.8168e-06          
  2.2                   4.84e-06              1.2e-13               -2.0626e-09           -4.8338e-06          
  2.3                   4.8572e-06            6e-14                 -3.2724e-09           -4.849e-06           
  2.4                   4.8744e-06            -1e-13                -4.9898e-09           -4.8652e-06          
  2.5                   4.8916e-06            -1.6e-13              -7.3778e-09           -4.882e-06           
  2.6                   4.9124e-06            -1.4e-13              -1.0624e-08           -4.8972e-06          
  2.7                   4.9308e-06            4e-14                 -1.4974e-08           -4.9148e-06          
  2.8                   4.9534e-06            6e-14                 -2.0734e-08           -4.9284e-06          
  2.9                   4.9746e-06            -1e-13                -2.8234e-08           -4.9414e-06          
  3                     4.9962e-06            -6e-14                -3.7972e-08           -4.956e-06           
  3.1                   5.025e-06             -2e-14                -5.0328e-08           -4.9708e-06          
  3.2                   5.0524e-06            0                     -6.6028e-08           -4.9846e-06          
  3.3                   5.0854e-06            -2e-14                -8.5444e-08           -4.9982e-06          
  3.4                   5.1244e-06            -1.2e-13              -1.09292e-07          -5.0112e-06          
  3.5                   5.1676e-06            -1.6e-13              -1.3794e-07           -5.0248e-06          
  3.6                   5.2132e-06            -1e-13                -1.7204e-07           -5.038e-06           
END_DB

BEGIN_DB
 ICCAP_VAR vg         1.449          
 ICCAP_VAR vb         0              
 ICCAP_VAR vs         0              

 #vd                    id                    ig                    ib                    is                   
  0                     6.5994e-08            4.4e-13               8.12e-12              -6.1564e-08          
  0.1                   9.0916e-05            2.2e-13               7.38e-12              -9.0894e-05          
  0.2                   0.00016354            3.4e-13               6.72e-12              -0.00016314          
  0.3                   0.00021782            2e-13                 6.98e-12              -0.00021742          
  0.4                   0.00025524            3e-13                 7.38e-12              -0.00025486          
  0.5                   0.00027808            1.6e-13               6.04e-12              -0.0002777           
  0.6                   0.00029026            1.6e-13               6.76e-12              -0.00028988          
  0.7                   0.00029634            8e-14                 7.08e-12              -0.00029596          
  0.8                   0.00029958            1.2e-13               5.78e-12              -0.00029916          
  0.9                   0.00030156            1.6e-13               6.48e-12              -0.00030116          
  1                     0.000303              1.6e-13               6.16e-12              -0.0003026           
  1.1                   0.00030414            2.4e-13               5.82e-12              -0.00030376          
  1.2                   0.00030512            -4e-14                6.52e-12              -0.00030474          
  1.3                   0.00030602            4e-14                 6.4e-12               -0.00030564          
  1.4                   0.00030682            1e-13                 5.82e-12              -0.00030642          
  1.5                   0.00030756            1.8e-13               5.94e-12              -0.00030718          
  1.6                   0.00030824            8e-14                 3.42e-12              -0.00030788          
  1.7                   0.00030894            6e-14                 -4.88e-12             -0.00030852          
  1.8                   0.00030954            2e-14                 -4.366e-11            -0.00030914          
  1.9                   0.00031012            1.8e-13               -1.906e-10            -0.00030974          
  2                     0.0003107             1e-13                 -6.3804e-10           -0.0003103           
  2.1                   0.00031122            1.4e-13               -1.8198e-09           -0.00031084          
  2.2                   0.00031178            1.8e-13               -4.5456e-09           -0.00031138          
  2.3                   0.00031234            1.2e-13               -1.01444e-08          -0.00031192          
  2.4                   0.00031282            1.4e-13               -2.0624e-08           -0.00031238          
  2.5                   0.0003133             1.4e-13               -3.881e-08            -0.00031288          
  2.6                   0.0003138             1.2e-13               -6.8458e-08           -0.00031338          
  2.7                   0.00031432            1.8e-13               -1.14186e-07          -0.00031384          
  2.8                   0.00031486            1.6e-13               -1.82e-07             -0.0003143           
  2.9                   0.0003154             8e-14                 -2.7916e-07           -0.00031474          
  3                     0.000316              6e-14                 -4.1526e-07           -0.00031518          
  3.1                   0.00031662            4e-14                 -6.014e-07            -0.00031558          
  3.2                   0.00031728            8e-14                 -8.5198e-07           -0.00031606          
  3.3                   0.00031816            -4e-14                -1.183e-06            -0.00031654          
  3.4                   0.00031898            1.2e-13               -1.6188e-06           -0.00031698          
  3.5                   0.00032               1.2e-13               -2.183e-06            -0.00031738          
  3.6                   0.00032114            -4e-14                -2.9048e-06           -0.00031788          
END_DB

BEGIN_DB
 ICCAP_VAR vg         2.166          
 ICCAP_VAR vb         0              
 ICCAP_VAR vs         0              

 #vd                    id                    ig                    ib                    is                   
  0                     1.1664e-07            5.8e-13               5.58e-12              -1.03498e-07         
  0.1                   0.00018012            2.2e-13               5.4e-12               -0.00017972          
  0.2                   0.00034402            4.2e-13               3.92e-12              -0.00034364          
  0.3                   0.00049042            3e-13                 3.94e-12              -0.00049004          
  0.4                   0.00061906            1.8e-13               4.78e-12              -0.00061866          
  0.5                   0.0007292             2.6e-13               3.96e-12              -0.00072884          
  0.6                   0.0008208             3.2e-13               4e-12                 -0.0008204           
  0.7                   0.00089454            2.4e-13               4.8e-12               -0.00089418          
  0.8                   0.00095136            3.4e-13               3.48e-12              -0.00095096          
  0.9                   0.00099278            3.4e-13               3.9e-12               -0.00099236          
  1                     0.00102134            3.2e-13               4.12e-12              -0.00102098          
  1.1                   0.00104008            1e-13                 3.14e-12              -0.00103968          
  1.2                   0.00105194            3e-13                 4.26e-12              -0.00105156          
  1.3                   0.0010596             1.8e-13               3.6e-12               -0.00105926          
  1.4                   0.00106476            1.6e-13               3.56e-12              -0.00106438          
  1.5                   0.00106856            2e-13                 4.22e-12              -0.00106816          
  1.6                   0.00107152            2e-13                 3.62e-12              -0.00107118          
  1.7                   0.00107398            1.8e-13               3.2e-12               -0.00107356          
  1.8                   0.001076              2e-13                 3.98e-12              -0.00107566          
  1.9                   0.00107786            2.6e-13               2.02e-12              -0.00107752          
  2                     0.00107958            2.6e-13               -5.26e-12             -0.00107914          
  2.1                   0.001081              1.2e-13               -3.56e-11             -0.00108062          
  2.2                   0.00108244            1e-13                 -1.5146e-10           -0.0010821           
  2.3                   0.00108382            0                     -5.3246e-10           -0.0010834           
  2.4                   0.00108506            2e-13                 -1.6232e-09           -0.0010838           
  2.5                   0.0010862             1.6e-13               -4.4064e-09           -0.001085            
  2.6                   0.00108732            1.6e-13               -1.07572e-08          -0.0010862           
  2.7                   0.00108844            1.2e-13               -2.3878e-08           -0.0010872           
  2.8                   0.00108946            4e-14                 -4.8802e-08           -0.0010884           
  2.9                   0.00109052            2e-13                 -9.2812e-08           -0.0010894           
  3                     0.0010924             2.6e-13               -1.66e-07             -0.0010902           
  3.1                   0.0010934             2e-13                 -2.8184e-07           -0.0010912           
  3.2                   0.0010946             8e-14                 -4.571e-07            -0.0010922           
  3.3                   0.0010958             1.8e-13               -7.125e-07            -0.001093            
  3.4                   0.001097              1.8e-13               -1.07574e-06          -0.0010938           
  3.5                   0.0010984             2e-14                 -1.5778e-06           -0.0010946           
  3.6                   0.0010998             6e-14                 -2.2608e-06           -0.0010956           
END_DB

BEGIN_DB
 ICCAP_VAR vg         2.883          
 ICCAP_VAR vb         0              
 ICCAP_VAR vs         0              

 #vd                    id                    ig                    ib                    is                   
  0                     1.501e-07             4.8e-13               5.82e-12              -1.16834e-07         
  0.1                   0.00024358            2.4e-13               3.28e-12              -0.00024318          
  0.2                   0.00047466            3.2e-13               3.24e-12              -0.00047428          
  0.3                   0.00069134            4e-13                 3.02e-12              -0.00069096          
  0.4                   0.00089296            2.8e-13               2.28e-12              -0.00089258          
  0.5                   0.00107796            2.4e-13               3.62e-12              -0.00107758          
  0.6                   0.0012462             3e-13                 3.72e-12              -0.001244            
  0.7                   0.0013956             2.8e-13               3.1e-12               -0.0013936           
  0.8                   0.0015272             3.6e-13               3.02e-12              -0.001525            
  0.9                   0.0016404             2.6e-13               3.12e-12              -0.0016384           
  1                     0.0017364             1.8e-13               2.28e-12              -0.0017344           
  1.1                   0.0018158             3.2e-13               2.78e-12              -0.0018138           
  1.2                   0.0018796             3e-13                 3.9e-12               -0.0018774           
  1.3                   0.0019292             3.2e-13               2.14e-12              -0.0019272           
  1.4                   0.0019668             3.2e-13               2.28e-12              -0.0019648           
  1.5                   0.0019942             2.4e-13               3.44e-12              -0.0019922           
  1.6                   0.0020136             0                     2.62e-12              -0.0020116           
  1.7                   0.0020272             2.8e-13               2.76e-12              -0.0020252           
  1.8                   0.0020368             4.4e-13               2.78e-12              -0.0020348           
  1.9                   0.0020438             2.2e-13               1.56e-12              -0.0020416           
  2                     0.002049              2.8e-13               3.16e-12              -0.0020468           
  2.1                   0.002053              1.6e-13               2.14e-12              -0.002051            
  2.2                   0.0020562             1.6e-13               -2.2e-13              -0.0020542           
  2.3                   0.0020588             6e-14                 -4.24e-12             -0.0020568           
  2.4                   0.0020612             1.2e-13               -2.902e-11            -0.002059            
  2.5                   0.0020632             1.2e-13               -1.1844e-10           -0.002061            
  2.6                   0.002065              1.8e-13               -4.0278e-10           -0.002063            
  2.7                   0.0020666             2.2e-13               -1.22e-09             -0.0020644           
  2.8                   0.002068              1.6e-13               -3.343e-09            -0.002066            
  2.9                   0.0020694             2e-13                 -8.3248e-09           -0.0020672           
  3                     0.0020706             1.4e-13               -1.9076e-08           -0.0020686           
  3.1                   0.0020718             1.2e-13               -4.0518e-08           -0.0020696           
  3.2                   0.0020728             1.8e-13               -8.0358e-08           -0.0020706           
  3.3                   0.0020738             2e-13                 -1.4964e-07           -0.0020716           
  3.4                   0.002075              1.6e-13               -2.647e-07            -0.0020724           
  3.5                   0.0020758             1.4e-13               -4.4614e-07           -0.0020734           
  3.6                   0.002077              2e-13                 -7.2136e-07           -0.0020742           
END_DB

BEGIN_DB
 ICCAP_VAR vg         3.6            
 ICCAP_VAR vb         0              
 ICCAP_VAR vs         0              

 #vd                    id                    ig                    ib                    is                   
  0                     1.6098e-07            6.6e-13               3.26e-12              -9.662e-08           
  0.1                   0.0002825             4.2e-13               2.6e-12               -0.0002821           
  0.2                   0.0005559             2.8e-13               2.12e-12              -0.0005555           
  0.3                   0.00081816            3.6e-13               3.06e-12              -0.00081776          
  0.4                   0.00106868            3.8e-13               1.76e-12              -0.00106834          
  0.5                   0.0013066             3.6e-13               2.56e-12              -0.0013046           
  0.6                   0.0015284             2.8e-13               2.78e-12              -0.0015264           
  0.7                   0.001735              3e-13                 2.74e-12              -0.001733            
  0.8                   0.0019252             3.6e-13               1.92e-12              -0.0019232           
