! VERSION = 6.00
BEGIN_HEADER
 ICCAP_INPUTS
  vd         V  D GROUND SMU1 0.1 LIN        1    0          3.6        37   0.1       
  vg         V  G GROUND SMU2 0.001 LIST       2 3 0.443 0.643 0.843
  vb         V  B GROUND SMU4 0.1 CON        0
  vs         V  S GROUND SMU3 0.1 CON        0
 ICCAP_OUTPUTS
  id         I  D GROUND SMU1 B
  ig         I  G GROUND SMU2 B
  ib         I  B GROUND SMU4 B
  is         I  S GROUND SMU3 B
 ICCAP_VALUES
  MASTER_SETUP_TYPE "~dc_idvd~"
  LINVT_VALUE ""
  LISTVT_VALUE "|idvg|100.0n|-200.0m|1.000m|3|200.0m|200.0m|"
  TYPE "1"
  TEMP " 27.0000 "
  IS_TNOM " 1.00000 "
  MAIN.W "300.0n"
  MAIN.L "500.0n"
  MAIN.AD "102.0f"
  MAIN.AS "102.0f"
  MAIN.PD "1.280u"
  MAIN.PS "1.280u"
  MAIN.NF "1.000"
  MAIN.M "1"
  MAIN.NRD "0.000"
  MAIN.NRS "0.000"
  MAIN.LDRIFT1 "1E-06"
  MAIN.LDRIFT2 "1E-06"
  MAIN.SA "0.000"
  MAIN.SB "0.000"
  MAIN.SD "0.000"
  MAIN.SCA "0.000"
  MAIN.SCB "0.000"
  MAIN.SCC "0.000"
  MAIN.SC "0.000"
  MODULE "S560"
  PIN_D "14"
  PIN_G "7"
  PIN_S "8"
  PIN_B "13"
  PIN_E ""
  PIN_6 ""
  XY_ID ""
  FUNC "Small"
  STI "SA ref"
  WPE "WPE ref"
  COMMENT ""
  DIS_MEAS ""
  TypeTCI "10"
END_HEADER

BEGIN_DB
 ICCAP_VAR vg         0.443          
 ICCAP_VAR vb         0              
 ICCAP_VAR vs         0              

 #vd                    id                    ig                    ib                    is                   
  0                     1.8e-13               -4.8e-13              2.68e-12              -1.4e-13             
  0.1                   1.536e-10             -5.6e-13              3.14e-12              -1.5282e-10          
  0.2                   1.6658e-10            -5.8e-13              1.76e-12              -1.6638e-10          
  0.3                   1.7672e-10            -3.8e-13              3.7e-12               -1.7642e-10          
  0.4                   1.8616e-10            -5.2e-13              1.48e-12              -1.8558e-10          
  0.5                   1.9596e-10            -4.8e-13              2.1e-12               -1.9498e-10          
  0.6                   2.0656e-10            -4e-13                2.16e-12              -2.0382e-10          
  0.7                   2.1396e-10            -3e-13                1.94e-12              -2.1432e-10          
  0.8                   2.2306e-10            -2.6e-13              2.5e-12               -2.2268e-10          
  0.9                   2.3308e-10            -2.8e-13              1.8e-12               -2.3174e-10          
  1                     2.4254e-10            -1.2e-13              2.88e-12              -2.4162e-10          
  1.1                   2.5194e-10            -2.2e-13              1.48e-12              -2.5088e-10          
  1.2                   2.6196e-10            -4.4e-13              3.12e-12              -2.6116e-10          
  1.3                   2.7394e-10            -3.4e-13              2.02e-12              -2.7156e-10          
  1.4                   2.8304e-10            -2.2e-13              2.26e-12              -2.8054e-10          
  1.5                   2.9616e-10            -1.6e-13              2.32e-12              -2.924e-10           
  1.6                   3.0514e-10            -3.4e-13              1.52e-12              -3.0508e-10          
  1.7                   3.1378e-10            -6e-14                2.24e-12              -3.1496e-10          
  1.8                   3.3038e-10            -1e-13                2.38e-12              -3.2596e-10          
  1.9                   3.3946e-10            -1.8e-13              2.62e-12              -3.3818e-10          
  2                     3.512e-10             -1.4e-13              1.88e-12              -3.4998e-10          
  2.1                   3.6528e-10            -4.2e-13              2.38e-12              -3.6198e-10          
  2.2                   3.7644e-10            -1.6e-13              1.82e-12              -3.7432e-10          
  2.3                   3.9288e-10            -1.6e-13              1.76e-12              -3.8776e-10          
  2.4                   4.0536e-10            -2.6e-13              1.18e-12              -4.022e-10           
  2.5                   4.1816e-10            -1.6e-13              2.6e-13               -4.1558e-10          
  2.6                   4.3336e-10            -2.4e-13              4.4e-13               -4.2994e-10          
  2.7                   4.491e-10             -4e-14                -1.4e-12              -4.4394e-10          
  2.8                   4.6426e-10            -4e-14                -1.28e-12             -4.5916e-10          
  2.9                   4.8324e-10            -4e-14                -3.32e-12             -4.7474e-10          
  3                     5e-10                 -2e-13                -4.54e-12             -4.9106e-10          
  3.1                   5.1814e-10            -1.6e-13              -8.4e-12              -5.0646e-10          
  3.2                   5.417e-10             -2e-13                -1.056e-11            -5.2486e-10          
  3.3                   5.5956e-10            -2.6e-13              -1.472e-11            -5.4032e-10          
  3.4                   5.8458e-10            -2.4e-13              -1.828e-11            -5.623e-10           
  3.5                   6.1414e-10            2e-14                 -2.488e-11            -5.7652e-10          
  3.6                   6.3112e-10            6e-14                 -3.108e-11            -6.0338e-10          
END_DB

BEGIN_DB
 ICCAP_VAR vg         0.643          
 ICCAP_VAR vb         0              
 ICCAP_VAR vs         0              

 #vd                    id                    ig                    ib                    is                   
  0                     5.2e-11               4e-14                 2.88e-12              -5.44e-11            
  0.1                   2.9566e-08            -8e-14                1.92e-12              -2.9534e-08          
  0.2                   3.3434e-08            -1e-13                1e-12                 -3.3388e-08          
  0.3                   3.5674e-08            3.2e-13               2.8e-12               -3.5678e-08          
  0.4                   3.7758e-08            2.2e-13               2.16e-12              -3.7748e-08          
  0.5                   3.9716e-08            1.8e-13               1.68e-12              -3.9716e-08          
  0.6                   4.1598e-08            2e-14                 1.22e-12              -4.1596e-08          
  0.7                   4.3546e-08            2e-14                 1.12e-12              -4.3472e-08          
  0.8                   4.5328e-08            0                     2.26e-12              -4.5312e-08          
  0.9                   4.7206e-08            -4e-14                1.14e-12              -4.714e-08           
  1                     4.9046e-08            -1.8e-13              1.06e-12              -4.8992e-08          
  1.1                   5.0852e-08            2e-14                 1.5e-12               -5.083e-08           
  1.2                   5.2682e-08            2e-14                 2.38e-12              -5.2602e-08          
  1.3                   5.4482e-08            0                     2.2e-12               -5.435e-08           
  1.4                   5.643e-08             8e-14                 1.36e-12              -5.6436e-08          
  1.5                   5.8398e-08            -2.2e-13              8.6e-13               -5.8256e-08          
  1.6                   6.023e-08             -2.8e-13              6.6e-13               -6.028e-08           
  1.7                   6.215e-08             1e-13                 2e-14                 -6.2112e-08          
  1.8                   6.4276e-08            1.6e-13               -3.74e-12             -6.4302e-08          
  1.9                   6.6306e-08            -4e-14                -8.74e-12             -6.6148e-08          
  2                     6.8202e-08            4e-14                 -1.71e-11             -6.8256e-08          
  2.1                   7.033e-08             -2e-13                -2.854e-11            -7.0276e-08          
  2.2                   7.252e-08             -2.4e-13              -4.83e-11             -7.2304e-08          
  2.3                   7.4464e-08            -1.6e-13              -7.724e-11            -7.4486e-08          
  2.4                   7.6658e-08            -1.2e-13              -1.1542e-10           -7.648e-08           
  2.5                   7.8602e-08            -4e-14                -1.7024e-10           -7.8792e-08          
  2.6                   8.111e-08             1e-13                 -2.459e-10            -8.0948e-08          
  2.7                   8.348e-08             0                     -3.4726e-10           -8.317e-08           
  2.8                   8.5716e-08            -6e-14                -4.8374e-10           -8.5218e-08          
  2.9                   8.834e-08             -2e-13                -6.6182e-10           -8.7502e-08          
  3                     9.0796e-08            2e-14                 -8.9502e-10           -8.9854e-08          
  3.1                   9.3456e-08            -2.2e-13              -1.1982e-09           -9.2246e-08          
  3.2                   9.6082e-08            0                     -1.5806e-09           -9.4156e-08          
  3.3                   9.902e-08             -4e-14                -2.0632e-09           -9.7034e-08          
  3.4                   1.0216e-07            -4e-14                -2.663e-09            -9.9458e-08          
  3.5                   1.054e-07             -1e-13                -3.382e-09            -1.01986e-07         
  3.6                   1.0866e-07            -1.2e-13              -4.2406e-09           -1.04072e-07         
END_DB

BEGIN_DB
 ICCAP_VAR vg         0.843          
 ICCAP_VAR vb         0              
 ICCAP_VAR vs         0              

 #vd                    id                    ig                    ib                    is                   
  0                     6.5442e-10            1.6e-13               2.16e-12              -6.819e-10           
  0.1                   6.8752e-07            2e-14                 2.4e-12               -6.8766e-07          
  0.2                   8.8356e-07            -8e-14                2.1e-12               -8.8372e-07          
  0.3                   9.5554e-07            6e-14                 9.2e-13               -9.5704e-07          
  0.4                   1.00082e-06           2e-14                 1.08e-12              -1.0007e-06          
  0.5                   1.03592e-06           1.2e-13               1.16e-12              -1.03608e-06         
  0.6                   1.06728e-06           -2e-14                1.9e-12               -1.06702e-06         
  0.7                   1.09584e-06           -4e-14                1.64e-12              -1.09584e-06         
  0.8                   1.12268e-06           4e-14                 5.2e-13               -1.1226e-06          
  0.9                   1.15e-06              -2e-14                1.68e-12              -1.1462e-06          
  1                     1.1736e-06            -8e-14                2.04e-12              -1.1694e-06          
  1.1                   1.1962e-06            -4e-14                1.42e-12              -1.1922e-06          
  1.2                   1.2194e-06            -1.8e-13              1.16e-12              -1.2156e-06          
  1.3                   1.2412e-06            -2e-14                2.58e-12              -1.2372e-06          
  1.4                   1.2628e-06            -6e-14                7.2e-13               -1.2594e-06          
  1.5                   1.2836e-06            1.4e-13               -1.5e-12              -1.2796e-06          
  1.6                   1.304e-06             1.8e-13               -4.34e-12             -1.301e-06           
  1.7                   1.3256e-06            -6e-14                -1.682e-11            -1.3226e-06          
  1.8                   1.3458e-06            -1.8e-13              -4.084e-11            -1.3412e-06          
  1.9                   1.366e-06             0                     -8.542e-11            -1.3624e-06          
  2                     1.3856e-06            1e-13                 -1.664e-10            -1.382e-06           
  2.1                   1.4052e-06            1.2e-13               -2.9918e-10           -1.4008e-06          
  2.2                   1.425e-06             6e-14                 -5.046e-10            -1.4204e-06          
  2.3                   1.4448e-06            -6e-14                -8.1498e-10           -1.4402e-06          
  2.4                   1.4656e-06            -2e-14                -1.2616e-09           -1.46e-06            
  2.5                   1.4856e-06            1.4e-13               -1.8954e-09           -1.4792e-06          
  2.6                   1.5058e-06            0                     -2.769e-09            -1.5e-06             
  2.7                   1.5262e-06            0                     -3.9528e-09           -1.5178e-06          
  2.8                   1.5466e-06            -2e-14                -5.555e-09            -1.5374e-06          
  2.9                   1.5726e-06            -2e-14                -7.6642e-09           -1.5604e-06          
  3                     1.5938e-06            0                     -1.043e-08            -1.5794e-06          
  3.1                   1.6174e-06            -2.2e-13              -1.3998e-08           -1.599e-06           
  3.2                   1.641e-06             -1.8e-13              -1.8564e-08           -1.6184e-06          
  3.3                   1.666e-06             -1e-13                -2.4308e-08           -1.638e-06           
  3.4                   1.6936e-06            -1.8e-13              -3.1434e-08           -1.6572e-06          
  3.5                   1.7216e-06            -8e-14                -4.0192e-08           -1.6774e-06          
  3.6                   1.752e-06             -4e-14                -5.0788e-08           -1.6966e-06          
END_DB

