! VERSION = 6.00
BEGIN_HEADER
 ICCAP_INPUTS
  vd         V  D GROUND SMU1 0.1 LIN        1    0          3.6        37   0.1       
  vg         V  G GROUND SMU2 0.001 LIST       2 3 1.148 1.348 1.548
  vb         V  B GROUND SMU4 0.1 CON        -3.6
  vs         V  S GROUND SMU3 0.1 CON        0
 ICCAP_OUTPUTS
  id         I  D GROUND SMU1 B
  ig         I  G GROUND SMU2 B
  ib         I  B GROUND SMU4 B
  is         I  S GROUND SMU3 B
 ICCAP_VALUES
  MASTER_SETUP_TYPE "~dc_idvd~"
  LINVT_VALUE ""
  LISTVT_VALUE "|idvg|100.0n|-200.0m|1.000m|3|200.0m|200.0m|"
  TYPE "1"
  TEMP " 27.0000 "
  IS_TNOM " 1.00000 "
  MAIN.W "300.0n"
  MAIN.L "10.00u"
  MAIN.AD "102.0f"
  MAIN.AS "102.0f"
  MAIN.PD "1.280u"
  MAIN.PS "1.280u"
  MAIN.NF "1.000"
  MAIN.M "1"
  MAIN.NRD "0.000"
  MAIN.NRS "0.000"
  MAIN.LDRIFT1 "1E-06"
  MAIN.LDRIFT2 "1E-06"
  MAIN.SA "0.000"
  MAIN.SB "0.000"
  MAIN.SD "0.000"
  MAIN.SCA "0.000"
  MAIN.SCB "0.000"
  MAIN.SCC "0.000"
  MAIN.SC "0.000"
  MODULE "S547"
  PIN_D "14"
  PIN_G "7"
  PIN_S "8"
  PIN_B "13"
  PIN_E ""
  PIN_6 ""
  XY_ID ""
  FUNC "Narrow"
  STI "SA ref"
  WPE "WPE ref"
  COMMENT ""
  DIS_MEAS ""
  TypeTCI "10"
END_HEADER

BEGIN_DB
 ICCAP_VAR vg         1.148          
 ICCAP_VAR vb         -3.6           
 ICCAP_VAR vs         0              

 #vd                    id                    ig                    ib                    is                   
  0                     -5.2e-13              -4e-14                -1.868e-11            1.4e-13              
  0.1                   1.048e-11             -2.2e-13              -1.738e-11            -1.046e-11           
  0.2                   1.096e-11             -1.6e-13              -1.502e-11            -1.072e-11           
  0.3                   1.11e-11              -1e-13                -1.26e-11             -1.086e-11           
  0.4                   1.122e-11             -1.4e-13              -1.142e-11            -1.074e-11           
  0.5                   1.132e-11             -1e-13                -1.026e-11            -1.082e-11           
  0.6                   1.136e-11             -1.8e-13              -8.44e-12             -1.068e-11           
  0.7                   1.144e-11             -1e-13                -8.02e-12             -1.068e-11           
  0.8                   1.144e-11             -1e-13                -8.3e-12              -1.072e-11           
  0.9                   1.152e-11             8e-14                 -7.94e-12             -1.078e-11           
  1                     1.15e-11              2.4e-13               -7.02e-12             -1.092e-11           
  1.1                   1.166e-11             -1e-13                -6.28e-12             -1.06e-11            
  1.2                   1.158e-11             -8e-14                -6.12e-12             -1.066e-11           
  1.3                   1.178e-11             4e-14                 -6.54e-12             -1.08e-11            
  1.4                   1.17e-11              -2e-14                -4.72e-12             -1.086e-11           
  1.5                   1.17e-11              1.6e-13               -5.32e-12             -1.088e-11           
  1.6                   1.178e-11             1.6e-13               -5.78e-12             -1.08e-11            
  1.7                   1.182e-11             -8e-14                -5.36e-12             -1.062e-11           
  1.8                   1.184e-11             -1e-13                -3.86e-12             -1.08e-11            
  1.9                   1.188e-11             0                     -5.4e-12              -1.072e-11           
  2                     1.186e-11             1.2e-13               -5.26e-12             -1.084e-11           
  2.1                   1.19e-11              1e-13                 -4e-12                -1.084e-11           
  2.2                   1.192e-11             6e-14                 -4.76e-12             -1.078e-11           
  2.3                   1.196e-11             0                     -4.1e-12              -1.078e-11           
  2.4                   1.196e-11             1e-13                 -4.4e-12              -1.082e-11           
  2.5                   1.202e-11             -1e-13                -3.74e-12             -1.06e-11            
  2.6                   1.204e-11             1.8e-13               -4.44e-12             -1.088e-11           
  2.7                   1.202e-11             -1.4e-13              -5.24e-12             -1.078e-11           
  2.8                   1.212e-11             0                     -3.28e-12             -1.088e-11           
  2.9                   1.21e-11              -1.2e-13              -3.56e-12             -1.078e-11           
  3                     1.208e-11             -1.8e-13              -4.1e-12              -1.072e-11           
  3.1                   1.22e-11              1e-13                 -3.98e-12             -1.088e-11           
  3.2                   1.222e-11             1.2e-13               -3.32e-12             -1.078e-11           
  3.3                   1.226e-11             0                     -3.48e-12             -1.074e-11           
  3.4                   1.23e-11              1e-13                 -3.62e-12             -1.088e-11           
  3.5                   1.248e-11             -6e-14                -3.94e-12             -1.074e-11           
  3.6                   1.244e-11             -6e-14                -2.48e-12             -1.1e-11             
END_DB

BEGIN_DB
 ICCAP_VAR vg         1.348          
 ICCAP_VAR vb         -3.6           
 ICCAP_VAR vs         0              

 #vd                    id                    ig                    ib                    is                   
  0                     3.58e-12              2e-13                 -3.22e-12             -4.3e-12             
  0.1                   2.8556e-09            1.4e-13               -2.86e-12             -2.8546e-09          
  0.2                   3.0024e-09            3e-13                 -2.14e-12             -2.9986e-09          
  0.3                   3.0088e-09            0                     -3.42e-12             -3.0054e-09          
  0.4                   3.0018e-09            -6e-14                -3.7e-12              -2.9994e-09          
  0.5                   3.0072e-09            3e-13                 -3.92e-12             -3.0118e-09          
  0.6                   3.015e-09             0                     -2.58e-12             -3.0126e-09          
  0.7                   3.015e-09             1e-13                 -2.38e-12             -3.0128e-09          
  0.8                   3.013e-09             -1e-13                -3.92e-12             -3.0132e-09          
  0.9                   3.0174e-09            6e-14                 -3.86e-12             -3.0144e-09          
  1                     3.018e-09             4e-14                 -2.84e-12             -3.0132e-09          
  1.1                   3.0214e-09            1e-13                 -3.06e-12             -3.0194e-09          
  1.2                   3.0206e-09            4e-14                 -2.88e-12             -3.0188e-09          
  1.3                   3.0228e-09            -2e-14                -3.48e-12             -3.0176e-09          
  1.4                   3.023e-09             8e-14                 -2.7e-12              -3.0206e-09          
  1.5                   3.0258e-09            6e-14                 -3.12e-12             -3.0178e-09          
  1.6                   3.0208e-09            1.2e-13               -2.3e-12              -3.0204e-09          
  1.7                   3.024e-09             6e-14                 -1.94e-12             -3.0206e-09          
  1.8                   3.0228e-09            1.8e-13               -3.52e-12             -3.0228e-09          
  1.9                   3.0242e-09            1.2e-13               -3.76e-12             -3.0238e-09          
  2                     3.0238e-09            6e-14                 -2.74e-12             -3.0182e-09          
  2.1                   3.0248e-09            2e-14                 -1.82e-12             -3.0188e-09          
  2.2                   3.0232e-09            -6e-14                -3.5e-12              -3.0192e-09          
  2.3                   3.0256e-09            6e-14                 -4.74e-12             -3.0232e-09          
  2.4                   3.0292e-09            1.6e-13               -3.78e-12             -3.0236e-09          
  2.5                   3.0262e-09            -1.8e-13              -3.9e-12              -3.0222e-09          
  2.6                   3.0294e-09            2e-13                 -4.9e-12              -3.0262e-09          
  2.7                   3.035e-09             -8e-14                -6.12e-12             -3.0288e-09          
  2.8                   3.0386e-09            1e-13                 -8.46e-12             -3.0272e-09          
  2.9                   3.0424e-09            -2e-14                -1.078e-11            -3.0278e-09          
  3                     3.046e-09             8e-14                 -1.346e-11            -3.031e-09           
  3.1                   3.0496e-09            0                     -1.726e-11            -3.0278e-09          
  3.2                   3.0546e-09            -2e-14                -2.326e-11            -3.03e-09            
  3.3                   3.062e-09             2.2e-13               -3.122e-11            -3.0318e-09          
  3.4                   3.0704e-09            6e-14                 -3.962e-11            -3.0318e-09          
  3.5                   3.0856e-09            4e-14                 -4.95e-11             -3.0322e-09          
  3.6                   3.0996e-09            2e-13                 -6.394e-11            -3.0338e-09          
END_DB

BEGIN_DB
 ICCAP_VAR vg         1.548          
 ICCAP_VAR vb         -3.6           
 ICCAP_VAR vs         0              

 #vd                    id                    ig                    ib                    is                   
  0                     2.892e-11             6e-14                 -1.96e-12             -2.994e-11           
  0.1                   3.4856e-08            6e-14                 -1.42e-12             -3.483e-08           
  0.2                   4.5928e-08            6e-14                 -2.18e-12             -4.5954e-08          
  0.3                   4.744e-08             1.4e-13               -2.94e-12             -4.7436e-08          
  0.4                   4.759e-08             1.8e-13               -2.84e-12             -4.7556e-08          
  0.5                   4.7614e-08            6e-14                 -2.84e-12             -4.7598e-08          
  0.6                   4.7656e-08            1.6e-13               -2.36e-12             -4.7638e-08          
  0.7                   4.7676e-08            2e-13                 -2.24e-12             -4.7672e-08          
  0.8                   4.767e-08             0                     -3.8e-12              -4.7658e-08          
  0.9                   4.7698e-08            2e-14                 -3.28e-12             -4.7674e-08          
  1                     4.7708e-08            -2e-14                -2.76e-12             -4.764e-08           
  1.1                   4.7702e-08            -2.2e-13              -1.9e-12              -4.767e-08           
  1.2                   4.7716e-08            -2e-14                -2.22e-12             -4.7686e-08          
  1.3                   4.7718e-08            2.8e-13               -4.08e-12             -4.771e-08           
  1.4                   4.7764e-08            1.8e-13               -3.58e-12             -4.7722e-08          
  1.5                   4.777e-08             3.6e-13               -1.5e-12              -4.7734e-08          
  1.6                   4.777e-08             4e-14                 -2.04e-12             -4.7734e-08          
  1.7                   4.778e-08             -2e-14                -2.52e-12             -4.7766e-08          
  1.8                   4.7806e-08            4e-14                 -2.86e-12             -4.7768e-08          
  1.9                   4.7822e-08            1e-13                 -2.34e-12             -4.7802e-08          
  2                     4.783e-08             1.2e-13               -1.16e-12             -4.7814e-08          
  2.1                   4.7824e-08            4e-14                 -3.5e-12              -4.7826e-08          
  2.2                   4.7846e-08            6e-14                 -4.2e-12              -4.7858e-08          
  2.3                   4.7854e-08            2.2e-13               -5.44e-12             -4.7836e-08          
  2.4                   4.7842e-08            2.2e-13               -7.24e-12             -4.7846e-08          
  2.5                   4.7882e-08            0                     -1.2e-11              -4.7872e-08          
  2.6                   4.7916e-08            2e-14                 -1.794e-11            -4.788e-08           
  2.7                   4.7932e-08            1.2e-13               -3.02e-11             -4.791e-08           
  2.8                   4.7954e-08            2e-14                 -4.354e-11            -4.7896e-08          
  2.9                   4.801e-08             8e-14                 -6.374e-11            -4.7936e-08          
  3                     4.8048e-08            0                     -9.274e-11            -4.7926e-08          
  3.1                   4.811e-08             1.4e-13               -1.3214e-10           -4.7954e-08          
  3.2                   4.8166e-08            2.2e-13               -1.8426e-10           -4.7948e-08          
  3.3                   4.823e-08             6e-14                 -2.517e-10            -4.795e-08           
  3.4                   4.8324e-08            8e-14                 -3.425e-10            -4.7978e-08          
  3.5                   4.8434e-08            6e-14                 -4.5942e-10           -4.795e-08           
  3.6                   4.8606e-08            0                     -6.0798e-10           -4.7972e-08          
END_DB

