! VERSION = 6.00
BEGIN_HEADER
 ICCAP_INPUTS
  vd         V  D GROUND SMU1 0.1 LIN        1    0          3.6        37   0.1       
  vg         V  G GROUND SMU2 0.001 LIST       2 3 0.228 0.428 0.628
  vb         V  B GROUND SMU4 0.1 CON        0
  vs         V  S GROUND SMU3 0.1 CON        0
 ICCAP_OUTPUTS
  id         I  D GROUND SMU1 B
  ig         I  G GROUND SMU2 B
  ib         I  B GROUND SMU4 B
  is         I  S GROUND SMU3 B
 ICCAP_VALUES
  MASTER_SETUP_TYPE "~dc_idvd~"
  LINVT_VALUE ""
  LISTVT_VALUE "|idvg|100.0n|-200.0m|1.000m|3|200.0m|200.0m|"
  TYPE "1"
  TEMP " 27.0000 "
  IS_TNOM " 1.00000 "
  MAIN.W "2.000u"
  MAIN.L "330.0n"
  MAIN.AD "680.0f"
  MAIN.AS "680.0f"
  MAIN.PD "4.680u"
  MAIN.PS "4.680u"
  MAIN.NF "1.000"
  MAIN.M "1"
  MAIN.NRD "0.000"
  MAIN.NRS "0.000"
  MAIN.LDRIFT1 "1E-06"
  MAIN.LDRIFT2 "1E-06"
  MAIN.SA "0.000"
  MAIN.SB "0.000"
  MAIN.SD "0.000"
  MAIN.SCA "0.000"
  MAIN.SCB "0.000"
  MAIN.SCC "0.000"
  MAIN.SC "0.000"
  MODULE "S558"
  PIN_D "18"
  PIN_G "3"
  PIN_S "4"
  PIN_B "17"
  PIN_E ""
  PIN_6 ""
  XY_ID ""
  FUNC "Additional"
  STI "SA ref"
  WPE "WPE ref"
  COMMENT ""
  DIS_MEAS ""
  TypeTCI "10"
END_HEADER

BEGIN_DB
 ICCAP_VAR vg         0.228          
 ICCAP_VAR vb         0              
 ICCAP_VAR vs         0              

 #vd                    id                    ig                    ib                    is                   
  0                     5.4e-13               -4.6e-13              3.44e-12              -3.2e-13             
  0.1                   3.4106e-10            -3.4e-13              1.48e-12              -3.4076e-10          
  0.2                   4.2516e-10            -4.6e-13              2.3e-12               -4.2458e-10          
  0.3                   5.1272e-10            -3.4e-13              1.32e-12              -5.1214e-10          
  0.4                   6.1478e-10            -3.2e-13              2.36e-12              -6.143e-10           
  0.5                   7.3426e-10            -2e-13                2.08e-12              -7.3338e-10          
  0.6                   8.7322e-10            -2.6e-13              1.56e-12              -8.7246e-10          
  0.7                   1.0356e-09            -2.8e-13              2.06e-12              -1.03406e-09         
  0.8                   1.2238e-09            -2.4e-13              1.62e-12              -1.222e-09           
  0.9                   1.4452e-09            -2e-13                1.26e-12              -1.443e-09           
  1                     1.702e-09             -2.2e-13              1.56e-12              -1.6988e-09          
  1.1                   2.0014e-09            -2.4e-13              2.64e-12              -1.998e-09           
  1.2                   2.3476e-09            -2.8e-13              2.4e-12               -2.3446e-09          
  1.3                   2.749e-09             -2.8e-13              1.14e-12              -2.7462e-09          
  1.4                   3.213e-09             -3.4e-13              1.2e-12               -3.2086e-09          
  1.5                   3.7486e-09            -2.4e-13              1.5e-12               -3.7466e-09          
  1.6                   4.366e-09             -2.8e-13              1.38e-12              -4.3606e-09          
  1.7                   5.0738e-09            -1.8e-13              8.4e-13               -5.068e-09           
  1.8                   5.8874e-09            -3.2e-13              -1.52e-12             -5.8824e-09          
  1.9                   6.8234e-09            -2.6e-13              -2.46e-12             -6.8146e-09          
  2                     7.8908e-09            -1.6e-13              -6.98e-12             -7.8796e-09          
  2.1                   9.1102e-09            -2.4e-13              -1.088e-11            -9.096e-09           
  2.2                   1.05154e-08           -1.4e-13              -1.956e-11            -1.04818e-08         
  2.3                   1.2108e-08            -1.8e-13              -3.21e-11             -1.2048e-08          
  2.4                   1.3932e-08            -1e-13                -5.3e-11              -1.3846e-08          
  2.5                   1.5996e-08            -2.2e-13              -8.446e-11            -1.5884e-08          
  2.6                   1.8344e-08            -2.6e-13              -1.3074e-10           -1.82e-08            
  2.7                   2.102e-08             -2e-13                -1.9752e-10           -2.08e-08            
  2.8                   2.4052e-08            -1.2e-13              -2.9406e-10           -2.3742e-08          
  2.9                   2.7508e-08            -2.4e-13              -4.3374e-10           -2.7052e-08          
  3                     3.144e-08             -1.4e-13              -6.2968e-10           -3.0778e-08          
  3.1                   3.589e-08             -1e-13                -9.0126e-10           -3.4964e-08          
  3.2                   4.0956e-08            -2.6e-13              -1.271e-09            -3.9666e-08          
  3.3                   4.6694e-08            -1e-13                -1.771e-09            -4.491e-08           
  3.4                   5.3232e-08            -1.8e-13              -2.4348e-09           -5.078e-08           
  3.5                   6.0672e-08            -1e-13                -3.3044e-09           -5.7368e-08          
  3.6                   6.9156e-08            -1.4e-13              -4.4312e-09           -6.4676e-08          
END_DB

BEGIN_DB
 ICCAP_VAR vg         0.428          
 ICCAP_VAR vb         0              
 ICCAP_VAR vs         0              

 #vd                    id                    ig                    ib                    is                   
  0                     8.286e-11             -2e-14                2.66e-12              -8.848e-11           
  0.1                   7.4726e-08            6e-14                 3.18e-12              -7.4716e-08          
  0.2                   9.7222e-08            0                     1.66e-12              -9.7212e-08          
  0.3                   1.1888e-07            0                     2.62e-12              -1.1874e-07          
  0.4                   1.423e-07             -2e-14                1.04e-12              -1.4212e-07          
  0.5                   1.6808e-07            -2e-14                1.14e-12              -1.679e-07           
  0.6                   1.965e-07             -4e-14                1.86e-12              -1.9634e-07          
  0.7                   2.2782e-07            -1e-13                2.42e-12              -2.2766e-07          
  0.8                   2.6216e-07            -1.8e-13              -1.84e-12             -2.6202e-07          
  0.9                   2.9956e-07            -4e-14                8.4e-13               -2.9942e-07          
  1                     3.403e-07             0                     1.62e-12              -3.4008e-07          
  1.1                   3.843e-07             -2e-14                1.98e-12              -3.843e-07           
  1.2                   4.319e-07             8e-14                 8.8e-13               -4.3182e-07          
  1.3                   4.832e-07             -4e-14                -6.6e-13              -4.8308e-07          
  1.4                   5.382e-07             -1.2e-13              -2.24e-12             -5.3804e-07          
  1.5                   5.9602e-07            -1.4e-13              -1.018e-11            -5.96e-07            
  1.6                   6.5936e-07            -6e-14                -2.912e-11            -6.5936e-07          
  1.7                   7.2738e-07            -4e-14                -6.66e-11             -7.2728e-07          
  1.8                   8.0032e-07            -8e-14                -1.362e-10            -8.002e-07           
  1.9                   8.7826e-07            2e-14                 -2.6078e-10           -8.782e-07           
  2                     9.6194e-07            -1.4e-13              -4.6872e-10           -9.6128e-07          
  2.1                   1.05088e-06           -6e-14                -8.015e-10            -1.05032e-06         
  2.2                   1.1484e-06            -2e-14                -1.3174e-09           -1.14562e-06         
  2.3                   1.2534e-06            -2e-14                -2.0984e-09           -1.2472e-06          
  2.4                   1.362e-06             -1.8e-13              -3.2524e-09           -1.3686e-06          
  2.5                   1.478e-06             -6e-14                -4.945e-09            -1.4694e-06          
  2.6                   1.6188e-06            -2e-13                -7.3906e-09           -1.6074e-06          
  2.7                   1.7524e-06            -8e-14                -1.07752e-08          -1.7342e-06          
  2.8                   1.891e-06             -1e-13                -1.5522e-08           -1.8716e-06          
  2.9                   2.0426e-06            -6e-14                -2.2012e-08           -2.0172e-06          
  3                     2.2056e-06            -8e-14                -3.0828e-08           -2.171e-06           
  3.1                   2.38e-06              -6e-14                -4.2578e-08           -2.3328e-06          
  3.2                   2.5666e-06            -8e-14                -5.7994e-08           -2.5042e-06          
  3.3                   2.7664e-06            -2e-14                -7.7934e-08           -2.6838e-06          
  3.4                   2.9822e-06            -1.2e-13              -1.03354e-07          -2.8746e-06          
  3.5                   3.2156e-06            -1e-13                -1.3544e-07           -3.0776e-06          
  3.6                   3.4716e-06            -1e-13                -1.7512e-07           -3.2916e-06          
END_DB

BEGIN_DB
 ICCAP_VAR vg         0.628          
 ICCAP_VAR vb         0              
 ICCAP_VAR vs         0              

 #vd                    id                    ig                    ib                    is                   
  0                     2.3504e-09            1e-13                 2.12e-12              -2.0474e-09          
  0.1                   3.0678e-06            4e-14                 1.68e-12              -3.0616e-06          
  0.2                   4.2198e-06            -4e-14                2.4e-12               -4.2172e-06          
  0.3                   4.9594e-06            6e-14                 1.1e-12               -4.9552e-06          
  0.4                   5.588e-06             -1.2e-13              9.2e-13               -5.584e-06           
  0.5                   6.175e-06             6e-14                 2e-12                 -6.172e-06           
  0.6                   6.746e-06             -2e-14                6.8e-13               -6.742e-06           
  0.7                   7.3068e-06            0                     8.8e-13               -7.3032e-06          
  0.8                   7.8684e-06            8e-14                 1.56e-12              -7.8654e-06          
  0.9                   8.4356e-06            1e-13                 6e-13                 -8.4308e-06          
  1                     9.0066e-06            4e-14                 9e-13                 -9.0004e-06          
  1.1                   9.5866e-06            0                     1.34e-12              -9.582e-06           
  1.2                   1.01672e-05           -6e-14                -3.6e-13              -1.01656e-05         
  1.3                   1.0782e-05            2e-14                 -4.48e-12             -1.0767e-05          
  1.4                   1.1382e-05            -1.4e-13              -2.25e-11             -1.13752e-05         
  1.5                   1.201e-05             -8e-14                -7.342e-11            -1.1986e-05          
  1.6                   1.2634e-05            4e-14                 -2.069e-10            -1.2614e-05          
  1.7                   1.327e-05             -1.2e-13              -4.9904e-10           -1.3252e-05          
  1.8                   1.3928e-05            4e-14                 -1.0784e-09           -1.391e-05           
  1.9                   1.4598e-05            -6e-14                -2.1374e-09           -1.4574e-05          
  2                     1.5284e-05            -1e-13                -3.933e-09            -1.5256e-05          
  2.1                   1.5986e-05            -6e-14                -6.8254e-09           -1.5956e-05          
  2.2                   1.6702e-05            -8e-14                -1.12786e-08          -1.6672e-05          
  2.3                   1.7436e-05            0                     -1.7934e-08           -1.7396e-05          
  2.4                   1.8206e-05            -4e-14                -2.7522e-08           -1.8138e-05          
  2.5                   1.8958e-05            -4e-14                -4.1198e-08           -1.8898e-05          
  2.6                   1.9816e-05            0                     -6.031e-08            -1.9676e-05          
  2.7                   2.0578e-05            -2e-14                -8.6686e-08           -2.047e-05           
  2.8                   2.1424e-05            -1.4e-13              -1.2258e-07           -2.129e-05           
  2.9                   2.24e-05              -1.2e-13              -1.7038e-07           -2.217e-05           
  3                     2.3308e-05            -1.6e-13              -2.3426e-07           -2.303e-05           
  3.1                   2.424e-05             -1.4e-13              -3.1764e-07           -2.3932e-05          
  3.2                   2.5276e-05            6e-14                 -4.2604e-07           -2.4832e-05          
  3.3                   2.6328e-05            6e-14                 -5.6188e-07           -2.5738e-05          
  3.4                   2.7446e-05            -8e-14                -7.3526e-07           -2.6694e-05          
  3.5                   2.8636e-05            6e-14                 -9.4682e-07           -2.7646e-05          
  3.6                   2.9892e-05            -1.6e-13              -1.2052e-06           -2.8666e-05          
END_DB

