! VERSION = 6.00
BEGIN_HEADER
 ICCAP_INPUTS
  vd         V  D GROUND SMU1 0.1 LIN        1    0          3.6        37   0.1       
  vg         V  G GROUND SMU2 0.001 LIN        2    0.608      3.6        5    0.748     
  vb         V  B GROUND SMU4 0.1 CON        0
  vs         V  S GROUND SMU3 0.1 CON        0
 ICCAP_OUTPUTS
  id         I  D GROUND SMU1 B
  ig         I  G GROUND SMU2 B
  ib         I  B GROUND SMU4 B
  is         I  S GROUND SMU3 B
 ICCAP_VALUES
  MASTER_SETUP_TYPE "~dc_idvd~"
  LINVT_VALUE "|idvg|100.0n|100.0m|1.000m|5|3.600|"
  LISTVT_VALUE ""
  TYPE "1"
  TEMP " 27.0000 "
  IS_TNOM " 1.00000 "
  MAIN.W "10.00u"
  MAIN.L "350.0n"
  MAIN.AD "3.400p"
  MAIN.AS "3.400p"
  MAIN.PD "20.68u"
  MAIN.PS "20.68u"
  MAIN.NF "1.000"
  MAIN.M "1"
  MAIN.NRD "0.000"
  MAIN.NRS "0.000"
  MAIN.LDRIFT1 "1E-06"
  MAIN.LDRIFT2 "1E-06"
  MAIN.SA "0.000"
  MAIN.SB "0.000"
  MAIN.SD "0.000"
  MAIN.SCA "0.000"
  MAIN.SCB "0.000"
  MAIN.SCC "0.000"
  MAIN.SC "0.000"
  MODULE "S556"
  PIN_D "16"
  PIN_G "5"
  PIN_S "6"
  PIN_B "15"
  PIN_E ""
  PIN_6 ""
  XY_ID ""
  FUNC "Additional"
  STI "SA ref"
  WPE "WPE ref"
  COMMENT ""
  DIS_MEAS ""
  TypeTCI "10"
END_HEADER

BEGIN_DB
 ICCAP_VAR vg         0.608          
 ICCAP_VAR vb         0              
 ICCAP_VAR vs         0              

 #vd                    id                    ig                    ib                    is                   
  0                     3.4632e-09            -8e-14                2.474e-11             -3.036e-09           
  0.1                   4.5602e-06            -1.2e-13              2.202e-11             -4.5532e-06          
  0.2                   5.9098e-06            -1.2e-13              2.062e-11             -5.9072e-06          
  0.3                   6.8902e-06            -1.4e-13              2.056e-11             -6.8872e-06          
  0.4                   7.7954e-06            -1e-13                1.9e-11               -7.7922e-06          
  0.5                   8.6722e-06            -1.4e-13              1.888e-11             -8.6708e-06          
  0.6                   9.552e-06             4e-14                 1.862e-11             -9.5496e-06          
  0.7                   1.04298e-05           -2.4e-13              1.668e-11             -1.04324e-05         
  0.8                   1.132e-05             -1e-13                1.662e-11             -1.13024e-05         
  0.9                   1.2244e-05            -6e-14                1.618e-11             -1.2216e-05          
  1                     1.3162e-05            -1.4e-13              1.592e-11             -1.314e-05           
  1.1                   1.4104e-05            -6e-14                1.468e-11             -1.4084e-05          
  1.2                   1.508e-05             -1.6e-13              1.16e-11              -1.5062e-05          
  1.3                   1.605e-05             -1.8e-13              7.4e-13               -1.6046e-05          
  1.4                   1.706e-05             -1e-13                -4.236e-11            -1.7038e-05          
  1.5                   1.809e-05             -8e-14                -1.5348e-10           -1.8072e-05          
  1.6                   1.9166e-05            -1.4e-13              -4.2884e-10           -1.9148e-05          
  1.7                   2.0308e-05            -1.2e-13              -1.0168e-09           -2.0298e-05          
  1.8                   2.146e-05             -2.2e-13              -2.1588e-09           -2.1444e-05          
  1.9                   2.2644e-05            -1.8e-13              -4.194e-09            -2.2602e-05          
  2                     2.3856e-05            -1.2e-13              -7.5944e-09           -2.382e-05           
  2.1                   2.5086e-05            -8e-14                -1.3006e-08           -2.5048e-05          
  2.2                   2.6382e-05            -1.4e-13              -2.13e-08             -2.6342e-05          
  2.3                   2.7708e-05            -1.4e-13              -3.3602e-08           -2.7658e-05          
  2.4                   2.9064e-05            -1e-13                -5.1356e-08           -2.8998e-05          
  2.5                   3.0464e-05            -4e-14                -7.657e-08            -3.0378e-05          
  2.6                   3.1926e-05            -4e-14                -1.1182e-07           -3.1766e-05          
  2.7                   3.3408e-05            4e-14                 -1.6046e-07           -3.3294e-05          
  2.8                   3.503e-05             -2.2e-13              -2.2662e-07           -3.4774e-05          
  2.9                   3.6636e-05            -1.4e-13              -3.156e-07            -3.6322e-05          
  3                     3.835e-05             -2.4e-13              -4.336e-07            -3.7912e-05          
  3.1                   4.013e-05             -4e-14                -5.8812e-07           -3.9518e-05          
  3.2                   4.2016e-05            -8e-14                -7.8752e-07           -4.1202e-05          
  3.3                   4.401e-05             -8e-14                -1.04e-06             -4.2936e-05          
  3.4                   4.609e-05             -1.4e-13              -1.357e-06            -4.4746e-05          
  3.5                   4.8316e-05            -6e-14                -1.7482e-06           -4.6562e-05          
  3.6                   5.0674e-05            -1.6e-13              -2.2262e-06           -4.8432e-05          
END_DB

BEGIN_DB
 ICCAP_VAR vg         1.356          
 ICCAP_VAR vb         0              
 ICCAP_VAR vs         0              

 #vd                    id                    ig                    ib                    is                   
  0                     1.5294e-07            4e-13                 7.86e-12              -1.298e-07           
  0.1                   0.00031478            2.8e-13               7.72e-12              -0.00031436          
  0.2                   0.0005619             2.6e-13               7.6e-12               -0.00056156          
  0.3                   0.00073886            3e-13                 7.12e-12              -0.00073846          
  0.4                   0.0008571             1.8e-13               6.46e-12              -0.00085662          
  0.5                   0.0009337             6e-14                 6.94e-12              -0.0009335           
  0.6                   0.00098512            1.8e-13               6.16e-12              -0.0009848           
  0.7                   0.00102232            1e-13                 6.32e-12              -0.00102176          
  0.8                   0.00105102            1e-13                 7.22e-12              -0.0010506           
  0.9                   0.00107478            1.4e-13               5.74e-12              -0.00107444          
  1                     0.00109538            4e-14                 5.84e-12              -0.00109484          
  1.1                   0.00111368            -4e-14                6.28e-12              -0.00111346          
  1.2                   0.00113076            4e-14                 2.44e-12              -0.00113066          
  1.3                   0.00114662            8e-14                 -1.016e-11            -0.00114644          
  1.4                   0.0011626             1e-13                 -7.47e-11             -0.00116094          
  1.5                   0.0011766             1.4e-13               -3.2664e-10           -0.0011746           
  1.6                   0.0011904             0                     -1.166e-09            -0.0011882           
  1.7                   0.0012034             1.8e-13               -3.5516e-09           -0.0012012           
  1.8                   0.0012162             1.6e-13               -9.4788e-09           -0.0012142           
  1.9                   0.0012288             4e-14                 -2.2578e-08           -0.0012268           
  2                     0.0012412             -1e-13                -4.864e-08            -0.0012388           
  2.1                   0.001253              4e-14                 -9.6646e-08           -0.001251            
  2.2                   0.001265              6e-14                 -1.7888e-07           -0.0012628           
  2.3                   0.0012768             1e-13                 -3.1212e-07           -0.0012748           
  2.4                   0.0012888             2e-14                 -5.1716e-07           -0.0012862           
  2.5                   0.0013004             6e-14                 -8.2204e-07           -0.0012976           
  2.6                   0.0013126             -8e-14                -1.2602e-06           -0.0013092           
  2.7                   0.0013244             -6e-14                -1.8744e-06           -0.0013206           
  2.8                   0.0013366             0                     -2.72e-06             -0.0013318           
  2.9                   0.001349              -6e-14                -3.8622e-06           -0.0013432           
  3                     0.001362              -6e-14                -5.3898e-06           -0.0013544           
  3.1                   0.0013754             4e-14                 -7.4018e-06           -0.001366            
  3.2                   0.0013898             1e-13                 -1.00222e-05          -0.0013778           
  3.3                   0.0014052             0                     -1.3374e-05           -0.0013898           
  3.4                   0.0014218             6e-14                 -1.7652e-05           -0.001402            
  3.5                   0.00144               1.4e-13               -2.3012e-05           -0.0014148           
  3.6                   0.0014596             2e-14                 -2.9626e-05           -0.001428            
END_DB

BEGIN_DB
 ICCAP_VAR vg         2.104          
 ICCAP_VAR vb         0              
 ICCAP_VAR vs         0              

 #vd                    id                    ig                    ib                    is                   
  0                     1.9976e-07            4e-13                 5.7e-12               -2.0564e-07          
  0.1                   0.00059108            3.6e-13               6.3e-12               -0.00059066          
  0.2                   0.00112142            3.2e-13               3.8e-12               -0.00112102          
  0.3                   0.0015726             1.2e-13               4.72e-12              -0.0015706           
  0.4                   0.0019386             1.2e-13               4.84e-12              -0.0019366           
  0.5                   0.002224              1.6e-13               4.5e-12               -0.002222            
  0.6                   0.00244               3.6e-13               4.02e-12              -0.0024378           
  0.7                   0.0026002             1.6e-13               4.64e-12              -0.002598            
  0.8                   0.002718              2e-13                 2.64e-12              -0.0027162           
  0.9                   0.0028056             1.4e-13               3.24e-12              -0.0028036           
  1                     0.002872              2e-13                 4.16e-12              -0.0028698           
  1.1                   0.002924              4e-14                 3.62e-12              -0.002922            
  1.2                   0.0029662             1.4e-13               2.7e-12               -0.0029642           
  1.3                   0.0030016             2.2e-13               2.6e-13               -0.0029996           
  1.4                   0.003032              1.4e-13               -1.974e-11            -0.0030302           
  1.5                   0.0030592             8e-14                 -9.626e-11            -0.0030574           
  1.6                   0.0030834             6e-14                 -3.6958e-10           -0.0030814           
  1.7                   0.0031058             1.4e-13               -1.2252e-09           -0.0031038           
  1.8                   0.0031262             1e-13                 -3.597e-09            -0.0031242           
  1.9                   0.0031456             1.6e-13               -9.4718e-09           -0.0031434           
  2                     0.0031638             1.6e-13               -2.264e-08            -0.0031616           
  2.1                   0.0031808             1.4e-13               -4.9752e-08           -0.003179            
  2.2                   0.0031976             1e-13                 -1.01568e-07          -0.0031956           
  2.3                   0.0032136             1.6e-13               -1.942e-07            -0.0032116           
  2.4                   0.0032292             2e-13                 -3.5028e-07           -0.0032268           
  2.5                   0.0032446             1.4e-13               -6.0172e-07           -0.003242            
  2.6                   0.00326               1.6e-13               -9.8936e-07           -0.0032568           
  2.7                   0.0032746             -4e-14                -1.5638e-06           -0.003271            
  2.8                   0.0032898             6e-14                 -2.3958e-06           -0.0032854           
  2.9                   0.0033048             1.2e-13               -3.5654e-06           -0.0032994           
  3                     0.0033206             8e-14                 -5.1816e-06           -0.0033134           
  3.1                   0.0033366             1.4e-13               -7.3724e-06           -0.0033274           
  3.2                   0.0033538             1.8e-13               -1.02966e-05          -0.0033414           
  3.3                   0.003372              1.4e-13               -1.4132e-05           -0.0033558           
  3.4                   0.0033918             1.6e-13               -1.9144e-05           -0.0033706           
  3.5                   0.0034134             1.4e-13               -2.5584e-05           -0.0033856           
  3.6                   0.0034372             2e-13                 -3.3746e-05           -0.0034016           
END_DB

BEGIN_DB
 ICCAP_VAR vg         2.852          
 ICCAP_VAR vb         0              
 ICCAP_VAR vs         0              

 #vd                    id                    ig                    ib                    is                   
  0                     2.222e-07             4.2e-13               3.96e-12              -2.568e-07           
  0.1                   0.00076172            4.2e-13               5.1e-12               -0.00076132          
  0.2                   0.0014756             3.4e-13               3.56e-12              -0.0014736           
  0.3                   0.0021166             2.6e-13               3e-12                 -0.0021146           
  0.4                   0.0026762             2.8e-13               2.7e-12               -0.002674            
  0.5                   0.0031502             3.2e-13               3.98e-12              -0.0031484           
  0.6                   0.0035426             2e-13                 1.9e-12               -0.0035404           
  0.7                   0.0038618             2.6e-13               2.12e-12              -0.0038598           
  0.8                   0.0041182             1.4e-13               2.54e-12              -0.0041162           
  0.9                   0.0043208             2.4e-13               2.28e-12              -0.0043188           
  1                     0.004481              1.4e-13               2.64e-12              -0.0044794           
  1.1                   0.0046076             2.6e-13               2.7e-12               -0.0046058           
  1.2                   0.004708              1.6e-13               1.86e-12              -0.004706            
  1.3                   0.0047882             1.4e-13               2.2e-12               -0.0047864           
  1.4                   0.0048536             2.4e-13               -2.84e-12             -0.0048514           
  1.5                   0.004908              1e-13                 -2.316e-11            -0.004906            
  1.6                   0.004954              1.2e-13               -9.698e-11            -0.004952            
  1.7                   0.0049934             1.8e-13               -3.5292e-10           -0.0049912           
  1.8                   0.0050278             1.4e-13               -1.1208e-09           -0.0050262           
  1.9                   0.0050588             2.4e-13               -3.1986e-09           -0.0050568           
  2                     0.0050862             4e-14                 -8.2596e-09           -0.0050844           
  2.1                   0.0051112             3.2e-13               -1.9584e-08           -0.0051094           
  2.2                   0.0051338             1.4e-13               -4.2956e-08           -0.0051318           
  2.3                   0.0051552             1.4e-13               -8.7744e-08           -0.0051532           
  2.4                   0.0051748             1.6e-13               -1.6838e-07           -0.0051728           
  2.5                   0.0051934             8e-14                 -3.0646e-07           -0.0051912           
  2.6                   0.005211              1.8e-13               -5.3194e-07           -0.0052086           
  2.7                   0.005228              6e-14                 -8.8406e-07           -0.005225            
  2.8                   0.0052442             0                     -1.416e-06            -0.0052408           
  2.9                   0.0052604             2.4e-13               -2.1964e-06           -0.0052562           
  3                     0.0052762             3.2e-13               -3.3148e-06           -0.0052708           
  3.1                   0.0052922             3.6e-13               -4.8796e-06           -0.0052856           
  3.2                   0.005309              4.2e-13               -7.025e-06            -0.0052996           
  3.3                   0.0053258             4.6e-13               -9.917e-06            -0.0053138           
  3.4                   0.005344              4.2e-13               -1.376e-05            -0.0053282           
  3.5                   0.0053636             5.8e-13               -1.8818e-05           -0.0053428           
  3.6                   0.005385              5.2e-13               -2.537e-05            -0.0053574           
END_DB

BEGIN_DB
 ICCAP_VAR vg         3.6            
 ICCAP_VAR vb         0              
 ICCAP_VAR vs         0              

 #vd                    id                    ig                    ib                    is                   
  0                     2.2326e-07            5e-13                 3.1e-12               -2.6948e-07          
  0.1                   0.0008627             4.2e-13               2.64e-12              -0.00086228          
  0.2                   0.0016884             3.4e-13               2.88e-12              -0.0016864           
  0.3                   0.0024532             2.2e-13               2e-12                 -0.0024512           
  0.4                   0.0031472             3.8e-13               2.68e-12              -0.0031452           
  0.5                   0.0037626             2.6e-13               2.06e-12              -0.0037606           
  0.6                   0.0042982             2.8e-13               2.02e-12              -0.0042962           
  0.7                   0.004759              2.6e-13               3.04e-12              -0.0047568           
  0.8                   0.0051496             2.4e-13               1.52e-12              -0.0051476           
