! VERSION = 6.00
BEGIN_HEADER
 ICCAP_INPUTS
  vg         V  G GROUND SMU2 0.001 LIN        1    -0.5       3.6        83   0.05      
  vb         V  B GROUND SMU4 0.1 LIN        2    0          -3.6       5    -0.9      
  vd         V  D GROUND SMU1 0.1 LIN        3    0.1        3.3        3    1.6       
  vs         V  S GROUND SMU3 0.1 CON        0
 ICCAP_OUTPUTS
  id         I  D GROUND SMU1 B
  ig         I  G GROUND SMU2 B
  ib         I  B GROUND SMU4 B
  is         I  S GROUND SMU3 B
 ICCAP_VALUES
  MASTER_SETUP_TYPE "~dc_idvg~"
  LINVT_VALUE ""
  LISTVT_VALUE ""
  TYPE "1"
  TEMP " 27.0000 "
  IS_TNOM " 1.00000 "
  MAIN.W "10.00u"
  MAIN.L "3.000u"
  MAIN.AD "3.400p"
  MAIN.AS "3.400p"
  MAIN.PD "20.68u"
  MAIN.PS "20.68u"
  MAIN.NF "1.000"
  MAIN.M "1"
  MAIN.NRD "0.000"
  MAIN.NRS "0.000"
  MAIN.LDRIFT1 "1E-06"
  MAIN.LDRIFT2 "1E-06"
  MAIN.SA "0.000"
  MAIN.SB "0.000"
  MAIN.SD "0.000"
  MAIN.SCA "0.000"
  MAIN.SCB "0.000"
  MAIN.SCC "0.000"
  MAIN.SC "0.000"
  MODULE "S557"
  PIN_D "20"
  PIN_G "1"
  PIN_S "2"
  PIN_B "19"
  PIN_E ""
  PIN_6 ""
  XY_ID ""
  FUNC "L Scale"
  STI "SA ref"
  WPE "WPE ref"
  COMMENT ""
  DIS_MEAS ""
  TypeTCI "10"
END_HEADER

BEGIN_DB
 ICCAP_VAR vb         0              
 ICCAP_VAR vd         0.1            
 ICCAP_VAR vs         0              

 #vg                    id                    ig                    ib                    is                   
  -0.5                  -6e-14                -4.472e-11            5.26e-11              1e-13                
  -0.45                 1e-13                 -6.94e-12             1.58e-11              -1.2e-13             
  -0.4                  1e-13                 -1.1e-12              1.014e-11             1e-13                
  -0.35                 8e-14                 -1.4e-13              8.74e-12              6e-14                
  -0.3                  8e-14                 1e-13                 7.74e-12              -8e-14               
  -0.25                 6e-14                 2.8e-13               7.62e-12              8e-14                
  -0.2                  2e-14                 2.4e-13               7.92e-12              0                    
  -0.15                 1.4e-13               2.2e-13               8.3e-12               2e-13                
  -0.1                  1.2e-13               2.8e-13               8.46e-12              -2e-14               
  -0.05                 8e-14                 3.8e-13               7.46e-12              2e-14                
  0                     1.2e-13               4e-13                 7.38e-12              6e-14                
  0.05                  8e-14                 3.8e-13               7.02e-12              0                    
  0.1                   5.4e-13               3.4e-13               7.44e-12              -4.6e-13             
  0.15                  1.7e-12               4.2e-13               8.76e-12              -1.66e-12            
  0.2                   6.78e-12              4.6e-13               7.16e-12              -6.6e-12             
  0.25                  2.706e-11             4.2e-13               6.74e-12              -2.69e-11            
  0.3                   1.0866e-10            5.6e-13               7.4e-12               -1.0862e-10          
  0.35                  4.4276e-10            5.2e-13               6.22e-12              -4.4252e-10          
  0.4                   1.7982e-09            3.6e-13               7.92e-12              -1.796e-09           
  0.45                  7.2292e-09            4.6e-13               6.72e-12              -7.2248e-09          
  0.5                   2.7604e-08            4.6e-13               6.48e-12              -2.759e-08           
  0.55                  9.5754e-08            4.6e-13               5.82e-12              -9.5714e-08          
  0.6                   2.832e-07             4.4e-13               7.32e-12              -2.8294e-07          
  0.65                  7.012e-07             5.2e-13               7.04e-12              -7.0112e-07          
  0.7                   1.4564e-06            4.2e-13               6.14e-12              -1.4518e-06          
  0.75                  2.6044e-06            5.2e-13               6.96e-12              -2.5996e-06          
  0.8                   4.1242e-06            5e-13                 6.4e-12               -4.1196e-06          
  0.85                  5.9674e-06            5.4e-13               6.12e-12              -5.963e-06           
  0.9                   8.048e-06             5.8e-13               5.86e-12              -8.0434e-06          
  0.95                  1.03122e-05           4.8e-13               5.86e-12              -1.03074e-05         
  1                     1.272e-05             4.8e-13               5.98e-12              -1.2698e-05          
  1.05                  1.5228e-05            5.4e-13               5.74e-12              -1.5208e-05          
  1.1                   1.78e-05              7.2e-13               5e-12                 -1.7778e-05          
  1.15                  2.0424e-05            6e-13                 6e-12                 -2.0404e-05          
  1.2                   2.3086e-05            6.2e-13               5.98e-12              -2.3064e-05          
  1.25                  2.577e-05             6.6e-13               6.66e-12              -2.575e-05           
  1.3                   2.848e-05             6.2e-13               5.44e-12              -2.8458e-05          
  1.35                  3.1184e-05            7e-13                 5.02e-12              -3.1164e-05          
  1.4                   3.3888e-05            6.8e-13               6.04e-12              -3.3868e-05          
  1.45                  3.6584e-05            7e-13                 6.32e-12              -3.6564e-05          
  1.5                   3.9282e-05            7.6e-13               4.88e-12              -3.926e-05           
  1.55                  4.195e-05             7e-13                 5.2e-12               -4.1928e-05          
  1.6                   4.4592e-05            7.2e-13               5.32e-12              -4.4568e-05          
  1.65                  4.7218e-05            6.8e-13               5.88e-12              -4.7198e-05          
  1.7                   4.982e-05             7.4e-13               4.84e-12              -4.9798e-05          
  1.75                  5.238e-05             6e-13                 4.46e-12              -5.236e-05           
  1.8                   5.4914e-05            7.8e-13               5.22e-12              -5.4896e-05          
  1.85                  5.741e-05             7e-13                 5.6e-12               -5.7388e-05          
  1.9                   5.9868e-05            6.8e-13               4.82e-12              -5.985e-05           
  1.95                  6.2284e-05            7.4e-13               4.46e-12              -6.2264e-05          
  2                     6.4664e-05            6.8e-13               4.26e-12              -6.4644e-05          
  2.05                  6.7e-05               8.8e-13               5.56e-12              -6.698e-05           
  2.1                   6.9282e-05            7e-13                 4.7e-12               -6.9262e-05          
  2.15                  7.1526e-05            8.4e-13               4.84e-12              -7.1506e-05          
  2.2                   7.3716e-05            7.2e-13               4.34e-12              -7.3698e-05          
  2.25                  7.5864e-05            8e-13                 4.56e-12              -7.5844e-05          
  2.3                   7.7956e-05            7.2e-13               5.58e-12              -7.7934e-05          
  2.35                  8.0008e-05            7.4e-13               4.4e-12               -7.9986e-05          
  2.4                   8.2e-05               7.4e-13               3.88e-12              -8.198e-05           
  2.45                  8.3942e-05            7.2e-13               2.18e-12              -8.3924e-05          
  2.5                   8.5844e-05            8.4e-13               4.76e-12              -8.5824e-05          
  2.55                  8.7688e-05            8e-13                 4.5e-12               -8.7666e-05          
  2.6                   8.948e-05             8e-13                 4e-12                 -8.9458e-05          
  2.65                  9.1218e-05            7.4e-13               3.9e-12               -9.1198e-05          
  2.7                   9.2906e-05            7.6e-13               5.16e-12              -9.289e-05           
  2.75                  9.4552e-05            7.2e-13               4.42e-12              -9.453e-05           
  2.8                   9.614e-05             7.4e-13               3.68e-12              -9.6118e-05          
  2.85                  9.7678e-05            8.2e-13               3.74e-12              -9.7658e-05          
  2.9                   9.9168e-05            8.6e-13               4.46e-12              -9.9146e-05          
  2.95                  0.00010061            8.4e-13               4.74e-12              -0.00010059          
  3                     0.000102002           8e-13                 3.64e-12              -0.000101984         
  3.05                  0.000103348           8.2e-13               3.62e-12              -0.000103328         
  3.1                   0.000104644           7.6e-13               4.38e-12              -0.000104624         
  3.15                  0.000105898           9.2e-13               4.26e-12              -0.00010588          
  3.2                   0.000107104           8.8e-13               3.7e-12               -0.000107084         
  3.25                  0.000108264           8.2e-13               3.32e-12              -0.000108248         
  3.3                   0.000109386           9e-13                 4.3e-12               -0.000109364         
  3.35                  0.000110456           8.4e-13               7.62e-12              -0.000110438         
  3.4                   0.000111494           8e-13                 3.68e-12              -0.000111474         
  3.45                  0.000112482           9.8e-13               3.58e-12              -0.000112464         
  3.5                   0.000113434           9e-13                 3.84e-12              -0.000113418         
  3.55                  0.000114344           8.4e-13               4.14e-12              -0.000114326         
  3.6                   0.00011536            7.8e-13               5.08e-12              -0.00011494          
END_DB

BEGIN_DB
 ICCAP_VAR vb         -0.9           
 ICCAP_VAR vd         0.1            
 ICCAP_VAR vs         0              

 #vg                    id                    ig                    ib                    is                   
  -0.5                  -4e-14                -5.8e-13              -1.002e-11            8e-14                
  -0.45                 1.2e-13               -2.2e-13              -9.52e-12             1.8e-13              
  -0.4                  -6e-14                -1.2e-13              -7.92e-12             1.2e-13              
  -0.35                 1.6e-13               -1.6e-13              -6.2e-12              1.4e-13              
  -0.3                  0                     -6e-14                -6.02e-12             0                    
  -0.25                 8e-14                 4e-14                 -6.12e-12             8e-14                
  -0.2                  4e-14                 1.2e-13               -5.38e-12             1.2e-13              
  -0.15                 1.2e-13               1.4e-13               -4.44e-12             1e-13                
  -0.1                  4e-14                 1.2e-13               -3.96e-12             8e-14                
  -0.05                 4e-14                 1.6e-13               -2.92e-12             0                    
  0                     1.8e-13               2e-13                 -4.48e-12             1.2e-13              
  0.05                  1.4e-13               2e-13                 -3.44e-12             8e-14                
  0.1                   1e-13                 2.4e-13               -2.42e-12             -6e-14               
  0.15                  6e-14                 2.8e-13               -1.8e-12              1e-13                
  0.2                   8e-14                 3.2e-13               -1.76e-12             -4e-14               
  0.25                  8e-14                 3.4e-13               -3.12e-12             1.4e-13              
  0.3                   8e-14                 3.6e-13               -2.42e-12             1e-13                
  0.35                  3.4e-13               3.8e-13               -1.84e-12             0                    
  0.4                   7.8e-13               4.2e-13               -6.6e-13              -6.4e-13             
  0.45                  3.46e-12              4.6e-13               -1.78e-12             -3.12e-12            
  0.5                   1.52e-11              4.2e-13               -1.9e-12              -1.496e-11           
  0.55                  6.98e-11              4.4e-13               -1.94e-12             -6.958e-11           
  0.6                   3.2112e-10            4e-13                 -1.82e-12             -3.2074e-10          
  0.65                  1.4762e-09            4.2e-13               -8.4e-13              -1.4738e-09          
  0.7                   6.5814e-09            4.6e-13               -1.2e-12              -6.577e-09           
  0.75                  2.7646e-08            4.8e-13               -1.6e-12              -2.7614e-08          
  0.8                   1.0156e-07            4.2e-13               -1.56e-12             -1.0154e-07          
  0.85                  3.117e-07             5.4e-13               -5.2e-13              -3.1156e-07          
  0.9                   7.746e-07             6e-13                 -9.4e-13              -7.7412e-07          
  0.95                  1.5944e-06            4.2e-13               -7.4e-13              -1.5898e-06          
  1                     2.8032e-06            5.2e-13               4e-13                 -2.7984e-06          
  1.05                  4.3736e-06            4e-13                 -4.8e-13              -4.3692e-06          
  1.1                   6.2292e-06            5.4e-13               -1.32e-12             -6.2244e-06          
  1.15                  8.3042e-06            5.8e-13               -1.08e-12             -8.2996e-06          
  1.2                   1.0543e-05            6.2e-13               1.18e-12              -1.05376e-05         
  1.25                  1.2912e-05            4.6e-13               -8e-14                -1.289e-05           
  1.3                   1.5368e-05            6.2e-13               -6.2e-13              -1.5346e-05          
  1.35                  1.7878e-05            5.2e-13               -9e-13                -1.7858e-05          
  1.4                   2.0434e-05            5.8e-13               -5.4e-13              -2.0412e-05          
  1.45                  2.3018e-05            6.2e-13               6.4e-13               -2.2996e-05          
  1.5                   2.563e-05             6.4e-13               -9.2e-13              -2.5608e-05          
  1.55                  2.8242e-05            6.2e-13               -4.6e-13              -2.822e-05           
  1.6                   3.085e-05             6.2e-13               2.2e-13               -3.0828e-05          
  1.65                  3.346e-05             6.6e-13               7.4e-13               -3.344e-05           
  1.7                   3.606e-05             6e-13                 -7e-13                -3.6038e-05          
  1.75                  3.863e-05             7e-13                 -4e-14                -3.8608e-05          
  1.8                   4.1186e-05            5.8e-13               -6e-14                -4.1166e-05          
  1.85                  4.3708e-05            7.2e-13               9e-13                 -4.3686e-05          
  1.9                   4.621e-05             7.2e-13               -2.4e-13              -4.619e-05           
  1.95                  4.867e-05             6.6e-13               2.36e-12              -4.865e-05           
  2                     5.1102e-05            6.8e-13               -6.8e-13              -5.1082e-05          
  2.05                  5.3496e-05            6.6e-13               6.4e-13               -5.3476e-05          
  2.1                   5.5842e-05            6.8e-13               5.8e-13               -5.582e-05           
  2.15                  5.8154e-05            7.2e-13               0                     -5.8134e-05          
  2.2                   6.0414e-05            7.6e-13               -6.4e-13              -6.0394e-05          
  2.25                  6.2638e-05            7.4e-13               6e-14                 -6.2616e-05          
  2.3                   6.4804e-05            7.4e-13               7.4e-13               -6.4784e-05          
  2.35                  6.6934e-05            7.6e-13               6e-14                 -6.6916e-05          
  2.4                   6.901e-05             7.4e-13               2e-14                 -6.8988e-05          
  2.45                  7.1034e-05            7.8e-13               1.4e-13               -7.1014e-05          
  2.5                   7.3018e-05            6.6e-13               7.8e-13               -7.3e-05             
  2.55                  7.4946e-05            7.4e-13               -3e-13                -7.4926e-05          
  2.6                   7.682e-05             6.8e-13               -2e-13                -7.6798e-05          
  2.65                  7.8642e-05            7e-13                 1e-13                 -7.8622e-05          
  2.7                   8.0418e-05            8e-13                 9.6e-13               -8.0396e-05          
  2.75                  8.2148e-05            7.8e-13               1.4e-13               -8.2126e-05          
  2.8                   8.3818e-05            8e-13                 -4.8e-13              -8.3798e-05          
  2.85                  8.5444e-05            7.6e-13               -8e-14                -8.5426e-05          
  2.9                   8.7018e-05            7.2e-13               6.6e-13               -8.6998e-05          
  2.95                  8.8546e-05            8e-13                 2e-13                 -8.8526e-05          
  3                     9.0022e-05            8e-13                 -2.6e-13              -9.0002e-05          
  3.05                  9.1448e-05            7.4e-13               1.4e-13               -9.1432e-05          
  3.1                   9.283e-05             8.6e-13               1.02e-12              -9.281e-05           
  3.15                  9.4168e-05            8.2e-13               1.36e-12              -9.415e-05           
  3.2                   9.5454e-05            7.6e-13               -1.8e-13              -9.5434e-05          
  3.25                  9.6698e-05            9e-13                 -1.8e-13              -9.6678e-05          
  3.3                   9.79e-05              8.4e-13               5.4e-13               -9.788e-05           
  3.35                  9.9052e-05            9.2e-13               6e-13                 -9.9034e-05          
  3.4                   0.000100162           8e-13                 4e-13                 -0.000100144         
  3.45                  0.000101228           7.2e-13               2.2e-13               -0.000101208         
