! VERSION = 6.00
BEGIN_HEADER
 ICCAP_INPUTS
  vd         V  D GROUND SMU1 0.1 LIN        1    0          3.6        37   0.1       
  vg         V  G GROUND SMU2 0.001 LIN        2    0.58       3.6        5    0.755     
  vb         V  B GROUND SMU4 0.1 CON        -3.6
  vs         V  S GROUND SMU3 0.1 CON        0
 ICCAP_OUTPUTS
  id         I  D GROUND SMU1 B
  ig         I  G GROUND SMU2 B
  ib         I  B GROUND SMU4 B
  is         I  S GROUND SMU3 B
 ICCAP_VALUES
  MASTER_SETUP_TYPE "~dc_idvd~"
  LINVT_VALUE "|idvg|100.0n|100.0m|1.000m|5|3.600|"
  LISTVT_VALUE ""
  TYPE "1"
  TEMP " 27.0000 "
  IS_TNOM " 1.00000 "
  MAIN.W "10.00u"
  MAIN.L "300.0n"
  MAIN.AD "3.400p"
  MAIN.AS "3.400p"
  MAIN.PD "20.68u"
  MAIN.PS "20.68u"
  MAIN.NF "1.000"
  MAIN.M "1"
  MAIN.NRD "0.000"
  MAIN.NRS "0.000"
  MAIN.LDRIFT1 "1E-06"
  MAIN.LDRIFT2 "1E-06"
  MAIN.SA "0.000"
  MAIN.SB "0.000"
  MAIN.SD "0.000"
  MAIN.SCA "0.000"
  MAIN.SCB "0.000"
  MAIN.SCC "0.000"
  MAIN.SC "0.000"
  MODULE "S556"
  PIN_D "20"
  PIN_G "1"
  PIN_S "2"
  PIN_B "19"
  PIN_E ""
  PIN_6 ""
  XY_ID ""
  FUNC "Additional"
  STI "SA ref"
  WPE "WPE ref"
  COMMENT ""
  DIS_MEAS ""
  TypeTCI "10"
END_HEADER

BEGIN_DB
 ICCAP_VAR vg         0.58           
 ICCAP_VAR vb         -3.6           
 ICCAP_VAR vs         0              

 #vd                    id                    ig                    ib                    is                   
  0                     1.8914e-09            2.2e-13               -4.288e-11            -1.2072e-09          
  0.1                   1.2538e-06            8e-14                 -3.492e-11            -1.2492e-06          
  0.2                   1.8778e-06            3.2e-13               -3.348e-11            -1.8722e-06          
  0.3                   2.5094e-06            2e-13                 -3.226e-11            -2.5058e-06          
  0.4                   3.2176e-06            1.6e-13               -3.052e-11            -3.2128e-06          
  0.5                   4.0166e-06            2e-13                 -2.932e-11            -4.012e-06           
  0.6                   4.915e-06             2.2e-13               -2.88e-11             -4.9116e-06          
  0.7                   5.9272e-06            1.8e-13               -2.71e-11             -5.924e-06           
  0.8                   7.0612e-06            2.4e-13               -2.59e-11             -7.057e-06           
  0.9                   8.3202e-06            2.6e-13               -2.516e-11            -8.3138e-06          
  1                     9.7182e-06            2.2e-13               -2.536e-11            -9.7152e-06          
  1.1                   1.12622e-05           1.6e-13               -2.504e-11            -1.12574e-05         
  1.2                   1.2962e-05            1.2e-13               -2.8e-11              -1.294e-05           
  1.3                   1.4812e-05            2.4e-13               -4.516e-11            -1.4788e-05          
  1.4                   1.6832e-05            2.6e-13               -1.113e-10            -1.68e-05            
  1.5                   1.9008e-05            2.2e-13               -3.007e-10            -1.8992e-05          
  1.6                   2.1368e-05            1.2e-13               -7.7098e-10           -2.1344e-05          
  1.7                   2.3892e-05            1.4e-13               -1.8036e-09           -2.3868e-05          
  1.8                   2.6604e-05            2.8e-13               -3.8648e-09           -2.6578e-05          
  1.9                   2.9492e-05            1e-13                 -7.6478e-09           -2.9436e-05          
  2                     3.2524e-05            1.8e-13               -1.4188e-08           -3.2524e-05          
  2.1                   3.5816e-05            1.8e-13               -2.4952e-08           -3.579e-05           
  2.2                   3.9302e-05            2.4e-13               -4.1966e-08           -3.9244e-05          
  2.3                   4.2958e-05            2.6e-13               -6.8036e-08           -4.284e-05           
  2.4                   4.6806e-05            2.4e-13               -1.06952e-07          -4.6684e-05          
  2.5                   5.0886e-05            1.8e-13               -1.6398e-07           -5.0674e-05          
  2.6                   5.5168e-05            1.8e-13               -2.4632e-07           -5.4882e-05          
  2.7                   5.9664e-05            2.4e-13               -3.63e-07             -5.9292e-05          
  2.8                   6.4436e-05            2.2e-13               -5.2628e-07           -6.3884e-05          
  2.9                   6.9438e-05            1.8e-13               -7.508e-07            -6.8672e-05          
  3                     7.4732e-05            3e-13                 -1.05632e-06          -7.3654e-05          
  3.1                   8.0348e-05            1.4e-13               -1.4636e-06           -7.8862e-05          
  3.2                   8.6292e-05            2e-13                 -2.0004e-06           -8.4276e-05          
  3.3                   9.2616e-05            3.2e-13               -2.6936e-06           -8.99e-05            
  3.4                   9.937e-05             2.8e-13               -3.579e-06            -9.5772e-05          
  3.5                   0.000106598           2.2e-13               -4.6904e-06           -0.000101894         
  3.6                   0.000114324           2.4e-13               -6.0646e-06           -0.00010824          
END_DB

BEGIN_DB
 ICCAP_VAR vg         1.335          
 ICCAP_VAR vb         -3.6           
 ICCAP_VAR vs         0              

 #vd                    id                    ig                    ib                    is                   
  0                     1.7048e-07            4.8e-13               -9.2e-12              -1.4578e-07          
  0.1                   0.00031942            2.8e-13               -8.46e-12             -0.00031904          
  0.2                   0.00056796            2.4e-13               -1.072e-11            -0.0005676           
  0.3                   0.00074498            3.4e-13               -9.26e-12             -0.00074456          
  0.4                   0.00086604            3.4e-13               -9.76e-12             -0.00086578          
  0.5                   0.0009504             3.6e-13               -1.014e-11            -0.00095042          
  0.6                   0.00101316            3.6e-13               -8.82e-12             -0.00101278          
  0.7                   0.001063              3.6e-13               -9.36e-12             -0.001063            
  0.8                   0.00110548            3.4e-13               -1.056e-11            -0.00110502          
  0.9                   0.00114284            3.2e-13               -8.88e-12             -0.00114228          
  1                     0.0011776             2.4e-13               -9.04e-12             -0.0011756           
  1.1                   0.0012092             2.6e-13               -1.09e-11             -0.001207            
  1.2                   0.0012386             2.6e-13               -2.042e-11            -0.0012366           
  1.3                   0.001267              4e-13                 -6.57e-11             -0.0012648           
  1.4                   0.001294              3e-13                 -2.6368e-10           -0.0012918           
  1.5                   0.0013202             2.6e-13               -9.822e-10            -0.001318            
  1.6                   0.0013458             3e-13                 -3.1858e-09           -0.0013434           
  1.7                   0.0013702             1.8e-13               -8.98e-09             -0.0013682           
  1.8                   0.0013946             2.2e-13               -2.2472e-08           -0.0013924           
  1.9                   0.0014184             2.8e-13               -5.0556e-08           -0.0014162           
  2                     0.0014418             2.4e-13               -1.03794e-07          -0.0014398           
  2.1                   0.001465              2.2e-13               -1.9774e-07           -0.001463            
  2.2                   0.001488              2.4e-13               -3.5368e-07           -0.0014858           
  2.3                   0.0015108             3.2e-13               -5.9892e-07           -0.0015082           
  2.4                   0.0015332             2.2e-13               -9.6838e-07           -0.0015304           
  2.5                   0.001556              3.4e-13               -1.508e-06            -0.0015524           
  2.6                   0.0015786             3e-13                 -2.2774e-06           -0.0015746           
  2.7                   0.0016014             4e-13                 -3.346e-06            -0.0015962           
  2.8                   0.0016246             3.6e-13               -4.81e-06             -0.0016178           
  2.9                   0.0016482             2.6e-13               -6.7796e-06           -0.0016392           
  3                     0.0016724             3.4e-13               -9.4056e-06           -0.001661            
  3.1                   0.001698              1e-13                 -1.285e-05            -0.0016832           
  3.2                   0.0017248             1.8e-13               -1.7332e-05           -0.0017054           
  3.3                   0.0017532             2.6e-13               -2.3058e-05           -0.001728            
  3.4                   0.0017836             3.2e-13               -3.0306e-05           -0.0017512           
  3.5                   0.0018164             2.6e-13               -3.9332e-05           -0.001775            
  3.6                   0.0018518             3.4e-13               -5.0396e-05           -0.0017994           
END_DB

BEGIN_DB
 ICCAP_VAR vg         2.09           
 ICCAP_VAR vb         -3.6           
 ICCAP_VAR vs         0              

 #vd                    id                    ig                    ib                    is                   
  0                     2.3004e-07            4.8e-13               -5.88e-12             -2.499e-07           
  0.1                   0.00063582            4.2e-13               -6.12e-12             -0.00063542          
  0.2                   0.0012078             3.6e-13               -6.4e-12              -0.0012056           
  0.3                   0.0016898             4e-13                 -7.12e-12             -0.0016878           
  0.4                   0.0020786             4e-13                 -5.96e-12             -0.0020768           
  0.5                   0.0023806             3.6e-13               -6.74e-12             -0.0023784           
  0.6                   0.0026092             2.2e-13               -5.72e-12             -0.0026072           
  0.7                   0.0027818             4.2e-13               -5.58e-12             -0.0027798           
  0.8                   0.0029128             3.6e-13               -7.24e-12             -0.0029108           
  0.9                   0.0030146             3.2e-13               -6.56e-12             -0.0030126           
  1                     0.0030964             4e-13                 -6.12e-12             -0.0030946           
  1.1                   0.0031642             2.4e-13               -7.48e-12             -0.0031622           
  1.2                   0.003222              3.2e-13               -1.072e-11            -0.0032202           
  1.3                   0.0032732             3e-13                 -2.92e-11             -0.003271            
  1.4                   0.0033188             3.4e-13               -1.1364e-10           -0.0033168           
  1.5                   0.0033604             3.2e-13               -4.2452e-10           -0.003358            
  1.6                   0.0033986             2.6e-13               -1.4258e-09           -0.0033966           
  1.7                   0.0034346             3.4e-13               -4.2598e-09           -0.0034326           
  1.8                   0.0034686             3.2e-13               -1.14248e-08          -0.0034664           
  1.9                   0.0035012             4e-13                 -2.7744e-08           -0.003499            
  2                     0.0035322             3.8e-13               -6.1594e-08           -0.0035298           
  2.1                   0.003562              2.6e-13               -1.2676e-07           -0.0035596           
  2.2                   0.0035908             3.6e-13               -2.4426e-07           -0.0035886           
  2.3                   0.0036192             2.8e-13               -4.4346e-07           -0.0036164           
  2.4                   0.0036466             3.2e-13               -7.6452e-07           -0.003644            
  2.5                   0.003674              1.8e-13               -1.2608e-06           -0.0036708           
  2.6                   0.003701              3.6e-13               -2.0034e-06           -0.003697            
  2.7                   0.003728              3.2e-13               -3.076e-06            -0.0037228           
  2.8                   0.0037548             3e-13                 -4.5944e-06           -0.0037482           
  2.9                   0.0037824             3.6e-13               -6.6938e-06           -0.0037738           
  3                     0.0038108             4e-13                 -9.554e-06            -0.003799            
  3.1                   0.0038394             2.4e-13               -1.3376e-05           -0.003824            
  3.2                   0.0038698             3e-13                 -1.844e-05            -0.0038492           
  3.3                   0.0039016             2.8e-13               -2.5038e-05           -0.0038748           
  3.4                   0.0039362             4.6e-13               -3.3552e-05           -0.0039006           
  3.5                   0.003974              2.6e-13               -4.4394e-05           -0.0039278           
  3.6                   0.0040156             3.8e-13               -5.7986e-05           -0.0039556           
END_DB

BEGIN_DB
 ICCAP_VAR vg         2.845          
 ICCAP_VAR vb         -3.6           
 ICCAP_VAR vs         0              

 #vd                    id                    ig                    ib                    is                   
  0                     2.575e-07             5.2e-13               -3.78e-12             -3.146e-07           
  0.1                   0.00082388            4.2e-13               -4.26e-12             -0.00082348          
  0.2                   0.001598              3.4e-13               -5.34e-12             -0.001596            
  0.3                   0.0022922             4e-13                 -4.26e-12             -0.00229             
  0.4                   0.0028956             3.6e-13               -4.62e-12             -0.0028934           
  0.5                   0.0034038             4.6e-13               -5.02e-12             -0.0034018           
  0.6                   0.0038218             4.6e-13               -4.68e-12             -0.0038198           
  0.7                   0.0041612             4.2e-13               -5.42e-12             -0.0041592           
  0.8                   0.0044334             3.8e-13               -5.4e-12              -0.0044314           
  0.9                   0.0046508             3.8e-13               -4.56e-12             -0.0046486           
  1                     0.0048252             3.6e-13               -4.98e-12             -0.004823            
  1.1                   0.0049658             4e-13                 -4.42e-12             -0.0049638           
  1.2                   0.0050808             3e-13                 -6.26e-12             -0.005079            
  1.3                   0.0051772             3.6e-13               -1.228e-11            -0.0051752           
  1.4                   0.0052582             3.2e-13               -3.798e-11            -0.0052564           
  1.5                   0.0053288             3.2e-13               -1.4786e-10           -0.0053268           
  1.6                   0.0053908             2.2e-13               -5.2496e-10           -0.0053888           
  1.7                   0.0054462             2.8e-13               -1.672e-09            -0.0054436           
  1.8                   0.0054956             3.2e-13               -4.7892e-09           -0.0054936           
  1.9                   0.005541              3e-13                 -1.2404e-08           -0.0055388           
  2                     0.0055822             3e-13                 -2.928e-08            -0.0055804           
  2.1                   0.005621              3.8e-13               -6.3892e-08           -0.005619            
  2.2                   0.0056574             2.6e-13               -1.2974e-07           -0.0056552           
  2.3                   0.0056912             3e-13                 -2.4768e-07           -0.0056894           
  2.4                   0.0057238             4.4e-13               -4.4698e-07           -0.0057214           
  2.5                   0.005755              4e-13                 -7.698e-07            -0.0057524           
  2.6                   0.0057854             3e-13                 -1.2706e-06           -0.0057816           
  2.7                   0.0058138             4.6e-13               -2.0222e-06           -0.00581             
  2.8                   0.0058424             5.6e-13               -3.1196e-06           -0.0058374           
  2.9                   0.0058706             7.4e-13               -4.6794e-06           -0.005864            
  3                     0.005899              9.2e-13               -6.8554e-06           -0.0058902           
  3.1                   0.0059276             1.24e-12              -9.8324e-06           -0.0059158           
  3.2                   0.005957              1.28e-12              -1.3834e-05           -0.0059414           
  3.3                   0.0059878             1.66e-12              -1.9154e-05           -0.0059664           
  3.4                   0.0060204             1.9e-12               -2.613e-05            -0.0059922           
  3.5                   0.0060554             2.18e-12              -3.5172e-05           -0.0060178           
  3.6                   0.0060926             2.54e-12              -4.6714e-05           -0.0060442           
END_DB

BEGIN_DB
 ICCAP_VAR vg         3.6            
 ICCAP_VAR vb         -3.6           
 ICCAP_VAR vs         0              

 #vd                    id                    ig                    ib                    is                   
  0                     2.7016e-07            5.2e-13               -2.68e-12             -3.5004e-07          
  0.1                   0.00093442            5.2e-13               -2.96e-12             -0.000934            
  0.2                   0.0018314             4.4e-13               -4.14e-12             -0.0018294           
  0.3                   0.0026624             3.4e-13               -3.9e-12              -0.0026602           
  0.4                   0.0034146             3.4e-13               -5.08e-12             -0.0034126           
  0.5                   0.004079              4.4e-13               -3.52e-12             -0.004077            
  0.6                   0.0046544             4.4e-13               -4.04e-12             -0.0046524           
  0.7                   0.0051468             3.4e-13               -4.86e-12             -0.0051446           
  0.8                   0.0055626             4e-13                 -4.26e-12             -0.0055604           
