! VERSION = 6.00
BEGIN_HEADER
 ICCAP_INPUTS
  vg         V  G GROUND SMU2 0.001 LIN        1    -0.5       3.6        83   0.05      
  vb         V  B GROUND SMU4 0.1 LIN        2    0          -3.6       5    -0.9      
  vd         V  D GROUND SMU1 0.1 LIN        3    0.1        3.3        3    1.6       
  vs         V  S GROUND SMU3 0.1 CON        0
 ICCAP_OUTPUTS
  id         I  D GROUND SMU1 B
  ig         I  G GROUND SMU2 B
  ib         I  B GROUND SMU4 B
  is         I  S GROUND SMU3 B
 ICCAP_VALUES
  MASTER_SETUP_TYPE "~dc_idvg~"
  LINVT_VALUE ""
  LISTVT_VALUE ""
  TYPE "1"
  TEMP "-40.0000 "
  IS_TNOM " 0.00000 "
  MAIN.W "10.00u"
  MAIN.L "10.00u"
  MAIN.AD "3.400p"
  MAIN.AS "3.400p"
  MAIN.PD "20.68u"
  MAIN.PS "20.68u"
  MAIN.NF "1.000"
  MAIN.M "1"
  MAIN.NRD "0.000"
  MAIN.NRS "0.000"
  MAIN.LDRIFT1 "1E-06"
  MAIN.LDRIFT2 "1E-06"
  MAIN.SA "0.000"
  MAIN.SB "0.000"
  MAIN.SD "0.000"
  MAIN.SCA "0.000"
  MAIN.SCB "0.000"
  MAIN.SCC "0.000"
  MAIN.SC "0.000"
  MODULE "S557"
  PIN_D "16"
  PIN_G "5"
  PIN_S "6"
  PIN_B "15"
  PIN_E ""
  PIN_6 ""
  XY_ID ""
  FUNC "Large"
  STI "SA ref"
  WPE "WPE ref"
  COMMENT ""
  DIS_MEAS ""
  TypeTCI "10"
END_HEADER

BEGIN_DB
 ICCAP_VAR vb         0              
 ICCAP_VAR vd         0.1            
 ICCAP_VAR vs         0              

 #vg                    id                    ig                    ib                    is                   
  -0.5                  2e-14                 -7.8e-13              4.82e-12              -1.4e-13             
  -0.45                 0                     -1.8e-13              3.84e-12              -2e-13               
  -0.4                  1.4e-13               -2.2e-13              2.66e-12              0                    
  -0.35                 -2e-14                -3.2e-13              2.6e-13               -2e-14               
  -0.3                  4e-14                 -2e-14                3.16e-12              -8e-14               
  -0.25                 1e-13                 -2.4e-13              4.34e-12              6e-14                
  -0.2                  0                     -4e-13                3.78e-12              -1e-13               
  -0.15                 -4e-14                0                     3.4e-12               4e-14                
  -0.1                  0                     2e-14                 2.7e-12               6e-14                
  -0.05                 0                     6e-14                 3.44e-12              2e-14                
  0                     8e-14                 4e-14                 3.98e-12              -4e-14               
  0.05                  -1e-13                2e-14                 3.14e-12              8e-14                
  0.1                   4e-14                 4e-14                 2.26e-12              -2e-14               
  0.15                  -2e-14                4.4e-13               2.9e-12               -4e-14               
  0.2                   4e-14                 4.6e-13               2.86e-12              1.6e-13              
  0.25                  -4e-14                3.4e-13               2.92e-12              4e-14                
  0.3                   7e-13                 1.4e-13               3.36e-12              -5.2e-13             
  0.35                  4.06e-12              -6e-14                2.68e-12              -3.98e-12            
  0.4                   2.568e-11             5.2e-13               2.7e-12               -2.576e-11           
  0.45                  1.6138e-10            3.8e-13               2.56e-12              -1.6122e-10          
  0.5                   9.8068e-10            2.8e-13               2.98e-12              -9.799e-10           
  0.55                  5.5024e-09            4.6e-13               3.32e-12              -5.4968e-09          
  0.6                   2.5622e-08            2e-13                 3.38e-12              -2.5584e-08          
  0.65                  9.2748e-08            0                     2.4e-12               -9.2708e-08          
  0.7                   2.5664e-07            4.2e-13               2.9e-12               -2.5638e-07          
  0.75                  5.678e-07             2.4e-13               3.46e-12              -5.6768e-07          
  0.8                   1.0462e-06            2e-13                 2.38e-12              -1.04592e-06         
  0.85                  1.686e-06             1.4e-13               2.72e-12              -1.6816e-06          
  0.9                   2.4512e-06            3.8e-13               3.02e-12              -2.4468e-06          
  0.95                  3.3172e-06            6.6e-13               3.12e-12              -3.3132e-06          
  1                     4.2624e-06            3.2e-13               1.76e-12              -4.2582e-06          
  1.05                  5.2726e-06            2.4e-13               2.2e-12               -5.2684e-06          
  1.1                   6.3268e-06            5e-13                 2.84e-12              -6.3226e-06          
  1.15                  7.4184e-06            1.2e-13               3.58e-12              -7.4138e-06          
  1.2                   8.538e-06             2.4e-13               2.36e-12              -8.5342e-06          
  1.25                  9.68e-06              3.8e-13               1.66e-12              -9.6758e-06          
  1.3                   1.08426e-05           7e-13                 1.94e-12              -1.08386e-05         
  1.35                  1.202e-05             7e-13                 -1.04e-12             -1.2002e-05          
  1.4                   1.3198e-05            4.8e-13               2.34e-12              -1.3178e-05          
  1.45                  1.4378e-05            3.6e-13               2.04e-12              -1.436e-05           
  1.5                   1.5564e-05            3.6e-13               1.92e-12              -1.5546e-05          
  1.55                  1.6744e-05            2.2e-13               2.52e-12              -1.6724e-05          
  1.6                   1.7916e-05            3e-13                 3.3e-12               -1.7896e-05          
  1.65                  1.9084e-05            7.4e-13               2.2e-12               -1.9064e-05          
  1.7                   2.024e-05             2.6e-13               2.18e-12              -2.0222e-05          
  1.75                  2.1382e-05            4.6e-13               1.84e-12              -2.1364e-05          
  1.8                   2.2514e-05            4.2e-13               3.78e-12              -2.2494e-05          
  1.85                  2.3624e-05            7.2e-13               2.46e-12              -2.3606e-05          
  1.9                   2.4722e-05            2.6e-13               2.08e-12              -2.4702e-05          
  1.95                  2.5796e-05            4.8e-13               2.12e-12              -2.5778e-05          
  2                     2.6854e-05            8e-13                 3.02e-12              -2.6834e-05          
  2.05                  2.789e-05             6.6e-13               2.92e-12              -2.787e-05           
  2.1                   2.89e-05              1.8e-13               1.62e-12              -2.888e-05           
  2.15                  2.9888e-05            4.2e-13               1.76e-12              -2.987e-05           
  2.2                   3.085e-05             8.4e-13               2.46e-12              -3.083e-05           
  2.25                  3.179e-05             2.2e-13               2.68e-12              -3.177e-05           
  2.3                   3.27e-05              4.8e-13               2.46e-12              -3.268e-05           
  2.35                  3.3588e-05            3.8e-13               1.36e-12              -3.3568e-05          
  2.4                   3.4446e-05            8.2e-13               2.5e-12               -3.4426e-05          
  2.45                  3.5276e-05            4.6e-13               2.68e-12              -3.5258e-05          
  2.5                   3.6084e-05            1.12e-12              2.06e-12              -3.6064e-05          
  2.55                  3.6862e-05            4.2e-13               9.6e-13               -3.6842e-05          
  2.6                   3.761e-05             3.2e-13               1.42e-12              -3.7592e-05          
  2.65                  3.8334e-05            5.4e-13               2.2e-12               -3.8314e-05          
  2.7                   3.9028e-05            7.2e-13               1.5e-12               -3.9008e-05          
  2.75                  3.9698e-05            5.4e-13               1.5e-12               -3.968e-05           
  2.8                   4.034e-05             3.4e-13               2.1e-12               -4.0322e-05          
  2.85                  4.0956e-05            7.6e-13               1.18e-12              -4.0938e-05          
  2.9                   4.1546e-05            1.3e-12               2.62e-12              -4.1526e-05          
  2.95                  4.211e-05             2.2e-13               1.84e-12              -4.2092e-05          
  3                     4.2648e-05            4.4e-13               1.36e-12              -4.263e-05           
  3.05                  4.316e-05             6.4e-13               1.42e-12              -4.3142e-05          
  3.1                   4.365e-05             7.4e-13               2.34e-12              -4.3632e-05          
  3.15                  4.4116e-05            5.6e-13               2.88e-12              -4.4098e-05          
  3.2                   4.4558e-05            6e-13                 1.36e-12              -4.4538e-05          
  3.25                  4.4976e-05            8.8e-13               1.58e-12              -4.4958e-05          
  3.3                   4.5372e-05            5.8e-13               2.16e-12              -4.5352e-05          
  3.35                  4.5746e-05            7.8e-13               2.44e-12              -4.5728e-05          
  3.4                   4.61e-05              9.6e-13               1.58e-12              -4.6082e-05          
  3.45                  4.6432e-05            5.4e-13               7.2e-13               -4.6412e-05          
  3.5                   4.6744e-05            5.8e-13               1.98e-12              -4.6726e-05          
  3.55                  4.7038e-05            1.12e-12              2.52e-12              -4.7018e-05          
  3.6                   4.7312e-05            4.8e-13               1.28e-12              -4.7292e-05          
END_DB

BEGIN_DB
 ICCAP_VAR vb         -0.9           
 ICCAP_VAR vd         0.1            
 ICCAP_VAR vs         0              

 #vg                    id                    ig                    ib                    is                   
  -0.5                  1.8e-13               -5.4e-13              -5.58e-12             -2e-14               
  -0.45                 1.2e-13               -1.8e-13              -5.5e-12              1.2e-13              
  -0.4                  1.8e-13               -1.2e-13              -4.14e-12             1e-13                
  -0.35                 1e-13                 1.2e-13               -3.5e-12              -6e-14               
  -0.3                  8e-14                 -2e-13                -3.14e-12             4e-14                
  -0.25                 1e-13                 -2e-13                -3.22e-12             1e-13                
  -0.2                  2.2e-13               -6e-14                -4.16e-12             1.8e-13              
  -0.15                 6e-14                 -4e-14                -3.36e-12             6e-14                
  -0.1                  6e-14                 -1.6e-13              -1.9e-12              0                    
  -0.05                 1.2e-13               4.8e-13               -1.7e-12              1.6e-13              
  0                     1.4e-13               2.4e-13               -3.1e-12              1.8e-13              
  0.05                  4e-14                 2e-14                 -3.3e-12              0                    
  0.1                   4e-14                 -2e-14                -4.58e-12             1.4e-13              
  0.15                  6e-14                 2.4e-13               -2.78e-12             1.2e-13              
  0.2                   8e-14                 -4e-14                -1.44e-12             1e-13                
  0.25                  6e-14                 6e-14                 -2.16e-12             -4e-14               
  0.3                   1.6e-13               -2.4e-13              -1.92e-12             1e-13                
  0.35                  4e-14                 -6e-14                -2.18e-12             -8e-14               
  0.4                   6e-14                 4.6e-13               -1.64e-12             4e-14                
  0.45                  1e-13                 6.8e-13               -1.2e-13              1.2e-13              
  0.5                   1.2e-13               6e-14                 -1.82e-12             -1.2e-13             
  0.55                  5.2e-13               2.8e-13               -1.66e-12             -2.8e-13             
  0.6                   3.8e-12               3.8e-13               -1.68e-12             -3.8e-12             
  0.65                  2.732e-11             2.6e-13               -1.56e-12             -2.722e-11           
  0.7                   1.9298e-10            5e-13                 -2.6e-13              -1.927e-10           
  0.75                  1.3034e-09            2e-13                 -5.8e-13              -1.301e-09           
  0.8                   7.6704e-09            5e-13                 -1.58e-12             -7.6632e-09          
  0.85                  3.5948e-08            5.2e-13               -9.6e-13              -3.5908e-08          
  0.9                   1.2456e-07            3e-13                 -4.8e-13              -1.2436e-07          
  0.95                  3.2702e-07            5.8e-13               -2.12e-12             -3.2676e-07          
  1                     6.8484e-07            6e-14                 -8.4e-13              -6.8452e-07          
  1.05                  1.2096e-06            1e-13                 8e-13                 -1.2052e-06          
  1.1                   1.8736e-06            4e-13                 -9e-13                -1.8694e-06          
  1.15                  2.6524e-06            3.8e-13               -1.36e-12             -2.6484e-06          
  1.2                   3.5206e-06            5.6e-13               -7.4e-13              -3.5164e-06          
  1.25                  4.4586e-06            2.2e-13               7e-13                 -4.4546e-06          
  1.3                   5.4546e-06            3.2e-13               -5e-13                -5.45e-06            
  1.35                  6.4876e-06            8e-13                 -1.32e-12             -6.4834e-06          
  1.4                   7.5528e-06            9.4e-13               -8.4e-13              -7.5484e-06          
  1.45                  8.6414e-06            5.4e-13               6.2e-13               -8.6374e-06          
  1.5                   9.7526e-06            2e-13                 -4.8e-13              -9.7484e-06          
  1.55                  1.08716e-05           1e-12                 -9e-13                -1.08672e-05         
  1.6                   1.2004e-05            3.4e-13               -6.2e-13              -1.1984e-05          
  1.65                  1.3134e-05            4.6e-13               4.2e-13               -1.3116e-05          
  1.7                   1.4266e-05            3.4e-13               7e-13                 -1.4246e-05          
  1.75                  1.5388e-05            4.4e-13               -6.2e-13              -1.537e-05           
  1.8                   1.6508e-05            6.4e-13               -2.2e-13              -1.649e-05           
  1.85                  1.7616e-05            5.4e-13               -5e-13                -1.7598e-05          
  1.9                   1.8716e-05            2.4e-13               1.8e-13               -1.8698e-05          
  1.95                  1.9798e-05            2.6e-13               -1.6e-13              -1.978e-05           
  2                     2.0868e-05            8.2e-13               0                     -2.085e-05           
  2.05                  2.192e-05             8.4e-13               -1.28e-12             -2.1902e-05          
  2.1                   2.295e-05             2.8e-13               2.4e-13               -2.2932e-05          
  2.15                  2.3964e-05            5e-13                 1.8e-13               -2.3946e-05          
  2.2                   2.4952e-05            1.16e-12              -1.08e-12             -2.4934e-05          
  2.25                  2.5922e-05            5e-13                 -1e-13                -2.5902e-05          
  2.3                   2.6864e-05            2.4e-13               -3.6e-13              -2.6844e-05          
  2.35                  2.7786e-05            1.02e-12              9.2e-13               -2.7766e-05          
  2.4                   2.8678e-05            3.6e-13               -1e-13                -2.866e-05           
  2.45                  2.9546e-05            6.4e-13               -1e-12                -2.9528e-05          
  2.5                   3.0392e-05            8.4e-13               -2.4e-13              -3.0374e-05          
  2.55                  3.121e-05             1e-13                 -2e-13                -3.119e-05           
  2.6                   3.2e-05               6.8e-13               -2e-13                -3.1982e-05          
  2.65                  3.2766e-05            7.8e-13               -1.08e-12             -3.2746e-05          
  2.7                   3.3504e-05            5e-13                 -9.6e-13              -3.3484e-05          
  2.75                  3.4216e-05            2.6e-13               4.8e-13               -3.4198e-05          
  2.8                   3.49e-05              4e-13                 6.4e-13               -3.4882e-05          
  2.85                  3.556e-05             1.08e-12              -2e-14                -3.554e-05           
  2.9                   3.6192e-05            5.2e-13               -1.2e-13              -3.6174e-05          
  2.95                  3.6802e-05            5.6e-13               -7.6e-13              -3.6784e-05          
  3                     3.7386e-05            3.4e-13               8e-13                 -3.7366e-05          
  3.05                  3.7944e-05            6e-13                 -3.2e-13              -3.7924e-05          
  3.1                   3.8478e-05            9.8e-13               -5.6e-13              -3.8458e-05          
  3.15                  3.8988e-05            1.6e-13               -7.6e-13              -3.8968e-05          
  3.2                   3.9472e-05            3.6e-13               4.8e-13               -3.9452e-05          
  3.25                  3.9936e-05            5.4e-13               8.4e-13               -3.9916e-05          
  3.3                   4.0376e-05            7.4e-13               -6.6e-13              -4.0356e-05          
  3.35                  4.0794e-05            5.2e-13               -1.16e-12             -4.0774e-05          
  3.4                   4.1192e-05            6.2e-13               -3.6e-13              -4.1172e-05          
  3.45                  4.1566e-05            4.6e-13               4e-13                 -4.1546e-05          
