! VERSION = 6.00
BEGIN_HEADER
 ICCAP_INPUTS
  vg         V  G GROUND SMU2 0.001 LIN        1    -0.5       3.6        83   0.05      
  vb         V  B GROUND SMU4 0.1 LIN        2    0          -3.6       5    -0.9      
  vd         V  D GROUND SMU1 0.1 LIN        3    0.1        3.3        3    1.6       
  vs         V  S GROUND SMU3 0.1 CON        0
 ICCAP_OUTPUTS
  id         I  D GROUND SMU1 B
  ig         I  G GROUND SMU2 B
  ib         I  B GROUND SMU4 B
  is         I  S GROUND SMU3 B
 ICCAP_VALUES
  MASTER_SETUP_TYPE "~dc_idvg~"
  LINVT_VALUE ""
  LISTVT_VALUE ""
  TYPE "1"
  TEMP " 27.0000 "
  IS_TNOM " 1.00000 "
  MAIN.W "300.0n"
  MAIN.L "10.00u"
  MAIN.AD "102.0f"
  MAIN.AS "102.0f"
  MAIN.PD "1.280u"
  MAIN.PS "1.280u"
  MAIN.NF "1.000"
  MAIN.M "1"
  MAIN.NRD "0.000"
  MAIN.NRS "0.000"
  MAIN.LDRIFT1 "1E-06"
  MAIN.LDRIFT2 "1E-06"
  MAIN.SA "0.000"
  MAIN.SB "0.000"
  MAIN.SD "0.000"
  MAIN.SCA "0.000"
  MAIN.SCB "0.000"
  MAIN.SCC "0.000"
  MAIN.SC "0.000"
  MODULE "S547"
  PIN_D "14"
  PIN_G "7"
  PIN_S "8"
  PIN_B "13"
  PIN_E ""
  PIN_6 ""
  XY_ID ""
  FUNC "Narrow"
  STI "SA ref"
  WPE "WPE ref"
  COMMENT ""
  DIS_MEAS ""
  TypeTCI "10"
END_HEADER

BEGIN_DB
 ICCAP_VAR vb         0              
 ICCAP_VAR vd         0.1            
 ICCAP_VAR vs         0              

 #vg                    id                    ig                    ib                    is                   
  -0.5                  2e-13                 -4.278e-11            4.16e-11              1.4e-13              
  -0.45                 1e-13                 -6.1e-12              5.46e-12              2.4e-13              
  -0.4                  8e-14                 -7.4e-13              3e-13                 2.8e-13              
  -0.35                 1e-13                 1e-13                 2.2e-13               6e-14                
  -0.3                  2e-14                 4.2e-13               -4e-14                1.8e-13              
  -0.25                 4e-14                 3.6e-13               -9.4e-13              2e-13                
  -0.2                  2e-14                 5.2e-13               -1.16e-12             1.6e-13              
  -0.15                 0                     5.8e-13               -4.2e-13              8e-14                
  -0.1                  1e-13                 5.6e-13               3e-13                 1.6e-13              
  -0.05                 4e-14                 6e-13                 1e-13                 0                    
  0                     8e-14                 7.4e-13               -8.8e-13              2.2e-13              
  0.05                  8e-14                 4.6e-13               -8e-13                2.8e-13              
  0.1                   4e-14                 6.4e-13               -6.2e-13              8e-14                
  0.15                  8e-14                 4.2e-13               6e-14                 2.6e-13              
  0.2                   2.8e-13               8.6e-13               -4e-14                2e-14                
  0.25                  7.4e-13               4.6e-13               -8.6e-13              -4.2e-13             
  0.3                   2.84e-12              8e-13                 -1e-12                -2.6e-12             
  0.35                  1.14e-11              8e-13                 -9e-13                -1.112e-11           
  0.4                   4.558e-11             8e-13                 4e-13                 -4.538e-11           
  0.45                  1.7878e-10            7.2e-13               1.6e-13               -1.7822e-10          
  0.5                   6.42e-10              6.4e-13               -8.6e-13              -6.4112e-10          
  0.55                  2.005e-09             8.4e-13               -1.32e-12             -2.002e-09           
  0.6                   5.1886e-09            5.6e-13               -9e-13                -5.185e-09           
  0.65                  1.1208e-08            9.4e-13               0                     -1.12058e-08         
  0.7                   2.0572e-08            7.4e-13               4.2e-13               -2.0542e-08          
  0.75                  3.3242e-08            9.2e-13               -1.2e-13              -3.3222e-08          
  0.8                   4.859e-08             8e-13                 -9.2e-13              -4.8578e-08          
  0.85                  6.6132e-08            8.8e-13               -9.8e-13              -6.6104e-08          
  0.9                   8.5174e-08            9.4e-13               1.22e-12              -8.5164e-08          
  0.95                  1.05326e-07           1.08e-12              6e-14                 -1.053e-07           
  1                     1.2634e-07            7.8e-13               -8.6e-13              -1.262e-07           
  1.05                  1.4796e-07            1.24e-12              -1.6e-13              -1.478e-07           
  1.1                   1.6984e-07            8.2e-13               1.8e-13               -1.697e-07           
  1.15                  1.9196e-07            9.6e-13               -2.2e-13              -1.9178e-07          
  1.2                   2.142e-07             9.4e-13               -8.8e-13              -2.1404e-07          
  1.25                  2.3644e-07            8.6e-13               -2e-14                -2.3628e-07          
  1.3                   2.588e-07             9.4e-13               2e-13                 -2.5864e-07          
  1.35                  2.8098e-07            9.4e-13               -8e-13                -2.8082e-07          
  1.4                   3.0306e-07            9.2e-13               -9.8e-13              -3.0288e-07          
  1.45                  3.2498e-07            1.06e-12              -9.2e-13              -3.2482e-07          
  1.5                   3.468e-07             9.2e-13               3.4e-13               -3.4668e-07          
  1.55                  3.684e-07             9.4e-13               2.2e-13               -3.6826e-07          
  1.6                   3.8972e-07            7e-13                 -8.2e-13              -3.8954e-07          
  1.65                  4.1088e-07            1.18e-12              -4.8e-13              -4.1074e-07          
  1.7                   4.3182e-07            7.6e-13               -5e-13                -4.3166e-07          
  1.75                  4.5234e-07            1.04e-12              -6e-14                -4.5226e-07          
  1.8                   4.7272e-07            9.2e-13               -2.46e-12             -4.726e-07           
  1.85                  4.927e-07             1.06e-12              -8.4e-13              -4.9256e-07          
  1.9                   5.1244e-07            9.4e-13               -6.8e-13              -5.123e-07           
  1.95                  5.3184e-07            1.1e-12               4.2e-13               -5.317e-07           
  2                     5.5096e-07            9e-13                 -2.6e-13              -5.5084e-07          
  2.05                  5.6978e-07            1.14e-12              -9.4e-13              -5.6968e-07          
  2.1                   5.8822e-07            1.06e-12              -4.8e-13              -5.8812e-07          
  2.15                  6.0634e-07            1.08e-12              1.2e-13               -6.0626e-07          
  2.2                   6.2412e-07            1.04e-12              4.4e-13               -6.24e-07            
  2.25                  6.416e-07             1.04e-12              -4.6e-13              -6.415e-07           
  2.3                   6.5866e-07            9.8e-13               -6.4e-13              -6.5856e-07          
  2.35                  6.7546e-07            1.18e-12              -6.2e-13              -6.7534e-07          
  2.4                   6.9182e-07            1.08e-12              5e-13                 -6.917e-07           
  2.45                  7.0786e-07            9.4e-13               8e-14                 -7.0776e-07          
  2.5                   7.2358e-07            1.08e-12              -1.04e-12             -7.235e-07           
  2.55                  7.3892e-07            9e-13                 -9.2e-13              -7.3886e-07          
  2.6                   7.5394e-07            9e-13                 5.8e-13               -7.5388e-07          
  2.65                  7.6862e-07            1.22e-12              2.2e-13               -7.685e-07           
  2.7                   7.8286e-07            1.08e-12              -1.32e-12             -7.8278e-07          
  2.75                  7.9688e-07            1.18e-12              -5.4e-13              -7.968e-07           
  2.8                   8.105e-07             1.18e-12              0                     -8.1044e-07          
  2.85                  8.2376e-07            8.6e-13               1.4e-13               -8.2368e-07          
  2.9                   8.3668e-07            1.26e-12              -4.8e-13              -8.3662e-07          
  2.95                  8.4928e-07            1.08e-12              -7.8e-13              -8.4922e-07          
  3                     8.6154e-07            1.26e-12              3.8e-13               -8.6146e-07          
  3.05                  8.7342e-07            1.08e-12              3.2e-13               -8.7336e-07          
  3.1                   8.85e-07              1.2e-12               -8.2e-13              -8.849e-07           
  3.15                  8.9626e-07            1.22e-12              -5.2e-13              -8.9618e-07          
  3.2                   9.0714e-07            1.16e-12              -8.2e-13              -9.0714e-07          
  3.25                  9.1784e-07            1.12e-12              6e-13                 -9.1776e-07          
  3.3                   9.2822e-07            1.12e-12              1e-13                 -9.282e-07           
  3.35                  9.3828e-07            1.18e-12              -5.8e-13              -9.3818e-07          
  3.4                   9.4788e-07            1.26e-12              3.4e-13               -9.4784e-07          
  3.45                  9.5738e-07            1.22e-12              -2.2e-13              -9.573e-07           
  3.5                   9.6652e-07            1.06e-12              8e-14                 -9.6646e-07          
  3.55                  9.7542e-07            1.04e-12              -7.2e-13              -9.7538e-07          
  3.6                   9.8404e-07            1.22e-12              -6.2e-13              -9.8394e-07          
END_DB

BEGIN_DB
 ICCAP_VAR vb         -0.9           
 ICCAP_VAR vd         0.1            
 ICCAP_VAR vs         0              

 #vg                    id                    ig                    ib                    is                   
  -0.5                  -8e-14                -6.2e-13              -1.406e-11            1.8e-13              
  -0.45                 -6e-14                -4.2e-13              -1.298e-11            1.6e-13              
  -0.4                  -6e-14                2e-13                 -1.148e-11            4e-14                
  -0.35                 -8e-14                -2e-14                -9.84e-12             1.6e-13              
  -0.3                  -2e-14                4e-14                 -9.3e-12              2.2e-13              
  -0.25                 4e-14                 2e-13                 -9.08e-12             1.8e-13              
  -0.2                  -8e-14                1.2e-13               -9.72e-12             4e-14                
  -0.15                 8e-14                 4e-14                 -8.78e-12             1.8e-13              
  -0.1                  8e-14                 4e-13                 -7.24e-12             1.6e-13              
  -0.05                 2e-14                 2e-13                 -6.64e-12             2.8e-13              
  0                     0                     2.2e-13               -7.38e-12             1.8e-13              
  0.05                  0                     4.6e-13               -7.3e-12              2.6e-13              
  0.1                   0                     4e-13                 -6.76e-12             1.2e-13              
  0.15                  -2e-14                4.6e-13               -5.56e-12             2e-13                
  0.2                   4e-14                 5.4e-13               -5.42e-12             1.8e-13              
  0.25                  4e-14                 6.2e-13               -5.68e-12             1e-13                
  0.3                   2e-14                 4.6e-13               -5.6e-12              1.4e-13              
  0.35                  -2e-14                6.6e-13               -5.68e-12             1.6e-13              
  0.4                   8e-14                 6.2e-13               -4.5e-12              1.4e-13              
  0.45                  1.4e-13               5.4e-13               -4.6e-12              2e-14                
  0.5                   3.8e-13               7.2e-13               -5.52e-12             -2e-14               
  0.55                  1.52e-12              5.8e-13               -5.62e-12             -1.18e-12            
  0.6                   6.8e-12               5.4e-13               -5.02e-12             -6.5e-12             
  0.65                  3.038e-11             6.6e-13               -4.08e-12             -3.014e-11           
  0.7                   1.3174e-10            5.6e-13               -3.58e-12             -1.3176e-10          
  0.75                  5.2232e-10            7.4e-13               -4.76e-12             -5.2218e-10          
  0.8                   1.7432e-09            6.2e-13               -4.52e-12             -1.7412e-09          
  0.85                  4.7356e-09            4.6e-13               -3.92e-12             -4.732e-09           
  0.9                   1.04396e-08           8.6e-13               -3.76e-12             -1.04342e-08         
  0.95                  1.9302e-08            7.6e-13               -3.62e-12             -1.9272e-08          
  1                     3.115e-08             8.8e-13               -4e-12                -3.112e-08           
  1.05                  4.5476e-08            7e-13                 -4.56e-12             -4.5448e-08          
  1.1                   6.165e-08             8e-13                 -4.28e-12             -6.162e-08           
  1.15                  7.9246e-08            7.2e-13               -3.74e-12             -7.92e-08            
  1.2                   9.7784e-08            8.2e-13               -3.28e-12             -9.7776e-08          
  1.25                  1.1712e-07            7e-13                 -4.06e-12             -1.1694e-07          
  1.3                   1.3692e-07            1.04e-12              -3.4e-12              -1.3678e-07          
  1.35                  1.5698e-07            6.2e-13               -2.18e-12             -1.5682e-07          
  1.4                   1.7724e-07            9.2e-13               -3.56e-12             -1.7708e-07          
  1.45                  1.9764e-07            9e-13                 -3.94e-12             -1.9746e-07          
  1.5                   2.1808e-07            9.2e-13               -2.88e-12             -2.1792e-07          
  1.55                  2.3854e-07            8.6e-13               -2.2e-12              -2.384e-07           
  1.6                   2.5888e-07            9e-13                 -3.12e-12             -2.587e-07           
  1.65                  2.792e-07             9e-13                 -3.36e-12             -2.7904e-07          
  1.7                   2.994e-07             9.8e-13               -3.26e-12             -2.9924e-07          
  1.75                  3.1938e-07            6.8e-13               -1.96e-12             -3.1922e-07          
  1.8                   3.392e-07             1.02e-12              -3.54e-12             -3.3904e-07          
  1.85                  3.5878e-07            8.2e-13               -3.44e-12             -3.5864e-07          
  1.9                   3.7822e-07            8.8e-13               -3.44e-12             -3.7808e-07          
  1.95                  3.9738e-07            9e-13                 -2.92e-12             -3.9724e-07          
  2                     4.163e-07             9.6e-13               -2.16e-12             -4.162e-07           
  2.05                  4.3502e-07            9e-13                 -4.02e-12             -4.349e-07           
  2.1                   4.5336e-07            9.6e-13               -3.52e-12             -4.5326e-07          
  2.15                  4.7152e-07            1.02e-12              -2.32e-12             -4.714e-07           
  2.2                   4.8932e-07            8.8e-13               -2.68e-12             -4.892e-07           
  2.25                  5.0688e-07            1.16e-12              -3.12e-12             -5.0678e-07          
  2.3                   5.2408e-07            9.6e-13               -2.62e-12             -5.2394e-07          
  2.35                  5.41e-07              9.6e-13               -2.64e-12             -5.409e-07           
  2.4                   5.5758e-07            8.8e-13               -1.76e-12             -5.5746e-07          
  2.45                  5.7382e-07            1.2e-12               -2.28e-12             -5.7372e-07          
  2.5                   5.8984e-07            9.2e-13               -2.26e-12             -5.8972e-07          
  2.55                  6.054e-07             1.32e-12              -2.96e-12             -6.0532e-07          
  2.6                   6.2068e-07            1.02e-12              -2.44e-12             -6.2054e-07          
  2.65                  6.3562e-07            1.18e-12              -1.52e-12             -6.3552e-07          
  2.7                   6.502e-07             9.8e-13               -2.82e-12             -6.501e-07           
  2.75                  6.6452e-07            1.12e-12              -2.66e-12             -6.6444e-07          
  2.8                   6.7844e-07            1.08e-12              -2.06e-12             -6.7834e-07          
  2.85                  6.92e-07              1e-12                 -1.66e-12             -6.9192e-07          
  2.9                   7.0526e-07            1e-12                 -2.82e-12             -7.0514e-07          
  2.95                  7.1824e-07            9.6e-13               -3.24e-12             -7.1818e-07          
  3                     7.3082e-07            1.12e-12              -2.14e-12             -7.3074e-07          
  3.05                  7.4312e-07            9.6e-13               -1.54e-12             -7.43e-07            
  3.1                   7.551e-07             1.06e-12              -2.64e-12             -7.5502e-07          
  3.15                  7.668e-07             1.02e-12              -3.12e-12             -7.6668e-07          
  3.2                   7.781e-07             1.06e-12              -2.64e-12             -7.7802e-07          
  3.25                  7.8922e-07            1.1e-12               -1.84e-12             -7.8906e-07          
  3.3                   7.9992e-07            1.08e-12              -4.32e-12             -7.9986e-07          
  3.35                  8.103e-07             9e-13                 -2.8e-12              -8.1026e-07          
  3.4                   8.2046e-07            1.12e-12              -2.62e-12             -8.2034e-07          
  3.45                  8.3026e-07            1.14e-12              -1.66e-12             -8.3014e-07          
