! VERSION = 6.00
BEGIN_HEADER
 ICCAP_INPUTS
  vd         V  D GROUND SMU1 0.1 LIN        1    0          3.6        37   0.1       
  vg         V  G GROUND SMU2 0.001 LIST       2 3 0.216 0.416 0.616
  vb         V  B GROUND SMU4 0.1 CON        0
  vs         V  S GROUND SMU3 0.1 CON        0
 ICCAP_OUTPUTS
  id         I  D GROUND SMU1 B
  ig         I  G GROUND SMU2 B
  ib         I  B GROUND SMU4 B
  is         I  S GROUND SMU3 B
 ICCAP_VALUES
  MASTER_SETUP_TYPE "~dc_idvd~"
  LINVT_VALUE ""
  LISTVT_VALUE "|idvg|100.0n|-200.0m|1.000m|3|200.0m|200.0m|"
  TYPE "1"
  TEMP " 27.0000 "
  IS_TNOM " 1.00000 "
  MAIN.W "300.0n"
  MAIN.L "330.0n"
  MAIN.AD "102.0f"
  MAIN.AS "102.0f"
  MAIN.PD "1.280u"
  MAIN.PS "1.280u"
  MAIN.NF "1.000"
  MAIN.M "1"
  MAIN.NRD "0.000"
  MAIN.NRS "0.000"
  MAIN.LDRIFT1 "1E-06"
  MAIN.LDRIFT2 "1E-06"
  MAIN.SA "0.000"
  MAIN.SB "0.000"
  MAIN.SD "0.000"
  MAIN.SCA "0.000"
  MAIN.SCB "0.000"
  MAIN.SCC "0.000"
  MAIN.SC "0.000"
  MODULE "S560"
  PIN_D "18"
  PIN_G "3"
  PIN_S "4"
  PIN_B "17"
  PIN_E ""
  PIN_6 ""
  XY_ID ""
  FUNC "Additional"
  STI "SA ref"
  WPE "WPE ref"
  COMMENT ""
  DIS_MEAS ""
  TypeTCI "10"
END_HEADER

BEGIN_DB
 ICCAP_VAR vg         0.216          
 ICCAP_VAR vb         0              
 ICCAP_VAR vs         0              

 #vd                    id                    ig                    ib                    is                   
  0                     -2e-13                -3.8e-13              2.7e-12               8e-14                
  0.1                   4.92e-11              -4.4e-13              1.62e-12              -4.888e-11           
  0.2                   5.99e-11              -3.6e-13              1.64e-12              -5.942e-11           
  0.3                   7.048e-11             -4.4e-13              3.52e-12              -6.998e-11           
  0.4                   8.24e-11              -4.6e-13              2.12e-12              -8.19e-11            
  0.5                   9.512e-11             -3.2e-13              1.26e-12              -9.464e-11           
  0.6                   1.0998e-10            -3e-13                2.7e-12               -1.0952e-10          
  0.7                   1.2644e-10            -1.8e-13              2.28e-12              -1.2602e-10          
  0.8                   1.4514e-10            -2.6e-13              1.6e-12               -1.4436e-10          
  0.9                   1.6648e-10            -3.6e-13              2e-12                 -1.6524e-10          
  1                     1.8978e-10            -2.4e-13              1.62e-12              -1.8926e-10          
  1.1                   2.1668e-10            -2.2e-13              2.96e-12              -2.1584e-10          
  1.2                   2.473e-10             -3.2e-13              1.08e-12              -2.4638e-10          
  1.3                   2.8064e-10            -1.6e-13              2.9e-12               -2.7986e-10          
  1.4                   3.1948e-10            -2.2e-13              5.6e-13               -3.189e-10           
  1.5                   3.638e-10             -2.4e-13              1.62e-12              -3.6326e-10          
  1.6                   4.134e-10             -2e-14                1.34e-12              -4.1226e-10          
  1.7                   4.6956e-10            -2e-13                1.46e-12              -4.6788e-10          
  1.8                   5.32e-10              -2e-13                1.48e-12              -5.2982e-10          
  1.9                   6.0084e-10            -6e-14                6.4e-13               -5.993e-10           
  2                     6.799e-10             -1.8e-13              1.76e-12              -6.7794e-10          
  2.1                   7.694e-10             -1.2e-13              -2.6e-13              -7.6614e-10          
  2.2                   8.6814e-10            -1.6e-13              8e-14                 -8.6534e-10          
  2.3                   9.8106e-10            -2.2e-13              -1.2e-12              -9.7584e-10          
  2.4                   1.098e-09             -1e-13                -2.86e-12             -1.09084e-09         
  2.5                   1.2394e-09            -2.6e-13              -5.54e-12             -1.2306e-09          
  2.6                   1.416e-09             -1e-13                -8.32e-12             -1.4014e-09          
  2.7                   1.598e-09             -1.6e-13              -1.374e-11            -1.5798e-09          
  2.8                   1.8074e-09            -1.8e-13              -2.098e-11            -1.7826e-09          
  2.9                   2.043e-09             -1e-13                -3.158e-11            -2.0066e-09          
  3                     2.3138e-09            -2e-13                -4.576e-11            -2.2606e-09          
  3.1                   2.6176e-09            -2.4e-13              -6.47e-11             -2.5438e-09          
  3.2                   2.9676e-09            -1e-13                -9.172e-11            -2.8742e-09          
  3.3                   3.3744e-09            -1.8e-13              -1.2816e-10           -3.2414e-09          
  3.4                   3.828e-09             -1.8e-13              -1.761e-10            -3.6534e-09          
  3.5                   4.354e-09             -2.2e-13              -2.3762e-10           -4.1122e-09          
  3.6                   4.9554e-09            -1.2e-13              -3.1686e-10           -4.6292e-09          
END_DB

BEGIN_DB
 ICCAP_VAR vg         0.416          
 ICCAP_VAR vb         0              
 ICCAP_VAR vs         0              

 #vd                    id                    ig                    ib                    is                   
  0                     8.72e-12              0                     2.42e-12              -9.76e-12            
  0.1                   1.174e-08             0                     2.68e-12              -1.1706e-08          
  0.2                   1.474e-08             -8e-14                8.2e-13               -1.4716e-08          
  0.3                   1.7654e-08            2e-14                 1.62e-12              -1.764e-08           
  0.4                   2.0804e-08            6e-14                 1.94e-12              -2.0806e-08          
  0.5                   2.4308e-08            -4e-14                2.34e-12              -2.4284e-08          
  0.6                   2.8158e-08            2e-14                 2.1e-12               -2.8152e-08          
  0.7                   3.2504e-08            8e-14                 9.8e-13               -3.2446e-08          
  0.8                   3.7242e-08            -2e-14                1.16e-12              -3.7246e-08          
  0.9                   4.2564e-08            -4e-14                3.02e-12              -4.2486e-08          
  1                     4.847e-08             -4e-14                9e-13                 -4.8454e-08          
  1.1                   5.493e-08             -6e-14                7.4e-13               -5.4942e-08          
  1.2                   6.208e-08             -4e-14                7.4e-13               -6.2004e-08          
  1.3                   6.9928e-08            -1.4e-13              1.08e-12              -6.9834e-08          
  1.4                   7.8558e-08            -2e-14                7e-13                 -7.8266e-08          
  1.5                   8.767e-08             0                     -1.26e-12             -8.7676e-08          
  1.6                   9.7888e-08            -6e-14                -4.64e-12             -9.7932e-08          
  1.7                   1.0922e-07            0                     -9.42e-12             -1.0919e-07          
  1.8                   1.2128e-07            -6e-14                -2.188e-11            -1.2112e-07          
  1.9                   1.3422e-07            -1.2e-13              -4.256e-11            -1.3422e-07          
  2                     1.4838e-07            -1.4e-13              -7.542e-11            -1.4794e-07          
  2.1                   1.6362e-07            -1e-13                -1.2996e-10           -1.6328e-07          
  2.2                   1.8018e-07            -2e-14                -2.1616e-10           -1.7984e-07          
  2.3                   1.9778e-07            -1e-13                -3.4654e-10           -1.9746e-07          
  2.4                   2.1724e-07            -1.4e-13              -5.3436e-10           -2.163e-07           
  2.5                   2.382e-07             -2e-14                -8.1476e-10           -2.3696e-07          
  2.6                   2.5998e-07            2e-14                 -1.2164e-09           -2.593e-07           
  2.7                   2.8468e-07            -8e-14                -1.7828e-09           -2.8214e-07          
  2.8                   3.1034e-07            -8e-14                -2.5876e-09           -3.0772e-07          
  2.9                   3.3868e-07            -1e-13                -3.695e-09            -3.3436e-07          
  3                     3.6882e-07            -1.4e-13              -5.2012e-09           -3.633e-07           
  3.1                   4.0082e-07            -8e-14                -7.2274e-09           -3.9384e-07          
  3.2                   4.3612e-07            -2e-14                -9.9002e-09           -4.267e-07           
  3.3                   4.7472e-07            0                     -1.3396e-08           -4.6108e-07          
  3.4                   5.165e-07             -2e-14                -1.7854e-08           -4.9788e-07          
  3.5                   5.594e-07             -4e-14                -2.3496e-08           -5.3702e-07          
  3.6                   6.089e-07             -6e-14                -3.0574e-08           -5.7782e-07          
END_DB

BEGIN_DB
 ICCAP_VAR vg         0.616          
 ICCAP_VAR vb         0              
 ICCAP_VAR vs         0              

 #vd                    id                    ig                    ib                    is                   
  0                     3.9682e-10            4e-14                 1.86e-12              -3.7588e-10          
  0.1                   6.2444e-07            1.6e-13               1.96e-12              -6.2408e-07          
  0.2                   8.381e-07             -6e-14                1.76e-12              -8.3826e-07          
  0.3                   9.7464e-07            -6e-14                1.82e-12              -9.7432e-07          
  0.4                   1.09312e-06           0                     1.34e-12              -1.0939e-06          
  0.5                   1.2104e-06            8e-14                 2.22e-12              -1.2046e-06          
  0.6                   1.3242e-06            -2e-14                9.8e-13               -1.3192e-06          
  0.7                   1.4362e-06            0                     1.8e-13               -1.432e-06           
  0.8                   1.55e-06              2e-14                 4.52e-12              -1.541e-06           
  0.9                   1.6618e-06            -2e-14                7.2e-13               -1.6558e-06          
  1                     1.777e-06             -1e-13                6.2e-13               -1.7714e-06          
  1.1                   1.8928e-06            -6e-14                1.14e-12              -1.8882e-06          
  1.2                   2.01e-06              -1.2e-13              2.8e-13               -2.006e-06           
  1.3                   2.1264e-06            -1e-13                -6e-13                -2.121e-06           
  1.4                   2.2446e-06            -2e-14                -3.58e-12             -2.2402e-06          
  1.5                   2.365e-06             4e-14                 -1.64e-11             -2.3634e-06          
  1.6                   2.4904e-06            0                     -4.546e-11            -2.4844e-06          
  1.7                   2.6134e-06            0                     -1.0826e-10           -2.607e-06           
  1.8                   2.7406e-06            -4e-14                -2.3322e-10           -2.7352e-06          
  1.9                   2.8682e-06            2e-14                 -4.569e-10            -2.8672e-06          
  2                     2.9982e-06            0                     -8.287e-10            -2.9978e-06          
  2.1                   3.1376e-06            -2e-14                -1.4234e-09           -3.1294e-06          
  2.2                   3.2724e-06            -8e-14                -2.3318e-09           -3.2696e-06          
  2.3                   3.4118e-06            -1e-13                -3.6774e-09           -3.4008e-06          
  2.4                   3.559e-06             2e-14                 -5.609e-09            -3.5436e-06          
  2.5                   3.7048e-06            1.4e-13               -8.329e-09            -3.6898e-06          
  2.6                   3.8576e-06            0                     -1.2152e-08           -3.8408e-06          
  2.7                   4.0116e-06            -1e-13                -1.7322e-08           -3.9888e-06          
  2.8                   4.1656e-06            -1.2e-13              -2.4346e-08           -4.1416e-06          
  2.9                   4.3352e-06            -4e-14                -3.3776e-08           -4.2946e-06          
  3                     4.5038e-06            4e-14                 -4.6184e-08           -4.454e-06           
  3.1                   4.682e-06             -4e-14                -6.2382e-08           -4.6218e-06          
  3.2                   4.8784e-06            -1.2e-13              -8.315e-08            -4.7906e-06          
  3.3                   5.076e-06             -6e-14                -1.095e-07            -4.9614e-06          
  3.4                   5.2872e-06            4e-14                 -1.4242e-07           -5.143e-06           
  3.5                   5.5142e-06            8e-14                 -1.8298e-07           -5.3276e-06          
  3.6                   5.7534e-06            -1.2e-13              -2.3236e-07           -5.5168e-06          
END_DB

