! VERSION = 6.00
BEGIN_HEADER
 ICCAP_INPUTS
  vd         V  D GROUND SMU1 0.1 LIN        1    0          3.6        37   0.1       
  vg         V  G GROUND SMU2 0.001 LIN        2    0.68       3.6        5    0.73      
  vb         V  B GROUND SMU4 0.1 CON        -3.6
  vs         V  S GROUND SMU3 0.1 CON        0
 ICCAP_OUTPUTS
  id         I  D GROUND SMU1 B
  ig         I  G GROUND SMU2 B
  ib         I  B GROUND SMU4 B
  is         I  S GROUND SMU3 B
 ICCAP_VALUES
  MASTER_SETUP_TYPE "~dc_idvd~"
  LINVT_VALUE "|idvg|100.0n|100.0m|1.000m|5|3.600|"
  LISTVT_VALUE ""
  TYPE "1"
  TEMP " 27.0000 "
  IS_TNOM " 1.00000 "
  MAIN.W "150.0n"
  MAIN.L "330.0n"
  MAIN.AD "100.5f"
  MAIN.AS "100.5f"
  MAIN.PD "1.340u"
  MAIN.PS "1.340u"
  MAIN.NF "1.000"
  MAIN.M "1"
  MAIN.NRD "0.000"
  MAIN.NRS "0.000"
  MAIN.LDRIFT1 "1E-06"
  MAIN.LDRIFT2 "1E-06"
  MAIN.SA "0.000"
  MAIN.SB "0.000"
  MAIN.SD "0.000"
  MAIN.SCA "0.000"
  MAIN.SCB "0.000"
  MAIN.SCC "0.000"
  MAIN.SC "0.000"
  MODULE "S547"
  PIN_D "12"
  PIN_G "9"
  PIN_S "10"
  PIN_B "11"
  PIN_E ""
  PIN_6 ""
  XY_ID ""
  FUNC "Additional"
  STI "SA ref"
  WPE "WPE ref"
  COMMENT ""
  DIS_MEAS ""
  TypeTCI "10"
END_HEADER

BEGIN_DB
 ICCAP_VAR vg         0.68           
 ICCAP_VAR vb         -3.6           
 ICCAP_VAR vs         0              

 #vd                    id                    ig                    ib                    is                   
  0                     3.752e-11             4e-13                 -4.136e-11            -2.464e-11           
  0.1                   2.0434e-08            2.6e-13               -3.604e-11            -2.038e-08           
  0.2                   3.2116e-08            1.6e-13               -3.556e-11            -3.202e-08           
  0.3                   4.5476e-08            3e-13                 -3.348e-11            -4.544e-08           
  0.4                   6.1152e-08            1.2e-13               -3.05e-11             -6.1018e-08          
  0.5                   7.9246e-08            2.4e-13               -2.994e-11            -7.8966e-08          
  0.6                   9.9762e-08            2e-13                 -2.968e-11            -9.9044e-08          
  0.7                   1.2134e-07            2e-13                 -2.688e-11            -1.2082e-07          
  0.8                   1.4568e-07            1.2e-13               -2.618e-11            -1.4638e-07          
  0.9                   1.7298e-07            1.6e-13               -2.642e-11            -1.73e-07            
  1                     2.024e-07             6e-14                 -2.53e-11             -2.0266e-07          
  1.1                   2.3518e-07            2.2e-13               -2.396e-11            -2.3528e-07          
  1.2                   2.7014e-07            1.6e-13               -2.308e-11            -2.7042e-07          
  1.3                   3.0804e-07            6e-14                 -2.324e-11            -3.0828e-07          
  1.4                   3.4826e-07            1.4e-13               -2.396e-11            -3.4938e-07          
  1.5                   3.9422e-07            2.4e-13               -2.488e-11            -3.9372e-07          
  1.6                   4.4014e-07            1e-13                 -3.3e-11              -4.4046e-07          
  1.7                   4.901e-07             1.2e-13               -4.962e-11            -4.913e-07           
  1.8                   5.4408e-07            1.4e-13               -8.38e-11             -5.4314e-07          
  1.9                   6.0094e-07            1e-13                 -1.4534e-10           -6.0264e-07          
  2                     6.606e-07             2.8e-13               -2.53e-10             -6.614e-07           
  2.1                   7.2502e-07            1.4e-13               -4.3168e-10           -7.2482e-07          
  2.2                   7.928e-07             1.2e-13               -7.1564e-10           -7.8944e-07          
  2.3                   8.6334e-07            4e-14                 -1.1514e-09           -8.6026e-07          
  2.4                   9.342e-07             1.4e-13               -1.8012e-09           -9.3396e-07          
  2.5                   1.00972e-06           1.6e-13               -2.7578e-09           -1.0083e-06          
  2.6                   1.09066e-06           0                     -4.124e-09            -1.08578e-06         
  2.7                   1.1756e-06            -4e-14                -6.067e-09            -1.1652e-06          
  2.8                   1.2632e-06            1.2e-13               -8.769e-09            -1.248e-06           
  2.9                   1.3534e-06            8e-14                 -1.2468e-08           -1.3362e-06          
  3                     1.446e-06             1.4e-13               -1.7506e-08           -1.4252e-06          
  3.1                   1.5468e-06            0                     -2.4216e-08           -1.5176e-06          
  3.2                   1.6494e-06            -6e-14                -3.3016e-08           -1.6114e-06          
  3.3                   1.757e-06             8e-14                 -4.4368e-08           -1.7086e-06          
  3.4                   1.869e-06             2.6e-13               -5.8866e-08           -1.8084e-06          
  3.5                   1.99e-06              0                     -7.7008e-08           -1.9092e-06          
  3.6                   2.1152e-06            4e-14                 -9.9526e-08           -2.016e-06           
END_DB

BEGIN_DB
 ICCAP_VAR vg         1.41           
 ICCAP_VAR vb         -3.6           
 ICCAP_VAR vs         0              

 #vd                    id                    ig                    ib                    is                   
  0                     2.6176e-09            3.4e-13               -1.03e-11             -2.5674e-09          
  0.1                   4.85e-06              3.6e-13               -9.66e-12             -4.8484e-06          
  0.2                   8.6472e-06            4e-13                 -9.34e-12             -8.6404e-06          
  0.3                   1.13614e-05           3e-13                 -1.016e-11            -1.13618e-05         
  0.4                   1.3218e-05            2e-13                 -9e-12                -1.32e-05            
  0.5                   1.45e-05              1.4e-13               -9.8e-12              -1.4492e-05          
  0.6                   1.5474e-05            3.4e-13               -9.64e-12             -1.5462e-05          
  0.7                   1.6256e-05            3.2e-13               -8.84e-12             -1.625e-05           
  0.8                   1.6944e-05            1.4e-13               -9.66e-12             -1.6916e-05          
  0.9                   1.7536e-05            0                     -1e-11                -1.7522e-05          
  1                     1.8092e-05            2e-13                 -8.6e-12              -1.8072e-05          
  1.1                   1.8588e-05            4e-14                 -9.64e-12             -1.857e-05           
  1.2                   1.9074e-05            4e-14                 -9.8e-12              -1.905e-05           
  1.3                   1.9518e-05            1.8e-13               -8.92e-12             -1.9492e-05          
  1.4                   1.9948e-05            1.2e-13               -1.266e-11            -1.9934e-05          
  1.5                   2.0366e-05            1.2e-13               -1.992e-11            -2.0344e-05          
  1.6                   2.078e-05             1.6e-13               -4.408e-11            -2.0758e-05          
  1.7                   2.1174e-05            1.2e-13               -1.126e-10            -2.116e-05           
  1.8                   2.1572e-05            1.2e-13               -2.71e-10             -2.1562e-05          
  1.9                   2.1962e-05            1.4e-13               -6.0652e-10           -2.1946e-05          
  2                     2.2346e-05            1e-13                 -1.2558e-09           -2.2338e-05          
  2.1                   2.273e-05             8e-14                 -2.42e-09             -2.271e-05           
  2.2                   2.3114e-05            2.2e-13               -4.3748e-09           -2.3086e-05          
  2.3                   2.3484e-05            1.6e-13               -7.4866e-09           -2.3458e-05          
  2.4                   2.3856e-05            1.2e-13               -1.2228e-08           -2.3822e-05          
  2.5                   2.4226e-05            6e-14                 -1.923e-08            -2.419e-05           
  2.6                   2.46e-05              2.4e-13               -2.926e-08            -2.4548e-05          
  2.7                   2.4964e-05            2e-13                 -4.3292e-08           -2.49e-05            
  2.8                   2.5334e-05            1.2e-13               -6.261e-08            -2.5252e-05          
  2.9                   2.5712e-05            2e-13                 -8.872e-08            -2.56e-05            
  3                     2.6092e-05            8e-14                 -1.2358e-07           -2.595e-05           
  3.1                   2.6486e-05            1.2e-13               -1.6972e-07           -2.6294e-05          
  3.2                   2.689e-05             1.4e-13               -2.2984e-07           -2.6638e-05          
  3.3                   2.7312e-05            1.2e-13               -3.071e-07            -2.6984e-05          
  3.4                   2.7762e-05            8e-14                 -4.0554e-07           -2.7336e-05          
  3.5                   2.822e-05             2e-14                 -5.2888e-07           -2.767e-05           
  3.6                   2.873e-05             4e-14                 -6.8078e-07           -2.8046e-05          
END_DB

BEGIN_DB
 ICCAP_VAR vg         2.14           
 ICCAP_VAR vb         -3.6           
 ICCAP_VAR vs         0              

 #vd                    id                    ig                    ib                    is                   
  0                     3.3526e-09            4.8e-13               -4.66e-12             -4.2354e-09          
  0.1                   1.0086e-05            3.4e-13               -5.96e-12             -1.0062e-05          
  0.2                   1.9038e-05            2.2e-13               -6.16e-12             -1.9018e-05          
  0.3                   2.6516e-05            5.4e-13               -5.4e-12              -2.649e-05           
  0.4                   3.2452e-05            3e-13                 -5.5e-12              -3.2438e-05          
  0.5                   3.6982e-05            2.2e-13               -7.3e-12              -3.6964e-05          
  0.6                   4.0352e-05            3.8e-13               -5.94e-12             -4.0334e-05          
  0.7                   4.286e-05             2.6e-13               -6.1e-12              -4.2836e-05          
  0.8                   4.4776e-05            1.4e-13               -6.98e-12             -4.4758e-05          
  0.9                   4.6292e-05            2.2e-13               -5.42e-12             -4.6266e-05          
  1                     4.7524e-05            3.6e-13               -7.18e-12             -4.7516e-05          
  1.1                   4.86e-05              2e-13                 -6.56e-12             -4.8576e-05          
  1.2                   4.953e-05             1e-13                 -5e-12                -4.9508e-05          
  1.3                   5.036e-05             2.8e-13               -7.3e-12              -5.0334e-05          
  1.4                   5.1108e-05            2.2e-13               -8.68e-12             -5.1092e-05          
  1.5                   5.1806e-05            2.8e-13               -1.156e-11            -5.1792e-05          
  1.6                   5.2452e-05            3.4e-13               -2.682e-11            -5.244e-05           
  1.7                   5.3064e-05            2.6e-13               -6.74e-11             -5.305e-05           
  1.8                   5.3644e-05            2.2e-13               -1.6562e-10           -5.3624e-05          
  1.9                   5.4206e-05            2.8e-13               -3.9396e-10           -5.4192e-05          
  2                     5.475e-05             8e-14                 -8.61e-10             -5.4738e-05          
  2.1                   5.5276e-05            1.8e-13               -1.7704e-09           -5.5264e-05          
  2.2                   5.58e-05              1e-13                 -3.4028e-09           -5.5776e-05          
  2.3                   5.6308e-05            2.2e-13               -6.1804e-09           -5.6278e-05          
  2.4                   5.6796e-05            3.4e-13               -1.06614e-08          -5.6762e-05          
  2.5                   5.7284e-05            2e-13                 -1.7626e-08           -5.7248e-05          
  2.6                   5.777e-05             2e-13                 -2.8018e-08           -5.7724e-05          
  2.7                   5.826e-05             1.2e-13               -4.3098e-08           -5.8188e-05          
  2.8                   5.8732e-05            2.4e-13               -6.4482e-08           -5.8646e-05          
  2.9                   5.9218e-05            1.8e-13               -9.4114e-08           -5.9104e-05          
  3                     5.9708e-05            1.8e-13               -1.345e-07            -5.9554e-05          
  3.1                   6.0214e-05            2.4e-13               -1.8882e-07           -5.9998e-05          
  3.2                   6.0738e-05            1.4e-13               -2.6084e-07           -6.0438e-05          
  3.3                   6.126e-05             1e-13                 -3.5504e-07           -6.0888e-05          
  3.4                   6.1828e-05            1e-13                 -4.772e-07            -6.1336e-05          
  3.5                   6.2438e-05            1.8e-13               -6.3286e-07           -6.1788e-05          
  3.6                   6.3082e-05            2e-13                 -8.2956e-07           -6.2256e-05          
END_DB

BEGIN_DB
 ICCAP_VAR vg         2.87           
 ICCAP_VAR vb         -3.6           
 ICCAP_VAR vs         0              

 #vd                    id                    ig                    ib                    is                   
  0                     9.258e-09             4.6e-13               -3.56e-12             -9.03e-09            
  0.1                   1.3706e-05            5.8e-13               -4.46e-12             -1.3686e-05          
  0.2                   2.639e-05             4.4e-13               -4.16e-12             -2.637e-05           
  0.3                   3.7582e-05            3.4e-13               -5.14e-12             -3.7552e-05          
  0.4                   4.7094e-05            4e-13                 -4.68e-12             -4.7074e-05          
  0.5                   5.4932e-05            4.6e-13               -3.94e-12             -5.4912e-05          
  0.6                   6.1218e-05            4e-13                 -5.3e-12              -6.1196e-05          
  0.7                   6.6202e-05            3.4e-13               -5.46e-12             -6.6172e-05          
  0.8                   7.0116e-05            2.8e-13               -3.96e-12             -7.01e-05            
  0.9                   7.322e-05             3.2e-13               -5.36e-12             -7.319e-05           
  1                     7.5704e-05            3.2e-13               -5.4e-12              -7.5672e-05          
  1.1                   7.773e-05             3.4e-13               -4.5e-12              -7.7702e-05          
  1.2                   7.943e-05             3.8e-13               -5.18e-12             -7.9408e-05          
  1.3                   8.0882e-05            1.2e-13               -5.38e-12             -8.0866e-05          
  1.4                   8.2156e-05            3e-13                 -4.64e-12             -8.214e-05           
  1.5                   8.3284e-05            2e-13                 -9.12e-12             -8.326e-05           
  1.6                   8.4302e-05            2.4e-13               -1.626e-11            -8.4284e-05          
  1.7                   8.5238e-05            3.6e-13               -3.926e-11            -8.521e-05           
  1.8                   8.6092e-05            2.8e-13               -1.0198e-10           -8.6064e-05          
  1.9                   8.6888e-05            1e-13                 -2.4476e-10           -8.687e-05           
  2                     8.7638e-05            1.2e-13               -5.466e-10            -8.762e-05           
  2.1                   8.8356e-05            2.4e-13               -1.1508e-09           -8.833e-05           
  2.2                   8.9026e-05            3e-13                 -2.2732e-09           -8.9014e-05          
  2.3                   8.9682e-05            1.8e-13               -4.2448e-09           -8.9664e-05          
  2.4                   9.0294e-05            3.2e-13               -7.5288e-09           -9.0276e-05          
  2.5                   9.091e-05             2.8e-13               -1.2786e-08           -9.0866e-05          
  2.6                   9.149e-05             3.2e-13               -2.0874e-08           -9.1456e-05          
  2.7                   9.208e-05             1.8e-13               -3.2926e-08           -9.2018e-05          
  2.8                   9.265e-05             1e-13                 -5.0398e-08           -9.2562e-05          
  2.9                   9.3204e-05            1e-13                 -7.5134e-08           -9.3122e-05          
  3                     9.3786e-05            3.2e-13               -1.09446e-07          -9.3654e-05          
  3.1                   9.4356e-05            2.2e-13               -1.5646e-07           -9.4176e-05          
  3.2                   9.4936e-05            2.4e-13               -2.1974e-07           -9.4704e-05          
  3.3                   9.5524e-05            1.6e-13               -3.0396e-07           -9.5184e-05          
  3.4                   9.6136e-05            2.4e-13               -4.1424e-07           -9.5706e-05          
  3.5                   9.6786e-05            3.2e-13               -5.5776e-07           -9.622e-05           
  3.6                   9.7516e-05            1.8e-13               -7.4074e-07           -9.6756e-05          
END_DB

BEGIN_DB
 ICCAP_VAR vg         3.6            
 ICCAP_VAR vb         -3.6           
 ICCAP_VAR vs         0              

 #vd                    id                    ig                    ib                    is                   
  0                     1.1384e-08            5.4e-13               -2.06e-12             -1.0748e-08          
  0.1                   1.621e-05             5.4e-13               -3.52e-12             -1.6188e-05          
  0.2                   3.1526e-05            4.2e-13               -3.36e-12             -3.1504e-05          
  0.3                   4.5452e-05            4.8e-13               -3.54e-12             -4.5432e-05          
  0.4                   5.7768e-05            4.4e-13               -4.72e-12             -5.7746e-05          
  0.5                   6.8364e-05            3.8e-13               -1.44e-12             -6.8344e-05          
  0.6                   7.7286e-05            3.6e-13               -3.52e-12             -7.7256e-05          
  0.7                   8.4704e-05            3e-13                 -4.86e-12             -8.4672e-05          
  0.8                   9.0802e-05            3.8e-13               -3.26e-12             -9.0774e-05          
