! VERSION = 6.00
BEGIN_HEADER
 ICCAP_INPUTS
  vg         V  G GROUND SMU2 0.001 LIN        1    -0.5       3.6        83   0.05      
  vb         V  B GROUND SMU4 0.1 LIN        2    0          -3.6       5    -0.9      
  vd         V  D GROUND SMU1 0.1 LIN        3    0.1        3.3        3    1.6       
  vs         V  S GROUND SMU3 0.1 CON        0
 ICCAP_OUTPUTS
  id         I  D GROUND SMU1 B
  ig         I  G GROUND SMU2 B
  ib         I  B GROUND SMU4 B
  is         I  S GROUND SMU3 B
 ICCAP_VALUES
  MASTER_SETUP_TYPE "~dc_idvg~"
  LINVT_VALUE ""
  LISTVT_VALUE ""
  TYPE "1"
  TEMP " 27.0000 "
  IS_TNOM " 1.00000 "
  MAIN.W "10.00u"
  MAIN.L "350.0n"
  MAIN.AD "3.400p"
  MAIN.AS "3.400p"
  MAIN.PD "20.68u"
  MAIN.PS "20.68u"
  MAIN.NF "1.000"
  MAIN.M "1"
  MAIN.NRD "0.000"
  MAIN.NRS "0.000"
  MAIN.LDRIFT1 "1E-06"
  MAIN.LDRIFT2 "1E-06"
  MAIN.SA "0.000"
  MAIN.SB "0.000"
  MAIN.SD "0.000"
  MAIN.SCA "0.000"
  MAIN.SCB "0.000"
  MAIN.SCC "0.000"
  MAIN.SC "0.000"
  MODULE "S556"
  PIN_D "16"
  PIN_G "5"
  PIN_S "6"
  PIN_B "15"
  PIN_E ""
  PIN_6 ""
  XY_ID ""
  FUNC "Additional"
  STI "SA ref"
  WPE "WPE ref"
  COMMENT ""
  DIS_MEAS ""
  TypeTCI "10"
END_HEADER

BEGIN_DB
 ICCAP_VAR vb         0              
 ICCAP_VAR vd         0.1            
 ICCAP_VAR vs         0              

 #vg                    id                    ig                    ib                    is                   
  -0.5                  2.4e-13               -4.408e-11            5.342e-11             1.2e-13              
  -0.45                 4e-14                 -6.58e-12             1.502e-11             8e-14                
  -0.4                  1.6e-13               -1.14e-12             8.68e-12              1.8e-13              
  -0.35                 8e-14                 -1.4e-13              7.64e-12              4e-14                
  -0.3                  -2e-14                2e-14                 8.3e-12               1e-13                
  -0.25                 1.4e-13               8e-14                 8.5e-12               2e-13                
  -0.2                  2e-14                 1.6e-13               7.44e-12              2e-13                
  -0.15                 1.4e-13               8e-14                 7.14e-12              1.6e-13              
  -0.1                  6e-14                 1.8e-13               7.16e-12              1e-13                
  -0.05                 1.8e-13               1.4e-13               7.22e-12              -2e-14               
  0                     6.4e-13               3.4e-13               7.86e-12              -5.8e-13             
  0.05                  2.3e-12               2.8e-13               7.52e-12              -2.24e-12            
  0.1                   9.82e-12              2.6e-13               7.2e-12               -9.72e-12            
  0.15                  3.978e-11             4.2e-13               5.98e-12              -3.948e-11           
  0.2                   1.6328e-10            4e-13                 7.34e-12              -1.6348e-10          
  0.25                  6.7266e-10            3.4e-13               7.5e-12               -6.7214e-10          
  0.3                   2.731e-09             2.2e-13               7.02e-12              -2.7264e-09          
  0.35                  1.07878e-08           3.2e-13               6.82e-12              -1.07804e-08         
  0.4                   4.114e-08             2.8e-13               5.84e-12              -4.1138e-08          
  0.45                  1.522e-07             3.8e-13               6.78e-12              -1.5076e-07          
  0.5                   5.141e-07             4.4e-13               7.34e-12              -5.1272e-07          
  0.55                  1.5662e-06            4.4e-13               5.7e-12               -1.5592e-06          
  0.6                   4.1018e-06            4.8e-13               5.88e-12              -4.0986e-06          
  0.65                  9.2558e-06            4.6e-13               6.6e-12               -9.2478e-06          
  0.7                   1.8012e-05            4e-13                 6.28e-12              -1.7992e-05          
  0.75                  3.101e-05             3.8e-13               5.28e-12              -3.0974e-05          
  0.8                   4.7938e-05            4.6e-13               5.52e-12              -4.792e-05           
  0.85                  6.835e-05             4.8e-13               6.78e-12              -6.8304e-05          
  0.9                   9.1076e-05            4.6e-13               5.68e-12              -9.1074e-05          
  0.95                  0.00011558            3.2e-13               5.58e-12              -0.00011518          
  1                     0.00014074            4.6e-13               5.22e-12              -0.00014032          
  1.05                  0.00016636            5.8e-13               5.46e-12              -0.00016594          
  1.1                   0.00019184            4.4e-13               5.42e-12              -0.00019142          
  1.15                  0.00021716            5.6e-13               5.76e-12              -0.00021674          
  1.2                   0.000242              6.2e-13               5.28e-12              -0.0002416           
  1.25                  0.0002664             5.2e-13               4.74e-12              -0.000266            
  1.3                   0.00029034            7e-13                 5.88e-12              -0.00028994          
  1.35                  0.00031362            6e-13                 6.28e-12              -0.00031322          
  1.4                   0.00033618            5.8e-13               4.66e-12              -0.00033578          
  1.45                  0.0003582             7e-13                 5.28e-12              -0.00035782          
  1.5                   0.00037968            6.6e-13               5.4e-12               -0.0003793           
  1.55                  0.00040048            7.2e-13               6.06e-12              -0.0004001           
  1.6                   0.00042066            5e-13                 5.04e-12              -0.00042022          
  1.65                  0.00044026            6.2e-13               4.56e-12              -0.00043988          
  1.7                   0.00045932            7e-13                 4.8e-12               -0.00045892          
  1.75                  0.00047772            6.4e-13               5.18e-12              -0.00047732          
  1.8                   0.0004956             6e-13                 5.14e-12              -0.00049522          
  1.85                  0.00051292            7e-13                 4.34e-12              -0.00051252          
  1.9                   0.00052976            6.6e-13               4.84e-12              -0.00052934          
  1.95                  0.00054602            7e-13                 5.24e-12              -0.00054562          
  2                     0.0005618             5.4e-13               4.56e-12              -0.00056144          
  2.05                  0.0005771             7.2e-13               4.88e-12              -0.00057672          
  2.1                   0.00059186            6.6e-13               3.98e-12              -0.00059148          
  2.15                  0.0006062             6.2e-13               4.5e-12               -0.00060582          
  2.2                   0.00062006            6.6e-13               5e-12                 -0.00061964          
  2.25                  0.00063348            8e-13                 4e-12                 -0.0006331           
  2.3                   0.00064642            6.2e-13               4.1e-12               -0.00064602          
  2.35                  0.00065902            7e-13                 4.36e-12              -0.00065864          
  2.4                   0.00067114            6.6e-13               5.22e-12              -0.00067074          
  2.45                  0.00068288            8e-13                 4.92e-12              -0.0006825           
  2.5                   0.00069428            7.2e-13               3.88e-12              -0.00069388          
  2.55                  0.0007052             7.6e-13               4.4e-12               -0.00070478          
  2.6                   0.0007158             8.2e-13               4.42e-12              -0.00071538          
  2.65                  0.000726              8.6e-13               4.62e-12              -0.0007256           
  2.7                   0.0007359             6.8e-13               3.6e-12               -0.00073548          
  2.75                  0.0007455             8.8e-13               3.62e-12              -0.0007451           
  2.8                   0.0007547             7e-13                 4.06e-12              -0.00075432          
  2.85                  0.00076364            7.6e-13               5.26e-12              -0.00076322          
  2.9                   0.00077222            7.6e-13               3.58e-12              -0.0007718           
  2.95                  0.00078056            6.8e-13               3.48e-12              -0.00078014          
  3                     0.00078854            8.4e-13               3.82e-12              -0.00078816          
  3.05                  0.0007963             7.4e-13               4.42e-12              -0.00079592          
  3.1                   0.00080378            7.2e-13               3.36e-12              -0.00080336          
  3.15                  0.00081096            8e-13                 3.2e-12               -0.00081058          
  3.2                   0.0008179             7.4e-13               3.72e-12              -0.00081752          
  3.25                  0.00082458            9e-13                 3.98e-12              -0.0008242           
  3.3                   0.0008311             8.4e-13               4.7e-12               -0.00083068          
  3.35                  0.00083728            7.6e-13               3.54e-12              -0.00083688          
  3.4                   0.00084332            8.8e-13               3.64e-12              -0.00084292          
  3.45                  0.00084906            8.6e-13               4.56e-12              -0.00084864          
  3.5                   0.0008546             8.4e-13               4.08e-12              -0.0008542           
  3.55                  0.00085998            8.6e-13               3.12e-12              -0.00085954          
  3.6                   0.00086516            7.4e-13               3.74e-12              -0.00086472          
END_DB

BEGIN_DB
 ICCAP_VAR vb         -0.9           
 ICCAP_VAR vd         0.1            
 ICCAP_VAR vs         0              

 #vg                    id                    ig                    ib                    is                   
  -0.5                  2.2e-13               -4.4e-13              -9.42e-12             1.2e-13              
  -0.45                 1.2e-13               -2.8e-13              -7.92e-12             2e-13                
  -0.4                  1.2e-13               -1.8e-13              -7.8e-12              1.4e-13              
  -0.35                 2e-13                 -4e-14                -7.16e-12             1e-13                
  -0.3                  1.6e-13               -2e-14                -6.64e-12             1.6e-13              
  -0.25                 6e-14                 -6e-14                -5.3e-12              -4e-14               
  -0.2                  6e-14                 1.2e-13               -3.62e-12             1e-13                
  -0.15                 1.8e-13               0                     -5.36e-12             3.4e-13              
  -0.1                  4e-14                 1.4e-13               -4.5e-12              -1e-13               
  -0.05                 8e-14                 4e-14                 -4.24e-12             2.8e-13              
  0                     8e-14                 1.8e-13               -2.8e-12              8e-14                
  0.05                  1.6e-13               1.4e-13               -3e-12                1.4e-13              
  0.1                   1.6e-13               2.8e-13               -3.56e-12             1.6e-13              
  0.15                  4.8e-13               1.2e-13               -2.92e-12             -3.8e-13             
  0.2                   2.28e-12              2.8e-13               -3.34e-12             -2e-12               
  0.25                  1.024e-11             2e-13                 -2.14e-12             -1.006e-11           
  0.3                   4.584e-11             2.2e-13               -1.54e-12             -4.552e-11           
  0.35                  2.0626e-10            2.4e-13               -2.26e-12             -2.0618e-10          
  0.4                   9.1332e-10            3.6e-13               -2.46e-12             -9.127e-10           
  0.45                  3.964e-09             2.6e-13               -1.88e-12             -3.9594e-09          
  0.5                   1.6464e-08            2.6e-13               -1.46e-12             -1.645e-08           
  0.55                  6.5984e-08            4e-13                 -8.4e-13              -6.58e-08            
  0.6                   2.5018e-07            4.6e-13               -2.06e-12             -2.4746e-07          
  0.65                  8.4036e-07            3e-13                 -1.72e-12             -8.4218e-07          
  0.7                   2.4624e-06            3.8e-13               -1.12e-12             -2.4608e-06          
  0.75                  6.1502e-06            3.2e-13               -1.62e-12             -6.1472e-06          
  0.8                   1.3046e-05            3e-13                 -7e-13                -1.3014e-05          
  0.85                  2.4076e-05            4.2e-13               -5.2e-13              -2.4064e-05          
  0.9                   3.9354e-05            5.2e-13               -3.2e-13              -3.9316e-05          
  0.95                  5.843e-05             3.2e-13               -1.1e-12              -5.8372e-05          
  1                     8.0424e-05            4.4e-13               -1.28e-12             -8.04e-05            
  1.05                  0.000104544           6e-13                 -8.4e-13              -0.000104512         
  1.1                   0.00012988            4.8e-13               5.2e-13               -0.00012946          
  1.15                  0.00015558            4.8e-13               -5.6e-13              -0.00015518          
  1.2                   0.00018122            5e-13                 -9.6e-13              -0.00018078          
  1.25                  0.00020682            5.8e-13               -6e-14                -0.00020638          
  1.3                   0.00023214            5.4e-13               2.8e-13               -0.00023172          
  1.35                  0.0002567             4.8e-13               -5.2e-13              -0.00025636          
  1.4                   0.00028078            4.6e-13               -1.1e-12              -0.0002804           
  1.45                  0.00030418            5.8e-13               -9.2e-13              -0.0003038           
  1.5                   0.000327              5.6e-13               -4.8e-13              -0.00032662          
  1.55                  0.00034904            4.6e-13               3.2e-13               -0.00034864          
  1.6                   0.00037038            6.2e-13               -4.2e-13              -0.00037             
  1.65                  0.00039116            5.4e-13               -8.4e-13              -0.00039076          
  1.7                   0.0004113             6e-13                 -9.6e-13              -0.00041092          
  1.75                  0.00043074            6.2e-13               8.8e-13               -0.00043034          
  1.8                   0.00044962            6.6e-13               -4.8e-13              -0.0004492           
  1.85                  0.00046782            6.8e-13               -6.8e-13              -0.00046744          
  1.9                   0.0004855             6.8e-13               6e-14                 -0.00048512          
  1.95                  0.00050258            5e-13                 4.2e-13               -0.0005022           
  2                     0.00051916            6.6e-13               1.6e-13               -0.00051878          
  2.05                  0.0005352             6.4e-13               -8.6e-13              -0.00053476          
  2.1                   0.00055062            7e-13                 2.2e-13               -0.00055022          
  2.15                  0.00056564            6.6e-13               1e-13                 -0.00056524          
  2.2                   0.00058008            7.6e-13               7e-13                 -0.0005797           
  2.25                  0.0005941             7.2e-13               -7.2e-13              -0.00059372          
  2.3                   0.00060764            7e-13                 -6.2e-13              -0.00060724          
  2.35                  0.00062076            6e-13                 2.6e-13               -0.00062034          
  2.4                   0.00063338            7.6e-13               2.6e-13               -0.00063296          
  2.45                  0.00064558            5.8e-13               -7.4e-13              -0.00064518          
  2.5                   0.00065742            6.8e-13               -8.8e-13              -0.00065704          
  2.55                  0.00066884            6.8e-13               6e-14                 -0.00066842          
  2.6                   0.00067984            7e-13                 1.8e-13               -0.00067946          
  2.65                  0.00069046            7.8e-13               -4.8e-13              -0.00069008          
  2.7                   0.0007007             7.8e-13               -4.6e-13              -0.00070032          
  2.75                  0.00071066            7e-13                 -3.8e-13              -0.00071026          
  2.8                   0.00072028            7.6e-13               -1.24e-12             -0.00071986          
  2.85                  0.00072954            4.8e-13               -4.6e-13              -0.00072914          
  2.9                   0.00073846            8.2e-13               -8e-14                -0.00073806          
  2.95                  0.0007471             7.4e-13               6e-14                 -0.0007467           
  3                     0.00075538            7.6e-13               8.2e-13               -0.000755            
  3.05                  0.0007634             7.4e-13               8.4e-13               -0.000763            
  3.1                   0.00077114            7.4e-13               -1.6e-13              -0.00077074          
  3.15                  0.00077856            6.6e-13               -4e-14                -0.00077818          
  3.2                   0.00078574            7.6e-13               7.4e-13               -0.00078536          
  3.25                  0.00079272            6.6e-13               5.2e-13               -0.0007923           
  3.3                   0.00079942            8.2e-13               3e-13                 -0.00079902          
  3.35                  0.00080582            7.6e-13               -6e-13                -0.00080546          
  3.4                   0.00081206            8.2e-13               2e-14                 -0.00081166          
  3.45                  0.00081804            8.6e-13               9.6e-13               -0.00081762          
