! VERSION = 6.00
BEGIN_HEADER
 ICCAP_INPUTS
  vd         V  D GROUND SMU1 0.1 LIN        1    0          3.6        37   0.1       
  vg         V  G GROUND SMU2 0.001 LIN        2    1.316      3.6        5    0.571     
  vb         V  B GROUND SMU4 0.1 CON        -3.6
  vs         V  S GROUND SMU3 0.1 CON        0
 ICCAP_OUTPUTS
  id         I  D GROUND SMU1 B
  ig         I  G GROUND SMU2 B
  ib         I  B GROUND SMU4 B
  is         I  S GROUND SMU3 B
 ICCAP_VALUES
  MASTER_SETUP_TYPE "~dc_idvd~"
  LINVT_VALUE "|idvg|100.0n|100.0m|1.000m|5|3.600|"
  LISTVT_VALUE ""
  TYPE "1"
  TEMP " 125.000 "
  IS_TNOM " 0.00000 "
  MAIN.W "10.00u"
  MAIN.L "500.0n"
  MAIN.AD "3.400p"
  MAIN.AS "3.400p"
  MAIN.PD "20.68u"
  MAIN.PS "20.68u"
  MAIN.NF "1.000"
  MAIN.M "1"
  MAIN.NRD "0.000"
  MAIN.NRS "0.000"
  MAIN.LDRIFT1 "1E-06"
  MAIN.LDRIFT2 "1E-06"
  MAIN.SA "0.000"
  MAIN.SB "0.000"
  MAIN.SD "0.000"
  MAIN.SCA "0.000"
  MAIN.SCB "0.000"
  MAIN.SCC "0.000"
  MAIN.SC "0.000"
  MODULE "S556"
  PIN_D "14"
  PIN_G "7"
  PIN_S "8"
  PIN_B "13"
  PIN_E ""
  PIN_6 ""
  XY_ID ""
  FUNC "Short"
  STI "SA ref"
  WPE "WPE ref"
  COMMENT ""
  DIS_MEAS ""
  TypeTCI "10"
END_HEADER

BEGIN_DB
 ICCAP_VAR vg         1.316          
 ICCAP_VAR vb         -3.6           
 ICCAP_VAR vs         0              

 #vd                    id                    ig                    ib                    is                   
  0                     2.8512e-09            1.08e-12              -1.6058e-10           -2.1764e-09          
  0.1                   4.2008e-06            8.2e-13               -1.3688e-10           -4.1982e-06          
  0.2                   5.3912e-06            6e-13                 -1.3232e-10           -5.3812e-06          
  0.3                   5.9978e-06            5.8e-13               -1.2824e-10           -5.996e-06           
  0.4                   6.4914e-06            7e-13                 -1.2308e-10           -6.4792e-06          
  0.5                   6.91e-06              6.8e-13               -1.2042e-10           -6.9142e-06          
  0.6                   7.3244e-06            6e-13                 -1.1714e-10           -7.322e-06           
  0.7                   7.7228e-06            4.8e-13               -1.1336e-10           -7.7172e-06          
  0.8                   8.0918e-06            6.2e-13               -1.1176e-10           -8.1066e-06          
  0.9                   8.4804e-06            6.6e-13               -1.0902e-10           -8.4788e-06          
  1                     8.8484e-06            6.2e-13               -1.0606e-10           -8.8598e-06          
  1.1                   9.2296e-06            6.6e-13               -1.0428e-10           -9.2232e-06          
  1.2                   9.6142e-06            5.6e-13               -1.0276e-10           -9.599e-06           
  1.3                   9.976e-06             3.4e-13               -1.014e-10            -9.97e-06            
  1.4                   1.03284e-05           4e-13                 -1.0444e-10           -1.03406e-05         
  1.5                   1.0734e-05            4.4e-13               -1.1106e-10           -1.07294e-05         
  1.6                   1.1102e-05            4.4e-13               -1.3574e-10           -1.1088e-05          
  1.7                   1.148e-05             5.8e-13               -1.9512e-10           -1.1467e-05          
  1.8                   1.1878e-05            3.8e-13               -3.2664e-10           -1.1886e-05          
  1.9                   1.2284e-05            6.6e-13               -5.85e-10             -1.2242e-05          
  2                     1.2662e-05            3.4e-13               -1.073e-09            -1.2684e-05          
  2.1                   1.311e-05             4e-13                 -1.9218e-09           -1.3102e-05          
  2.2                   1.3504e-05            5e-13                 -3.3326e-09           -1.352e-05           
  2.3                   1.3958e-05            5.8e-13               -5.5462e-09           -1.3908e-05          
  2.4                   1.4346e-05            5e-13                 -8.9162e-09           -1.4326e-05          
  2.5                   1.4786e-05            3.4e-13               -1.391e-08            -1.4754e-05          
  2.6                   1.5244e-05            3.2e-13               -2.1072e-08           -1.5214e-05          
  2.7                   1.5708e-05            3.8e-13               -3.119e-08            -1.5692e-05          
  2.8                   1.6172e-05            2.2e-13               -4.4986e-08           -1.6128e-05          
  2.9                   1.6658e-05            3.8e-13               -6.3754e-08           -1.6574e-05          
  3                     1.7118e-05            6e-13                 -8.9054e-08           -1.7038e-05          
  3.1                   1.7652e-05            5e-13                 -1.2258e-07           -1.7518e-05          
  3.2                   1.8144e-05            4.6e-13               -1.6634e-07           -1.7988e-05          
  3.3                   1.867e-05             3.2e-13               -2.235e-07            -1.8448e-05          
  3.4                   1.925e-05             5.4e-13               -2.9672e-07           -1.8932e-05          
  3.5                   1.9844e-05            3e-13                 -3.902e-07            -1.9464e-05          
  3.6                   2.0488e-05            2.8e-13               -5.0658e-07           -1.9968e-05          
END_DB

BEGIN_DB
 ICCAP_VAR vg         1.887          
 ICCAP_VAR vb         -3.6           
 ICCAP_VAR vs         0              

 #vd                    id                    ig                    ib                    is                   
  0                     5.117e-08             8e-13                 -6.314e-11            -4.1914e-08          
  0.1                   0.0001176             7.6e-13               -6.358e-11            -0.00011728          
  0.2                   0.00020832            5e-13                 -6.226e-11            -0.00020802          
  0.3                   0.0002735             6.2e-13               -6.27e-11             -0.00027326          
  0.4                   0.00031766            5.8e-13               -6.404e-11            -0.00031742          
  0.5                   0.00034662            5.4e-13               -6.208e-11            -0.00034636          
  0.6                   0.00036578            5e-13                 -6.296e-11            -0.00036546          
  0.7                   0.00037918            5.4e-13               -6.288e-11            -0.00037876          
  0.8                   0.0003892             6.2e-13               -6.134e-11            -0.00038888          
  0.9                   0.0003973             4.4e-13               -6.234e-11            -0.00039706          
  1                     0.00040442            7.8e-13               -6.202e-11            -0.00040404          
  1.1                   0.00041058            4.8e-13               -6.074e-11            -0.0004104           
  1.2                   0.00041626            4.4e-13               -6.216e-11            -0.000416            
  1.3                   0.00042166            4.2e-13               -6.194e-11            -0.00042122          
  1.4                   0.0004265             5.8e-13               -6.406e-11            -0.00042626          
  1.5                   0.0004313             5.4e-13               -7.54e-11             -0.00043104          
  1.6                   0.00043586            3e-13                 -1.0596e-10           -0.0004355           
  1.7                   0.00044032            6.4e-13               -1.997e-10            -0.00044008          
  1.8                   0.0004446             3.4e-13               -4.5204e-10           -0.00044444          
  1.9                   0.00044884            4.2e-13               -1.0776e-09           -0.0004486           
  2                     0.00045314            3.8e-13               -2.5054e-09           -0.00045268          
  2.1                   0.00045708            4.8e-13               -5.5204e-09           -0.00045666          
  2.2                   0.00046106            4e-13                 -1.14656e-08          -0.00046074          
  2.3                   0.000465              4e-13                 -2.2472e-08           -0.0004647           
  2.4                   0.00046884            5.8e-13               -4.1584e-08           -0.00046858          
  2.5                   0.0004729             5.2e-13               -7.3252e-08           -0.00047232          
  2.6                   0.0004766             2.8e-13               -1.2338e-07           -0.00047616          
  2.7                   0.00048038            3.8e-13               -1.9954e-07           -0.00047996          
  2.8                   0.00048432            3.2e-13               -3.117e-07            -0.00048362          
  2.9                   0.00048802            5.4e-13               -4.7188e-07           -0.00048714          
  3                     0.00049198            6.2e-13               -6.9656e-07           -0.00049096          
  3.1                   0.0004958             7.8e-13               -1.0031e-06           -0.00049454          
  3.2                   0.00049986            8e-13                 -1.4172e-06           -0.00049812          
  3.3                   0.00050386            1.08e-12              -1.9636e-06           -0.00050146          
  3.4                   0.000508              1.12e-12              -2.681e-06            -0.00050488          
  3.5                   0.00051238            1.26e-12              -3.6132e-06           -0.00050842          
  3.6                   0.0005172             1.42e-12              -4.8042e-06           -0.00051184          
END_DB

BEGIN_DB
 ICCAP_VAR vg         2.458          
 ICCAP_VAR vb         -3.6           
 ICCAP_VAR vs         0              

 #vd                    id                    ig                    ib                    is                   
  0                     9.4858e-08            9e-13                 -5.15e-11             -7.3566e-08          
  0.1                   0.00023234            6.6e-13               -5.148e-11            -0.00023204          
  0.2                   0.00044156            7.6e-13               -5.282e-11            -0.00044124          
  0.3                   0.00062402            7.4e-13               -5.228e-11            -0.00062372          
  0.4                   0.00077874            6.6e-13               -5.172e-11            -0.0007784           
  0.5                   0.00090532            5.2e-13               -5.38e-11             -0.00090496          
  0.6                   0.00100534            5.2e-13               -5.324e-11            -0.00100502          
  0.7                   0.00108228            5.6e-13               -5.278e-11            -0.001082            
  0.8                   0.00113998            4.6e-13               -5.374e-11            -0.00113966          
  0.9                   0.0011828             6e-13                 -5.328e-11            -0.001182            
  1                     0.0012144             4.2e-13               -5.294e-11            -0.0012138           
  1.1                   0.0012384             5.8e-13               -5.22e-11             -0.0012378           
  1.2                   0.0012572             6.6e-13               -5.21e-11             -0.0012564           
  1.3                   0.0012722             3.4e-13               -5.24e-11             -0.0012716           
  1.4                   0.001285              4.4e-13               -5.366e-11            -0.0012844           
  1.5                   0.0012962             5.6e-13               -5.604e-11            -0.0012954           
  1.6                   0.001306              5.4e-13               -6.244e-11            -0.0013054           
  1.7                   0.001315              4.6e-13               -8.818e-11            -0.0013144           
  1.8                   0.0013232             4.8e-13               -1.5932e-10           -0.0013226           
  1.9                   0.0013312             4.6e-13               -3.574e-10            -0.0013306           
  2                     0.0013386             4.6e-13               -8.604e-10            -0.001338            
  2.1                   0.0013458             4.6e-13               -2.0574e-09           -0.0013452           
  2.2                   0.0013526             4.2e-13               -4.706e-09            -0.0013518           
  2.3                   0.0013592             3.8e-13               -1.02034e-08          -0.0013586           
  2.4                   0.0013656             4.8e-13               -2.0922e-08           -0.0013648           
  2.5                   0.0013716             6e-13                 -4.0692e-08           -0.001371            
  2.6                   0.0013778             4.4e-13               -7.5418e-08           -0.0013768           
  2.7                   0.0013832             4.8e-13               -1.3338e-07           -0.0013824           
  2.8                   0.001389              6e-13                 -2.2636e-07           -0.0013882           
  2.9                   0.0013948             7.4e-13               -3.7004e-07           -0.0013936           
  3                     0.0014004             7.2e-13               -5.8508e-07           -0.0013992           
  3.1                   0.0014062             8.4e-13               -8.9696e-07           -0.0014046           
  3.2                   0.0014116             1.44e-12              -1.3398e-06           -0.0014096           
  3.3                   0.0014172             1.76e-12              -1.951e-06            -0.0014144           
  3.4                   0.0014232             2.3e-12               -2.7832e-06           -0.0014196           
  3.5                   0.0014292             3.14e-12              -3.8982e-06           -0.0014244           
  3.6                   0.0014354             3.92e-12              -5.3636e-06           -0.001429            
END_DB

BEGIN_DB
 ICCAP_VAR vg         3.029          
 ICCAP_VAR vb         -3.6           
 ICCAP_VAR vs         0              

 #vd                    id                    ig                    ib                    is                   
  0                     1.14994e-07           9.4e-13               -4.51e-11             -1.076e-07           
  0.1                   0.00031658            7.4e-13               -4.514e-11            -0.00031626          
  0.2                   0.00061422            7.4e-13               -4.792e-11            -0.00061386          
  0.3                   0.00088804            7.4e-13               -4.688e-11            -0.00088774          
  0.4                   0.00113608            6e-13                 -4.772e-11            -0.0011358           
  0.5                   0.001356              5.6e-13               -4.518e-11            -0.0013554           
  0.6                   0.0015466             7.6e-13               -4.75e-11             -0.001546            
  0.7                   0.0017088             5.4e-13               -4.872e-11            -0.0017082           
  0.8                   0.0018442             5.8e-13               -4.706e-11            -0.0018436           
  0.9                   0.0019548             5.4e-13               -4.732e-11            -0.0019542           
  1                     0.0020442             5.6e-13               -4.848e-11            -0.0020434           
  1.1                   0.0021148             6.8e-13               -4.726e-11            -0.002114            
  1.2                   0.0021702             7.8e-13               -4.862e-11            -0.0021694           
  1.3                   0.0022138             6.2e-13               -4.774e-11            -0.0022132           
  1.4                   0.002248              5.2e-13               -4.918e-11            -0.0022472           
  1.5                   0.002275              5e-13                 -4.93e-11             -0.0022744           
  1.6                   0.0022972             4.6e-13               -5.086e-11            -0.0022968           
  1.7                   0.0023156             6.2e-13               -5.704e-11            -0.0023148           
  1.8                   0.0023312             6.6e-13               -7.362e-11            -0.0023306           
  1.9                   0.0023446             6.2e-13               -1.2244e-10           -0.0023442           
  2                     0.0023566             3.6e-13               -2.5616e-10           -0.0023562           
  2.1                   0.0023676             3.8e-13               -5.9952e-10           -0.0023672           
  2.2                   0.0023778             5.6e-13               -1.4292e-09           -0.002377            
  2.3                   0.002387              5.4e-13               -3.3006e-09           -0.0023862           
  2.4                   0.0023954             6.4e-13               -7.2686e-09           -0.0023948           
  2.5                   0.0024036             4.4e-13               -1.5244e-08           -0.0024028           
  2.6                   0.002411              4.8e-13               -3.037e-08            -0.0024104           
  2.7                   0.0024184             5.6e-13               -5.7638e-08           -0.0024176           
  2.8                   0.0024254             5.6e-13               -1.04746e-07          -0.0024248           
  2.9                   0.002432              7.4e-13               -1.8252e-07           -0.0024312           
  3                     0.0024384             8e-13                 -3.0668e-07           -0.0024376           
  3.1                   0.0024448             1.08e-12              -4.9788e-07           -0.0024436           
  3.2                   0.002451              1.66e-12              -7.8422e-07           -0.0024496           
  3.3                   0.0024574             2.32e-12              -1.2002e-06           -0.0024552           
  3.4                   0.0024632             3.04e-12              -1.7906e-06           -0.0024608           
  3.5                   0.0024696             4.24e-12              -2.612e-06            -0.002466            
  3.6                   0.0024758             5.92e-12              -3.7328e-06           -0.0024712           
END_DB

BEGIN_DB
 ICCAP_VAR vg         3.6            
 ICCAP_VAR vb         -3.6           
 ICCAP_VAR vs         0              

 #vd                    id                    ig                    ib                    is                   
  0                     1.15008e-07           9.6e-13               -4.128e-11            -1.1093e-07          
  0.1                   0.00037802            7e-13                 -4.398e-11            -0.00037768          
  0.2                   0.00074064            8.2e-13               -4.394e-11            -0.00074032          
  0.3                   0.0010828             7e-13                 -4.33e-11             -0.00108242          
  0.4                   0.0014022             6.4e-13               -4.318e-11            -0.0014016           
  0.5                   0.0016952             5.2e-13               -4.516e-11            -0.0016946           
  0.6                   0.0019598             5.6e-13               -4.392e-11            -0.001959            
  0.7                   0.0021964             5.6e-13               -4.486e-11            -0.0021956           
  0.8                   0.0024046             6.2e-13               -4.588e-11            -0.002404            
