! VERSION = 6.00
BEGIN_HEADER
 ICCAP_INPUTS
  vg         V  G GROUND SMU2 0.001 LIN        1    -0.5       3.6        83   0.05      
  vb         V  B GROUND SMU4 0.1 LIN        2    0          -3.6       5    -0.9      
  vd         V  D GROUND SMU1 0.1 LIN        3    0.1        3.3        3    1.6       
  vs         V  S GROUND SMU3 0.1 CON        0
 ICCAP_OUTPUTS
  id         I  D GROUND SMU1 B
  ig         I  G GROUND SMU2 B
  ib         I  B GROUND SMU4 B
  is         I  S GROUND SMU3 B
 ICCAP_VALUES
  MASTER_SETUP_TYPE "~dc_idvg~"
  LINVT_VALUE ""
  LISTVT_VALUE ""
  TYPE "1"
  TEMP " 27.0000 "
  IS_TNOM " 1.00000 "
  MAIN.W "10.00u"
  MAIN.L "5.000u"
  MAIN.AD "3.400p"
  MAIN.AS "3.400p"
  MAIN.PD "20.68u"
  MAIN.PS "20.68u"
  MAIN.NF "1.000"
  MAIN.M "1"
  MAIN.NRD "0.000"
  MAIN.NRS "0.000"
  MAIN.LDRIFT1 "1E-06"
  MAIN.LDRIFT2 "1E-06"
  MAIN.SA "0.000"
  MAIN.SB "0.000"
  MAIN.SD "0.000"
  MAIN.SCA "0.000"
  MAIN.SCB "0.000"
  MAIN.SCC "0.000"
  MAIN.SC "0.000"
  MODULE "S557"
  PIN_D "18"
  PIN_G "3"
  PIN_S "4"
  PIN_B "17"
  PIN_E ""
  PIN_6 ""
  XY_ID ""
  FUNC "L Scale"
  STI "SA ref"
  WPE "WPE ref"
  COMMENT ""
  DIS_MEAS ""
  TypeTCI "10"
END_HEADER

BEGIN_DB
 ICCAP_VAR vb         0              
 ICCAP_VAR vd         0.1            
 ICCAP_VAR vs         0              

 #vg                    id                    ig                    ib                    is                   
  -0.5                  2e-13                 -4.396e-11            5.204e-11             1.4e-13              
  -0.45                 1.2e-13               -6.64e-12             1.488e-11             1.2e-13              
  -0.4                  4e-14                 -1.12e-12             1.016e-11             -2e-14               
  -0.35                 1.4e-13               -1.8e-13              9.08e-12              -6e-14               
  -0.3                  1.4e-13               -4e-14                8.62e-12              4e-14                
  -0.25                 1.2e-13               1.4e-13               7.4e-12               1.2e-13              
  -0.2                  -4e-14                2e-14                 7.34e-12              4e-14                
  -0.15                 1e-13                 1.4e-13               8.14e-12              2e-14                
  -0.1                  1.6e-13               2.6e-13               7.8e-12               6e-14                
  -0.05                 1.2e-13               2.2e-13               8.34e-12              0                    
  0                     -6e-14                2.8e-13               7.02e-12              6e-14                
  0.05                  2.2e-13               2.6e-13               7.22e-12              -4e-14               
  0.1                   3.6e-13               3e-13                 7.18e-12              -2.4e-13             
  0.15                  1.18e-12              3.4e-13               7.84e-12              -1.28e-12            
  0.2                   5e-12                 3.2e-13               7.86e-12              -4.7e-12             
  0.25                  1.938e-11             4.2e-13               7.48e-12              -1.94e-11            
  0.3                   7.818e-11             3e-13                 5.6e-12               -7.786e-11           
  0.35                  3.1866e-10            4e-13                 7.3e-12               -3.187e-10           
  0.4                   1.2936e-09            3.8e-13               7.38e-12              -1.291e-09           
  0.45                  5.1836e-09            2.2e-13               6.74e-12              -5.1796e-09          
  0.5                   1.9616e-08            3.6e-13               6.62e-12              -1.959e-08           
  0.55                  6.6838e-08            3.8e-13               5.82e-12              -6.681e-08           
  0.6                   1.928e-07             4.6e-13               7.2e-12               -1.9256e-07          
  0.65                  4.6466e-07            4.6e-13               6.54e-12              -4.645e-07           
  0.7                   9.4136e-07            3.4e-13               6.1e-12               -9.411e-07           
  0.75                  1.6556e-06            4e-13                 7.44e-12              -1.6508e-06          
  0.8                   2.5836e-06            4e-13                 6.68e-12              -2.5796e-06          
  0.85                  3.6962e-06            3e-13                 5.56e-12              -3.6918e-06          
  0.9                   4.9422e-06            4.4e-13               6.02e-12              -4.9376e-06          
  0.95                  6.2902e-06            5.4e-13               6.84e-12              -6.2864e-06          
  1                     7.7154e-06            3.6e-13               5.26e-12              -7.7112e-06          
  1.05                  9.2028e-06            4.8e-13               5.36e-12              -9.1986e-06          
  1.1                   1.07268e-05           3.2e-13               5.2e-12               -1.07222e-05         
  1.15                  1.229e-05             3.2e-13               5.76e-12              -1.2268e-05          
  1.2                   1.3866e-05            4.6e-13               6e-12                 -1.3844e-05          
  1.25                  1.5456e-05            5.2e-13               5.38e-12              -1.5436e-05          
  1.3                   1.7062e-05            5.6e-13               5.14e-12              -1.7042e-05          
  1.35                  1.8668e-05            4.6e-13               5.18e-12              -1.8648e-05          
  1.4                   2.0272e-05            5.4e-13               6.42e-12              -2.0252e-05          
  1.45                  2.1876e-05            6.4e-13               5.34e-12              -2.1856e-05          
  1.5                   2.348e-05             5.2e-13               4.48e-12              -2.3458e-05          
  1.55                  2.5068e-05            6.4e-13               4.94e-12              -2.5048e-05          
  1.6                   2.6644e-05            5.2e-13               5.98e-12              -2.6622e-05          
  1.65                  2.821e-05             5.6e-13               5.76e-12              -2.819e-05           
  1.7                   2.9764e-05            4.6e-13               4.36e-12              -2.9742e-05          
  1.75                  3.1292e-05            5.4e-13               4.9e-12               -3.1272e-05          
  1.8                   3.281e-05             5.4e-13               4.46e-12              -3.279e-05           
  1.85                  3.4302e-05            5.6e-13               6.5e-12               -3.4282e-05          
  1.9                   3.5778e-05            5.2e-13               4.08e-12              -3.5758e-05          
  1.95                  3.7226e-05            6.8e-13               4.52e-12              -3.7208e-05          
  2                     3.8656e-05            6.2e-13               4.52e-12              -3.8634e-05          
  2.05                  4.006e-05             6.4e-13               6.02e-12              -4.004e-05           
  2.1                   4.1434e-05            5.8e-13               4.76e-12              -4.1414e-05          
  2.15                  4.2788e-05            6.2e-13               4.46e-12              -4.2766e-05          
  2.2                   4.4108e-05            6.2e-13               3.94e-12              -4.4086e-05          
  2.25                  4.5404e-05            5.6e-13               5.7e-12               -4.5384e-05          
  2.3                   4.6668e-05            6.8e-13               4.42e-12              -4.6646e-05          
  2.35                  4.7908e-05            6.4e-13               4.54e-12              -4.7886e-05          
  2.4                   4.9114e-05            6.2e-13               4.86e-12              -4.9094e-05          
  2.45                  5.029e-05             6.8e-13               4.44e-12              -5.027e-05           
  2.5                   5.1442e-05            7e-13                 5.4e-12               -5.1422e-05          
  2.55                  5.256e-05             6.6e-13               3.94e-12              -5.254e-05           
  2.6                   5.3646e-05            6.4e-13               4e-12                 -5.3626e-05          
  2.65                  5.4702e-05            6.8e-13               4.3e-12               -5.4684e-05          
  2.7                   5.573e-05             7.2e-13               4.82e-12              -5.571e-05           
  2.75                  5.673e-05             6.2e-13               5.22e-12              -5.671e-05           
  2.8                   5.7698e-05            7.2e-13               3.62e-12              -5.7678e-05          
  2.85                  5.8636e-05            6.8e-13               3.78e-12              -5.8616e-05          
  2.9                   5.9542e-05            6.6e-13               4.44e-12              -5.9524e-05          
  2.95                  6.0424e-05            7.2e-13               4.54e-12              -6.0404e-05          
  3                     6.1274e-05            6e-13                 3.7e-12               -6.1254e-05          
  3.05                  6.2096e-05            6.4e-13               3.64e-12              -6.2076e-05          
  3.1                   6.289e-05             7.2e-13               3.6e-12               -6.287e-05           
  3.15                  6.3656e-05            6.4e-13               4.88e-12              -6.3636e-05          
  3.2                   6.4394e-05            7.4e-13               3.58e-12              -6.4374e-05          
  3.25                  6.5108e-05            8.6e-13               4.06e-12              -6.5088e-05          
  3.3                   6.5792e-05            6.6e-13               3.94e-12              -6.5772e-05          
  3.35                  6.645e-05             7.4e-13               4.9e-12               -6.643e-05           
  3.4                   6.7084e-05            8.2e-13               3.28e-12              -6.7064e-05          
  3.45                  6.7692e-05            7e-13                 3.34e-12              -6.767e-05           
  3.5                   6.8276e-05            7.8e-13               4.06e-12              -6.8256e-05          
  3.55                  6.8834e-05            6.4e-13               4.44e-12              -6.8812e-05          
  3.6                   6.9372e-05            7.4e-13               4.12e-12              -6.9352e-05          
END_DB

BEGIN_DB
 ICCAP_VAR vb         -0.9           
 ICCAP_VAR vd         0.1            
 ICCAP_VAR vs         0              

 #vg                    id                    ig                    ib                    is                   
  -0.5                  4e-13                 -4.6e-13              -9.26e-12             1.2e-13              
  -0.45                 1.4e-13               -2.6e-13              -8.26e-12             4e-14                
  -0.4                  2e-13                 -2.8e-13              -7.66e-12             1.2e-13              
  -0.35                 1.6e-13               -8e-14                -8e-12                1.6e-13              
  -0.3                  8e-14                 -8e-14                -6.44e-12             4e-14                
  -0.25                 2.8e-13               0                     -5.44e-12             1.4e-13              
  -0.2                  -6e-14                0                     -4.1e-12              8e-14                
  -0.15                 1.6e-13               -8e-14                -4.48e-12             1.8e-13              
  -0.1                  0                     2e-14                 -4.5e-12              1.2e-13              
  -0.05                 1.2e-13               2e-14                 -4.3e-12              2.4e-13              
  0                     8e-14                 1.4e-13               -3.94e-12             1.6e-13              
  0.05                  0                     2e-13                 -2.52e-12             2e-13                
  0.1                   4e-14                 4e-14                 -2.58e-12             8e-14                
  0.15                  1.4e-13               1.6e-13               -2.54e-12             -4e-14               
  0.2                   8e-14                 2.4e-13               -3.12e-12             1e-13                
  0.25                  2e-14                 2.8e-13               -2.08e-12             4e-14                
  0.3                   0                     3.8e-13               -1.42e-12             -2e-14               
  0.35                  2.6e-13               2e-13                 -1.54e-12             -4e-14               
  0.4                   4.8e-13               3.4e-13               -1.9e-12              -3.8e-13             
  0.45                  2.42e-12              3.2e-13               -1.92e-12             -2.24e-12            
  0.5                   1.058e-11             2.6e-13               -1.6e-12              -1.04e-11            
  0.55                  4.858e-11             1.8e-13               -1.16e-12             -4.858e-11           
  0.6                   2.2426e-10            2.8e-13               -1.06e-12             -2.2404e-10          
  0.65                  1.0289e-09            3e-13                 -1.88e-12             -1.02818e-09         
  0.7                   4.5622e-09            2.8e-13               -1.34e-12             -4.556e-09           
  0.75                  1.8948e-08            3.6e-13               -1.4e-12              -1.8924e-08          
  0.8                   6.8336e-08            3.6e-13               -1.34e-12             -6.8304e-08          
  0.85                  2.0432e-07            3.8e-13               -4.4e-13              -2.0412e-07          
  0.9                   4.955e-07             4e-13                 -1.72e-12             -4.9522e-07          
  0.95                  9.9934e-07            4.2e-13               -1.46e-12             -9.9902e-07          
  1                     1.735e-06             3.2e-13               -9.2e-13              -1.7302e-06          
  1.05                  2.6794e-06            3e-13                 -1.24e-12             -2.6748e-06          
  1.1                   3.7854e-06            3.2e-13               -7.2e-13              -3.7816e-06          
  1.15                  5.0162e-06            4.4e-13               -3.6e-13              -5.0116e-06          
  1.2                   6.3388e-06            4.2e-13               1.2e-13               -6.3348e-06          
  1.25                  7.7308e-06            4.2e-13               -7e-13                -7.7268e-06          
  1.3                   9.1796e-06            4.8e-13               -1.04e-12             -9.1758e-06          
  1.35                  1.06602e-05           5.4e-13               -2.8e-13              -1.06558e-05         
  1.4                   1.2176e-05            4.4e-13               4e-13                 -1.2154e-05          
  1.45                  1.3702e-05            5.8e-13               -2e-13                -1.368e-05           
  1.5                   1.5242e-05            4e-13                 -7.6e-13              -1.5224e-05          
  1.55                  1.6786e-05            5e-13                 -1e-13                -1.6766e-05          
  1.6                   1.8328e-05            5.6e-13               9.2e-13               -1.8308e-05          
  1.65                  1.9874e-05            4.8e-13               -4.6e-13              -1.9854e-05          
  1.7                   2.1414e-05            5.6e-13               -9.2e-13              -2.1394e-05          
  1.75                  2.2938e-05            4.8e-13               -6.2e-13              -2.2918e-05          
  1.8                   2.4458e-05            6e-13                 3.4e-13               -2.4438e-05          
  1.85                  2.5958e-05            4.2e-13               2.4e-13               -2.5938e-05          
  1.9                   2.7448e-05            6.2e-13               -3.6e-13              -2.7426e-05          
  1.95                  2.8912e-05            5e-13                 -4.6e-13              -2.8892e-05          
  2                     3.0364e-05            6.4e-13               5e-13                 -3.0344e-05          
  2.05                  3.1796e-05            6.6e-13               6.2e-13               -3.1776e-05          
  2.1                   3.3198e-05            5.8e-13               -5.8e-13              -3.3178e-05          
  2.15                  3.4584e-05            6.2e-13               2e-13                 -3.4564e-05          
  2.2                   3.5938e-05            6.8e-13               8e-14                 -3.5918e-05          
  2.25                  3.7274e-05            5.8e-13               5.4e-13               -3.7252e-05          
  2.3                   3.8574e-05            6.4e-13               -1.8e-13              -3.8554e-05          
  2.35                  3.9856e-05            5.2e-13               2e-13                 -3.9834e-05          
  2.4                   4.1104e-05            7e-13                 -3.6e-13              -4.1084e-05          
  2.45                  4.2326e-05            6.2e-13               1.24e-12              -4.2304e-05          
  2.5                   4.3522e-05            6.2e-13               4e-13                 -4.35e-05            
  2.55                  4.4684e-05            7.6e-13               -6e-14                -4.4664e-05          
  2.6                   4.5818e-05            6.6e-13               -3e-13                -4.5796e-05          
  2.65                  4.692e-05             7e-13                 7.6e-13               -4.69e-05            
  2.7                   4.7994e-05            6.4e-13               2.6e-13               -4.7974e-05          
  2.75                  4.9044e-05            5.6e-13               0                     -4.9022e-05          
  2.8                   5.0056e-05            6.2e-13               -3.6e-13              -5.0036e-05          
  2.85                  5.1042e-05            7.4e-13               9.8e-13               -5.102e-05           
  2.9                   5.1998e-05            6.2e-13               1.08e-12              -5.1978e-05          
  2.95                  5.2928e-05            7.4e-13               -3.6e-13              -5.2908e-05          
  3                     5.3824e-05            6.4e-13               -4.6e-13              -5.3804e-05          
  3.05                  5.4694e-05            6.6e-13               5.4e-13               -5.4674e-05          
  3.1                   5.5536e-05            8e-13                 8.2e-13               -5.5514e-05          
  3.15                  5.6348e-05            6.6e-13               2e-14                 -5.633e-05           
  3.2                   5.7134e-05            7.2e-13               -4.4e-13              -5.7112e-05          
  3.25                  5.7892e-05            6.8e-13               3.2e-13               -5.7872e-05          
  3.3                   5.8626e-05            8.4e-13               1.18e-12              -5.8608e-05          
  3.35                  5.933e-05             7.4e-13               2.4e-13               -5.931e-05           
  3.4                   6.0012e-05            6.8e-13               0                     -5.9992e-05          
  3.45                  6.0664e-05            6.4e-13               6.6e-13               -6.0644e-05          
