! VERSION = 6.00
BEGIN_HEADER
 ICCAP_INPUTS
  vg         V  G GROUND SMU2 0.001 LIN        1    -0.5       3.6        83   0.05      
  vb         V  B GROUND SMU4 0.1 LIN        2    0          -3.6       5    -0.9      
  vd         V  D GROUND SMU1 0.1 LIN        3    0.1        3.3        3    1.6       
  vs         V  S GROUND SMU3 0.1 CON        0
 ICCAP_OUTPUTS
  id         I  D GROUND SMU1 B
  ig         I  G GROUND SMU2 B
  ib         I  B GROUND SMU4 B
  is         I  S GROUND SMU3 B
 ICCAP_VALUES
  MASTER_SETUP_TYPE "~dc_idvg~"
  LINVT_VALUE ""
  LISTVT_VALUE ""
  TYPE "1"
  TEMP " 70.0000 "
  IS_TNOM " 0.00000 "
  MAIN.W "10.00u"
  MAIN.L "500.0n"
  MAIN.AD "3.400p"
  MAIN.AS "3.400p"
  MAIN.PD "20.68u"
  MAIN.PS "20.68u"
  MAIN.NF "1.000"
  MAIN.M "1"
  MAIN.NRD "0.000"
  MAIN.NRS "0.000"
  MAIN.LDRIFT1 "1E-06"
  MAIN.LDRIFT2 "1E-06"
  MAIN.SA "0.000"
  MAIN.SB "0.000"
  MAIN.SD "0.000"
  MAIN.SCA "0.000"
  MAIN.SCB "0.000"
  MAIN.SCC "0.000"
  MAIN.SC "0.000"
  MODULE "S556"
  PIN_D "14"
  PIN_G "7"
  PIN_S "8"
  PIN_B "13"
  PIN_E ""
  PIN_6 ""
  XY_ID ""
  FUNC "Short"
  STI "SA ref"
  WPE "WPE ref"
  COMMENT ""
  DIS_MEAS ""
  TypeTCI "10"
END_HEADER

BEGIN_DB
 ICCAP_VAR vb         0              
 ICCAP_VAR vd         0.1            
 ICCAP_VAR vs         0              

 #vg                    id                    ig                    ib                    is                   
  -0.5                  1e-13                 -1.5792e-09           1.5874e-09            2.2e-13              
  -0.45                 -1.4e-13              -2.948e-10            3.0632e-10            6e-14                
  -0.4                  -1.6e-13              -5.538e-11            6.598e-11             4e-14                
  -0.35                 0                     -1.048e-11            2.122e-11             2.2e-13              
  -0.3                  -6e-14                -1.78e-12             1.36e-11              1.6e-13              
  -0.25                 4e-14                 -2.8e-13              1.21e-11              1.8e-13              
  -0.2                  2e-14                 1.6e-13               9.18e-12              1.4e-13              
  -0.15                 -6e-14                2.8e-13               9.96e-12              2e-13                
  -0.1                  4e-14                 2.2e-13               1.074e-11             8e-14                
  -0.05                 0                     4.8e-13               1.034e-11             6e-14                
  0                     3.4e-13               5.4e-13               1.102e-11             -3e-13               
  0.05                  1.08e-12              5.4e-13               1e-11                 -1.08e-12            
  0.1                   3.28e-12              5e-13                 9.56e-12              -3.2e-12             
  0.15                  1.046e-11             6e-13                 9.14e-12              -1.032e-11           
  0.2                   3.292e-11             5.4e-13               9.48e-12              -3.292e-11           
  0.25                  1.0628e-10            5e-13                 9.64e-12              -1.0608e-10          
  0.3                   3.4348e-10            6.6e-13               9.88e-12              -3.4326e-10          
  0.35                  1.12516e-09           4.6e-13               9.1e-12               -1.12422e-09         
  0.4                   3.6712e-09            6e-13                 8.92e-12              -3.6702e-09          
  0.45                  1.2042e-08            3.8e-13               1.036e-11             -1.2022e-08          
  0.5                   3.888e-08             5.8e-13               9.4e-12               -3.8762e-08          
  0.55                  1.2244e-07            7.4e-13               8.58e-12              -1.2238e-07          
  0.6                   3.647e-07             6e-13                 8.6e-12               -3.6444e-07          
  0.65                  1.00428e-06           6.2e-13               9.2e-12               -1.0034e-06          
  0.7                   2.4674e-06            6.6e-13               8.16e-12              -2.4624e-06          
  0.75                  5.368e-06             7.8e-13               8.1e-12               -5.3658e-06          
  0.8                   1.02526e-05           7.2e-13               8.22e-12              -1.02404e-05         
  0.85                  1.7456e-05            6.4e-13               9.74e-12              -1.7442e-05          
  0.9                   2.6854e-05            6.6e-13               8.54e-12              -2.6848e-05          
  0.95                  3.817e-05             7.2e-13               7.34e-12              -3.8152e-05          
  1                     5.0886e-05            6.8e-13               7.54e-12              -5.0862e-05          
  1.05                  6.4616e-05            7.8e-13               8.4e-12               -6.4604e-05          
  1.1                   7.8904e-05            7e-13                 9.14e-12              -7.8886e-05          
  1.15                  9.3576e-05            8.8e-13               7.52e-12              -9.3536e-05          
  1.2                   0.000108386           8.8e-13               7.72e-12              -0.000108372         
  1.25                  0.00012328            4.4e-13               7.3e-12               -0.00012294          
  1.3                   0.00013804            6.8e-13               8.18e-12              -0.00013772          
  1.35                  0.0001526             8.8e-13               8.8e-12               -0.00015232          
  1.4                   0.000167              7.2e-13               8.36e-12              -0.00016664          
  1.45                  0.00018112            1e-12                 7e-12                 -0.00018078          
  1.5                   0.00019506            9e-13                 6.98e-12              -0.0001947           
  1.55                  0.00020866            8e-13                 7.96e-12              -0.00020832          
  1.6                   0.00022194            9.4e-13               8.24e-12              -0.0002216           
  1.65                  0.00023498            7.8e-13               7.32e-12              -0.00023466          
  1.7                   0.00024778            8.6e-13               6.42e-12              -0.00024746          
  1.75                  0.00026024            8.8e-13               7.64e-12              -0.0002599           
  1.8                   0.00027244            9e-13                 7.94e-12              -0.00027212          
  1.85                  0.00028432            9e-13                 7.3e-12               -0.000284            
  1.9                   0.00029598            9.4e-13               7.38e-12              -0.00029564          
  1.95                  0.0003073             9.8e-13               6.3e-12               -0.00030696          
  2                     0.00031836            9.6e-13               6.48e-12              -0.00031804          
  2.05                  0.00032918            8e-13                 7.72e-12              -0.00032882          
  2.1                   0.00033964            9e-13                 6.52e-12              -0.00033934          
  2.15                  0.00034996            1.02e-12              5.58e-12              -0.00034962          
  2.2                   0.0003599             1.08e-12              6.04e-12              -0.0003596           
  2.25                  0.00036964            9e-13                 7.14e-12              -0.00036932          
  2.3                   0.00037908            8.2e-13               7.64e-12              -0.00037876          
  2.35                  0.0003883             1.02e-12              5.7e-12               -0.000388            
  2.4                   0.00039726            9.8e-13               5.66e-12              -0.00039694          
  2.45                  0.00040594            1.06e-12              6.02e-12              -0.00040562          
  2.5                   0.00041442            1.22e-12              7.48e-12              -0.0004141           
  2.55                  0.00042264            9e-13                 5.62e-12              -0.0004223           
  2.6                   0.00043062            1.12e-12              6.02e-12              -0.00043028          
  2.65                  0.00043838            1.04e-12              5.62e-12              -0.00043806          
  2.7                   0.0004459             1.1e-12               5.84e-12              -0.00044558          
  2.75                  0.00045324            9e-13                 6.12e-12              -0.0004529           
  2.8                   0.00046032            1.1e-12               6.1e-12               -0.00045998          
  2.85                  0.00046718            9e-13                 5.94e-12              -0.00046686          
  2.9                   0.00047388            1.06e-12              5.5e-12               -0.00047352          
  2.95                  0.00048036            1.04e-12              6.12e-12              -0.00048004          
  3                     0.00048664            9.8e-13               6.54e-12              -0.00048632          
  3.05                  0.00049272            1.1e-12               5.02e-12              -0.00049238          
  3.1                   0.0004986             1.04e-12              5.2e-12               -0.00049828          
  3.15                  0.00050434            1.22e-12              4.98e-12              -0.00050402          
  3.2                   0.00050986            1.06e-12              6.68e-12              -0.00050952          
  3.25                  0.00051524            1.1e-12               6.54e-12              -0.0005149           
  3.3                   0.00052042            9.8e-13               3.88e-12              -0.00052012          
  3.35                  0.00052546            1.04e-12              4.86e-12              -0.00052514          
  3.4                   0.00053032            1.24e-12              5.94e-12              -0.00053002          
  3.45                  0.00053502            1.02e-12              6.72e-12              -0.00053468          
  3.5                   0.00053956            1.04e-12              5.18e-12              -0.00053924          
  3.55                  0.00054396            1.16e-12              5.58e-12              -0.00054362          
  3.6                   0.00054822            1.08e-12              4.62e-12              -0.0005479           
END_DB

BEGIN_DB
 ICCAP_VAR vb         -0.9           
 ICCAP_VAR vd         0.1            
 ICCAP_VAR vs         0              

 #vg                    id                    ig                    ib                    is                   
  -0.5                  -4e-14                -9e-13                -1.722e-11            3.4e-13              
  -0.45                 6e-14                 -5.2e-13              -1.632e-11            4.2e-13              
  -0.4                  -4e-14                -3e-13                -1.538e-11            4.2e-13              
  -0.35                 -6e-14                -2.6e-13              -1.324e-11            2.2e-13              
  -0.3                  0                     -1.4e-13              -1.136e-11            3.8e-13              
  -0.25                 0                     0                     -1.052e-11            3.8e-13              
  -0.2                  0                     1e-13                 -9.88e-12             3.8e-13              
  -0.15                 -4e-14                2e-14                 -9.94e-12             3.6e-13              
  -0.1                  -4e-14                2.4e-13               -1.008e-11            2.8e-13              
  -0.05                 -4e-14                3e-13                 -9.04e-12             3.6e-13              
  0                     -6e-14                2.2e-13               -7.04e-12             2.6e-13              
  0.05                  0                     3.2e-13               -5.72e-12             3.4e-13              
  0.1                   2e-14                 1.6e-13               -6.86e-12             3.4e-13              
  0.15                  0                     4.8e-13               -6.46e-12             2.6e-13              
  0.2                   2e-14                 3e-13                 -5.86e-12             3.6e-13              
  0.25                  1.6e-13               4.4e-13               -6.14e-12             1.6e-13              
  0.3                   4e-13                 2.8e-13               -5.4e-12              0                    
  0.35                  1.56e-12              4.2e-13               -3.8e-12              -1.1e-12             
  0.4                   5.58e-12              5.8e-13               -4.84e-12             -5.24e-12            
  0.45                  2.086e-11             3.2e-13               -6.6e-12              -2.052e-11           
  0.5                   7.83e-11              3.8e-13               -5.16e-12             -7.79e-11            
  0.55                  2.9284e-10            5e-13                 -4.4e-12              -2.9214e-10          
  0.6                   1.08514e-09           5.6e-13               -4.4e-12              -1.08348e-09         
  0.65                  4.0072e-09            4e-13                 -3.48e-12             -3.9966e-09          
  0.7                   1.4502e-08            4.2e-13               -3.46e-12             -1.4494e-08          
  0.75                  5.145e-08             5e-13                 -4.86e-12             -5.1408e-08          
  0.8                   1.729e-07             5.4e-13               -3.74e-12             -1.7324e-07          
  0.85                  5.393e-07             6.8e-13               -2.68e-12             -5.3886e-07          
  0.9                   1.4998e-06            4.8e-13               -4.02e-12             -1.4968e-06          
  0.95                  3.61e-06              5.8e-13               -3.24e-12             -3.6118e-06          
  1                     7.5558e-06            6.6e-13               -2.3e-12              -7.5494e-06          
  1.05                  1.3822e-05            4.6e-13               -2.4e-12              -1.3802e-05          
  1.1                   2.2492e-05            6e-13                 -3.12e-12             -2.2486e-05          
  1.15                  3.3364e-05            7e-13                 -2.88e-12             -3.3366e-05          
  1.2                   4.5932e-05            6.8e-13               -3.48e-12             -4.59e-05            
  1.25                  5.9668e-05            7e-13                 -2.38e-12             -5.9672e-05          
  1.3                   7.4252e-05            7.2e-13               -2.48e-12             -7.4226e-05          
  1.35                  8.9116e-05            6.4e-13               -3.76e-12             -8.9114e-05          
  1.4                   0.000104198           8.6e-13               -3.44e-12             -0.000104188         
  1.45                  0.00011936            4.8e-13               -2.16e-12             -0.00011902          
  1.5                   0.00013434            7e-13                 -1.8e-12              -0.00013404          
  1.55                  0.00014906            8.2e-13               -2.62e-12             -0.00014874          
  1.6                   0.00016348            6.4e-13               -2.64e-12             -0.00016322          
  1.65                  0.00017772            8.8e-13               -1.56e-12             -0.0001774           
  1.7                   0.00019164            7.4e-13               -2.54e-12             -0.0001913           
  1.75                  0.00020514            7.6e-13               -8.4e-13              -0.00020482          
  1.8                   0.00021838            9.2e-13               -2.14e-12             -0.00021808          
  1.85                  0.00023128            8e-13                 -2.66e-12             -0.00023094          
  1.9                   0.00024384            8.6e-13               -1.72e-12             -0.00024354          
  1.95                  0.0002561             8.4e-13               -1.2e-12              -0.0002558           
  2                     0.00026806            9.2e-13               -8.8e-13              -0.00026774          
  2.05                  0.00027972            1.02e-12              -2.62e-12             -0.0002794           
  2.1                   0.000291              1.1e-12               -2.12e-12             -0.0002907           
  2.15                  0.00030206            1e-12                 -1.82e-12             -0.00030174          
  2.2                   0.00031278            9.2e-13               -1.38e-12             -0.00031246          
  2.25                  0.00032322            9.6e-13               -8.4e-13              -0.0003229           
  2.3                   0.00033334            9.8e-13               -2.02e-12             -0.000333            
  2.35                  0.0003432             1e-12                 -1.22e-12             -0.00034286          
  2.4                   0.00035278            9.4e-13               -1.18e-12             -0.00035246          
  2.45                  0.00036206            1.06e-12              -1.38e-12             -0.00036174          
  2.5                   0.00037114            9.4e-13               -1.92e-12             -0.0003708           
  2.55                  0.0003799             1.1e-12               -1.86e-12             -0.00037958          
  2.6                   0.00038842            9.4e-13               -1.76e-12             -0.00038808          
  2.65                  0.0003967             9.4e-13               -1.48e-12             -0.00039636          
  2.7                   0.00040472            1.06e-12              -1.76e-12             -0.00040442          
  2.75                  0.00041254            9.6e-13               -2.46e-12             -0.00041222          
  2.8                   0.00042008            1.02e-12              -2.22e-12             -0.00041978          
  2.85                  0.00042742            9e-13                 -1.66e-12             -0.00042708          
  2.9                   0.0004345             1.02e-12              2.8e-13               -0.00043418          
  2.95                  0.00044142            1e-12                 -1.78e-12             -0.0004411           
  3                     0.0004481             1.14e-12              -2.56e-12             -0.00044778          
  3.05                  0.00045458            1.04e-12              -1.78e-12             -0.00045426          
  3.1                   0.00046084            1.04e-12              -3.8e-13              -0.0004605           
  3.15                  0.0004669             1.02e-12              -5.2e-13              -0.00046658          
  3.2                   0.00047278            1.08e-12              -1.96e-12             -0.00047246          
  3.25                  0.00047848            1.2e-12               -1.78e-12             -0.00047816          
  3.3                   0.00048398            1.3e-12               -1.04e-12             -0.00048366          
  3.35                  0.0004893             1.12e-12              -1.6e-12              -0.000489            
  3.4                   0.0004945             1.16e-12              2e-13                 -0.00049414          
  3.45                  0.00049946            1.08e-12              -1.82e-12             -0.00049914          
