! VERSION = 6.00
BEGIN_HEADER
 ICCAP_INPUTS
  vg         V  G GROUND SMU2 0.001 LIN        1    -0.5       3.6        83   0.05      
  vb         V  B GROUND SMU4 0.1 LIN        2    0          -3.6       5    -0.9      
  vd         V  D GROUND SMU1 0.1 LIN        3    0.1        3.3        3    1.6       
  vs         V  S GROUND SMU3 0.1 CON        0
 ICCAP_OUTPUTS
  id         I  D GROUND SMU1 B
  ig         I  G GROUND SMU2 B
  ib         I  B GROUND SMU4 B
  is         I  S GROUND SMU3 B
 ICCAP_VALUES
  MASTER_SETUP_TYPE "~dc_idvg~"
  LINVT_VALUE ""
  LISTVT_VALUE ""
  TYPE "1"
  TEMP " 27.0000 "
  IS_TNOM " 1.00000 "
  MAIN.W "2.000u"
  MAIN.L "1.200u"
  MAIN.AD "680.0f"
  MAIN.AS "680.0f"
  MAIN.PD "4.680u"
  MAIN.PS "4.680u"
  MAIN.NF "1.000"
  MAIN.M "1"
  MAIN.NRD "0.000"
  MAIN.NRS "0.000"
  MAIN.LDRIFT1 "1E-06"
  MAIN.LDRIFT2 "1E-06"
  MAIN.SA "0.000"
  MAIN.SB "0.000"
  MAIN.SD "0.000"
  MAIN.SCA "0.000"
  MAIN.SCB "0.000"
  MAIN.SCC "0.000"
  MAIN.SC "0.000"
  MODULE "S558"
  PIN_D "16"
  PIN_G "5"
  PIN_S "6"
  PIN_B "15"
  PIN_E ""
  PIN_6 ""
  XY_ID ""
  FUNC "LW Scale"
  STI "SA ref"
  WPE "WPE ref"
  COMMENT ""
  DIS_MEAS ""
  TypeTCI "10"
END_HEADER

BEGIN_DB
 ICCAP_VAR vb         0              
 ICCAP_VAR vd         0.1            
 ICCAP_VAR vs         0              

 #vg                    id                    ig                    ib                    is                   
  -0.5                  2.4e-13               -4.334e-11            5.274e-11             2e-14                
  -0.45                 2.2e-13               -6.66e-12             1.5e-11               1.2e-13              
  -0.4                  8e-14                 -1.2e-12              9.1e-12               1.6e-13              
  -0.35                 1.2e-13               -2.6e-13              7.98e-12              1e-13                
  -0.3                  1.4e-13               2e-14                 7.88e-12              2e-14                
  -0.25                 1e-13                 4e-14                 7.68e-12              1.2e-13              
  -0.2                  2e-14                 1.8e-13               8.06e-12              1.2e-13              
  -0.15                 2e-14                 2e-14                 7.6e-12               0                    
  -0.1                  1.4e-13               2.2e-13               6.76e-12              1.4e-13              
  -0.05                 1e-13                 2e-13                 7.56e-12              0                    
  0                     2e-13                 2.4e-13               7.32e-12              1.2e-13              
  0.05                  1e-13                 3e-13                 7.98e-12              -8e-14               
  0.1                   3.4e-13               2.2e-13               4.58e-12              -1.2e-13             
  0.15                  1.06e-12              2e-13                 6.42e-12              -8.6e-13             
  0.2                   3.62e-12              3.4e-13               6.62e-12              -3.5e-12             
  0.25                  1.44e-11              2.6e-13               6.9e-12               -1.414e-11           
  0.3                   5.764e-11             4.2e-13               8.24e-12              -5.746e-11           
  0.35                  2.3482e-10            3e-13                 6.82e-12              -2.344e-10           
  0.4                   9.4884e-10            3.8e-13               6.22e-12              -9.4716e-10          
  0.45                  3.7608e-09            2.2e-13               6.2e-12               -3.7648e-09          
  0.5                   1.4118e-08            2.4e-13               6.36e-12              -1.41e-08            
  0.55                  4.7694e-08            3.6e-13               6.98e-12              -4.7588e-08          
  0.6                   1.3782e-07            4.2e-13               5.8e-12               -1.375e-07           
  0.65                  3.343e-07             4.2e-13               5.7e-12               -3.341e-07           
  0.7                   6.9156e-07            4e-13                 5.96e-12              -6.9148e-07          
  0.75                  1.245e-06             4.2e-13               6.12e-12              -1.2394e-06          
  0.8                   1.9848e-06            4e-13                 5.64e-12              -1.9808e-06          
  0.85                  2.8964e-06            3.6e-13               5.52e-12              -2.8922e-06          
  0.9                   3.9376e-06            5.2e-13               6.18e-12              -3.9336e-06          
  0.95                  5.0752e-06            4.8e-13               5.36e-12              -5.0718e-06          
  1                     6.2842e-06            5.2e-13               5.08e-12              -6.2816e-06          
  1.05                  7.5444e-06            5.6e-13               2.44e-12              -7.54e-06            
  1.1                   8.8304e-06            4.8e-13               5.86e-12              -8.8238e-06          
  1.15                  1.0134e-05            5.4e-13               5.42e-12              -1.013e-05           
  1.2                   1.14488e-05           6.4e-13               5.18e-12              -1.14436e-05         
  1.25                  1.2778e-05            3.8e-13               4.8e-12               -1.2756e-05          
  1.3                   1.4102e-05            4.8e-13               5.64e-12              -1.4082e-05          
  1.35                  1.5418e-05            4.8e-13               5.66e-12              -1.5398e-05          
  1.4                   1.6724e-05            5.6e-13               5.2e-12               -1.6706e-05          
  1.45                  1.8024e-05            4.8e-13               4.72e-12              -1.8004e-05          
  1.5                   1.9316e-05            6e-13                 5.28e-12              -1.9296e-05          
  1.55                  2.0588e-05            4.8e-13               5.66e-12              -2.0568e-05          
  1.6                   2.1846e-05            5.4e-13               5.58e-12              -2.1826e-05          
  1.65                  2.3092e-05            5.6e-13               4.02e-12              -2.3074e-05          
  1.7                   2.432e-05             6.6e-13               4.56e-12              -2.43e-05            
  1.75                  2.5524e-05            5.8e-13               5.6e-12               -2.5502e-05          
  1.8                   2.6712e-05            6.4e-13               5.2e-12               -2.6692e-05          
  1.85                  2.7876e-05            6e-13                 4.42e-12              -2.7858e-05          
  1.9                   2.9024e-05            5.2e-13               4.14e-12              -2.9004e-05          
  1.95                  3.0146e-05            6.8e-13               4.96e-12              -3.0128e-05          
  2                     3.1252e-05            5.6e-13               5.84e-12              -3.1232e-05          
  2.05                  3.2332e-05            7e-13                 4.36e-12              -3.2312e-05          
  2.1                   3.3386e-05            6.6e-13               4.78e-12              -3.3366e-05          
  2.15                  3.442e-05             7.6e-13               4.78e-12              -3.44e-05            
  2.2                   3.5428e-05            7.4e-13               5.96e-12              -3.541e-05           
  2.25                  3.6416e-05            6.4e-13               4.7e-12               -3.6394e-05          
  2.3                   3.7368e-05            6e-13                 4.68e-12              -3.735e-05           
  2.35                  3.831e-05             6.6e-13               4.24e-12              -3.8292e-05          
  2.4                   3.9222e-05            5.8e-13               4.8e-12               -3.9202e-05          
  2.45                  4.011e-05             6.4e-13               4.84e-12              -4.0092e-05          
  2.5                   4.098e-05             6.6e-13               3.86e-12              -4.0956e-05          
  2.55                  4.1814e-05            6.2e-13               4.72e-12              -4.1794e-05          
  2.6                   4.2632e-05            6.8e-13               4.2e-12               -4.2616e-05          
  2.65                  4.3424e-05            6.8e-13               5.06e-12              -4.3402e-05          
  2.7                   4.4186e-05            7e-13                 4.44e-12              -4.4168e-05          
  2.75                  4.4938e-05            7e-13                 3.28e-12              -4.4914e-05          
  2.8                   4.5658e-05            7e-13                 3.82e-12              -4.5636e-05          
  2.85                  4.6358e-05            7.4e-13               5.08e-12              -4.6342e-05          
  2.9                   4.7038e-05            7.8e-13               4.4e-12               -4.7018e-05          
  2.95                  4.7696e-05            7.2e-13               3.64e-12              -4.7674e-05          
  3                     4.8324e-05            7.2e-13               3.6e-12               -4.8304e-05          
  3.05                  4.8938e-05            8e-13                 4.72e-12              -4.8924e-05          
  3.1                   4.9534e-05            7e-13                 4.4e-12               -4.9514e-05          
  3.15                  5.0106e-05            7.8e-13               3.54e-12              -5.0086e-05          
  3.2                   5.0658e-05            6.6e-13               4.08e-12              -5.0638e-05          
  3.25                  5.1188e-05            8.6e-13               3.94e-12              -5.1168e-05          
  3.3                   5.1702e-05            7.4e-13               4.38e-12              -5.1682e-05          
  3.35                  5.2194e-05            7e-13                 3.5e-12               -5.2174e-05          
  3.4                   5.267e-05             8e-13                 3.38e-12              -5.2648e-05          
  3.45                  5.3124e-05            6.4e-13               4.04e-12              -5.3104e-05          
  3.5                   5.3564e-05            6.8e-13               4.26e-12              -5.3544e-05          
  3.55                  5.3986e-05            8e-13                 3.48e-12              -5.3966e-05          
  3.6                   5.4396e-05            7.2e-13               3.76e-12              -5.4372e-05          
END_DB

BEGIN_DB
 ICCAP_VAR vb         -0.9           
 ICCAP_VAR vd         0.1            
 ICCAP_VAR vs         0              

 #vg                    id                    ig                    ib                    is                   
  -0.5                  2.2e-13               -4.4e-13              -9.22e-12             8e-14                
  -0.45                 1e-13                 -3.2e-13              -9.14e-12             2e-14                
  -0.4                  1e-13                 -8e-14                -7.92e-12             1.8e-13              
  -0.35                 1.2e-13               -2.8e-13              -7.3e-12              1e-13                
  -0.3                  1.4e-13               0                     -6.06e-12             2e-14                
  -0.25                 1.6e-13               -6e-14                -5.2e-12              1e-13                
  -0.2                  1.8e-13               -2e-14                -4.58e-12             1.4e-13              
  -0.15                 1e-13                 2e-14                 -4.66e-12             -1e-13               
  -0.1                  1.6e-13               4e-14                 -4.66e-12             2.4e-13              
  -0.05                 4e-14                 1e-13                 -3.92e-12             4e-14                
  0                     1e-13                 2e-14                 -3.18e-12             3.4e-13              
  0.05                  1.2e-13               8e-14                 -1.8e-12              6e-14                
  0.1                   1e-13                 1.2e-13               -3e-12                2.6e-13              
  0.15                  1.4e-13               2e-13                 -3.14e-12             1.8e-13              
  0.2                   6e-14                 1.6e-13               -2.9e-12              1.2e-13              
  0.25                  0                     1.4e-13               -3.04e-12             3.8e-13              
  0.3                   -2e-14                2.6e-13               -9.8e-13              -4e-14               
  0.35                  2.2e-13               2.4e-13               -2.3e-12              2.2e-13              
  0.4                   4.8e-13               2.6e-13               -2.46e-12             -2.6e-13             
  0.45                  1.94e-12              3e-13                 -1.9e-12              -1.82e-12            
  0.5                   8.76e-12              1.8e-13               -1.6e-12              -8.74e-12            
  0.55                  4.07e-11              3.8e-13               -8.6e-13              -4.044e-11           
  0.6                   1.8696e-10            2.4e-13               -8.6e-13              -1.8678e-10          
  0.65                  8.5124e-10            3.4e-13               -1.78e-12             -8.5026e-10          
  0.7                   3.7268e-09            2.6e-13               -1.76e-12             -3.7308e-09          
  0.75                  1.5034e-08            3.6e-13               -5.6e-13              -1.5024e-08          
  0.8                   5.3304e-08            4.2e-13               -3.2e-13              -5.3626e-08          
  0.85                  1.5834e-07            3.8e-13               -1.22e-12             -1.5812e-07          
  0.9                   3.8636e-07            3.8e-13               -1.16e-12             -3.863e-07           
  0.95                  7.8972e-07            4.6e-13               -8.6e-13              -7.8942e-07          
  1                     1.3934e-06            2.6e-13               -8e-13                -1.389e-06           
  1.05                  2.1856e-06            3e-13                 -1.32e-12             -2.1816e-06          
  1.1                   3.1294e-06            4e-13                 -4e-13                -3.125e-06           
  1.15                  4.1912e-06            4.8e-13               4e-13                 -4.1882e-06          
  1.2                   5.3374e-06            4.2e-13               -1.16e-12             -5.3336e-06          
  1.25                  6.5392e-06            6e-13                 -1.04e-12             -6.5364e-06          
  1.3                   7.7848e-06            5e-13                 -4e-13                -7.7802e-06          
  1.35                  9.0486e-06            5.2e-13               0                     -9.042e-06           
  1.4                   1.03242e-05           5.4e-13               -8.6e-13              -1.03194e-05         
  1.45                  1.1616e-05            4.6e-13               -4.4e-13              -1.1594e-05          
  1.5                   1.2902e-05            4.8e-13               -2e-13                -1.288e-05           
  1.55                  1.418e-05             5e-13                 4e-14                 -1.416e-05           
  1.6                   1.5448e-05            4.8e-13               2.6e-13               -1.543e-05           
  1.65                  1.6712e-05            5e-13                 -4.8e-13              -1.6692e-05          
  1.7                   1.7962e-05            5e-13                 -8e-14                -1.7942e-05          
  1.75                  1.9194e-05            6e-13                 -1.2e-13              -1.9174e-05          
  1.8                   2.0414e-05            5.4e-13               9.6e-13               -2.0394e-05          
  1.85                  2.1612e-05            6.6e-13               -4.8e-13              -2.159e-05           
  1.9                   2.2796e-05            5e-13                 -6.6e-13              -2.2774e-05          
  1.95                  2.3954e-05            6.4e-13               -6e-14                -2.3938e-05          
  2                     2.5098e-05            4.4e-13               4e-13                 -2.5078e-05          
  2.05                  2.622e-05             6.2e-13               1.4e-13               -2.6202e-05          
  2.1                   2.7316e-05            5.4e-13               -2.6e-13              -2.7296e-05          
  2.15                  2.8394e-05            5.6e-13               -3e-13                -2.8374e-05          
  2.2                   2.9438e-05            6.4e-13               6.2e-13               -2.9422e-05          
  2.25                  3.0468e-05            6.8e-13               2e-13                 -3.0448e-05          
  2.3                   3.1468e-05            5.6e-13               -9.8e-13              -3.1446e-05          
  2.35                  3.2448e-05            7.4e-13               1.7e-12               -3.2428e-05          
  2.4                   3.34e-05              4.6e-13               -8e-14                -3.338e-05           
  2.45                  3.433e-05             8.2e-13               1.06e-12              -3.431e-05           
  2.5                   3.524e-05             5.4e-13               -3.8e-13              -3.5222e-05          
  2.55                  3.612e-05             6.8e-13               -2.6e-13              -3.61e-05            
  2.6                   3.6978e-05            6.8e-13               -1.2e-13              -3.6962e-05          
  2.65                  3.7816e-05            6.8e-13               1.06e-12              -3.7796e-05          
  2.7                   3.8622e-05            6.8e-13               -2.8e-13              -3.8604e-05          
  2.75                  3.9412e-05            6.4e-13               -3.2e-13              -3.9394e-05          
  2.8                   4.0176e-05            6.8e-13               2.2e-13               -4.0154e-05          
  2.85                  4.0916e-05            7.6e-13               9.2e-13               -4.0892e-05          
  2.9                   4.163e-05             6.8e-13               1.6e-13               -4.1612e-05          
  2.95                  4.2326e-05            7.2e-13               -1.2e-13              -4.2306e-05          
  3                     4.2998e-05            7.4e-13               -1e-13                -4.2978e-05          
  3.05                  4.3646e-05            8.6e-13               6.8e-13               -4.3626e-05          
  3.1                   4.4278e-05            6.8e-13               7.2e-13               -4.4258e-05          
  3.15                  4.4888e-05            8.2e-13               -8e-14                -4.4868e-05          
  3.2                   4.547e-05             7e-13                 1.2e-13               -4.5448e-05          
  3.25                  4.6036e-05            7.8e-13               -2.54e-12             -4.6014e-05          
  3.3                   4.6588e-05            7.6e-13               1.16e-12              -4.6566e-05          
  3.35                  4.7114e-05            7.6e-13               3.6e-13               -4.7092e-05          
  3.4                   4.7622e-05            7.2e-13               -5.4e-13              -4.7602e-05          
  3.45                  4.811e-05             7.4e-13               -2.4e-13              -4.8092e-05          
