! VERSION = 6.00
BEGIN_HEADER
 ICCAP_INPUTS
  vd         V  D GROUND SMU1 0.1 LIN        1    0          3.6        37   0.1       
  vg         V  G GROUND SMU2 0.001 LIN        2    1.392      3.6        5    0.552     
  vb         V  B GROUND SMU4 0.1 CON        -3.6
  vs         V  S GROUND SMU3 0.1 CON        0
 ICCAP_OUTPUTS
  id         I  D GROUND SMU1 B
  ig         I  G GROUND SMU2 B
  ib         I  B GROUND SMU4 B
  is         I  S GROUND SMU3 B
 ICCAP_VALUES
  MASTER_SETUP_TYPE "~dc_idvd~"
  LINVT_VALUE "|idvg|100.0n|100.0m|1.000m|5|3.600|"
  LISTVT_VALUE ""
  TYPE "1"
  TEMP " 27.0000 "
  IS_TNOM " 1.00000 "
  MAIN.W "10.00u"
  MAIN.L "500.0n"
  MAIN.AD "3.400p"
  MAIN.AS "3.400p"
  MAIN.PD "20.68u"
  MAIN.PS "20.68u"
  MAIN.NF "1.000"
  MAIN.M "1"
  MAIN.NRD "0.000"
  MAIN.NRS "0.000"
  MAIN.LDRIFT1 "1E-06"
  MAIN.LDRIFT2 "1E-06"
  MAIN.SA "0.000"
  MAIN.SB "0.000"
  MAIN.SD "0.000"
  MAIN.SCA "0.000"
  MAIN.SCB "0.000"
  MAIN.SCC "0.000"
  MAIN.SC "0.000"
  MODULE "S556"
  PIN_D "14"
  PIN_G "7"
  PIN_S "8"
  PIN_B "13"
  PIN_E ""
  PIN_6 ""
  XY_ID ""
  FUNC "Short"
  STI "SA ref"
  WPE "WPE ref"
  COMMENT ""
  DIS_MEAS ""
  TypeTCI "10"
END_HEADER

BEGIN_DB
 ICCAP_VAR vg         1.392          
 ICCAP_VAR vb         -3.6           
 ICCAP_VAR vs         0              

 #vd                    id                    ig                    ib                    is                   
  0                     3.6818e-09            6e-13                 -4.452e-11            -2.9512e-09          
  0.1                   4.1452e-06            4.4e-13               -3.46e-11             -4.143e-06           
  0.2                   5.3262e-06            4.6e-13               -3.42e-11             -5.3128e-06          
  0.3                   6.024e-06             4e-13                 -3.234e-11            -6.0202e-06          
  0.4                   6.6036e-06            5.6e-13               -3.022e-11            -6.5988e-06          
  0.5                   7.1308e-06            4.8e-13               -2.986e-11            -7.1296e-06          
  0.6                   7.6344e-06            3.2e-13               -2.882e-11            -7.6292e-06          
  0.7                   8.1216e-06            1.6e-13               -2.664e-11            -8.1084e-06          
  0.8                   8.587e-06             1e-13                 -2.674e-11            -8.5828e-06          
  0.9                   9.0644e-06            2.2e-13               -2.588e-11            -9.0692e-06          
  1                     9.5374e-06            3.4e-13               -2.428e-11            -9.5272e-06          
  1.1                   1.00212e-05           3.2e-13               -2.356e-11            -1.00142e-05         
  1.2                   1.05386e-05           2.8e-13               -2.32e-11             -1.0504e-05          
  1.3                   1.0992e-05            4e-13                 -2.276e-11            -1.09768e-05         
  1.4                   1.1488e-05            2.6e-13               -2.344e-11            -1.14796e-05         
  1.5                   1.1986e-05            2.4e-13               -2.756e-11            -1.197e-05           
  1.6                   1.2494e-05            1.6e-13               -4.33e-11             -1.247e-05           
  1.7                   1.3002e-05            1.4e-13               -8.846e-11            -1.2966e-05          
  1.8                   1.3508e-05            1.6e-13               -1.9912e-10           -1.3488e-05          
  1.9                   1.4038e-05            3e-13                 -4.3698e-10           -1.4016e-05          
  2                     1.4564e-05            4e-14                 -9.0552e-10           -1.4552e-05          
  2.1                   1.5096e-05            2.2e-13               -1.765e-09            -1.5076e-05          
  2.2                   1.566e-05             1.6e-13               -3.2402e-09           -1.5624e-05          
  2.3                   1.6234e-05            3.2e-13               -5.6524e-09           -1.6202e-05          
  2.4                   1.6832e-05            3.4e-13               -9.4258e-09           -1.6794e-05          
  2.5                   1.7432e-05            1.6e-13               -1.5106e-08           -1.7384e-05          
  2.6                   1.8016e-05            6e-14                 -2.3464e-08           -1.7974e-05          
  2.7                   1.863e-05             1.2e-13               -3.5466e-08           -1.858e-05           
  2.8                   1.9266e-05            2.4e-13               -5.2376e-08           -1.9186e-05          
  2.9                   1.991e-05             2.4e-13               -7.597e-08            -1.9818e-05          
  3                     2.0606e-05            1.2e-13               -1.08336e-07          -2.0442e-05          
  3.1                   2.1238e-05            2e-13                 -1.5188e-07           -2.112e-05           
  3.2                   2.198e-05             2e-14                 -2.1046e-07           -2.1734e-05          
  3.3                   2.2714e-05            3e-13                 -2.8748e-07           -2.239e-05           
  3.4                   2.3452e-05            3.4e-13               -3.8668e-07           -2.3e-05             
  3.5                   2.4262e-05            4.4e-13               -5.1734e-07           -2.3722e-05          
  3.6                   2.5032e-05            2.8e-13               -6.7976e-07           -2.4356e-05          
END_DB

BEGIN_DB
 ICCAP_VAR vg         1.944          
 ICCAP_VAR vb         -3.6           
 ICCAP_VAR vs         0              

 #vd                    id                    ig                    ib                    is                   
  0                     9.835e-08             3e-13                 -1.002e-11            -7.9138e-08          
  0.1                   0.00016244            6e-13                 -9.68e-12             -0.00016202          
  0.2                   0.0002832             3e-13                 -9.48e-12             -0.00028284          
  0.3                   0.00036596            2.6e-13               -1.104e-11            -0.00036558          
  0.4                   0.00041998            1.6e-13               -9.18e-12             -0.00041958          
  0.5                   0.00045464            2.6e-13               -8.92e-12             -0.00045424          
  0.6                   0.00047782            3.4e-13               -1.042e-11            -0.0004774           
  0.7                   0.00049442            2.8e-13               -9.14e-12             -0.00049394          
  0.8                   0.0005072             3e-13                 -8.7e-12              -0.00050682          
  0.9                   0.00051764            1.6e-13               -9.9e-12              -0.00051728          
  1                     0.00052666            2.2e-13               -9.1e-12              -0.00052642          
  1.1                   0.00053504            3.2e-13               -8.26e-12             -0.00053478          
  1.2                   0.0005428             1.4e-13               -9.54e-12             -0.00054216          
  1.3                   0.00054962            3.2e-13               -9.02e-12             -0.0005492           
  1.4                   0.00055632            4.2e-13               -9.82e-12             -0.00055582          
  1.5                   0.00056268            2.2e-13               -1.778e-11            -0.00056224          
  1.6                   0.0005688             -2e-14                -4.304e-11            -0.0005684           
  1.7                   0.0005749             4e-13                 -1.3514e-10           -0.00057448          
  1.8                   0.00058068            2.8e-13               -4.1286e-10           -0.00058032          
  1.9                   0.0005863             3e-13                 -1.1628e-09           -0.000586            
  2                     0.00059174            8e-14                 -2.9878e-09           -0.00059146          
  2.1                   0.00059726            3.2e-13               -7.0304e-09           -0.00059694          
  2.2                   0.00060266            1.2e-13               -1.525e-08            -0.00060232          
  2.3                   0.0006079             2.4e-13               -3.0754e-08           -0.00060756          
  2.4                   0.00061318            4e-13                 -5.8106e-08           -0.00061256          
  2.5                   0.00061816            3.4e-13               -1.03872e-07          -0.00061766          
  2.6                   0.00062316            2.8e-13               -1.7662e-07           -0.0006223           
  2.7                   0.00062788            4e-13                 -2.8788e-07           -0.00062708          
  2.8                   0.00063274            6.4e-13               -4.5256e-07           -0.0006316           
  2.9                   0.0006375             1e-12                 -6.897e-07            -0.00063596          
  3                     0.00064178            1.42e-12              -1.02282e-06          -0.00063978          
  3.1                   0.00064528            2.24e-12              -1.485e-06            -0.00064266          
  3.2                   0.00064956            2.62e-12              -2.1142e-06           -0.00064608          
  3.3                   0.00065378            3.56e-12              -2.9526e-06           -0.00064948          
  3.4                   0.00065756            5.06e-12              -4.0692e-06           -0.000652            
  3.5                   0.0006621             6.62e-12              -5.533e-06            -0.00065522          
  3.6                   0.00066684            8.62e-12              -7.4088e-06           -0.00065712          
END_DB

BEGIN_DB
 ICCAP_VAR vg         2.496          
 ICCAP_VAR vb         -3.6           
 ICCAP_VAR vs         0              

 #vd                    id                    ig                    ib                    is                   
  0                     1.5852e-07            6e-13                 -6.3e-12              -5.414e-08           
  0.1                   0.0003276             4e-13                 -6.08e-12             -0.0003272           
  0.2                   0.00061694            2.4e-13               -6.02e-12             -0.00061654          
  0.3                   0.00086042            4.4e-13               -6.32e-12             -0.00086             
  0.4                   0.00105704            2.4e-13               -6.68e-12             -0.00105664          
  0.5                   0.0012102             3e-13                 -7.06e-12             -0.001208            
  0.6                   0.0013238             2.2e-13               -5.6e-12              -0.001322            
  0.7                   0.0014072             1.8e-13               -5.96e-12             -0.001405            
  0.8                   0.0014672             5e-13                 -7.04e-12             -0.0014652           
  0.9                   0.001511              5.2e-13               -5.16e-12             -0.0015088           
  1                     0.0015434             2.6e-13               -6.04e-12             -0.0015414           
  1.1                   0.0015684             1e-13                 -6.62e-12             -0.0015662           
  1.2                   0.0015884             4.2e-13               -4.76e-12             -0.0015862           
  1.3                   0.001605              2e-13                 -6.64e-12             -0.001603            
  1.4                   0.0016192             1.6e-13               -5.86e-12             -0.0016172           
  1.5                   0.0016322             1.4e-13               -6.9e-12              -0.00163             
  1.6                   0.0016436             5.4e-13               -1.624e-11            -0.0016416           
  1.7                   0.0016542             1.4e-13               -4.258e-11            -0.0016522           
  1.8                   0.001664              0                     -1.3452e-10           -0.0016618           
  1.9                   0.0016732             2.4e-13               -4.1648e-10           -0.0016714           
  2                     0.0016822             2.6e-13               -1.1788e-09           -0.0016802           
  2.1                   0.0016906             1.6e-13               -3.0748e-09           -0.0016886           
  2.2                   0.0016986             2.2e-13               -7.3908e-09           -0.0016966           
  2.3                   0.0017066             1.2e-13               -1.6502e-08           -0.0017046           
  2.4                   0.0017142             4e-13                 -3.4394e-08           -0.001712            
  2.5                   0.0017214             3.4e-13               -6.751e-08            -0.0017192           
  2.6                   0.0017288             6.2e-13               -1.2544e-07           -0.0017264           
  2.7                   0.0017354             9.4e-13               -2.2142e-07           -0.0017328           
  2.8                   0.0017422             1e-12                 -3.743e-07            -0.0017396           
  2.9                   0.0017482             1.64e-12              -6.0912e-07           -0.0017454           
  3                     0.0017548             2.78e-12              -9.6008e-07           -0.0017512           
  3.1                   0.0017606             4.16e-12              -1.4698e-06           -0.0017556           
  3.2                   0.0017652             5.76e-12              -2.188e-06            -0.00176             
  3.3                   0.0017706             8.08e-12              -3.1798e-06           -0.001764            
  3.4                   0.0017758             1.16e-11              -4.548e-06            -0.001767            
  3.5                   0.00178               1.598e-11             -6.3872e-06           -0.0017696           
  3.6                   0.001785              2.138e-11             -8.8336e-06           -0.0017724           
END_DB

BEGIN_DB
 ICCAP_VAR vg         3.048          
 ICCAP_VAR vb         -3.6           
 ICCAP_VAR vs         0              

 #vd                    id                    ig                    ib                    is                   
  0                     1.7192e-07            5e-13                 -3.6e-12              -1.5556e-07          
  0.1                   0.00044056            4.4e-13               -3.18e-12             -0.00044016          
  0.2                   0.0008499             2.8e-13               -5.56e-12             -0.0008495           
  0.3                   0.0012184             2.6e-13               -5.42e-12             -0.0012162           
  0.4                   0.0015398             2e-13                 -4.72e-12             -0.0015376           
  0.5                   0.0018124             2.6e-13               -3.62e-12             -0.0018104           
  0.6                   0.0020378             1.6e-13               -5.64e-12             -0.002036            
  0.7                   0.0022208             2.6e-13               -5.24e-12             -0.0022188           
  0.8                   0.0023662             4.2e-13               -4.2e-12              -0.002364            
  0.9                   0.0024794             2.6e-13               -5.46e-12             -0.0024774           
  1                     0.002567              1.8e-13               -5.2e-12              -0.002565            
  1.1                   0.0026344             4e-14                 -4.36e-12             -0.0026322           
  1.2                   0.002686              3e-13                 -5.1e-12              -0.002684            
  1.3                   0.0027264             3e-13                 -4.08e-12             -0.0027244           
  1.4                   0.0027584             2.6e-13               -4.32e-12             -0.0027562           
  1.5                   0.002784              2.6e-13               -5.64e-12             -0.0027818           
  1.6                   0.0028054             2.2e-13               -5.84e-12             -0.0028034           
  1.7                   0.0028234             2.8e-13               -1.172e-11            -0.0028214           
  1.8                   0.0028394             1.2e-13               -3.376e-11            -0.0028374           
  1.9                   0.0028534             2.4e-13               -1.042e-10            -0.0028516           
  2                     0.0028664             4e-13                 -3.2092e-10           -0.0028644           
  2.1                   0.0028782             1.6e-13               -9.1678e-10           -0.002876            
  2.2                   0.002889              1.6e-13               -2.4176e-09           -0.0028868           
  2.3                   0.0028992             1.4e-13               -5.8926e-09           -0.002897            
  2.4                   0.0029088             4.2e-13               -1.3366e-08           -0.0029068           
  2.5                   0.0029178             3.6e-13               -2.8394e-08           -0.0029156           
  2.6                   0.0029264             5.2e-13               -5.685e-08            -0.0029242           
  2.7                   0.0029346             7e-13                 -1.0764e-07           -0.0029322           
  2.8                   0.0029422             1.02e-12              -1.9424e-07           -0.0029396           
  2.9                   0.0029496             1.82e-12              -3.3572e-07           -0.0029468           
  3                     0.0029564             3.04e-12              -5.5862e-07           -0.0029534           
  3.1                   0.0029628             4.48e-12              -8.989e-07            -0.0029594           
  3.2                   0.0029686             6.72e-12              -1.4034e-06           -0.0029636           
  3.3                   0.0029732             1.006e-11             -2.1328e-06           -0.0029678           
  3.4                   0.0029784             1.48e-11              -3.157e-06            -0.002972            
  3.5                   0.0029838             2.108e-11             -4.588e-06            -0.0029752           
  3.6                   0.0029886             2.984e-11             -6.5438e-06           -0.0029778           
END_DB

BEGIN_DB
 ICCAP_VAR vg         3.6            
 ICCAP_VAR vb         -3.6           
 ICCAP_VAR vs         0              

 #vd                    id                    ig                    ib                    is                   
  0                     1.8582e-07            6.4e-13               -4.02e-12             -1.7254e-07          
  0.1                   0.00051552            4e-13                 -4.16e-12             -0.00051512          
  0.2                   0.0010062             3.6e-13               -4.38e-12             -0.0010058           
  0.3                   0.0014618             2.8e-13               -4.14e-12             -0.0014598           
  0.4                   0.001875              3.4e-13               -3.06e-12             -0.001873            
  0.5                   0.0022426             2.6e-13               -4.08e-12             -0.0022406           
  0.6                   0.0025632             4e-13                 -3.88e-12             -0.0025612           
  0.7                   0.0028392             1.8e-13               -3.9e-12              -0.002837            
  0.8                   0.0030728             1.8e-13               -3.78e-12             -0.0030706           
