! VERSION = 6.00
BEGIN_HEADER
 ICCAP_INPUTS
  vd         V  D GROUND SMU1 0.1 LIN        1    0          3.6        37   0.1       
  vg         V  G GROUND SMU2 0.001 LIST       2 3 0.306 0.506 0.706
  vb         V  B GROUND SMU4 0.1 CON        0
  vs         V  S GROUND SMU3 0.1 CON        0
 ICCAP_OUTPUTS
  id         I  D GROUND SMU1 B
  ig         I  G GROUND SMU2 B
  ib         I  B GROUND SMU4 B
  is         I  S GROUND SMU3 B
 ICCAP_VALUES
  MASTER_SETUP_TYPE "~dc_idvd~"
  LINVT_VALUE ""
  LISTVT_VALUE "|idvg|100.0n|-200.0m|1.000m|3|200.0m|200.0m|"
  TYPE "1"
  TEMP " 27.0000 "
  IS_TNOM " 1.00000 "
  MAIN.W "10.00u"
  MAIN.L "350.0n"
  MAIN.AD "3.400p"
  MAIN.AS "3.400p"
  MAIN.PD "20.68u"
  MAIN.PS "20.68u"
  MAIN.NF "1.000"
  MAIN.M "1"
  MAIN.NRD "0.000"
  MAIN.NRS "0.000"
  MAIN.LDRIFT1 "1E-06"
  MAIN.LDRIFT2 "1E-06"
  MAIN.SA "0.000"
  MAIN.SB "0.000"
  MAIN.SD "0.000"
  MAIN.SCA "0.000"
  MAIN.SCB "0.000"
  MAIN.SCC "0.000"
  MAIN.SC "0.000"
  MODULE "S556"
  PIN_D "16"
  PIN_G "5"
  PIN_S "6"
  PIN_B "15"
  PIN_E ""
  PIN_6 ""
  XY_ID ""
  FUNC "Additional"
  STI "SA ref"
  WPE "WPE ref"
  COMMENT ""
  DIS_MEAS ""
  TypeTCI "10"
END_HEADER

BEGIN_DB
 ICCAP_VAR vg         0.306          
 ICCAP_VAR vb         0              
 ICCAP_VAR vs         0              

 #vd                    id                    ig                    ib                    is                   
  0                     7.26e-12              -5e-13                2.72e-12              -3.7e-12             
  0.1                   3.1158e-09            -5.4e-13              2.78e-12              -3.1114e-09          
  0.2                   3.7902e-09            -3.4e-13              2.54e-12              -3.7892e-09          
  0.3                   4.4278e-09            -4.8e-13              1.14e-12              -4.4264e-09          
  0.4                   5.109e-09             -3e-13                1.86e-12              -5.105e-09           
  0.5                   5.844e-09             -4e-13                1.52e-12              -5.84e-09            
  0.6                   6.6424e-09            -3.6e-13              2.18e-12              -6.6434e-09          
  0.7                   7.5302e-09            -2.6e-13              1.86e-12              -7.5248e-09          
  0.8                   8.499e-09             -3.4e-13              1.1e-12               -8.4936e-09          
  0.9                   9.5564e-09            -4.2e-13              1.3e-12               -9.5512e-09          
  1                     1.07288e-08           -2.4e-13              1.58e-12              -1.07216e-08         
  1.1                   1.203e-08             -3.6e-13              1.9e-12               -1.1994e-08          
  1.2                   1.3434e-08            -2.8e-13              1.24e-12              -1.341e-08           
  1.3                   1.4982e-08            -2.8e-13              1.44e-12              -1.4952e-08          
  1.4                   1.6684e-08            -3e-13                1.76e-12              -1.6672e-08          
  1.5                   1.8554e-08            -3e-13                1.3e-12               -1.8524e-08          
  1.6                   2.0594e-08            -2.2e-13              -2.4e-13              -2.056e-08           
  1.7                   2.2806e-08            -2e-13                -3.58e-12             -2.278e-08           
  1.8                   2.524e-08             -2.6e-13              -7.74e-12             -2.521e-08           
  1.9                   2.7872e-08            -2.8e-13              -1.334e-11            -2.7862e-08          
  2                     3.08e-08              -4.4e-13              -2.556e-11            -3.0756e-08          
  2.1                   3.394e-08             -3.2e-13              -4.32e-11             -3.387e-08           
  2.2                   3.735e-08             -2e-13                -6.93e-11             -3.7278e-08          
  2.3                   4.1066e-08            -1.8e-13              -1.0704e-10           -4.094e-08           
  2.4                   4.5092e-08            -2.6e-13              -1.64e-10             -4.4838e-08          
  2.5                   4.9514e-08            -1.6e-13              -2.4692e-10           -4.8998e-08          
  2.6                   5.4272e-08            -2.4e-13              -3.6504e-10           -5.3914e-08          
  2.7                   5.9512e-08            -1.6e-13              -5.3278e-10           -5.8978e-08          
  2.8                   6.5322e-08            -2.6e-13              -7.6012e-10           -6.4508e-08          
  2.9                   7.1524e-08            -2.6e-13              -1.077e-09            -7.0398e-08          
  3                     7.8374e-08            -2e-13                -1.5068e-09           -7.6826e-08          
  3.1                   8.5898e-08            -2.8e-13              -2.078e-09            -8.3772e-08          
  3.2                   9.424e-08             -2.4e-13              -2.8348e-09           -9.1372e-08          
  3.3                   1.03492e-07           -2.4e-13              -3.82e-09             -9.9894e-08          
  3.4                   1.139e-07             -3e-13                -5.0856e-09           -1.08894e-07         
  3.5                   1.254e-07             -2.4e-13              -6.6782e-09           -1.1856e-07          
  3.6                   1.38e-07              -1.8e-13              -8.6876e-09           -1.291e-07           
END_DB

BEGIN_DB
 ICCAP_VAR vg         0.506          
 ICCAP_VAR vb         0              
 ICCAP_VAR vs         0              

 #vd                    id                    ig                    ib                    is                   
  0                     5.9114e-10            1.2e-13               2.3e-12               -6.1414e-10          
  0.1                   5.7532e-07            -4e-14                2.52e-12              -5.7178e-07          
  0.2                   7.2508e-07            -6e-14                1.12e-12              -7.2516e-07          
  0.3                   8.5712e-07            -4e-14                1.1e-12               -8.5566e-07          
  0.4                   9.9142e-07            2e-14                 2.3e-12               -9.8988e-07          
  0.5                   1.1269e-06            1.2e-13               1.88e-12              -1.1275e-06          
  0.6                   1.2728e-06            -4e-14                1.62e-12              -1.2678e-06          
  0.7                   1.4242e-06            -1e-13                2.28e-12              -1.421e-06           
  0.8                   1.582e-06             -1.6e-13              1.3e-12               -1.5762e-06          
  0.9                   1.7608e-06            -1.2e-13              1.08e-12              -1.7464e-06          
  1                     1.927e-06             -1e-13                9.6e-13               -1.918e-06           
  1.1                   2.1052e-06            -1.8e-13              0                     -2.1076e-06          
  1.2                   2.2984e-06            -2.2e-13              -4e-14                -2.2934e-06          
  1.3                   2.504e-06             -6e-14                -3.34e-12             -2.506e-06           
  1.4                   2.7142e-06            -1e-13                -1.658e-11            -2.709e-06           
  1.5                   2.9392e-06            -1.2e-13              -4.998e-11            -2.938e-06           
  1.6                   3.1796e-06            -1e-13                -1.2426e-10           -3.1736e-06          
  1.7                   3.445e-06             -1.2e-13              -2.7876e-10           -3.4264e-06          
  1.8                   3.693e-06             -1e-13                -5.6788e-10           -3.6898e-06          
  1.9                   3.9782e-06            -2e-14                -1.0722e-09           -3.9814e-06          
  2                     4.2836e-06            2e-14                 -1.9086e-09           -4.2744e-06          
  2.1                   4.59e-06              -1.4e-13              -3.2266e-09           -4.578e-06           
  2.2                   4.9168e-06            -1.6e-13              -5.2524e-09           -4.92e-06            
  2.3                   5.2712e-06            6e-14                 -8.259e-09            -5.2646e-06          
  2.4                   5.637e-06             -1.4e-13              -1.2642e-08           -5.62e-06            
  2.5                   6.014e-06             -8e-14                -1.8924e-08           -5.9882e-06          
  2.6                   6.4214e-06            -2.6e-13              -2.7798e-08           -6.387e-06           
  2.7                   6.8408e-06            -4e-14                -4.013e-08            -6.799e-06           
  2.8                   7.291e-06             -4e-14                -5.7136e-08           -7.2316e-06          
  2.9                   7.7666e-06            -6e-14                -8.0174e-08           -7.6796e-06          
  3                     8.2708e-06            -1.4e-13              -1.11174e-07          -8.1534e-06          
  3.1                   8.806e-06             0                     -1.5196e-07           -8.6528e-06          
  3.2                   9.38e-06              -6e-14                -2.0528e-07           -9.1748e-06          
  3.3                   9.9968e-06            -1.4e-13              -2.7354e-07           -9.7232e-06          
  3.4                   1.06574e-05           -6e-14                -3.5996e-07           -1.02934e-05         
  3.5                   1.1376e-05            0                     -4.6748e-07           -1.08938e-05         
  3.6                   1.2128e-05            -6e-14                -6.001e-07            -1.15198e-05         
END_DB

BEGIN_DB
 ICCAP_VAR vg         0.706          
 ICCAP_VAR vb         0              
 ICCAP_VAR vs         0              

 #vd                    id                    ig                    ib                    is                   
  0                     1.6696e-08            1e-13                 3.06e-12              -1.5946e-08          
  0.1                   1.894e-05             8e-14                 2.26e-12              -1.8934e-05          
  0.2                   2.5626e-05            2e-14                 4.42e-12              -2.5602e-05          
  0.3                   2.9616e-05            4e-14                 2.5e-12               -2.9602e-05          
  0.4                   3.2904e-05            2e-14                 9.2e-13               -3.2878e-05          
  0.5                   3.5836e-05            1.2e-13               1.12e-12              -3.5814e-05          
  0.6                   3.8594e-05            0                     1.62e-12              -3.855e-05           
  0.7                   4.1258e-05            1e-13                 4e-13                 -4.1252e-05          
  0.8                   4.3866e-05            -2e-14                6.8e-13               -4.382e-05           
  0.9                   4.6434e-05            -2e-14                1.28e-12              -4.6426e-05          
  1                     4.9072e-05            -6e-14                8.2e-13               -4.9038e-05          
  1.1                   5.1586e-05            4e-14                 7.2e-13               -5.1568e-05          
  1.2                   5.4124e-05            -4e-14                -3.44e-12             -5.4136e-05          
  1.3                   5.668e-05             0                     -2.326e-11            -5.6676e-05          
  1.4                   5.928e-05             -4e-14                -9.574e-11            -5.9256e-05          
  1.5                   6.1878e-05            4e-14                 -3.204e-10            -6.1884e-05          
  1.6                   6.4546e-05            -4e-14                -8.976e-10            -6.4538e-05          
  1.7                   6.7208e-05            -4e-14                -2.1868e-09           -6.7224e-05          
  1.8                   6.9882e-05            2e-14                 -4.7728e-09           -6.986e-05           
  1.9                   7.2578e-05            6e-14                 -9.5118e-09           -7.26e-05            
  2                     7.5388e-05            4e-14                 -1.7566e-08           -7.5362e-05          
  2.1                   7.8198e-05            -8e-14                -3.0538e-08           -7.8206e-05          
  2.2                   8.1084e-05            -4e-14                -5.052e-08            -8.1062e-05          
  2.3                   8.4008e-05            4e-14                 -8.0094e-08           -8.3886e-05          
  2.4                   8.6942e-05            -1e-13                -1.2278e-07           -8.681e-05           
  2.5                   8.9988e-05            -6e-14                -1.8332e-07           -8.9772e-05          
  2.6                   9.305e-05             -1.4e-13              -2.675e-07            -9.2754e-05          
  2.7                   9.6188e-05            -2e-14                -3.8268e-07           -9.5754e-05          
  2.8                   9.9396e-05            0                     -5.3874e-07           -9.8874e-05          
  2.9                   0.000102756           2e-14                 -7.467e-07            -0.00010199          
  3                     0.000106222           -8e-14                -1.02244e-06          -0.00010517          
  3.1                   0.00011004            -2e-14                -1.3804e-06           -0.000108508         
  3.2                   0.0001138             -1.6e-13              -1.841e-06            -0.000111812         
  3.3                   0.00011774            0                     -2.4236e-06           -0.000115186         
  3.4                   0.00012204            -6e-14                -3.1528e-06           -0.00011846          
  3.5                   0.00012648            -1e-13                -4.0492e-06           -0.00012198          
  3.6                   0.00013122            -1e-13                -5.1348e-06           -0.00012572          
END_DB

