! VERSION = 6.00
BEGIN_HEADER
 ICCAP_INPUTS
  vd         V  D GROUND SMU1 0.1 LIN        1    0          3.6        37   0.1       
  vg         V  G GROUND SMU2 0.001 LIN        2    0.636      3.6        5    0.741     
  vb         V  B GROUND SMU4 0.1 CON        0
  vs         V  S GROUND SMU3 0.1 CON        0
 ICCAP_OUTPUTS
  id         I  D GROUND SMU1 B
  ig         I  G GROUND SMU2 B
  ib         I  B GROUND SMU4 B
  is         I  S GROUND SMU3 B
 ICCAP_VALUES
  MASTER_SETUP_TYPE "~dc_idvd~"
  LINVT_VALUE "|idvg|100.0n|100.0m|1.000m|5|3.600|"
  LISTVT_VALUE ""
  TYPE "1"
  TEMP " 125.000 "
  IS_TNOM " 0.00000 "
  MAIN.W "300.0n"
  MAIN.L "500.0n"
  MAIN.AD "102.0f"
  MAIN.AS "102.0f"
  MAIN.PD "1.280u"
  MAIN.PS "1.280u"
  MAIN.NF "1.000"
  MAIN.M "1"
  MAIN.NRD "0.000"
  MAIN.NRS "0.000"
  MAIN.LDRIFT1 "1E-06"
  MAIN.LDRIFT2 "1E-06"
  MAIN.SA "0.000"
  MAIN.SB "0.000"
  MAIN.SD "0.000"
  MAIN.SCA "0.000"
  MAIN.SCB "0.000"
  MAIN.SCC "0.000"
  MAIN.SC "0.000"
  MODULE "S560"
  PIN_D "14"
  PIN_G "7"
  PIN_S "8"
  PIN_B "13"
  PIN_E ""
  PIN_6 ""
  XY_ID ""
  FUNC "Small"
  STI "SA ref"
  WPE "WPE ref"
  COMMENT ""
  DIS_MEAS ""
  TypeTCI "10"
END_HEADER

BEGIN_DB
 ICCAP_VAR vg         0.636          
 ICCAP_VAR vb         0              
 ICCAP_VAR vs         0              

 #vd                    id                    ig                    ib                    is                   
  0                     1.6794e-10            1e-13                 8.112e-11             -1.1474e-10          
  0.1                   1.706e-07             -1e-13                7.486e-11             -1.7054e-07          
  0.2                   2.0314e-07            -3e-13                6.982e-11             -2.0314e-07          
  0.3                   2.1534e-07            -4.2e-13              6.722e-11             -2.1526e-07          
  0.4                   2.2402e-07            -2.2e-13              6.616e-11             -2.24e-07            
  0.5                   2.3168e-07            -2.2e-13              6.334e-11             -2.3164e-07          
  0.6                   2.388e-07             -6e-14                6.064e-11             -2.3884e-07          
  0.7                   2.4552e-07            -1.6e-13              5.912e-11             -2.455e-07           
  0.8                   2.5194e-07            -1.6e-13              5.72e-11              -2.5164e-07          
  0.9                   2.5794e-07            -1.2e-13              5.578e-11             -2.5798e-07          
  1                     2.6402e-07            -6e-14                5.372e-11             -2.6392e-07          
  1.1                   2.699e-07             -2.4e-13              5.276e-11             -2.6988e-07          
  1.2                   2.756e-07             -1.6e-13              5.144e-11             -2.7572e-07          
  1.3                   2.8144e-07            -1.6e-13              4.874e-11             -2.8146e-07          
  1.4                   2.8698e-07            -2.2e-13              4.728e-11             -2.8702e-07          
  1.5                   2.9244e-07            -4e-14                4.538e-11             -2.925e-07           
  1.6                   2.981e-07             -2.8e-13              3.952e-11             -2.981e-07           
  1.7                   3.0344e-07            -2.6e-13              3.112e-11             -3.0354e-07          
  1.8                   3.0898e-07            -1e-13                1.832e-11             -3.089e-07           
  1.9                   3.144e-07             -6e-14                -3.22e-12             -3.1444e-07          
  2                     3.1984e-07            -4.6e-13              -3.934e-11            -3.1974e-07          
  2.1                   3.2528e-07            -2.2e-13              -9.126e-11            -3.2528e-07          
  2.2                   3.308e-07             -2.4e-13              -1.6696e-10           -3.3058e-07          
  2.3                   3.3622e-07            -4.4e-13              -2.7514e-10           -3.3592e-07          
  2.4                   3.4172e-07            -2.2e-13              -4.2554e-10           -3.4118e-07          
  2.5                   3.4724e-07            -6e-14                -6.2826e-10           -3.466e-07           
  2.6                   3.5312e-07            0                     -8.995e-10            -3.5224e-07          
  2.7                   3.5894e-07            -1.8e-13              -1.2574e-09           -3.5766e-07          
  2.8                   3.6484e-07            -4e-14                -1.724e-09            -3.631e-07           
  2.9                   3.7086e-07            -1.2e-13              -2.3232e-09           -3.6842e-07          
  3                     3.77e-07              -8e-14                -3.0912e-09           -3.7382e-07          
  3.1                   3.8338e-07            0                     -4.063e-09            -3.7948e-07          
  3.2                   3.9014e-07            -1e-13                -5.2744e-09           -3.8478e-07          
  3.3                   3.9702e-07            -8e-14                -6.7708e-09           -3.9032e-07          
  3.4                   4.0442e-07            -1e-13                -8.5994e-09           -3.9568e-07          
  3.5                   4.1206e-07            -4e-13                -1.08116e-08          -4.0124e-07          
  3.6                   4.2026e-07            -1.4e-13              -1.3454e-08           -4.068e-07           
END_DB

BEGIN_DB
 ICCAP_VAR vg         1.377          
 ICCAP_VAR vb         0              
 ICCAP_VAR vs         0              

 #vd                    id                    ig                    ib                    is                   
  0                     1.241e-09             5e-13                 2.674e-11             -1.107e-09           
  0.1                   4.5266e-06            4e-13                 2.624e-11             -4.5246e-06          
  0.2                   8.1358e-06            3.2e-13               2.448e-11             -8.1434e-06          
  0.3                   1.08476e-05           4e-13                 2.446e-11             -1.08482e-05         
  0.4                   1.2736e-05            3.4e-13               2.28e-11              -1.2736e-05          
  0.5                   1.3968e-05            4e-14                 2.426e-11             -1.3962e-05          
  0.6                   1.4736e-05            3.4e-13               2.286e-11             -1.4718e-05          
  0.7                   1.5216e-05            3.4e-13               2.246e-11             -1.5182e-05          
  0.8                   1.5552e-05            2.8e-13               2.246e-11             -1.5546e-05          
  0.9                   1.576e-05             2.6e-13               2.172e-11             -1.5778e-05          
  1                     1.5976e-05            2.2e-13               2.11e-11              -1.5988e-05          
  1.1                   1.6162e-05            0                     2.15e-11              -1.6166e-05          
  1.2                   1.6326e-05            8e-14                 2.012e-11             -1.6334e-05          
  1.3                   1.6486e-05            2.6e-13               2.17e-11              -1.648e-05           
  1.4                   1.6618e-05            1.8e-13               2.018e-11             -1.661e-05           
  1.5                   1.674e-05             1.2e-13               1.806e-11             -1.6732e-05          
  1.6                   1.6854e-05            2.8e-13               1.48e-11              -1.6844e-05          
  1.7                   1.6958e-05            1.4e-13               2.64e-12              -1.6952e-05          
  1.8                   1.704e-05             -6e-14                -2.646e-11            -1.7056e-05          
  1.9                   1.7162e-05            1.2e-13               -9.276e-11            -1.7142e-05          
  2                     1.726e-05             1.8e-13               -2.3436e-10           -1.7236e-05          
  2.1                   1.7354e-05            6e-14                 -5.104e-10            -1.7326e-05          
  2.2                   1.7454e-05            1.4e-13               -1.0044e-09           -1.7446e-05          
  2.3                   1.7536e-05            1e-13                 -1.8468e-09           -1.7534e-05          
  2.4                   1.7638e-05            1.8e-13               -3.1964e-09           -1.7608e-05          
  2.5                   1.7728e-05            6e-14                 -5.2672e-09           -1.7718e-05          
  2.6                   1.7818e-05            1.2e-13               -8.3296e-09           -1.7792e-05          
  2.7                   1.7914e-05            -6e-14                -1.2694e-08           -1.7894e-05          
  2.8                   1.7984e-05            4e-14                 -1.8802e-08           -1.7976e-05          
  2.9                   1.8086e-05            3.2e-13               -2.706e-08            -1.8054e-05          
  3                     1.8178e-05            1.8e-13               -3.8188e-08           -1.8134e-05          
  3.1                   1.828e-05             2e-14                 -5.2772e-08           -1.8224e-05          
  3.2                   1.8382e-05            0                     -7.1882e-08           -1.8306e-05          
  3.3                   1.8488e-05            -6e-14                -9.6322e-08           -1.8388e-05          
  3.4                   1.8602e-05            8e-14                 -1.2744e-07           -1.8468e-05          
  3.5                   1.8714e-05            -4e-14                -1.6656e-07           -1.8544e-05          
  3.6                   1.885e-05             -8e-14                -2.1532e-07           -1.8626e-05          
END_DB

BEGIN_DB
 ICCAP_VAR vg         2.118          
 ICCAP_VAR vb         0              
 ICCAP_VAR vs         0              

 #vd                    id                    ig                    ib                    is                   
  0                     1.5396e-09            9e-13                 1.55e-11              -1.5626e-09          
  0.1                   8.697e-06             5.6e-13               1.618e-11             -8.6934e-06          
  0.2                   1.6592e-05            4.4e-13               1.508e-11             -1.6584e-05          
  0.3                   2.3576e-05            5.2e-13               1.44e-11              -2.3564e-05          
  0.4                   2.9622e-05            3.2e-13               1.438e-11             -2.9614e-05          
  0.5                   3.4696e-05            5.6e-13               1.486e-11             -3.4696e-05          
  0.6                   3.8846e-05            3e-13                 1.442e-11             -3.8838e-05          
  0.7                   4.2084e-05            4.2e-13               1.364e-11             -4.2072e-05          
  0.8                   4.4572e-05            4.2e-13               1.472e-11             -4.4566e-05          
  0.9                   4.6428e-05            4.4e-13               1.288e-11             -4.6446e-05          
  1                     4.779e-05             4.8e-13               1.386e-11             -4.7736e-05          
  1.1                   4.8792e-05            2.6e-13               1.434e-11             -4.8772e-05          
  1.2                   4.9546e-05            2.6e-13               1.174e-11             -4.9514e-05          
  1.3                   5.0134e-05            3e-13                 1.356e-11             -5.014e-05           
  1.4                   5.06e-05              3.2e-13               1.358e-11             -5.064e-05           
  1.5                   5.1006e-05            2e-13                 1.2e-11               -5.1002e-05          
  1.6                   5.1408e-05            2e-13                 1.248e-11             -5.1412e-05          
  1.7                   5.1658e-05            3.4e-13               1.038e-11             -5.1664e-05          
  1.8                   5.2002e-05            2.2e-13               4.2e-12               -5.1976e-05          
  1.9                   5.228e-05             2.2e-13               -9.12e-12             -5.2254e-05          
  2                     5.2436e-05            3e-13                 -4.53e-11             -5.2482e-05          
  2.1                   5.2678e-05            1.8e-13               -1.2868e-10           -5.2636e-05          
  2.2                   5.285e-05             1.8e-13               -3.0426e-10           -5.2848e-05          
  2.3                   5.3076e-05            2.6e-13               -6.5212e-10           -5.3118e-05          
  2.4                   5.332e-05             2.8e-13               -1.3106e-09           -5.3324e-05          
  2.5                   5.3518e-05            3e-13                 -2.476e-09            -5.3472e-05          
  2.6                   5.369e-05             3.2e-13               -4.4156e-09           -5.3666e-05          
  2.7                   5.3858e-05            1.8e-13               -7.5434e-09           -5.378e-05           
  2.8                   5.4024e-05            2.2e-13               -1.2354e-08           -5.3946e-05          
  2.9                   5.4208e-05            4e-14                 -1.9466e-08           -5.4106e-05          
  3                     5.437e-05             3e-13                 -2.971e-08            -5.4298e-05          
  3.1                   5.4518e-05            4.6e-13               -4.414e-08            -5.444e-05           
  3.2                   5.4662e-05            3.2e-13               -6.4102e-08           -5.4628e-05          
  3.3                   5.4826e-05            2.4e-13               -9.0826e-08           -5.4802e-05          
  3.4                   5.5046e-05            4e-13                 -1.2624e-07           -5.4954e-05          
  3.5                   5.5294e-05            5.2e-13               -1.7296e-07           -5.5084e-05          
  3.6                   5.5496e-05            3.8e-13               -2.33e-07             -5.5248e-05          
END_DB

BEGIN_DB
 ICCAP_VAR vg         2.859          
 ICCAP_VAR vb         0              
 ICCAP_VAR vs         0              

 #vd                    id                    ig                    ib                    is                   
  0                     1.792e-09             9.8e-13               1.088e-11             -2.1808e-09          
  0.1                   1.181e-05             7e-13                 1.096e-11             -1.1798e-05          
  0.2                   2.2932e-05            7e-13                 1.042e-11             -2.2928e-05          
  0.3                   3.3246e-05            5.6e-13               1.038e-11             -3.324e-05           
  0.4                   4.2694e-05            5.4e-13               1.008e-11             -4.269e-05           
  0.5                   5.119e-05             5e-13                 1.046e-11             -5.1178e-05          
  0.6                   5.8688e-05            5.6e-13               1.034e-11             -5.8688e-05          
  0.7                   6.5216e-05            4.4e-13               9.12e-12              -6.5214e-05          
  0.8                   7.0792e-05            4.2e-13               1.004e-11             -7.0774e-05          
  0.9                   7.5444e-05            5.6e-13               9.44e-12              -7.5442e-05          
  1                     7.9308e-05            4.6e-13               9.8e-12               -7.9296e-05          
  1.1                   8.2392e-05            2.6e-13               1.032e-11             -8.239e-05           
  1.2                   8.4878e-05            4.8e-13               9.64e-12              -8.485e-05           
  1.3                   8.6804e-05            4.4e-13               9.36e-12              -8.6838e-05          
  1.4                   8.8376e-05            5.4e-13               9.44e-12              -8.836e-05           
  1.5                   8.9588e-05            3.4e-13               9.06e-12              -8.96e-05            
  1.6                   9.0586e-05            4.2e-13               9.06e-12              -9.0568e-05          
  1.7                   9.1386e-05            2.6e-13               9.02e-12              -9.138e-05           
  1.8                   9.2058e-05            5e-13                 7.88e-12              -9.21e-05            
  1.9                   9.2676e-05            6.4e-13               5.36e-12              -9.2644e-05          
  2                     9.3134e-05            4.2e-13               -2.52e-12             -9.3158e-05          
  2.1                   9.3576e-05            3e-13                 -2.138e-11            -9.3574e-05          
  2.2                   9.3942e-05            2.4e-13               -6.598e-11            -9.398e-05           
  2.3                   9.4334e-05            3.4e-13               -1.6526e-10           -9.4336e-05          
  2.4                   9.463e-05             3.2e-13               -3.6574e-10           -9.4676e-05          
  2.5                   9.4956e-05            2.8e-13               -7.6608e-10           -9.495e-05           
  2.6                   9.5276e-05            2e-13                 -1.4802e-09           -9.5266e-05          
  2.7                   9.554e-05             3.6e-13               -2.7454e-09           -9.5548e-05          
  2.8                   9.5808e-05            3e-13                 -4.8554e-09           -9.5782e-05          
  2.9                   9.5984e-05            4e-13                 -8.2476e-09           -9.6004e-05          
  3                     9.6218e-05            4e-13                 -1.3534e-08           -9.6248e-05          
  3.1                   9.649e-05             3.2e-13               -2.1468e-08           -9.6444e-05          
  3.2                   9.675e-05             3.2e-13               -3.3126e-08           -9.6696e-05          
  3.3                   9.6962e-05            3.2e-13               -4.9634e-08           -9.6924e-05          
  3.4                   9.7224e-05            3.4e-13               -7.2746e-08           -9.7106e-05          
  3.5                   9.7446e-05            4e-13                 -1.04208e-07          -9.7314e-05          
  3.6                   9.77e-05              3.2e-13               -1.4658e-07           -9.7542e-05          
END_DB

BEGIN_DB
 ICCAP_VAR vg         3.6            
 ICCAP_VAR vb         0              
 ICCAP_VAR vs         0              

 #vd                    id                    ig                    ib                    is                   
  0                     1.531e-09             1e-12                 9.42e-12              -2.1212e-09          
  0.1                   1.4072e-05            8.4e-13               7.8e-12               -1.4066e-05          
  0.2                   2.7574e-05            5.6e-13               7.62e-12              -2.7568e-05          
  0.3                   4.036e-05             6.4e-13               8.04e-12              -4.035e-05           
  0.4                   5.237e-05             7.4e-13               7.26e-12              -5.2358e-05          
  0.5                   6.35e-05              5.4e-13               8.1e-12               -6.3502e-05          
  0.6                   7.37e-05              7.2e-13               7.86e-12              -7.3688e-05          
  0.7                   8.293e-05             7.8e-13               7.42e-12              -8.2928e-05          
  0.8                   9.1202e-05            7.4e-13               8.2e-12               -9.1202e-05          
