! VERSION = 6.00
BEGIN_HEADER
 ICCAP_INPUTS
  vg         V  G GROUND SMU2 0.001 LIN        1    -0.5       3.6        83   0.05      
  vb         V  B GROUND SMU4 0.1 LIN        2    0          -3.6       5    -0.9      
  vd         V  D GROUND SMU1 0.1 LIN        3    0.1        3.3        3    1.6       
  vs         V  S GROUND SMU3 0.1 CON        0
 ICCAP_OUTPUTS
  id         I  D GROUND SMU1 B
  ig         I  G GROUND SMU2 B
  ib         I  B GROUND SMU4 B
  is         I  S GROUND SMU3 B
 ICCAP_VALUES
  MASTER_SETUP_TYPE "~dc_idvg~"
  LINVT_VALUE ""
  LISTVT_VALUE ""
  TYPE "1"
  TEMP " 27.0000 "
  IS_TNOM " 1.00000 "
  MAIN.W "600.0n"
  MAIN.L "500.0n"
  MAIN.AD "204.0f"
  MAIN.AS "204.0f"
  MAIN.PD "1.880u"
  MAIN.PS "1.880u"
  MAIN.NF "1.000"
  MAIN.M "1"
  MAIN.NRD "0.000"
  MAIN.NRS "0.000"
  MAIN.LDRIFT1 "1E-06"
  MAIN.LDRIFT2 "1E-06"
  MAIN.SA "0.000"
  MAIN.SB "0.000"
  MAIN.SD "0.000"
  MAIN.SCA "0.000"
  MAIN.SCB "0.000"
  MAIN.SCC "0.000"
  MAIN.SC "0.000"
  MODULE "S559"
  PIN_D "16"
  PIN_G "5"
  PIN_S "6"
  PIN_B "15"
  PIN_E ""
  PIN_6 ""
  XY_ID ""
  FUNC "LW Scale"
  STI "SA ref"
  WPE "WPE ref"
  COMMENT ""
  DIS_MEAS ""
  TypeTCI "10"
END_HEADER

BEGIN_DB
 ICCAP_VAR vb         0              
 ICCAP_VAR vd         0.1            
 ICCAP_VAR vs         0              

 #vg                    id                    ig                    ib                    is                   
  -0.5                  8e-14                 -4.438e-11            5.32e-11              1.4e-13              
  -0.45                 1.4e-13               -6.72e-12             1.546e-11             -2e-14               
  -0.4                  1e-13                 -1.06e-12             1.01e-11              0                    
  -0.35                 1e-13                 -1.6e-13              8.66e-12              8e-14                
  -0.3                  6e-14                 -4e-14                7.56e-12              2.6e-13              
  -0.25                 8e-14                 6e-14                 7.84e-12              -4e-14               
  -0.2                  6e-14                 1e-13                 8.36e-12              2.2e-13              
  -0.15                 6e-14                 1e-13                 8.38e-12              2e-14                
  -0.1                  -2e-14                1.8e-13               7.02e-12              1.8e-13              
  -0.05                 1e-13                 1.6e-13               7.2e-12               1.6e-13              
  0                     2e-14                 2.2e-13               7.32e-12              6e-14                
  0.05                  2e-14                 3e-13                 7.84e-12              6e-14                
  0.1                   8e-14                 2e-13                 7.78e-12              4e-14                
  0.15                  2.8e-13               4e-13                 7.6e-12               -1e-13               
  0.2                   9.2e-13               2.8e-13               7e-12                 -9.2e-13             
  0.25                  3.8e-12               2.8e-13               6.74e-12              -3.76e-12            
  0.3                   1.484e-11             4.6e-13               7.38e-12              -1.46e-11            
  0.35                  5.904e-11             3e-13                 7.84e-12              -5.894e-11           
  0.4                   2.3448e-10            3.8e-13               6.68e-12              -2.3432e-10          
  0.45                  9.2928e-10            3.4e-13               6.16e-12              -9.3382e-10          
  0.5                   3.6256e-09            2.6e-13               8.82e-12              -3.6288e-09          
  0.55                  1.3664e-08            2.8e-13               6.84e-12              -1.3758e-08          
  0.6                   4.724e-08             3.2e-13               6.98e-12              -4.713e-08           
  0.65                  1.388e-07             4.8e-13               5.9e-12               -1.3784e-07          
  0.7                   3.324e-07             3.8e-13               6.26e-12              -3.3178e-07          
  0.75                  6.6326e-07            3.4e-13               6.88e-12              -6.6296e-07          
  0.8                   1.13574e-06           4.8e-13               6.84e-12              -1.13576e-06         
  0.85                  1.748e-06             3e-13                 5.5e-12               -1.7438e-06          
  0.9                   2.4718e-06            4.2e-13               6.18e-12              -2.4676e-06          
  0.95                  3.285e-06             4.6e-13               6.22e-12              -3.281e-06           
  1                     4.1632e-06            4.4e-13               5.34e-12              -4.1592e-06          
  1.05                  5.089e-06             5.8e-13               5.56e-12              -5.0844e-06          
  1.1                   6.0394e-06            4.4e-13               6.12e-12              -6.0354e-06          
  1.15                  7.0042e-06            6e-13                 6.38e-12              -7.0004e-06          
  1.2                   7.9734e-06            5.2e-13               5.1e-12               -7.972e-06           
  1.25                  8.944e-06             5e-13                 5e-12                 -8.9404e-06          
  1.3                   9.9052e-06            5.8e-13               5.06e-12              -9.9008e-06          
  1.35                  1.0857e-05            5.4e-13               5.94e-12              -1.08536e-05         
  1.4                   1.1812e-05            5.2e-13               6.5e-12               -1.179e-05           
  1.45                  1.2736e-05            5.6e-13               5.06e-12              -1.2716e-05          
  1.5                   1.3652e-05            5.2e-13               5.3e-12               -1.3624e-05          
  1.55                  1.4544e-05            6e-13                 5.22e-12              -1.4522e-05          
  1.6                   1.5422e-05            5.4e-13               5.82e-12              -1.54e-05            
  1.65                  1.6272e-05            7e-13                 5.36e-12              -1.6254e-05          
  1.7                   1.7118e-05            6e-13                 4.84e-12              -1.71e-05            
  1.75                  1.7942e-05            6.2e-13               4.74e-12              -1.7924e-05          
  1.8                   1.8756e-05            7.2e-13               5.72e-12              -1.8736e-05          
  1.85                  1.9546e-05            5.8e-13               5.12e-12              -1.9524e-05          
  1.9                   2.0322e-05            5.4e-13               4.38e-12              -2.0312e-05          
  1.95                  2.108e-05             7e-13                 3.94e-12              -2.106e-05           
  2                     2.182e-05             5.6e-13               4.78e-12              -2.1802e-05          
  2.05                  2.2546e-05            7.4e-13               5.74e-12              -2.2526e-05          
  2.1                   2.325e-05             5.8e-13               4.58e-12              -2.3228e-05          
  2.15                  2.3938e-05            7.2e-13               4.5e-12               -2.3918e-05          
  2.2                   2.4606e-05            6.8e-13               4.58e-12              -2.4588e-05          
  2.25                  2.5262e-05            6.6e-13               5.24e-12              -2.5242e-05          
  2.3                   2.5898e-05            7e-13                 5e-12                 -2.5878e-05          
  2.35                  2.6518e-05            7e-13                 4.46e-12              -2.65e-05            
  2.4                   2.7124e-05            6.2e-13               4.22e-12              -2.7102e-05          
  2.45                  2.7708e-05            8.2e-13               5.82e-12              -2.7688e-05          
  2.5                   2.8282e-05            6.4e-13               4.88e-12              -2.8262e-05          
  2.55                  2.8838e-05            5.6e-13               3.94e-12              -2.8816e-05          
  2.6                   2.9378e-05            7.8e-13               4.62e-12              -2.9356e-05          
  2.65                  2.9902e-05            6.8e-13               4.82e-12              -2.9882e-05          
  2.7                   3.041e-05             7.2e-13               4.54e-12              -3.039e-05           
  2.75                  3.0908e-05            6.6e-13               3.78e-12              -3.0888e-05          
  2.8                   3.1388e-05            7.8e-13               4.34e-12              -3.137e-05           
  2.85                  3.1854e-05            7.8e-13               4.02e-12              -3.1834e-05          
  2.9                   3.231e-05             6.4e-13               4.7e-12               -3.2288e-05          
  2.95                  3.275e-05             7.4e-13               4.7e-12               -3.273e-05           
  3                     3.3176e-05            7e-13                 3.58e-12              -3.3156e-05          
  3.05                  3.359e-05             8.8e-13               3.64e-12              -3.3568e-05          
  3.1                   3.399e-05             7.4e-13               4.7e-12               -3.397e-05           
  3.15                  3.438e-05             6.4e-13               4.58e-12              -3.436e-05           
  3.2                   3.4756e-05            7.2e-13               3.58e-12              -3.4736e-05          
  3.25                  3.5122e-05            7e-13                 4.1e-12               -3.5104e-05          
  3.3                   3.5478e-05            8.2e-13               3.76e-12              -3.5458e-05          
  3.35                  3.582e-05             8.2e-13               5.16e-12              -3.58e-05            
  3.4                   3.6154e-05            7.6e-13               3.76e-12              -3.6134e-05          
  3.45                  3.6476e-05            7.2e-13               3.52e-12              -3.6454e-05          
  3.5                   3.6784e-05            7.4e-13               3.84e-12              -3.6764e-05          
  3.55                  3.7084e-05            7.4e-13               4.94e-12              -3.7064e-05          
  3.6                   3.7376e-05            7.2e-13               4.58e-12              -3.7356e-05          
END_DB

BEGIN_DB
 ICCAP_VAR vb         -0.9           
 ICCAP_VAR vd         0.1            
 ICCAP_VAR vs         0              

 #vg                    id                    ig                    ib                    is                   
  -0.5                  3.2e-13               -5e-13                -1.022e-11            4e-14                
  -0.45                 2e-13                 -3.2e-13              -8.18e-12             2e-14                
  -0.4                  1.2e-13               -3e-13                -7.3e-12              4e-14                
  -0.35                 1.8e-13               -1.6e-13              -7.34e-12             1.2e-13              
  -0.3                  8e-14                 -8e-14                -6.76e-12             8e-14                
  -0.25                 2e-14                 -4e-14                -5.48e-12             1e-13                
  -0.2                  6e-14                 6e-14                 -4.32e-12             -2e-14               
  -0.15                 1.6e-13               6e-14                 -4.1e-12              1e-13                
  -0.1                  1e-13                 4e-14                 -4.24e-12             6e-14                
  -0.05                 1.2e-13               6e-14                 -3.64e-12             -4e-14               
  0                     8e-14                 8e-14                 -3.96e-12             1.4e-13              
  0.05                  1e-13                 1.2e-13               -1e-13                2e-13                
  0.1                   1.2e-13               1e-13                 -2.22e-12             6e-14                
  0.15                  1.6e-13               6e-14                 -3.04e-12             3e-13                
  0.2                   1e-13                 4e-13                 -3.04e-12             8e-14                
  0.25                  1.4e-13               1e-13                 -3.1e-12              2.2e-13              
  0.3                   4e-14                 3.8e-13               -1.7e-12              6e-14                
  0.35                  1.8e-13               1.6e-13               -1.84e-12             1.8e-13              
  0.4                   2.4e-13               3.6e-13               -1.88e-12             -1.8e-13             
  0.45                  9.8e-13               2.8e-13               -2.3e-12              -7e-13               
  0.5                   4.26e-12              3.2e-13               -1.92e-12             -3.98e-12            
  0.55                  1.958e-11             2.2e-13               -1.16e-12             -1.952e-11           
  0.6                   8.822e-11             3.6e-13               -3.8e-13              -8.84e-11            
  0.65                  3.9488e-10            3.2e-13               -1.24e-12             -3.9448e-10          
  0.7                   1.719e-09             3.2e-13               -1.84e-12             -1.7188e-09          
  0.75                  7.2968e-09            3.4e-13               -1.16e-12             -7.2886e-09          
  0.8                   2.8526e-08            3.8e-13               -6.4e-13              -2.8528e-08          
  0.85                  9.6606e-08            5.2e-13               -8e-14                -9.659e-08           
  0.9                   2.6022e-07            3.6e-13               1.16e-12              -2.6124e-07          
  0.95                  5.6166e-07            4.4e-13               -1.16e-12             -5.6256e-07          
  1                     1.01336e-06           4e-13                 -6e-14                -1.01264e-06         
  1.05                  1.6114e-06            3e-13                 -1.18e-12             -1.6076e-06          
  1.1                   2.3214e-06            4.2e-13               -6.4e-13              -2.3168e-06          
  1.15                  3.116e-06             5.8e-13               1e-13                 -3.1126e-06          
  1.2                   3.974e-06             3.8e-13               2.8e-13               -3.9704e-06          
  1.25                  4.8772e-06            5e-13                 -5.2e-13              -4.8722e-06          
  1.3                   5.8124e-06            5.2e-13               -8.4e-13              -5.8092e-06          
  1.35                  6.76e-06              4.4e-13               -1.08e-12             -6.7572e-06          
  1.4                   7.714e-06             5e-13                 9.8e-13               -7.7098e-06          
  1.45                  8.6646e-06            4.8e-13               -6.6e-13              -8.659e-06           
  1.5                   9.613e-06             5.2e-13               -6.6e-13              -9.6088e-06          
  1.55                  1.05454e-05           5.6e-13               -6.6e-13              -1.05414e-05         
  1.6                   1.14656e-05           5e-13                 1.4e-13               -1.14602e-05         
  1.65                  1.2384e-05            5.2e-13               7.6e-13               -1.2364e-05          
  1.7                   1.327e-05             6e-13                 -6.2e-13              -1.3256e-05          
  1.75                  1.4142e-05            4.4e-13               -2.12e-12             -1.4118e-05          
  1.8                   1.4998e-05            6.6e-13               5.4e-13               -1.498e-05           
  1.85                  1.5826e-05            4.6e-13               8.2e-13               -1.5806e-05          
  1.9                   1.6646e-05            6e-13                 -2.6e-13              -1.6628e-05          
  1.95                  1.7446e-05            5.8e-13               -6.8e-13              -1.7426e-05          
  2                     1.823e-05             5.2e-13               -6e-14                -1.8214e-05          
  2.05                  1.9e-05               7e-13                 9e-13                 -1.8978e-05          
  2.1                   1.9742e-05            5.8e-13               1.8e-13               -1.9722e-05          
  2.15                  2.0468e-05            6.6e-13               -3.8e-13              -2.0446e-05          
  2.2                   2.1172e-05            5.2e-13               4.4e-13               -2.1152e-05          
  2.25                  2.1862e-05            5.6e-13               3.8e-13               -2.184e-05           
  2.3                   2.2532e-05            7.2e-13               6.2e-13               -2.251e-05           
  2.35                  2.3186e-05            6.2e-13               -8.2e-13              -2.3164e-05          
  2.4                   2.382e-05             6.4e-13               5.8e-13               -2.38e-05            
  2.45                  2.4438e-05            5.6e-13               1.2e-13               -2.4418e-05          
  2.5                   2.5038e-05            6.2e-13               1.4e-13               -2.5016e-05          
  2.55                  2.562e-05             6.4e-13               -3.4e-13              -2.56e-05            
  2.6                   2.619e-05             6.8e-13               0                     -2.617e-05           
  2.65                  2.6742e-05            6e-13                 2.3e-12               -2.6722e-05          
  2.7                   2.7278e-05            7.6e-13               1.34e-12              -2.7258e-05          
  2.75                  2.7802e-05            6.8e-13               -1.2e-13              -2.7782e-05          
  2.8                   2.8308e-05            8e-13                 2e-13                 -2.8288e-05          
  2.85                  2.88e-05              6.6e-13               -3.4e-13              -2.8778e-05          
  2.9                   2.9276e-05            6.6e-13               4.6e-13               -2.9256e-05          
  2.95                  2.974e-05             7.4e-13               8.6e-13               -2.972e-05           
  3                     3.019e-05             6.2e-13               -6.6e-13              -3.0168e-05          
  3.05                  3.0626e-05            6e-13                 3.6e-13               -3.0604e-05          
  3.1                   3.1048e-05            7e-13                 1.02e-12              -3.1028e-05          
  3.15                  3.146e-05             6.8e-13               1.2e-13               -3.144e-05           
  3.2                   3.1856e-05            6.8e-13               3e-13                 -3.1836e-05          
  3.25                  3.2242e-05            7e-13                 -5.4e-13              -3.222e-05           
  3.3                   3.2614e-05            8e-13                 8.2e-13               -3.2594e-05          
  3.35                  3.2976e-05            8.4e-13               1.28e-12              -3.2956e-05          
  3.4                   3.3328e-05            7.4e-13               6e-14                 -3.3308e-05          
  3.45                  3.3666e-05            7.4e-13               -2e-14                -3.3644e-05          
