! VERSION = 6.00
BEGIN_HEADER
 ICCAP_INPUTS
  vd         V  D GROUND SMU1 0.1 LIN        1    0          3.6        37   0.1       
  vg         V  G GROUND SMU2 0.001 LIN        2    0.684      3.6        5    0.729     
  vb         V  B GROUND SMU4 0.1 CON        0
  vs         V  S GROUND SMU3 0.1 CON        0
 ICCAP_OUTPUTS
  id         I  D GROUND SMU1 B
  ig         I  G GROUND SMU2 B
  ib         I  B GROUND SMU4 B
  is         I  S GROUND SMU3 B
 ICCAP_VALUES
  MASTER_SETUP_TYPE "~dc_idvd~"
  LINVT_VALUE "|idvg|100.0n|100.0m|1.000m|5|3.600|"
  LISTVT_VALUE ""
  TYPE "1"
  TEMP " 27.0000 "
  IS_TNOM " 1.00000 "
  MAIN.W "10.00u"
  MAIN.L "10.00u"
  MAIN.AD "3.400p"
  MAIN.AS "3.400p"
  MAIN.PD "20.68u"
  MAIN.PS "20.68u"
  MAIN.NF "1.000"
  MAIN.M "1"
  MAIN.NRD "0.000"
  MAIN.NRS "0.000"
  MAIN.LDRIFT1 "1E-06"
  MAIN.LDRIFT2 "1E-06"
  MAIN.SA "0.000"
  MAIN.SB "0.000"
  MAIN.SD "0.000"
  MAIN.SCA "0.000"
  MAIN.SCB "0.000"
  MAIN.SCC "0.000"
  MAIN.SC "0.000"
  MODULE "S557"
  PIN_D "16"
  PIN_G "5"
  PIN_S "6"
  PIN_B "15"
  PIN_E ""
  PIN_6 ""
  XY_ID ""
  FUNC "Large"
  STI "SA ref"
  WPE "WPE ref"
  COMMENT ""
  DIS_MEAS ""
  TypeTCI "10"
END_HEADER

BEGIN_DB
 ICCAP_VAR vg         0.684          
 ICCAP_VAR vb         0              
 ICCAP_VAR vs         0              

 #vd                    id                    ig                    ib                    is                   
  0                     5.2678e-10            0                     2.4e-11               -3.792e-10           
  0.1                   4.6968e-07            -8e-14                2.222e-11             -4.6958e-07          
  0.2                   5.1556e-07            -6e-14                2.036e-11             -5.1546e-07          
  0.3                   5.1914e-07            -1e-13                2.046e-11             -5.1902e-07          
  0.4                   5.2062e-07            4e-14                 1.928e-11             -5.2056e-07          
  0.5                   5.2186e-07            -8e-14                1.804e-11             -5.2182e-07          
  0.6                   5.23e-07              -8e-14                1.804e-11             -5.229e-07           
  0.7                   5.2394e-07            -1.8e-13              1.814e-11             -5.2382e-07          
  0.8                   5.2476e-07            -4e-14                1.666e-11             -5.2462e-07          
  0.9                   5.255e-07             4e-14                 1.624e-11             -5.2538e-07          
  1                     5.2622e-07            -8e-14                1.61e-11              -5.2616e-07          
  1.1                   5.2688e-07            -1.6e-13              1.634e-11             -5.268e-07           
  1.2                   5.2758e-07            0                     1.56e-11              -5.2746e-07          
  1.3                   5.282e-07             0                     1.39e-11              -5.2812e-07          
  1.4                   5.287e-07             -1.6e-13              1.462e-11             -5.2864e-07          
  1.5                   5.293e-07             -1.2e-13              1.324e-11             -5.292e-07           
  1.6                   5.2986e-07            -1.2e-13              9.42e-12              -5.2978e-07          
  1.7                   5.3036e-07            -1.4e-13              2.98e-12              -5.3024e-07          
  1.8                   5.309e-07             -8e-14                -9.3e-12              -5.3076e-07          
  1.9                   5.3138e-07            -1e-13                -3.188e-11            -5.3126e-07          
  2                     5.3186e-07            -1.4e-13              -7.258e-11            -5.3168e-07          
  2.1                   5.324e-07             -6e-14                -1.3468e-10           -5.322e-07           
  2.2                   5.3294e-07            -6e-14                -2.2848e-10           -5.3258e-07          
  2.3                   5.3344e-07            -1.8e-13              -3.6564e-10           -5.33e-07            
  2.4                   5.3404e-07            -1.4e-13              -5.6058e-10           -5.3344e-07          
  2.5                   5.3478e-07            -1e-13                -8.2828e-10           -5.3384e-07          
  2.6                   5.3552e-07            4e-14                 -1.1886e-09           -5.3424e-07          
  2.7                   5.3632e-07            -6e-14                -1.6732e-09           -5.346e-07           
  2.8                   5.374e-07             -2e-14                -2.3112e-09           -5.35e-07            
  2.9                   5.386e-07             -4e-14                -3.1398e-09           -5.3532e-07          
  3                     5.4002e-07            -1.4e-13              -4.208e-09            -5.357e-07           
  3.1                   5.4172e-07            8e-14                 -5.5666e-09           -5.3602e-07          
  3.2                   5.4374e-07            0                     -7.273e-09            -5.3634e-07          
  3.3                   5.462e-07             -6e-14                -9.379e-09            -5.3664e-07          
  3.4                   5.491e-07             -1e-13                -1.195e-08            -5.3694e-07          
  3.5                   5.5242e-07            0                     -1.504e-08            -5.3728e-07          
  3.6                   5.5642e-07            0                     -1.8694e-08           -5.3764e-07          
END_DB

BEGIN_DB
 ICCAP_VAR vg         1.413          
 ICCAP_VAR vb         0              
 ICCAP_VAR vs         0              

 #vd                    id                    ig                    ib                    is                   
  0                     2.1286e-09            2.8e-13               8.68e-12              -2.8012e-09          
  0.1                   1.0408e-05            1.6e-13               8.6e-12               -1.0388e-05          
  0.2                   1.8696e-05            8e-14                 7.3e-12               -1.8676e-05          
  0.3                   2.4916e-05            2.2e-13               6.9e-12               -2.4896e-05          
  0.4                   2.918e-05             1.8e-13               7.18e-12              -2.9162e-05          
  0.5                   3.1636e-05            1e-13                 6.96e-12              -3.1614e-05          
  0.6                   3.2652e-05            1.6e-13               6.2e-12               -3.2632e-05          
  0.7                   3.2932e-05            2.8e-13               7.34e-12              -3.291e-05           
  0.8                   3.3012e-05            2.4e-13               4.38e-12              -3.2992e-05          
  0.9                   3.305e-05             1e-13                 6.26e-12              -3.303e-05           
  1                     3.3078e-05            2e-13                 6.98e-12              -3.3056e-05          
  1.1                   3.31e-05              1.2e-13               6.36e-12              -3.308e-05           
  1.2                   3.3118e-05            8e-14                 5.88e-12              -3.31e-05            
  1.3                   3.3136e-05            6e-14                 6.84e-12              -3.3116e-05          
  1.4                   3.3152e-05            2.2e-13               6.52e-12              -3.313e-05           
  1.5                   3.3164e-05            2e-14                 6.04e-12              -3.3146e-05          
  1.6                   3.3178e-05            6e-14                 6.46e-12              -3.3158e-05          
  1.7                   3.3192e-05            0                     5.78e-12              -3.3172e-05          
  1.8                   3.3204e-05            -4e-14                3.92e-12              -3.3184e-05          
  1.9                   3.3214e-05            0                     9.4e-13               -3.3196e-05          
  2                     3.3226e-05            1.6e-13               -1.778e-11            -3.3208e-05          
  2.1                   3.3238e-05            2e-14                 -7.486e-11            -3.3218e-05          
  2.2                   3.325e-05             6e-14                 -2.2476e-10           -3.3228e-05          
  2.3                   3.326e-05             6e-14                 -5.7364e-10           -3.3238e-05          
  2.4                   3.3272e-05            2e-14                 -1.283e-09            -3.3248e-05          
  2.5                   3.328e-05             -2e-14                -2.6048e-09           -3.3256e-05          
  2.6                   3.3292e-05            8e-14                 -4.8716e-09           -3.3266e-05          
  2.7                   3.3304e-05            4e-14                 -8.5098e-09           -3.3274e-05          
  2.8                   3.3318e-05            6e-14                 -1.4078e-08           -3.3282e-05          
  2.9                   3.3334e-05            4e-14                 -2.2238e-08           -3.3292e-05          
  3                     3.3356e-05            1e-13                 -3.3862e-08           -3.33e-05            
  3.1                   3.338e-05             4e-14                 -4.9986e-08           -3.331e-05           
  3.2                   3.341e-05             4e-14                 -7.1916e-08           -3.3316e-05          
  3.3                   3.3446e-05            1.2e-13               -1.01226e-07          -3.3324e-05          
  3.4                   3.3492e-05            1e-13                 -1.3998e-07           -3.3332e-05          
  3.5                   3.3552e-05            0                     -1.9066e-07           -3.334e-05           
  3.6                   3.3624e-05            4e-14                 -2.5598e-07           -3.3348e-05          
END_DB

BEGIN_DB
 ICCAP_VAR vg         2.142          
 ICCAP_VAR vb         0              
 ICCAP_VAR vs         0              

 #vd                    id                    ig                    ib                    is                   
  0                     9.996e-09             4.4e-13               5.24e-12              -9.982e-09           
  0.1                   2.1192e-05            2.8e-13               5.96e-12              -2.1172e-05          
  0.2                   4.0478e-05            4.2e-13               4.24e-12              -4.0458e-05          
  0.3                   5.7804e-05            3e-13                 3.82e-12              -5.7784e-05          
  0.4                   7.3212e-05            3.2e-13               4.3e-12               -7.3192e-05          
  0.5                   8.665e-05             2.8e-13               4.4e-12               -8.6632e-05          
  0.6                   9.809e-05             2e-13                 3.94e-12              -9.8074e-05          
  0.7                   0.000107572           2.4e-13               4.1e-12               -0.000107554         
  0.8                   0.00011524            2e-13                 4.3e-12               -0.000115072         
  0.9                   0.00012082            3.4e-13               5.3e-12               -0.00012042          
  1                     0.0001246             1.2e-13               2.94e-12              -0.0001242           
  1.1                   0.00012678            8e-14                 3.76e-12              -0.0001264           
  1.2                   0.0001278             1.8e-13               4.76e-12              -0.00012742          
  1.3                   0.00012822            2.6e-13               3.04e-12              -0.00012782          
  1.4                   0.0001284             1.4e-13               3.98e-12              -0.000128            
  1.5                   0.00012852            1.2e-13               3.68e-12              -0.00012812          
  1.6                   0.00012858            2e-13                 3.44e-12              -0.0001282           
  1.7                   0.00012864            1.6e-13               4.16e-12              -0.00012824          
  1.8                   0.00012868            2e-13                 3.58e-12              -0.0001283           
  1.9                   0.00012874            8e-14                 3.42e-12              -0.00012834          
  2                     0.00012878            1.8e-13               4.38e-12              -0.00012838          
  2.1                   0.0001288             1.2e-13               3.16e-12              -0.00012842          
  2.2                   0.00012884            1.4e-13               3.62e-12              -0.00012846          
  2.3                   0.00012888            2.4e-13               3.06e-12              -0.00012848          
  2.4                   0.0001289             1.6e-13               -1.72e-12             -0.00012852          
  2.5                   0.00012894            8e-14                 -1.92e-11             -0.00012854          
  2.6                   0.00012896            1e-13                 -8.4e-11              -0.00012858          
  2.7                   0.000129              6e-14                 -2.866e-10            -0.0001286           
  2.8                   0.00012902            1.2e-13               -8.1308e-10           -0.00012862          
  2.9                   0.00012904            1.4e-13               -2.016e-09            -0.00012866          
  3                     0.00012908            1.4e-13               -4.484e-09            -0.00012868          
  3.1                   0.0001291             1.8e-13               -9.0936e-09           -0.0001287           
  3.2                   0.00012914            1.4e-13               -1.7064e-08           -0.00012874          
  3.3                   0.00012918            2e-13                 -2.9952e-08           -0.00012876          
  3.4                   0.00012922            1.8e-13               -4.9856e-08           -0.00012878          
  3.5                   0.00012926            0                     -7.9288e-08           -0.0001288           
  3.6                   0.00012934            1.2e-13               -1.2126e-07           -0.00012882          
END_DB

BEGIN_DB
 ICCAP_VAR vg         2.871          
 ICCAP_VAR vb         0              
 ICCAP_VAR vs         0              

 #vd                    id                    ig                    ib                    is                   
  0                     1.503e-08             6.4e-13               4.48e-12              -1.4484e-08          
  0.1                   2.9384e-05            3.6e-13               3.04e-12              -2.9362e-05          
  0.2                   5.7302e-05            2.6e-13               2.4e-12               -5.7282e-05          
  0.3                   8.3672e-05            3.4e-13               3.4e-12               -8.3654e-05          
  0.4                   0.000108542           4e-13                 2.68e-12              -0.000108524         
  0.5                   0.00013196            2.8e-13               3.64e-12              -0.00013156          
  0.6                   0.00015356            1.6e-13               2.28e-12              -0.00015316          
  0.7                   0.0001735             1.8e-13               3.68e-12              -0.0001731           
  0.8                   0.0001917             3.8e-13               2.92e-12              -0.00019132          
  0.9                   0.00020808            2.8e-13               4.78e-12              -0.0002077           
  1                     0.00022268            2.4e-13               3.02e-12              -0.0002223           
  1.1                   0.00023542            1.8e-13               2.36e-12              -0.00023504          
  1.2                   0.00024628            2.6e-13               2.4e-12               -0.0002459           
  1.3                   0.0002553             2.4e-13               3.06e-12              -0.0002549           
  1.4                   0.00026246            1.4e-13               1.96e-12              -0.00026206          
  1.5                   0.00026784            1.8e-13               2.58e-12              -0.00026744          
  1.6                   0.00027154            2e-13                 3.72e-12              -0.00027114          
  1.7                   0.0002738             1.8e-13               1.64e-12              -0.0002734           
  1.8                   0.000275              1.8e-13               2.5e-12               -0.00027462          
  1.9                   0.0002756             2.6e-13               3.38e-12              -0.00027522          
  2                     0.00027594            1.2e-13               1.46e-12              -0.00027554          
  2.1                   0.00027612            2.2e-13               2.92e-12              -0.00027572          
  2.2                   0.00027624            2.4e-13               2.78e-12              -0.00027586          
  2.3                   0.00027634            2e-13                 1.6e-12               -0.00027596          
  2.4                   0.00027642            1.6e-13               2.62e-12              -0.00027604          
  2.5                   0.0002765             1.2e-13               2.96e-12              -0.00027612          
  2.6                   0.00027658            1.6e-13               1.88e-12              -0.00027618          
  2.7                   0.00027664            1e-13                 3.14e-12              -0.00027624          
  2.8                   0.0002767             1.2e-13               2e-12                 -0.0002763           
  2.9                   0.00027674            1.4e-13               2e-12                 -0.00027636          
  3                     0.0002768             1.2e-13               -8.88e-12             -0.0002764           
  3.1                   0.00027684            1.6e-13               -4.846e-11            -0.00027646          
  3.2                   0.0002769             4e-14                 -1.8418e-10           -0.0002765           
  3.3                   0.00027694            1.6e-13               -5.7896e-10           -0.00027654          
  3.4                   0.00027698            1e-13                 -1.5952e-09           -0.00027658          
  3.5                   0.00027702            1.6e-13               -3.8992e-09           -0.00027662          
  3.6                   0.00027706            6e-14                 -8.5984e-09           -0.00027666          
END_DB

BEGIN_DB
 ICCAP_VAR vg         3.6            
 ICCAP_VAR vb         0              
 ICCAP_VAR vs         0              

 #vd                    id                    ig                    ib                    is                   
  0                     1.6344e-08            7e-13                 4.04e-12              -1.5672e-08          
  0.1                   3.4582e-05            4.4e-13               3.26e-12              -3.4562e-05          
  0.2                   6.8126e-05            4e-13                 2.62e-12              -6.8104e-05          
  0.3                   0.00010054            4.2e-13               3.08e-12              -0.00010052          
  0.4                   0.00013206            2e-13                 3.56e-12              -0.00013166          
  0.5                   0.00016228            3.4e-13               1.84e-12              -0.00016188          
  0.6                   0.00019124            2.4e-13               1.82e-12              -0.00019086          
  0.7                   0.00021902            2.6e-13               2.76e-12              -0.00021862          
  0.8                   0.00024548            2.6e-13               1.98e-12              -0.0002451           
