#   Hz   S  RI   R   50
!
0.0 0.012113425652781043 0.0 0.9813784285079968 0.0 0.9813786639015459 0.0 0.01214332555188614 0.0
75000000.0 0.012168653004550625 0.006636504941378014 0.9813001922741849 -0.008639226173796873 0.9813004272345442 -0.008639237308662322 0.012198729532336004 0.006630609092506192
150000000.0 0.012334309015795807 0.013270921721525662 0.981065648221432 -0.017273101780810103 0.9810658818854532 -0.01727312398705655 0.012364914895279789 0.013259113404918478
225000000.0 0.0126103156392834 0.019901164243531774 0.9806752888077364 -0.02589630480230447 0.9806755203219202 -0.025896337953579478 0.012641801995266148 0.019883410313188372
300000000.0 0.012996543077794107 0.026525150517079217 0.9801299298593396 -0.03450356996467075 0.9801301583861514 -0.034503613872976645 0.013029258387304909 0.026501401482199705
375000000.0 0.013492810200465853 0.0331408046571765 0.9794307032454094 -0.04308971624124512 0.9794309279694031 -0.043089770658751025 0.013527099266853835 0.033110994952904704
450000000.0 0.014098885114039332 0.039746058818922306 0.9785790467812561 -0.051649673327779054 0.9785792669149551 -0.05164973794919443 0.014135088073652075 0.039710107162234436
525000000.0 0.014814485877735093 0.04633885504945102 0.9775766915144025 -0.06017850677978364 0.9775769063038607 -0.060178581245259766 0.01485293724765059 0.04629666487593895
600000000.0 0.01563928134782331 0.05291714704022635 0.97642564658574 -0.06867144152490538 0.9764258553157334 -0.06867152542342103 0.015680309122481886 0.052868607016614146
675000000.0 0.016572892135624028 0.0594789017652605 0.9751281818916974 -0.07712388349334118 0.9751283838904893 -0.07712397636652656 0.01661681693949421 0.05942388637167185
750000000.0 0.01761489166080183 0.06602210099356365 0.9736868088020124 -0.08553143914328425 0.9736870034456537 -0.08553154048962774 0.017662025963401624 0.06596047116884796
825000000.0 0.018764807280406654 0.07254474266709761 0.972104259210929 -0.09388993269562676 0.9721044459270483 -0.0938900419750093 0.018815454679113674 0.07247634650992278
900000000.0 0.02002212147319794 0.07904484213862212 0.970383463216995 -0.10219542093168617 0.970383641488062 -0.10219553757018196 0.020076576048351284 0.07896951565658118
975000000.0 0.02138627305840771 0.08552043326702864 0.9685275257380609 -0.11044420544859049 0.9685276951040956 -0.11044432884347274 0.021444818804216958 0.08543800116565455
1050000000.0 0.02285665842819577 0.09196956937091814 0.9665397023734517 -0.11863284230822507 0.966539862434166 -0.11863297183311224 0.02291956876198517 0.09187984587429779
1125000000.0 0.02443263277366619 0.09839032404427595 0.9644233748248461 -0.1267581490563447 0.964423525241222 -0.12675828406643247 0.024500170124983605 0.09829311373886292
1200000000.0 0.026113511285376412 0.10478079184098921 0.9621820261814021 -0.13481720912778053 0.9621821666767095 -0.1348173489650908 0.026185926765520028 0.10467589053426461
1275000000.0 0.027898570310759842 0.11113908883763558 0.9598192163635848 -0.1428073736908086 0.9598193467238431 -0.1428075176894046 0.027976103462334083 0.11102628442341483
1350000000.0 0.029787048452733816 0.11746335308633853 0.9573385580044438 -0.15072626101805253 0.9573386780783544 -0.15072640850916533 0.029869927077955227 0.1173424264087902
1425000000.0 0.03177814759593066 0.12375174497150522 0.9547436930274646 -0.1585717535022335 0.9547438027258335 -0.1585719038192468 0.03186658766156094 0.12362247068031332
1500000000.0 0.033871033849398366 0.13000244748592074 0.9520382701571433 -0.16634199246218337 0.9520383694518241 -0.16634214494543795 0.03396523946543588 0.12986459487547128
1575000000.0 0.03606483839720059 0.13621366644291039 0.9492259235729048 -0.17403537090758117 0.9492260124952978 -0.1740355249089517 0.036165001865765045 0.13606700026890065
1650000000.0 0.038358658251048165 0.14238363064210735 0.9463102528895266 -0.18165052444960847 0.9463103315286638 -0.18165067933682524 0.03846496018131079 0.14222791190956482
1725000000.0 0.04075155690182638 0.14851059200678463 0.9432948046185904 -0.18918632055917278 0.9432948731188538 -0.1891864757198538 0.04086416638632162 0.1483455787241053
1800000000.0 0.04324256486961837 0.15459282571069832 0.9401830552362918 -0.19664184638450088 0.9401831137948006 -0.196642001229874 0.04336163971686667 0.15441827360498087
1875000000.0 0.04583068015445235 0.16062863031202387 0.9369783959538331 -0.2040163953459842 0.9369784448175407 -0.20401654931427785 0.04595636717249704 0.16044429350165457
1950000000.0 0.048514868592528355 0.16661632791120237 0.9336841192581132 -0.21130945272832632 0.9336841587206607 -0.21130960528781922 0.048647303917759024 0.16642195953233438
2025000000.0 0.051294064125008934 0.17255426434844998 0.9303034072630493 -0.21852068048866913 0.9303034376614111 -0.21852083114038534 0.051433373590492604 0.17234961713271235
2100000000.0 0.05416716898857784 0.1784408094553022 0.9268393218859703 -0.22564990149473718 0.9268393435969391 -0.2256500497747891 0.05431346852606157 0.17822563625674362
2175000000.0 0.0571330538388411 0.18427435737295889 0.9232947968394809 -0.2326970833995953 0.9232948102760218 -0.23269722888116742 0.05728644990859326 0.1840484116428826
2250000000.0 0.060190557819243574 0.19005332694834898 0.9196726314072371 -0.23966232234970267 0.9196726370147587 -0.23966246464468502 0.06035114786198456 0.18981636315732156
2325000000.0 0.06333848858947587 0.19577616221686336 0.9159754859523905 -0.24654582671102815 0.9159754842049592 -0.2465459654713031 0.06350636149479254 0.19552793622376252
2400000000.0 0.06657562232835113 0.20144133297858094 0.9122058790901563 -0.2533479009844314 0.9122058704866934 -0.2533480359028252 0.06675085891418456 0.2011816023470932
2475000000.0 0.06990070372683198 0.20704733547263932 0.9083661864410861 -0.2600689300667492 0.9083661715015735 -0.2600690608776589 0.07008337722487806 0.20677585973612234
2550000000.0 0.07331244598728313 0.21259269315218107 0.904458640869181 -0.2667093639983689 0.9044586201309052 -0.26670949047807985 0.07350262252942188 0.21230923402825436
2625000000.0 0.07680953084511769 0.21807595756010667 0.9004853340988938 -0.27326970332192574 0.9004853081127541 -0.27326982528863303 0.07700726994631808 0.21778027911674055
2700000000.0 0.0803906086288296 0.2234957093036954 0.8964482195972713 -0.2797504851603723 0.8964481889241753 -0.27975060247392547 0.08059596366231148 0.22318757807892176
2775000000.0 0.08405429837394313 0.2288505591240753 0.8923491166018415 -0.28615227010636873 0.8923490818092059 -0.2861523826677551 0.08426731703474097 0.2285297442017474
2850000000.0 0.08779918800570903 0.23413914905454475 0.8881897151711876 -0.29247562999891 0.888189676829566 -0.29247573774949587 0.08801991275916435 0.23380542209882946
2925000000.0 0.09162383460444647 0.23936015365990326 0.883971582133364 -0.2987211366475965 0.8839715408132092 -0.2987212395681436 0.09185230311653281 0.2390132889113961
3000000000.0 0.09552676476628406 0.24451228134726258 0.8796961678071462 -0.3048893515500797 0.8796961240757363 -0.3048894496595583 0.09576301031305691 0.24415205558378014
3075000000.0 0.09950647507075175 0.24959427573729787 0.8753648133724693 -0.3109808166341605 0.8753647677909907 -0.3109809099883741 0.09975052692459739 0.24922046820251922
3150000000.0 0.10356143266518814 0.254604917083578 0.870978758769038 -0.31699604604281795 0.8709787118898469 -0.31699613473286165 0.10381331645592277 0.2542173093867864
3225000000.0 0.10769007597434314 0.2595430237264906 0.8665391510058826 -0.3229355189682534 0.8665391033699492 -0.32293560311882186 0.10794981402357748 0.2591413997167096
3300000000.0 0.11189081554185124 0.2644074535673723 0.8620470527693601 -0.3287996735298125 0.8620470049039026 -0.3287997532973778 0.11215842716939275 0.26399159918519577
3375000000.0 0.11616203500847842 0.26919710554776155 0.857503451222642 -0.3345889016805049 0.8575034036389523 -0.33458897725137865 0.1164375368098813 0.2687668086581517
3450000000.0 0.12050209223023531 0.27391092111821663 0.852909266895903 -0.340303545117706 0.8529092200873719 -0.34030361670600767 0.12078549832492493 0.2734659713274911
3525000000.0 0.12490932053759936 0.2785478856808794 0.8482653625731322 -0.345943892165558 0.8482653170134734 -0.34594396001110234 0.12520064278730383 0.27808807414103176
3600000000.0 0.12938203013525645 0.28310702998993437 0.8435725520885481 -0.35151017558953235 0.8435725082302217 -0.3515102399556523 0.12968127833276105 0.2826321491933302
3675000000.0 0.1339185096399607 0.2875874314942595 0.8388316089529578 -0.3570025712975303 0.8388315672257957 -0.35700263246885494 0.13422569166845671 0.2870972750616273
3750000000.0 0.13851702775234895 0.29198821560695626 0.8340432747379086 -0.36242119787680477 0.8340432355479356 -0.3624212561570019 0.13883214971589122 0.2914825780714586
3825000000.0 0.14317583505685247 0.2963085568869772 0.8292082671530626 -0.36776611691175287 0.8292082308815187 -0.3677661726212574 0.1434989013826574 0.29578723347699604
3900000000.0 0.14789316594224688 0.30054768011882715 0.8243272877598199 -0.3730373340243021 0.8243272547623726 -0.37303738749803816 0.1482241794557583 0.3000104665419317
3975000000.0 0.1526672406338808 0.30470486127720336 0.8194010292717181 -0.37823480057605663 0.8194009998778663 -0.37823485216117225 0.15300620260770134 0.3041515535075994
4050000000.0 0.15749626732725047 0.30877942836449773 0.8144301823995018 -0.38335841596960696 0.8144301569121628 -0.3833584660232301 0.15784317750519317 0.30820982243607553
4125000000.0 0.16237844441134316 0.31277076211026267 0.8094154422059565 -0.38840803048531825 0.809415420901234 -0.38840807937234995 0.16273330100898797 0.3121846539171806
4200000000.0 0.16731196276908689 0.316678296523063 0.8043575139425242 -0.3933834485895057 0.8043574970696484 -0.39338349668046146 0.16767476245233273 0.3160754816296113
4275000000.0 0.17229500814129803 0.3205015192865093 0.7992571183464208 -0.39828443265007885 0.7992571061278564 -0.39828448031898567 0.17266574598450002 0.31988179274781253
4350000000.0 0.17732576353975663 0.32423997199277976 0.7941149963833187 -0.4031107069964714 0.7941149890150264 -0.40311075461883955 0.17770443296510396 0.3236031281877108
4425000000.0 0.18240241169443222 0.3278932502084608 0.7889319134267 -0.4078619622619069 0.7889319110785514 -0.40786201021277463 0.18278900439427784 0.32723908268594426
4500000000.0 0.18752313751945568 0.3314610033691249 0.7837086628706673 -0.4125378599477234 0.7837086656870008 -0.41253790859979594 0.18791764336334768 0.3307893047088335
4575000000.0 0.19268613058218276 0.33494293450066825 0.7784460691782983 -0.41713803715157893 0.7784460772786032 -0.4171380868734597 0.1930885375103621 0.3342534961889304
4650000000.0 0.19788958755960756 0.33833879976704917 0.7731449903725262 -0.421662111403787 0.7731450038522513 -0.42166216255831535 0.19829988146475058 0.3376314120886096
4725000000.0 0.2031317146664856 0.3416484078456384 0.7678063199810659 -0.4261096855587881 0.7678063389125362 -0.4261097385014876 0.20354987926545043 0.3409228597917547
4800000000.0 0.20841073003976723 0.34487161913297953 0.7624309884509834 -0.43048035269178575 0.7624310128844183 -0.4304804077694267 0.20883674673708927 0.3441276983261646
4875000000.0 0.21372486606436994 0.34800834478523857 0.7570199640522074 -0.4347737009538024 0.7570199940168263 -0.43477375850308886 0.21415871380921062 0.34724583742081605
4950000000.0 0.21907237162587107 0.3510585455990829 0.7515742532925579 -0.4389893183418534 0.7515742887977648 -0.43898937868823434 0.2195140267640875 0.3502772364035707
5025000000.0 0.22445151427642104 0.35402223074008476 0.7460949008697237 -0.443126797344497 0.746094941906356 -0.443126860801105 0.22490095039935215 0.35322190294629074
5100000000.0 0.2298605823009876 0.35689945632700243 0.740582989188082 -0.44718573942668144 0.7405830357297151 -0.4471858062934031 0.23031777009251292 0.3560798916655863
5175000000.0 0.23529788667202128 0.3596903238814661 0.7350396374703011 -0.45116575932157105 0.7350396894745942 -0.4511658298842481 0.23576279375534717 0.35885130258861003
5250000000.0 0.24076176288164897 0.36239497865363246 0.7294660004953346 -0.4550664891007869 0.7294660579054071 -0.45506656363054887 0.24123435366722581 0.36153627949434797
5325000000.0 0.24625057264168088 0.36501360783529 0.7238632669956797 -0.45888758199828183 0.7238633297415094 -0.45888766075101095 0.24673080817754817 0.3641350081418037
5400000000.0 0.2517627054428887 0.3675464386726924 0.7182326577477087 -0.4626287159668077 0.7182327257475364 -0.462628799182731 0.2522505432686722 0.36664771439725563
5475000000.0 0.25729657996631927 0.369993736492047 0.7125754233894203 -0.46628959694960975 0.7125754965511544 -0.4662896848530196 0.25779197397199916 0.3690746622734469
5550000000.0 0.2628506453406982 0.37235580265110324 0.7068928420002 -0.46986996185357754 0.7068929202228056 -0.4698700546526743 0.26335354563117874 0.3714161518940804
5625000000.0 0.26842338224133255 0.37463297243065746 0.7011862164770803 -0.4733695812135597 0.7011862996519487 -0.47336967910041444 0.2689337350077463 0.3736725173973868
5700000000.0 0.2740133038272632 0.3768256128800288 0.6954568717416212 -0.47678826154088594 0.6954569597539042 -0.47678836469151603 0.2745310512258391 0.37584412479276547
5775000000.0 0.2796189565147839 0.3789341206306616 0.689706151810867 -0.48012584735233294 0.6897062445407742 -0.4801259559268874 0.2801440365540153 0.3779313697846239
5850000000.0 0.2852389205867615 0.38095891969196644 0.6839354167649481 -0.4833822228787754 0.6839355140889926 -0.48338233702182126 0.2857712670235094 0.3799346755774988
5925000000.0 0.2908718106385111 0.38290045924336014 0.678146039642757 -0.48655731345559045 0.6781461414349442 -0.4865574332964952 0.29141135288358233 0.38185449067639426
6000000000.0 0.2965162758622368 0.3847592114361606 0.6723394032958125 -0.48965108659950174 0.6723395094287696 -0.48965121225290387 0.2970629388958808 0.38369128669599395
6075000000.0 0.3021710001732572 0.3865356692186089 0.6665168972289224 -0.4926635527789623 0.6665170075749545 -0.4926636843453217 0.302724704470937 0.3854455561920041
6150000000.0 0.30783470218239334 0.3882303441967627 0.6606799144546018 -0.4955947658873624 0.6606800288866761 -0.4955949034535829 0.308395363651089 0.3871178105273855
6225000000.0 0.31350613501995633 0.3898437645434112 0.6548298483864302 -0.4984448234303194 0.6548299667790828 -0.4984449670704367 0.31407366494518385 0.38870857778562956
6300000000.0 0.31918408601777903 0.3913764729664512 0.6489680897946544 -0.5012138664400495 0.6489682120248119 -0.5012140162159725 0.31975839102141845 0.39021840074254305
6375000000.0 0.32486737625664724 0.39282902474740444 0.643096023845379 -0.5039020791313306 0.643096149793099 -0.5039022350936314 0.32544835826559715 0.39164783490723276
6450000000.0 0.3305548599872859 0.3942019858598901 0.6372150272426876 -0.5065096883148601 0.6372151567918104 -0.5065098505036014 0.3311424162128952 0.39299744664214753
6525000000.0 0.3362454239338024 0.395495931176992 0.6313264654909785 -0.5090369625848862 0.6313265985296911 -0.5090371310304779 0.3368394468619532 0.3942678113711351
6600000000.0 0.34193798648908996 0.39671144277548326 0.6254316902927497 -0.5114842112988344 0.6254318267140635 -0.5114843860229124 0.3425383638807486 0.395459511883527
6675000000.0 0.3476314968122296 0.3978491083439146 0.6195320370950118 -0.5138517833673142 0.6195321767971517 -0.5138519643836335 0.34823811171422325 0.39657313674128614
6750000000.0 0.3533249338383479 0.3989095197005378 0.6136288227954744 -0.5161400658733283 0.613628965682181 -0.5161402531886572 0.3539376646040702 0.3976092787952395
6825000000.0 0.3590173052117059 0.39989327142603015 0.6077233436176664 -0.5183494825397723 0.607723489598414 -0.5183496761547872 0.35963602553140894 0.3985685338154072
6900000000.0 0.36470764615301626 0.40080095961493845 0.6018168731622107 -0.5204804920643915 0.601817022152345 -0.5204806919745616 0.3653322250933031 0.3994514992393873
6975000000.0 0.37039501827212046 0.40163318074874554 0.5959106606396092 -0.5225335863412909 0.5959108125604019 -0.5225337925377436 0.3710253203242154 0.40025877304175733
7050000000.0 0.37607850833717266 0.40239053069243347 0.5900059292880961 -0.5245092885878324 0.5900060840667272 -0.5245095010581966 0.3767143934735136 0.40099095272641083
7125000000.0 0.38175722701143133 0.40307360381543456 0.5841038749784283 -0.5264081513954071 0.5841040325478961 -0.5264083701246274 0.38239855075009876 0.4016486344427723
7200000000.0 0.3874303075686052 0.40368299223687787 0.5782056650058645 -0.5282307547220374 0.5782058253048271 -0.5282309796931524 0.38807692104508473 0.4022324122258501
7275000000.0 0.39309690459748026 0.4042192851941184 0.5723124370680865 -0.5299777038441684 0.5723126000406432 -0.529977935039049 0.39374865464323383 0.4027428773591619
7350000000.0 0.39875619270624646 0.4046830685326307 0.5664252984264317 -0.5316496272842727 0.5664254640218451 -0.5316498646843159 0.39941292193354794 0.4031806178586712
7425000000.0 0.40440736523657345 0.4050749243145051 0.5605453252465066 -0.5332471747300925 0.5605454934188735 -0.5332474183168665 0.4050689121290692 0.40354621807501323
7500000000.0 0.41004963299704417 0.4053954305419908 0.5546735621131034 -0.534771014960469 0.5546737328209812 -0.5347712647163074 0.41071583200547473 0.40384025841051285
7575000000.0 0.41568222302506214 0.4056451609917768 0.5488110217132868 -0.53622183379175 0.5488111949192761 -0.5362220897002902 0.4163529046675918 0.40406331514672383
7650000000.0 0.4213043773857977 0.40582468515503006 0.5429586846805684 -0.5376003320577933 0.5429588603508649 -0.5376005941044597 0.4219793683523956 0.40421596037756086
7725000000.0 0.42691535201614333 0.405934568277575 0.5371174995923017 -0.5389072236355381 0.537117677696216 -0.5389074918079655 0.42759447527645955 0.4042987620424497
7800000000.0 0.43251441562101595 0.40597537149404683 0.5312883831116901 -0.5401432335270628 0.5312885636211472 -0.5401435078154618 0.43319749053521284 0.40431228405336955
7875000000.0 0.43810084862867416 0.4059476520493532 0.5254722202652377 -0.5413090960079777 0.5254724031542571 -0.5413093764054393 0.43878769106066906 0.40425708650916575
7950000000.0 0.44367394221102163 0.4058519636003482 0.5196698648459664 -0.5424055528509071 0.5196700500901341 -0.5424058393536478 0.44436436464362283 0.404133725990071
8025000000.0 0.44923299737415645 0.40568885659026604 0.5138821399323614 -0.543433351631741 0.5138823275082924 -0.5434336442392894 0.4499268090255788 0.4039427559250216
8100000000.0 0.45477732412368044 0.4054588786881576 0.5081098385127117 -0.5443932441252625 0.5081100283975158 -0.5443935428405855 0.4554743310649489 0.40368472702404573
8175000000.0 0.46030624070856163 0.40516257528536104 0.5023537242043374 -0.5452859847956968 0.5023539163750881 -0.5452862896252709 0.46100624598132334 0.403360187767786
8250000000.0 0.4658190729465683 0.4048004900408551 0.4966145320571009 -0.5461123293866987 0.4966147264903149 -0.5461126403405249 0.4665218766808595 0.4029696849460352
8325000000.0 0.47131515363357446 0.4043731654672642 0.4908929694305838 -0.5468730336142885 0.490893166101715 -0.5468733507058559 0.47202055316510416 0.40251376423708196
8400000000.0 0.4767938220382726 0.40388114354924276 0.4851897169343913 -0.5475688519652835 0.4851899158173438 -0.5475691752114815 0.4775016120248112 0.40199297081961916
8475000000.0 0.482254423483126 0.4033249663859944 0.4795054294211741 -0.5482005366028317 0.479505630487839 -0.5482008660238151 0.4829643960196032 0.40140785000899354
8550000000.0 0.4876963090116525 0.4027051768497727 0.47384073702219154 -0.5487688363797819 0.4738409402420098 -0.5487691719987919 0.4884082537436035 0.4007589479096648
8625000000.0 0.49311883514146343 0.4020223192523518 0.4681962462154919 -0.5492744959597692 0.46819645155504774 -0.5492748378029148 0.49383253937647403 0.40004681207588033
