#   Hz   S  RI   R   50
! 
0.000000e+00  -9.364356e-01 0.000000e+00 
1.875000e+07  -9.364064e-01 7.411845e-03 
3.750000e+07  -9.363189e-01 1.482302e-02 
5.625000e+07  -9.361731e-01 2.223286e-02 
7.500000e+07  -9.359690e-01 2.964069e-02 
9.375000e+07  -9.357066e-01 3.704585e-02 
1.125000e+08  -9.353861e-01 4.444766e-02 
1.312500e+08  -9.350074e-01 5.184547e-02 
1.500000e+08  -9.345706e-01 5.923860e-02 
1.687500e+08  -9.340757e-01 6.662640e-02 
1.875000e+08  -9.335230e-01 7.400819e-02 
2.062500e+08  -9.329125e-01 8.138333e-02 
2.250000e+08  -9.322442e-01 8.875115e-02 
2.437500e+08  -9.315183e-01 9.611100e-02 
2.625000e+08  -9.307350e-01 1.034622e-01 
2.812500e+08  -9.298943e-01 1.108042e-01 
3.000000e+08  -9.289965e-01 1.181362e-01 
3.187500e+08  -9.280416e-01 1.254576e-01 
3.375000e+08  -9.270298e-01 1.327678e-01 
3.562500e+08  -9.259614e-01 1.400662e-01 
3.750000e+08  -9.248364e-01 1.473521e-01 
3.937500e+08  -9.236552e-01 1.546248e-01 
4.125000e+08  -9.224178e-01 1.618839e-01 
4.312500e+08  -9.211246e-01 1.691285e-01 
4.500000e+08  -9.197757e-01 1.763581e-01 
4.687500e+08  -9.183713e-01 1.835721e-01 
4.875000e+08  -9.169118e-01 1.907699e-01 
5.062500e+08  -9.153973e-01 1.979509e-01 
5.250000e+08  -9.138281e-01 2.051144e-01 
5.437500e+08  -9.122045e-01 2.122599e-01 
5.625000e+08  -9.105268e-01 2.193868e-01 
5.812500e+08  -9.087953e-01 2.264945e-01 
6.000000e+08  -9.070101e-01 2.335824e-01 
6.187500e+08  -9.051717e-01 2.406499e-01 
6.375000e+08  -9.032804e-01 2.476965e-01 
6.562500e+08  -9.013364e-01 2.547216e-01 
6.750000e+08  -8.993401e-01 2.617246e-01 
6.937500e+08  -8.972918e-01 2.687051e-01 
7.125000e+08  -8.951919e-01 2.756623e-01 
7.312500e+08  -8.930408e-01 2.825959e-01 
7.500000e+08  -8.908386e-01 2.895053e-01 
7.687500e+08  -8.885860e-01 2.963899e-01 
7.875000e+08  -8.862831e-01 3.032492e-01 
8.062500e+08  -8.839304e-01 3.100827e-01 
8.250000e+08  -8.815282e-01 3.168900e-01 
8.437500e+08  -8.790770e-01 3.236704e-01 
8.625000e+08  -8.765772e-01 3.304236e-01 
8.812500e+08  -8.740291e-01 3.371490e-01 
9.000000e+08  -8.714331e-01 3.438462e-01 
9.187500e+08  -8.687897e-01 3.505147e-01 
9.375000e+08  -8.660993e-01 3.571539e-01 
9.562500e+08  -8.633623e-01 3.637636e-01 
9.750000e+08  -8.605792e-01 3.703432e-01 
9.937500e+08  -8.577504e-01 3.768923e-01 
1.012500e+09  -8.548762e-01 3.834104e-01 
1.031250e+09  -8.519573e-01 3.898971e-01 
1.050000e+09  -8.489939e-01 3.963521e-01 
1.068750e+09  -8.459867e-01 4.027749e-01 
1.087500e+09  -8.429360e-01 4.091651e-01 
1.106250e+09  -8.398422e-01 4.155223e-01 
1.125000e+09  -8.367060e-01 4.218461e-01 
1.143750e+09  -8.335277e-01 4.281362e-01 
1.162500e+09  -8.303078e-01 4.343922e-01 
1.181250e+09  -8.270468e-01 4.406137e-01 
1.200000e+09  -8.237452e-01 4.468004e-01 
1.218750e+09  -8.204035e-01 4.529519e-01 
1.237500e+09  -8.170221e-01 4.590680e-01 
1.256250e+09  -8.136016e-01 4.651482e-01 
1.275000e+09  -8.101424e-01 4.711923e-01 
1.293750e+09  -8.066451e-01 4.772000e-01 
1.312500e+09  -8.031101e-01 4.831709e-01 
1.331250e+09  -7.995380e-01 4.891048e-01 
1.350000e+09  -7.959292e-01 4.950013e-01 
1.368750e+09  -7.922843e-01 5.008603e-01 
1.387500e+09  -7.886038e-01 5.066813e-01 
1.406250e+09  -7.848881e-01 5.124643e-01 
1.425000e+09  -7.811379e-01 5.182089e-01 
1.443750e+09  -7.773535e-01 5.239149e-01 
1.462500e+09  -7.735356e-01 5.295821e-01 
1.481250e+09  -7.696846e-01 5.352101e-01 
1.500000e+09  -7.658011e-01 5.407989e-01 
1.518750e+09  -7.618856e-01 5.463482e-01 
1.537500e+09  -7.579385e-01 5.518578e-01 
1.556250e+09  -7.539605e-01 5.573275e-01 
1.575000e+09  -7.499520e-01 5.627571e-01 
1.593750e+09  -7.459135e-01 5.681464e-01 
1.612500e+09  -7.418456e-01 5.734954e-01 
1.631250e+09  -7.377488e-01 5.788037e-01 
1.650000e+09  -7.336236e-01 5.840714e-01 
1.668750e+09  -7.294706e-01 5.892981e-01 
1.687500e+09  -7.252902e-01 5.944839e-01 
1.706250e+09  -7.210829e-01 5.996285e-01 
1.725000e+09  -7.168493e-01 6.047318e-01 
1.743750e+09  -7.125899e-01 6.097937e-01 
1.762500e+09  -7.083052e-01 6.148142e-01 
1.781250e+09  -7.039958e-01 6.197931e-01 
1.800000e+09  -6.996621e-01 6.247303e-01 
1.818750e+09  -6.953046e-01 6.296258e-01 
1.837500e+09  -6.909238e-01 6.344794e-01 
1.856250e+09  -6.865204e-01 6.392911e-01 
1.875000e+09  -6.820947e-01 6.440609e-01 
1.893750e+09  -6.776472e-01 6.487886e-01 
1.912500e+09  -6.731786e-01 6.534743e-01 
1.931250e+09  -6.686892e-01 6.581178e-01 
1.950000e+09  -6.641796e-01 6.627193e-01 
1.968750e+09  -6.596502e-01 6.672785e-01 
1.987500e+09  -6.551016e-01 6.717956e-01 
2.006250e+09  -6.505343e-01 6.762704e-01 
2.025000e+09  -6.459487e-01 6.807031e-01 
2.043750e+09  -6.413453e-01 6.850935e-01 
2.062500e+09  -6.367246e-01 6.894418e-01 
2.081250e+09  -6.320871e-01 6.937478e-01 
2.100000e+09  -6.274333e-01 6.980117e-01 
2.118750e+09  -6.227636e-01 7.022334e-01 
2.137500e+09  -6.180785e-01 7.064130e-01 
2.156250e+09  -6.133785e-01 7.105505e-01 
2.175000e+09  -6.086640e-01 7.146459e-01 
2.193750e+09  -6.039355e-01 7.186994e-01 
2.212500e+09  -5.991935e-01 7.227109e-01 
2.231250e+09  -5.944384e-01 7.266806e-01 
2.250000e+09  -5.896707e-01 7.306084e-01 
2.268750e+09  -5.848908e-01 7.344944e-01 
2.287500e+09  -5.800992e-01 7.383388e-01 
2.306250e+09  -5.752962e-01 7.421416e-01 
2.325000e+09  -5.704824e-01 7.459028e-01 
2.343750e+09  -5.656581e-01 7.496227e-01 
2.362500e+09  -5.608239e-01 7.533012e-01 
2.381250e+09  -5.559800e-01 7.569385e-01 
2.400000e+09  -5.511270e-01 7.605346e-01 
2.418750e+09  -5.462653e-01 7.640897e-01 
2.437500e+09  -5.413953e-01 7.676040e-01 
2.456250e+09  -5.365173e-01 7.710774e-01 
2.475000e+09  -5.316318e-01 7.745102e-01 
2.493750e+09  -5.267393e-01 7.779024e-01 
2.512500e+09  -5.218400e-01 7.812542e-01 
2.531250e+09  -5.169344e-01 7.845657e-01 
2.550000e+09  -5.120228e-01 7.878371e-01 
2.568750e+09  -5.071058e-01 7.910685e-01 
2.587500e+09  -5.021835e-01 7.942601e-01 
2.606250e+09  -4.972565e-01 7.974119e-01 
2.625000e+09  -4.923251e-01 8.005242e-01 
2.643750e+09  -4.873896e-01 8.035970e-01 
2.662500e+09  -4.824504e-01 8.066307e-01 
2.681250e+09  -4.775080e-01 8.096252e-01 
2.700000e+09  -4.725625e-01 8.125809e-01 
2.718750e+09  -4.676144e-01 8.154978e-01 
2.737500e+09  -4.626641e-01 8.183761e-01 
2.756250e+09  -4.577118e-01 8.212160e-01 
2.775000e+09  -4.527580e-01 8.240177e-01 
2.793750e+09  -4.478029e-01 8.267814e-01 
2.812500e+09  -4.428468e-01 8.295072e-01 
2.831250e+09  -4.378902e-01 8.321953e-01 
2.850000e+09  -4.329333e-01 8.348460e-01 
2.868750e+09  -4.279764e-01 8.374593e-01 
2.887500e+09  -4.230198e-01 8.400355e-01 
2.906250e+09  -4.180639e-01 8.425749e-01 
2.925000e+09  -4.131090e-01 8.450775e-01 
2.943750e+09  -4.081553e-01 8.475436e-01 
2.962500e+09  -4.032032e-01 8.499733e-01 
2.981250e+09  -3.982529e-01 8.523670e-01 
3.000000e+09  -3.933047e-01 8.547247e-01 
3.018750e+09  -3.883589e-01 8.570468e-01 
3.037500e+09  -3.834158e-01 8.593333e-01 
3.056250e+09  -3.784757e-01 8.615846e-01 
3.075000e+09  -3.735388e-01 8.638007e-01 
3.093750e+09  -3.686054e-01 8.659820e-01 
3.112500e+09  -3.636757e-01 8.681286e-01 
3.131250e+09  -3.587500e-01 8.702408e-01 
3.150000e+09  -3.538286e-01 8.723188e-01 
3.168750e+09  -3.489116e-01 8.743628e-01 
3.187500e+09  -3.439995e-01 8.763729e-01 
3.206250e+09  -3.390923e-01 8.783495e-01 
3.225000e+09  -3.341903e-01 8.802928e-01 
3.243750e+09  -3.292938e-01 8.822029e-01 
3.262500e+09  -3.244029e-01 8.840801e-01 
3.281250e+09  -3.195180e-01 8.859246e-01 
3.300000e+09  -3.146392e-01 8.877366e-01 
3.318750e+09  -3.097667e-01 8.895164e-01 
3.337500e+09  -3.049007e-01 8.912642e-01 
3.356250e+09  -3.000415e-01 8.929802e-01 
3.375000e+09  -2.951893e-01 8.946646e-01 
3.393750e+09  -2.903442e-01 8.963177e-01 
3.412500e+09  -2.855065e-01 8.979397e-01 
3.431250e+09  -2.806763e-01 8.995307e-01 
3.450000e+09  -2.758539e-01 9.010911e-01 
3.468750e+09  -2.710394e-01 9.026211e-01 
3.487500e+09  -2.662329e-01 9.041208e-01 
3.506250e+09  -2.614348e-01 9.055906e-01 
3.525000e+09  -2.566451e-01 9.070306e-01 
3.543750e+09  -2.518640e-01 9.084410e-01 
3.562500e+09  -2.470917e-01 9.098222e-01 
3.581250e+09  -2.423284e-01 9.111743e-01 
3.600000e+09  -2.375741e-01 9.124975e-01 
3.618750e+09  -2.328291e-01 9.137921e-01 
3.637500e+09  -2.280936e-01 9.150584e-01 
3.656250e+09  -2.233676e-01 9.162964e-01 
3.675000e+09  -2.186513e-01 9.175065e-01 
3.693750e+09  -2.139449e-01 9.186889e-01 
3.712500e+09  -2.092485e-01 9.198437e-01 
3.731250e+09  -2.045622e-01 9.209713e-01 
3.750000e+09  -1.998861e-01 9.220719e-01 
3.768750e+09  -1.952205e-01 9.231456e-01 
3.787500e+09  -1.905653e-01 9.241927e-01 
3.806250e+09  -1.859209e-01 9.252135e-01 
3.825000e+09  -1.812871e-01 9.262081e-01 
3.843750e+09  -1.766643e-01 9.271767e-01 
3.862500e+09  -1.720524e-01 9.281197e-01 
3.881250e+09  -1.674517e-01 9.290371e-01 
3.900000e+09  -1.628622e-01 9.299293e-01 
3.918750e+09  -1.582840e-01 9.307964e-01 
3.937500e+09  -1.537172e-01 9.316387e-01 
3.956250e+09  -1.491619e-01 9.324564e-01 
3.975000e+09  -1.446183e-01 9.332496e-01 
3.993750e+09  -1.400864e-01 9.340187e-01 
4.012500e+09  -1.355663e-01 9.347638e-01 
4.031250e+09  -1.310580e-01 9.354851e-01 
4.050000e+09  -1.265618e-01 9.361829e-01 
4.068750e+09  -1.220776e-01 9.368573e-01 
4.087500e+09  -1.176056e-01 9.375086e-01 
4.106250e+09  -1.131458e-01 9.381370e-01 
4.125000e+09  -1.086983e-01 9.387427e-01 
4.143750e+09  -1.042632e-01 9.393260e-01 
4.162500e+09  -9.984056e-02 9.398869e-01 
4.181250e+09  -9.543042e-02 9.404257e-01 
4.200000e+09  -9.103286e-02 9.409426e-01 
4.218750e+09  -8.664796e-02 9.414379e-01 
4.237500e+09  -8.227577e-02 9.419117e-01 
4.256250e+09  -7.791635e-02 9.423642e-01 
4.275000e+09  -7.356977e-02 9.427957e-01 
4.293750e+09  -6.923607e-02 9.432063e-01 
4.312500e+09  -6.491531e-02 9.435962e-01 
4.331250e+09  -6.060754e-02 9.439657e-01 
4.350000e+09  -5.631282e-02 9.443148e-01 
4.368750e+09  -5.203119e-02 9.446439e-01 
4.387500e+09  -4.776269e-02 9.449531e-01 
4.406250e+09  -4.350737e-02 9.452426e-01 
4.425000e+09  -3.926528e-02 9.455126e-01 
4.443750e+09  -3.503644e-02 9.457633e-01 
4.462500e+09  -3.082090e-02 9.459948e-01 
4.481250e+09  -2.661870e-02 9.462074e-01 
4.500000e+09  -2.242986e-02 9.464013e-01 
4.518750e+09  -1.825443e-02 9.465765e-01 
4.537500e+09  -1.409243e-02 9.467335e-01 
4.556250e+09  -9.943892e-03 9.468722e-01 
4.575000e+09  -5.808842e-03 9.469928e-01 
4.593750e+09  -1.687307e-03 9.470957e-01 
4.612500e+09  2.420689e-03 9.471809e-01 
4.631250e+09  6.515123e-03 9.472486e-01 
4.650000e+09  1.059597e-02 9.472990e-01 
4.668750e+09  1.466322e-02 9.473323e-01 
4.687500e+09  1.871685e-02 9.473486e-01 
4.706250e+09  2.275685e-02 9.473481e-01 
4.725000e+09  2.678319e-02 9.473311e-01 
4.743750e+09  3.079586e-02 9.472975e-01 
4.762500e+09  3.479486e-02 9.472477e-01 
4.781250e+09  3.878017e-02 9.471819e-01 
4.800000e+09  4.275178e-02 9.471000e-01 
4.818750e+09  4.670968e-02 9.470024e-01 
4.837500e+09  5.065387e-02 9.468892e-01 
4.856250e+09  5.458434e-02 9.467606e-01 
4.875000e+09  5.850108e-02 9.466166e-01 
4.893750e+09  6.240410e-02 9.464575e-01 
4.912500e+09  6.629339e-02 9.462835e-01 
4.931250e+09  7.016894e-02 9.460947e-01 
4.950000e+09  7.403077e-02 9.458912e-01 
4.968750e+09  7.787887e-02 9.456732e-01 
4.987500e+09  8.171324e-02 9.454408e-01 
5.006250e+09  8.553388e-02 9.451943e-01 
5.025000e+09  8.934081e-02 9.449337e-01 
5.043750e+09  9.313403e-02 9.446593e-01 
5.062500e+09  9.691353e-02 9.443711e-01 
5.081250e+09  1.006793e-01 9.440693e-01 
5.100000e+09  1.044315e-01 9.437540e-01 
5.118750e+09  1.081699e-01 9.434255e-01 
5.137500e+09  1.118946e-01 9.430837e-01 
5.156250e+09  1.156057e-01 9.427290e-01 
5.175000e+09  1.193032e-01 9.423614e-01 
5.193750e+09  1.229870e-01 9.419811e-01 
5.212500e+09  1.266572e-01 9.415881e-01 
5.231250e+09  1.303138e-01 9.411827e-01 
5.250000e+09  1.339568e-01 9.407650e-01 
5.268750e+09  1.375862e-01 9.403351e-01 
5.287500e+09  1.412020e-01 9.398931e-01 
5.306250e+09  1.448043e-01 9.394392e-01 
5.325000e+09  1.483931e-01 9.389735e-01 
5.343750e+09  1.519684e-01 9.384962e-01 
5.362500e+09  1.555302e-01 9.380073e-01 
5.381250e+09  1.590785e-01 9.375071e-01 
5.400000e+09  1.626134e-01 9.369955e-01 
5.418750e+09  1.661349e-01 9.364728e-01 
5.437500e+09  1.696429e-01 9.359391e-01 
5.456250e+09  1.731376e-01 9.353945e-01 
5.475000e+09  1.766189e-01 9.348391e-01 
5.493750e+09  1.800869e-01 9.342730e-01 
5.512500e+09  1.835416e-01 9.336965e-01 
5.531250e+09  1.869830e-01 9.331094e-01 
5.550000e+09  1.904111e-01 9.325121e-01 
5.568750e+09  1.938260e-01 9.319046e-01 
5.587500e+09  1.972277e-01 9.312871e-01 
5.606250e+09  2.006162e-01 9.306596e-01 
5.625000e+09  2.039916e-01 9.300222e-01 
5.643750e+09  2.073539e-01 9.293751e-01 
5.662500e+09  2.107030e-01 9.287184e-01 
5.681250e+09  2.140391e-01 9.280523e-01 
5.700000e+09  2.173622e-01 9.273767e-01 
5.718750e+09  2.206722e-01 9.266918e-01 
5.737500e+09  2.239693e-01 9.259977e-01 
5.756250e+09  2.272534e-01 9.252946e-01 
5.775000e+09  2.305246e-01 9.245825e-01 
5.793750e+09  2.337830e-01 9.238616e-01 
5.812500e+09  2.370284e-01 9.231318e-01 
5.831250e+09  2.402611e-01 9.223935e-01 
5.850000e+09  2.434809e-01 9.216465e-01 
5.868750e+09  2.466880e-01 9.208912e-01 
5.887500e+09  2.498824e-01 9.201274e-01 
5.906250e+09  2.530641e-01 9.193554e-01 
5.925000e+09  2.562331e-01 9.185753e-01 
5.943750e+09  2.593895e-01 9.177871e-01 
5.962500e+09  2.625333e-01 9.169909e-01 
5.981250e+09  2.656646e-01 9.161869e-01 
6.000000e+09  2.687833e-01 9.153750e-01 
6.018750e+09  2.718895e-01 9.145555e-01 
6.037500e+09  2.749833e-01 9.137284e-01 
6.056250e+09  2.780646e-01 9.128938e-01 
6.075000e+09  2.811336e-01 9.120518e-01 
6.093750e+09  2.841902e-01 9.112025e-01 
6.112500e+09  2.872345e-01 9.103459e-01 
6.131250e+09  2.902666e-01 9.094822e-01 
6.150000e+09  2.932864e-01 9.086114e-01 
6.168750e+09  2.962939e-01 9.077337e-01 
6.187500e+09  2.992893e-01 9.068491e-01 
6.206250e+09  3.022726e-01 9.059576e-01 
6.225000e+09  3.052438e-01 9.050595e-01 
6.243750e+09  3.082029e-01 9.041547e-01 
6.262500e+09  3.111500e-01 9.032434e-01 
6.281250e+09  3.140851e-01 9.023256e-01 
6.300000e+09  3.170082e-01 9.014014e-01 
6.318750e+09  3.199194e-01 9.004709e-01 
6.337500e+09  3.228188e-01 8.995341e-01 
6.356250e+09  3.257063e-01 8.985912e-01 
6.375000e+09  3.285820e-01 8.976423e-01 
6.393750e+09  3.314460e-01 8.966873e-01 
6.412500e+09  3.342982e-01 8.957264e-01 
6.431250e+09  3.371387e-01 8.947596e-01 
6.450000e+09  3.399676e-01 8.937871e-01 
6.468750e+09  3.427848e-01 8.928089e-01 
6.487500e+09  3.455905e-01 8.918250e-01 
6.506250e+09  3.483846e-01 8.908356e-01 
6.525000e+09  3.511673e-01 8.898407e-01 
6.543750e+09  3.539384e-01 8.888404e-01 
6.562500e+09  3.566982e-01 8.878348e-01 
6.581250e+09  3.594466e-01 8.868238e-01 
6.600000e+09  3.621836e-01 8.858077e-01 
6.618750e+09  3.649093e-01 8.847864e-01 
6.637500e+09  3.676237e-01 8.837601e-01 
6.656250e+09  3.703269e-01 8.827288e-01 
6.675000e+09  3.730189e-01 8.816925e-01 
6.693750e+09  3.756997e-01 8.806513e-01 
6.712500e+09  3.783694e-01 8.796054e-01 
6.731250e+09  3.810280e-01 8.785547e-01 
6.750000e+09  3.836756e-01 8.774993e-01 
6.768750e+09  3.863122e-01 8.764393e-01 
6.787500e+09  3.889378e-01 8.753748e-01 
6.806250e+09  3.915525e-01 8.743057e-01 
6.825000e+09  3.941563e-01 8.732323e-01 
6.843750e+09  3.967492e-01 8.721544e-01 
6.862500e+09  3.993313e-01 8.710723e-01 
6.881250e+09  4.019027e-01 8.699859e-01 
6.900000e+09  4.044633e-01 8.688953e-01 
6.918750e+09  4.070132e-01 8.678006e-01 
6.937500e+09  4.095524e-01 8.667018e-01 
6.956250e+09  4.120810e-01 8.655991e-01 
6.975000e+09  4.145990e-01 8.644923e-01 
6.993750e+09  4.171065e-01 8.633816e-01 
7.012500e+09  4.196035e-01 8.622671e-01 
7.031250e+09  4.220900e-01 8.611488e-01 
7.050000e+09  4.245660e-01 8.600268e-01 
7.068750e+09  4.270317e-01 8.589011e-01 
7.087500e+09  4.294870e-01 8.577717e-01 
7.106250e+09  4.319319e-01 8.566388e-01 
7.125000e+09  4.343666e-01 8.555023e-01 
7.143750e+09  4.367911e-01 8.543624e-01 
7.162500e+09  4.392053e-01 8.532190e-01 
7.181250e+09  4.416094e-01 8.520723e-01 
7.200000e+09  4.440033e-01 8.509223e-01 
7.218750e+09  4.463871e-01 8.497690e-01 
7.237500e+09  4.487609e-01 8.486124e-01 
7.256250e+09  4.511246e-01 8.474527e-01 
7.275000e+09  4.534784e-01 8.462899e-01 
7.293750e+09  4.558222e-01 8.451240e-01 
7.312500e+09  4.581561e-01 8.439551e-01 
7.331250e+09  4.604801e-01 8.427832e-01 
7.350000e+09  4.627943e-01 8.416084e-01 
7.368750e+09  4.650987e-01 8.404307e-01 
7.387500e+09  4.673934e-01 8.392501e-01 
7.406250e+09  4.696783e-01 8.380667e-01 
7.425000e+09  4.719535e-01 8.368807e-01 
7.443750e+09  4.742190e-01 8.356919e-01 
7.462500e+09  4.764750e-01 8.345004e-01 
7.481250e+09  4.787214e-01 8.333063e-01 
7.500000e+09  4.809582e-01 8.321097e-01 
7.518750e+09  4.831855e-01 8.309105e-01 
7.537500e+09  4.854034e-01 8.297088e-01 
7.556250e+09  4.876118e-01 8.285047e-01 
7.575000e+09  4.898108e-01 8.272982e-01 
7.593750e+09  4.920005e-01 8.260894e-01 
7.612500e+09  4.941808e-01 8.248782e-01 
7.631250e+09  4.963518e-01 8.236647e-01 
7.650000e+09  4.985136e-01 8.224490e-01 
7.668750e+09  5.006662e-01 8.212311e-01 
7.687500e+09  5.028096e-01 8.200110e-01 
7.706250e+09  5.049438e-01 8.187888e-01 
7.725000e+09  5.070690e-01 8.175646e-01 
7.743750e+09  5.091850e-01 8.163383e-01 
7.762500e+09  5.112921e-01 8.151100e-01 
7.781250e+09  5.133901e-01 8.138797e-01 
7.800000e+09  5.154791e-01 8.126475e-01 
7.818750e+09  5.175593e-01 8.114134e-01 
7.837500e+09  5.196305e-01 8.101774e-01 
7.856250e+09  5.216928e-01 8.089396e-01 
7.875000e+09  5.237464e-01 8.077001e-01 
7.893750e+09  5.257911e-01 8.064588e-01 
7.912500e+09  5.278271e-01 8.052158e-01 
7.931250e+09  5.298543e-01 8.039711e-01 
7.950000e+09  5.318729e-01 8.027247e-01 
7.968750e+09  5.338828e-01 8.014768e-01 
7.987500e+09  5.358841e-01 8.002273e-01 
8.006250e+09  5.378768e-01 7.989762e-01 
8.025000e+09  5.398609e-01 7.977237e-01 
8.043750e+09  5.418366e-01 7.964696e-01 
8.062500e+09  5.438037e-01 7.952141e-01 
8.081250e+09  5.457624e-01 7.939572e-01 
8.100000e+09  5.477127e-01 7.926990e-01 
8.118750e+09  5.496546e-01 7.914394e-01 
8.137500e+09  5.515882e-01 7.901785e-01 
8.156250e+09  5.535134e-01 7.889162e-01 
8.175000e+09  5.554304e-01 7.876528e-01 
8.193750e+09  5.573391e-01 7.863881e-01 
8.212500e+09  5.592396e-01 7.851222e-01 
8.231250e+09  5.611319e-01 7.838552e-01 
8.250000e+09  5.630161e-01 7.825871e-01 
8.268750e+09  5.648922e-01 7.813178e-01 
8.287500e+09  5.667601e-01 7.800475e-01 
8.306250e+09  5.686201e-01 7.787761e-01 
8.325000e+09  5.704720e-01 7.775037e-01 
8.343750e+09  5.723160e-01 7.762304e-01 
8.362500e+09  5.741520e-01 7.749560e-01 
8.381250e+09  5.759800e-01 7.736808e-01 
8.400000e+09  5.778002e-01 7.724046e-01 
8.418750e+09  5.796126e-01 7.711276e-01 
8.437500e+09  5.814171e-01 7.698497e-01 
8.456250e+09  5.832139e-01 7.685710e-01 
8.475000e+09  5.850029e-01 7.672915e-01 
8.493750e+09  5.867841e-01 7.660113e-01 
8.512500e+09  5.885577e-01 7.647303e-01 
8.531250e+09  5.903237e-01 7.634485e-01 
8.550000e+09  5.920820e-01 7.621661e-01 
8.568750e+09  5.938327e-01 7.608831e-01 
8.587500e+09  5.955758e-01 7.595994e-01 
8.606250e+09  5.973114e-01 7.583150e-01 
8.625000e+09  5.990396e-01 7.570301e-01 
8.643750e+09  6.007602e-01 7.557446e-01 
8.662500e+09  6.024735e-01 7.544586e-01 
8.681250e+09  6.041793e-01 7.531720e-01 
8.700000e+09  6.058777e-01 7.518850e-01 
8.718750e+09  6.075688e-01 7.505975e-01 
8.737500e+09  6.092526e-01 7.493095e-01 
8.756250e+09  6.109292e-01 7.480211e-01 
8.775000e+09  6.125985e-01 7.467323e-01 
