! VERSION = 6.00
!Data measured by ggf on Wed Jan 24 08:45:45 2018 using model file NPN_MEAS_SCALE
BEGIN_HEADER
 ICCAP_INPUTS
  vc         V  C GROUND SMU_C 0.1 CON        0
  vs         V  S GROUND SMU_S 0.015 CON        0
  vb         V  B GROUND SMU_B 0.015 LIN        1    0          -2         81   -0.025    
  ve         V  E GROUND SMU_E 0.2 CON        0
 ICCAP_OUTPUTS
  ic         I  C GROUND SMU_C M
  ib         I  B GROUND SMU_B M
 ICCAP_VALUES
  TNOM "27"
  TEMP "27"
  TECHNO "SG13G2"
  LOT "EDJ802"
  WAFER "02"
  CHIP "(3.3)"
  MODULE "S439S"
  DEV_NAME "D02"
  DEV_GEOM_L "5.0"
  DEV_GEOM_W "0.07"
  NUM_OF_TRANS_RF "2"
  REMARKS "Nx=1; Power -30/-20dBm, Slope: 0.1dB/GHz"
  TIMEDATE "Wed Jan 24 08:28:21     2018"
  OPERATOR "ggf"
END_HEADER

BEGIN_DB
 ICCAP_VAR vc         0              
 ICCAP_VAR vs         0              
 ICCAP_VAR ve         0              

 #vb              ic              ib             
  0               -1.7148e-010    -5.402e-011    
  -0.025          2.9832e-010     -6.822e-011    
  -0.05           2.9786e-010     -8.136e-011    
  -0.075          4.2912e-010     -1.1598e-010   
  -0.1            4.75e-010       -1.6618e-010   
  -0.125          5.043e-010      -2.5444e-010   
  -0.15           5.0686e-010     -3.881e-010    
  -0.175          4.827e-010      -5.8762e-010   
  -0.2            5.5444e-010     -8.743e-010    
  -0.225          5.2792e-010     -1.28e-009     
  -0.25           7.2402e-010     -1.8444e-009   
  -0.275          7.6746e-010     -2.6036e-009   
  -0.3            7.1576e-010     -3.6304e-009   
  -0.325          6.8692e-010     -5.0014e-009   
  -0.35           7.3868e-010     -6.7908e-009   
  -0.375          6.8276e-010     -9.1286e-009   
  -0.4            7.2246e-010     -1.2138e-008   
  -0.425          -3.7852e-010    -1.5964e-008   
  -0.45           3.168e-011      -2.0824e-008   
  -0.475          -1.066e-010     -2.6954e-008   
  -0.5            -3.082e-011     -3.457e-008    
  -0.525          -5.322e-011     -4.4062e-008   
  -0.55           -7.476e-011     -5.5694e-008   
  -0.575          5.04e-012       -7.001e-008    
  -0.6            -6.972e-011     -8.7366e-008   
  -0.625          -1.301e-010     -1.0834e-007   
  -0.65           1.598e-011      -1.3386e-007   
  -0.675          -1.4106e-010    -1.6398e-007   
  -0.7            -1.3932e-010    -2.0042e-007   
  -0.725          -8.924e-011     -2.4304e-007   
  -0.75           -9.572e-011     -2.9406e-007   
  -0.775          -1.1094e-010    -3.5338e-007   
  -0.8            -9.626e-011     -4.2322e-007   
  -0.825          -1.39e-010      -5.0484e-007   
  -0.85           -8.518e-011     -5.9954e-007   
  -0.875          -1.7686e-010    -7.0878e-007   
  -0.9            -8.438e-011     -8.3552e-007   
  -0.925          1.776e-011      -9.806e-007    
  -0.95           -3.36e-011      -1.1478e-006   
  -0.975          -7.94e-011      -1.3384e-006   
  -1              -1.083e-010     -1.5536e-006   
  -1.025          -1.041e-010     -1.8004e-006   
  -1.05           -5.64e-011      -2.079e-006    
  -1.075          -1.1106e-010    -2.3948e-006   
  -1.1            -5.514e-011     -2.7492e-006   
  -1.125          -1.147e-010     -3.149e-006    
  -1.15           -1.08e-010      -3.5948e-006   
  -1.175          -9.572e-011     -4.0954e-006   
  -1.2            -8.384e-011     -4.6514e-006   
  -1.225          -6.102e-011     -5.2722e-006   
  -1.25           -6.118e-011     -5.9566e-006   
  -1.275          -6.526e-011     -6.7232e-006   
  -1.3            -7.354e-011     -7.5654e-006   
  -1.325          -8.472e-011     -8.5e-006      
  -1.35           -8.33e-011      -9.526e-006    
  -1.375          -4.37e-011      -1.06596e-005  
  -1.4            -6.954e-011     -1.1894e-005   
  -1.425          -1.488e-010     -1.3252e-005   
  -1.45           7.04e-011       -1.4742e-005   
  -1.475          1.068e-011      -1.6374e-005   
  -1.5            2.022e-011      -1.8142e-005   
  -1.525          9.73e-011       -2.0078e-005   
  -1.55           1.312e-010      -2.2182e-005   
  -1.575          1.656e-010      -2.4466e-005   
  -1.6            2.3476e-010     -2.695e-005    
  -1.625          4.0674e-010     -2.963e-005    
  -1.65           4.5168e-010     -3.254e-005    
  -1.675          6.255e-010      -3.567e-005    
  -1.7            7.528e-010      -3.9062e-005   
  -1.725          1.11034e-009    -4.2704e-005   
  -1.75           4.198e-010      -4.6644e-005   
  -1.775          2.1248e-009     -5.0856e-005   
  -1.8            2.442e-009      -5.5396e-005   
  -1.825          2.9084e-009     -6.0254e-005   
  -1.85           3.7482e-009     -6.547e-005    
  -1.875          4.7446e-009     -7.1078e-005   
  -1.9            5.7898e-009     -7.707e-005    
  -1.925          7.126e-009      -8.3432e-005   
  -1.95           8.8302e-009     -9.0266e-005   
  -1.975          1.08158e-008    -9.7516e-005   
  -2              1.334e-008      -0.00010528    
END_DB

