! VERSION = 6.00
!Data measured by ggf on Wed Jan 24 08:45:44 2018 using model file NPN_MEAS_SCALE
BEGIN_HEADER
 ICCAP_INPUTS
  vc         V  C GROUND SMU_C 0.2 SYNC       1 -0.5 vb
  ve         V  E GROUND SMU_E 0 CON        0
  vs         V  S GROUND SMU_S 0 CON        0
  freq       F  LIST       1 74 100000000 200000000 300000000 400000000 500000000 600000000 700000000 800000000 900000000 1000000000 2000000000 3000000000 4000000000 5000000000 6000000000 7000000000 8000000000 9000000000 10000000000 11000000000 12000000000 13000000000 14000000000 15000000000 16000000000 17000000000 18000000000 19000000000 20000000000 21000000000 22000000000 23000000000 24000000000 25000000000 26000000000 27000000000 28000000000 29000000000 30000000000 31000000000 32000000000 33000000000 34000000000 35000000000 36000000000 37000000000 38000000000 39000000000 40000000000 41000000000 42000000000 43000000000 44000000000 45000000000 46000000000 47000000000 48000000000 49000000000 50000000000 51000000000 52000000000 53000000000 54000000000 55000000000 56000000000 57000000000 58000000000 59000000000 60000000000 61000000000 62000000000 63000000000 64000000000 65000000000
  vb         V  B GROUND SMU_B 0.015 LIN        2    0.74       0.87       27   0.005     
 ICCAP_OUTPUTS
  ic         I  C GROUND SMU_C M
  ib         I  B GROUND SMU_B M
  S          S  B C GROUND NWA M
  S_deemb    S B C GROUND n/a B
 ICCAP_VALUES
  TNOM "27"
  TEMP "27"
  TECHNO "SG13G2"
  LOT "EDJ802"
  WAFER "02"
  CHIP "(3.3)"
  MODULE "S439S"
  DEV_NAME "D02"
  DEV_GEOM_L "5.0"
  DEV_GEOM_W "0.07"
  NUM_OF_TRANS_RF "2"
  REMARKS "Nx=1; Power -30/-20dBm, Slope: 0.1dB/GHz"
  TIMEDATE "Wed Jan 24 08:28:21     2018"
  OPERATOR "ggf"
END_HEADER

BEGIN_DB
 ICCAP_VAR vc         0.24           
 ICCAP_VAR ve         0              
 ICCAP_VAR vs         0              
 ICCAP_VAR vb         0.74           

 #freq            ic              ib              R:S(1,1)        I:S(1,1)        R:S(1,2)        I:S(1,2)        R:S(2,1)        I:S(2,1)        R:S(2,2)        I:S(2,2)        R:S_deemb(1,1)  I:S_deemb(1,1)  R:S_deemb(1,2)  I:S_deemb(1,2)  R:S_deemb(2,1)  I:S_deemb(2,1)  R:S_deemb(2,2)  I:S_deemb(2,2) 
  1e+008          0.00014984      2.529e-007      0.998652        -0.00427081     9.33932e-005    0.00102324      -0.606869       -0.0052952      0.99945         -0.00328387     0.998677        -0.00293427     8.23307e-005    0.000903253     -0.607327       -0.00625918     0.999492        -0.00182753    
  2e+008          0.00014984      2.529e-007      0.999178        -0.00959841     4.75475e-005    0.00200061      -0.590793       0.000393443     0.999377        -0.00605365     0.999152        -0.00717939     8.65336e-005    0.00185117      -0.591167       -0.00110956     0.999436        -0.00361722    
  3e+008          0.00014984      2.529e-007      0.99889         -0.0144057      0.000121036     0.0030066       -0.593031       0.00478567      0.999399        -0.00919731     0.998811        -0.0110148      0.000104108     0.00279741      -0.593238       0.00253068      0.999282        -0.00565044    
  4e+008          0.00014984      2.529e-007      0.999219        -0.0196518      0.000115822     0.00408675      -0.585506       0.00973717      0.998914        -0.0121728      0.998957        -0.0150996      0.000110593     0.00385853      -0.585818       0.00668773      0.99906         -0.00747821    
  5e+008          0.00014984      2.529e-007      0.998747        -0.0249657      0.000210306     0.00509154      -0.592036       0.0136811       0.999029        -0.0150125      0.998477        -0.018735       0.000188174     0.00480497      -0.592338       0.00978526      0.999074        -0.00926149    
  6e+008          0.00014984      2.529e-007      0.998878        -0.0305404      0.00027243      0.00607077      -0.592066       0.0173822       0.999014        -0.01791        0.999021        -0.0235514      0.000198773     0.00569872      -0.5924         0.0127849       0.999036        -0.0110312     
  7e+008          0.00014984      2.529e-007      0.998726        -0.0356043      0.000348391     0.00706835      -0.592106       0.022567        0.998528        -0.0210366      0.998795        -0.0277584      0.000296025     0.00667937      -0.592527       0.017294        0.99859         -0.0129975     
  8e+008          0.00014984      2.529e-007      0.998371        -0.040614       0.000394453     0.00806742      -0.594073       0.0271157       0.998803        -0.0237326      0.99855         -0.0314164      0.000308974     0.00760148      -0.594548       0.021073        0.998882        -0.0146078     
  9e+008          0.00014984      2.529e-007      0.998192        -0.0459066      0.000485323     0.00908108      -0.589152       0.0322225       0.998411        -0.0268686      0.998373        -0.0357141      0.000341266     0.00853762      -0.589786       0.0255254       0.998637        -0.0165835     
  1e+009          0.00014984      2.529e-007      0.997629        -0.050763       0.000566764     0.0100348       -0.594207       0.0374528       0.998145        -0.0296561      0.998097        -0.0393555      0.000447304     0.00948061      -0.594992       0.0299166       0.998402        -0.0182693     
  2e+009          0.00014984      2.529e-007      0.993137        -0.100565       0.00186003      0.0199245       -0.577194       0.0755238       0.995072        -0.0586917      0.995167        -0.0779792      0.00137411      0.0187803       -0.579472       0.0608851       0.996239        -0.0359647     
  3e+009          0.00014984      2.529e-007      0.984593        -0.152006       0.00405174      0.0295941       -0.579313       0.110953        0.991498        -0.0873475      0.989653        -0.118506       0.00289685      0.0280041       -0.58404        0.0891137       0.994218        -0.0537224     
  4e+009          0.00014984      2.529e-007      0.973587        -0.200356       0.00683985      0.0389174       -0.571591       0.150043        0.986878        -0.114588       0.982321        -0.156446       0.00482478      0.0369581       -0.57985        0.121521        0.991723        -0.0701181     
  5e+009          0.00014984      2.529e-007      0.960413        -0.246693       0.0104773       0.0480772       -0.55419        0.184528        0.98056         -0.141345       0.973971        -0.192799       0.00735056      0.0459094       -0.566769       0.150037        0.988002        -0.0861494     
  6e+009          0.00014984      2.529e-007      0.943216        -0.293858       0.0147687       0.0567598       -0.537202       0.218137        0.972567        -0.169573       0.962477        -0.230831       0.0103743       0.054526        -0.554928       0.178309        0.98347         -0.103739      
  7e+009          0.00014984      2.529e-007      0.924021        -0.339627       0.0196677       0.0650583       -0.521303       0.251358        0.965632        -0.196281       0.950209        -0.267563       0.0138152       0.0629688       -0.545141       0.206515        0.980088        -0.120259      
  8e+009          0.00014984      2.529e-007      0.903575        -0.380927       0.0251515       0.0727837       -0.503878       0.2819          0.956588        -0.220326       0.936562        -0.30088        0.017712        0.0709841       -0.534004       0.232945        0.975147        -0.134592      
  9e+009          0.00014984      2.529e-007      0.879389        -0.422641       0.0313124       0.0801215       -0.482931       0.310024        0.945611        -0.245527       0.920379        -0.336253       0.0222215       0.0789294       -0.519958       0.258013        0.968862        -0.150293      
  1e+010          0.00014984      2.529e-007      0.853912        -0.463288       0.0377177       0.0863866       -0.456608       0.33746         0.933508        -0.27134        0.90349         -0.369022       0.0267418       0.0859853       -0.501264       0.282956        0.962021        -0.166916      
  1.1e+010        0.00014984      2.529e-007      0.827417        -0.498393       0.0444988       0.0927609       -0.437351       0.359557        0.924378        -0.293492       0.885646        -0.400211       0.0317471       0.0933543       -0.489048       0.303343        0.957931        -0.180195      
  1.2e+010        0.00014984      2.529e-007      0.798629        -0.5329         0.0519363       0.0984202       -0.4146         0.386394        0.912171        -0.315273       0.86611         -0.42958        0.0371817       0.100308        -0.474993       0.328901        0.95137         -0.193563      
  1.3e+010        0.00014984      2.529e-007      0.766793        -0.565261       0.0594276       0.103338        -0.392377       0.409311        0.896543        -0.335682       0.843577        -0.458866       0.0428071       0.106819        -0.461171       0.351892        0.942052        -0.206669      
  1.4e+010        0.00014984      2.529e-007      0.737344        -0.596217       0.0675657       0.107455        -0.363555       0.426022        0.884395        -0.358988       0.823782        -0.486944       0.0490624       0.112933        -0.44029        0.369862        0.936354        -0.222406      
  1.5e+010        0.00014984      2.529e-007      0.707054        -0.621514       0.0755121       0.110624        -0.330983       0.438594        0.871164        -0.378098       0.802042        -0.510367       0.0554011       0.118178        -0.414562       0.38528         0.92917         -0.234547      
  1.6e+010        0.00014984      2.529e-007      0.674087        -0.648123       0.0836875       0.11354         -0.306137       0.453438        0.857158        -0.395558       0.778645        -0.535829       0.0619666       0.123404        -0.397317       0.402355        0.920967        -0.245535      
  1.7e+010        0.00014984      2.529e-007      0.640276        -0.671208       0.0916822       0.115501        -0.276161       0.462726        0.839718        -0.412941       0.753675        -0.559255       0.068624        0.127886        -0.373922       0.415977        0.91061         -0.257279      
  1.8e+010        0.00014984      2.529e-007      0.608335        -0.69208        0.0997222       0.117277        -0.251665       0.47408         0.825447        -0.431181       0.730542        -0.580412       0.0753432       0.132451        -0.356602       0.430833        0.903193        -0.269501      
  1.9e+010        0.00014984      2.529e-007      0.577113        -0.708789       0.107638        0.11831         -0.224839       0.486583        0.812866        -0.452469       0.706939        -0.598027       0.0820282       0.136286        -0.337137       0.447857        0.897658        -0.28414       
  2e+010          0.00014984      2.529e-007      0.540902        -0.729081       0.115083        0.118334        -0.199483       0.489309        0.796677        -0.459819       0.679821        -0.620763       0.0888402       0.139123        -0.316414       0.455868        0.886617        -0.287751      
  2.1e+010        0.00014984      2.529e-007      0.511621        -0.74609        0.122195        0.118581        -0.17689        0.498134        0.778844        -0.467489       0.65848         -0.639111       0.095395        0.142391        -0.300116       0.470231        0.875618        -0.292523      
  2.2e+010        0.00014984      2.529e-007      0.47856         -0.757135       0.129672        0.118535        -0.149252       0.500077        0.757129        -0.48763        0.632137        -0.653175       0.10244         0.145651        -0.277016       0.479162        0.863221        -0.308736      
  2.3e+010        0.00014984      2.529e-007      0.445783        -0.767465       0.13685         0.117266        -0.123396       0.50207         0.75201         -0.512236       0.605842        -0.666736       0.109128        0.147539        -0.255552       0.486794        0.864354        -0.325367      
  2.4e+010        0.00014984      2.529e-007      0.414144        -0.781925       0.141742        0.117117        -0.10344        0.501505        0.766646        -0.511535       0.581922        -0.683992       0.113464        0.149243        -0.237621       0.490341        0.878698        -0.318747      
  2.5e+010        0.00014984      2.529e-007      0.386051        -0.791231       0.151706        0.119968        -0.0860062      0.514039        0.796577        -0.508042       0.561301        -0.695072       0.122282        0.154154        -0.222909       0.505688        0.900076        -0.312255      
  2.6e+010        0.00014984      2.529e-007      0.354966        -0.796454       0.162753        0.113096        -0.0464593      0.515273        0.742613        -0.53523        0.534659        -0.704546       0.133898        0.151792        -0.188603       0.516651        0.85644         -0.332238      
  2.7e+010        0.00014984      2.529e-007      0.318122        -0.806175       0.16707         0.110439        -0.0246312      0.511944        0.665859        -0.552718       0.503525        -0.720251       0.140121        0.153614        -0.17017        0.525008        0.805977        -0.359891      
  2.8e+010        0.00014984      2.529e-007      0.291162        -0.810628       0.173801        0.105707        0.00268698      0.505115        0.63336         -0.60235        0.481939        -0.729038       0.148149        0.153995        -0.146994       0.529189        0.793869        -0.406203      
  2.9e+010        0.00014984      2.529e-007      0.265146        -0.812507       0.176166        0.10313         0.017107        0.496919        0.639494        -0.604233       0.460691        -0.734606       0.150739        0.153755        -0.134307       0.525555        0.804317        -0.398508      
  3e+010          0.00014984      2.529e-007      0.233042        -0.81461        0.18156         0.10228         0.035458        0.49185         0.645239        -0.590831       0.433044        -0.742214       0.156414        0.154869        -0.115316       0.525197        0.805506        -0.380428      
  3.1e+010        0.00014984      2.529e-007      0.202249        -0.820997       0.187673        0.0984136       0.0589199       0.486758        0.619783        -0.597131       0.408512        -0.753849       0.163867        0.153924        -0.0917135      0.528551        0.784514        -0.390303      
  3.2e+010        0.00014984      2.529e-007      0.184379        -0.819896       0.192381        0.0952216       0.0768627       0.477108        0.596662        -0.606435       0.394057        -0.755411       0.169805        0.153612        -0.0730755      0.526389        0.770227        -0.399894      
  3.3e+010        0.00014984      2.529e-007      0.152623        -0.81311        0.197815        0.0919607       0.0918811       0.47285         0.590885        -0.619153       0.363584        -0.755117       0.176125        0.153727        -0.0592199      0.528107        0.772201        -0.406197      
  3.4e+010        0.00014984      2.529e-007      0.117367        -0.809859       0.203545        0.0878058       0.112581        0.467575        0.578888        -0.6266         0.330677        -0.760241       0.183438        0.152624        -0.038372       0.530952        0.764741        -0.411867      
  3.5e+010        0.00014984      2.529e-007      0.0980894       -0.816762       0.207138        0.083706        0.129946        0.457329        0.56691         -0.630242       0.316614        -0.771005       0.188656        0.150956        -0.0188004      0.527981        0.757195        -0.414         
  3.6e+010        0.00014984      2.529e-007      0.0789159       -0.81191        0.210488        0.0789937       0.144362        0.447481        0.540344        -0.640213       0.299893        -0.769439       0.194193        0.148695        -0.00218911     0.525162        0.739908        -0.426025      
  3.7e+010        0.00014984      2.529e-007      0.0508022       -0.806064       0.21451         0.0754153       0.157135        0.439505        0.533134        -0.645562       0.272092        -0.770072       0.199329        0.147623        0.0113513       0.521817        0.737492        -0.426905      
  3.8e+010        0.00014984      2.529e-007      0.022847        -0.80212        0.21831         0.0710347       0.173529        0.432603        0.520731        -0.655367       0.245013        -0.772783       0.204752        0.145642        0.0294247       0.521657        0.732478        -0.435162      
  3.9e+010        0.00014984      2.529e-007      0.00866462      -0.797915       0.220631        0.0663176       0.188772        0.420695        0.495369        -0.660837       0.233293        -0.770928       0.209427        0.14303         0.0480593       0.51661         0.713146        -0.444728      
  4e+010          0.00014984      2.529e-007      -0.00927442     -0.794451       0.223159        0.0624027       0.198043        0.412888        0.489857        -0.67045        0.21745         -0.770938       0.213181        0.141686        0.0575961       0.513889        0.716107        -0.449255      
  4.1e+010        0.00014984      2.529e-007      -0.0393412      -0.79406        0.226708        0.0589759       0.211282        0.405299        0.472119        -0.671825       0.188551        -0.778258       0.218371        0.140483        0.0734817       0.512063        0.702924        -0.451076      
  4.2e+010        0.00014984      2.529e-007      -0.0544896      -0.785156       0.229589        0.0536878       0.225219        0.393156        0.454789        -0.679287       0.174736        -0.772635       0.223208        0.1377          0.0896042       0.50674         0.69311         -0.460274      
  4.3e+010        0.00014984      2.529e-007      -0.0818943      -0.774497       0.231668        0.0494015       0.233838        0.382218        0.442788        -0.682051       0.145912        -0.768401       0.227493        0.135246        0.102843        0.50025         0.686774        -0.462657      
  4.4e+010        0.00014984      2.529e-007      -0.0910071      -0.775239       0.234039        0.0459781       0.245012        0.37429         0.427019        -0.678826       0.139338        -0.770882       0.231629        0.133924        0.116313        0.498366        0.673719        -0.460495      
  4.5e+010        0.00014984      2.529e-007      -0.111144       -0.769565       0.23722         0.0414965       0.255667        0.365477        0.406032        -0.697973       0.119916        -0.769689       0.236953        0.132016        0.129401        0.495599        0.664435        -0.482776      
  4.6e+010        0.00014984      2.529e-007      -0.126755       -0.768106       0.239604        0.037796        0.263523        0.356906        0.402768        -0.695225       0.106878        -0.772342       0.240726        0.130609        0.13929         0.491394        0.664709        -0.477045      
  4.7e+010        0.00014984      2.529e-007      -0.152385       -0.755524       0.242047        0.033032        0.273634        0.346717        0.386828        -0.691739       0.079049        -0.766068       0.245859        0.127781        0.153447        0.486493        0.65208         -0.475705      
  4.8e+010        0.00014984      2.529e-007      -0.167213       -0.757538       0.244858        0.0270089       0.286327        0.334511        0.356491        -0.705818       0.0674404       -0.771208       0.2522          0.124337        0.172089        0.481366        0.630576        -0.497276      
