! VERSION = 6.00
!Data measured by ggf on Wed Jan 24 08:45:44 2018 using model file NPN_MEAS_SCALE
BEGIN_HEADER
 ICCAP_INPUTS
  vc         V  C GROUND SMU_C 0.1 CON        1.5
  ve         V  E GROUND SMU_E 0.1 CON        0
  vs         V  S GROUND SMU_S 0.015 CON        0
  freq       F  LIST       1 74 100000000 200000000 300000000 400000000 500000000 600000000 700000000 800000000 900000000 1000000000 2000000000 3000000000 4000000000 5000000000 6000000000 7000000000 8000000000 9000000000 10000000000 11000000000 12000000000 13000000000 14000000000 15000000000 16000000000 17000000000 18000000000 19000000000 20000000000 21000000000 22000000000 23000000000 24000000000 25000000000 26000000000 27000000000 28000000000 29000000000 30000000000 31000000000 32000000000 33000000000 34000000000 35000000000 36000000000 37000000000 38000000000 39000000000 40000000000 41000000000 42000000000 43000000000 44000000000 45000000000 46000000000 47000000000 48000000000 49000000000 50000000000 51000000000 52000000000 53000000000 54000000000 55000000000 56000000000 57000000000 58000000000 59000000000 60000000000 61000000000 62000000000 63000000000 64000000000 65000000000
  vb         V  B GROUND SMU_B 0.015 LIN        2    0.74       0.87       27   0.005     
 ICCAP_OUTPUTS
  ic         I  C GROUND SMU_C M
  ib         I  B GROUND SMU_B M
  S          S  B C GROUND NWA M
 ICCAP_VALUES
  TNOM "27"
  TEMP "27"
  TECHNO "SG13G2"
  LOT "EDJ802"
  WAFER "02"
  CHIP "(3.3)"
  MODULE "S439S"
  DEV_NAME "D02"
  DEV_GEOM_L "5.0"
  DEV_GEOM_W "0.07"
  NUM_OF_TRANS_RF "2"
  REMARKS "Nx=1; Power -30/-20dBm, Slope: 0.1dB/GHz"
  TIMEDATE "Wed Jan 24 08:28:21     2018"
  OPERATOR "ggf"
END_HEADER

BEGIN_DB
 ICCAP_VAR vc         1.5            
 ICCAP_VAR ve         0              
 ICCAP_VAR vs         0              
 ICCAP_VAR vb         0.74           

 #freq            ic              ib              R:S(1,1)        I:S(1,1)        R:S(1,2)        I:S(1,2)        R:S(2,1)        I:S(2,1)        R:S(2,2)        I:S(2,2)       
  1e+008          0.00015176      2.1102e-007     0.998446        -0.00422668     -1.57387e-005   0.000808355     -0.61978        -0.00497136     1.00032         -0.00306375    
  2e+008          0.00015176      2.1102e-007     0.999295        -0.00894302     -1.78716e-006   0.00159061      -0.602658       7.11556e-005    1.00018         -0.00542224    
  3e+008          0.00015176      2.1102e-007     0.999176        -0.0140267      6.60732e-005    0.00235305      -0.604978       0.00416316      1.00017         -0.00816438    
  4e+008          0.00015176      2.1102e-007     0.99932         -0.0187205      4.81402e-006    0.00312994      -0.596888       0.00828469      0.99975         -0.010776      
  5e+008          0.00015176      2.1102e-007     0.999099        -0.0240563      9.05486e-005    0.00394755      -0.603758       0.0121468       0.999863        -0.0132689     
  6e+008          0.00015176      2.1102e-007     0.999123        -0.0287146      0.000135344     0.00469301      -0.60384        0.0151138       0.999983        -0.0157853     
  7e+008          0.00015176      2.1102e-007     0.998998        -0.0335702      0.000164551     0.00549626      -0.603929       0.0197983       0.999443        -0.0185485     
  8e+008          0.00015176      2.1102e-007     0.998556        -0.0382296      0.000215619     0.00626425      -0.605995       0.0238927       0.999787        -0.0209065     
  9e+008          0.00015176      2.1102e-007     0.99843         -0.0432696      0.00026818      0.00708755      -0.601085       0.0288576       0.99944         -0.0235996     
  1e+009          0.00015176      2.1102e-007     0.997878        -0.0477724      0.000330961     0.00786401      -0.606407       0.0334651       0.999205        -0.0260785     
  2e+009          0.00015176      2.1102e-007     0.994125        -0.094589       0.00123123      0.0155984       -0.589582       0.0678853       0.996965        -0.0518419     
  3e+009          0.00015176      2.1102e-007     0.986654        -0.14294        0.0027122       0.02325         -0.593482       0.0993563       0.99455         -0.0774323     
  4e+009          0.00015176      2.1102e-007     0.97725         -0.188541       0.00463038      0.0307075       -0.587889       0.135101        0.991476        -0.1019        
  5e+009          0.00015176      2.1102e-007     0.965981        -0.232334       0.00712857      0.038067        -0.572974       0.166623        0.986704        -0.126104      
  6e+009          0.00015176      2.1102e-007     0.951191        -0.278031       0.0101966       0.0451041       -0.558616       0.197959        0.980548        -0.15201       
  7e+009          0.00015176      2.1102e-007     0.934561        -0.321632       0.0136953       0.0519738       -0.546388       0.228959        0.975719        -0.176678      
  8e+009          0.00015176      2.1102e-007     0.916819        -0.361508       0.0176302       0.0584148       -0.532406       0.257605        0.968726        -0.198929      
  9e+009          0.00015176      2.1102e-007     0.895795        -0.40165        0.0220741       0.0646376       -0.515117       0.284284        0.960157        -0.222431      
  1e+010          0.00015176      2.1102e-007     0.873154        -0.44251        0.026811        0.070181        -0.492159       0.311647        0.950283        -0.247113      
  1.1e+010        0.00015176      2.1102e-007     0.849625        -0.477507       0.0317495       0.0757196       -0.476756       0.333288        0.943585        -0.267873      
  1.2e+010        0.00015176      2.1102e-007     0.823915        -0.512362       0.0373423       0.0808966       -0.45817        0.360596        0.933855        -0.288811      
  1.3e+010        0.00015176      2.1102e-007     0.795443        -0.544907       0.0430199       0.0854114       -0.440456       0.384066        0.920525        -0.308565      
  1.4e+010        0.00015176      2.1102e-007     0.768179        -0.577438       0.0492554       0.0894736       -0.414809       0.402246        0.910882        -0.331358      
  1.5e+010        0.00015176      2.1102e-007     0.74045         -0.603931       0.0555286       0.092812        -0.384116       0.416463        0.899875        -0.3505        
  1.6e+010        0.00015176      2.1102e-007     0.709593        -0.632104       0.0617078       0.0957888       -0.362821       0.432929        0.888573        -0.367681      
  1.7e+010        0.00015176      2.1102e-007     0.678114        -0.656915       0.0682213       0.0982635       -0.334852       0.4441          0.873054        -0.385483      
  1.8e+010        0.00015176      2.1102e-007     0.648115        -0.679944       0.0744066       0.10038         -0.31319        0.457568        0.861251        -0.40346       
  1.9e+010        0.00015176      2.1102e-007     0.618677        -0.69878        0.0809265       0.102168        -0.289473       0.473012        0.850798        -0.425711      
  2e+010          0.00015176      2.1102e-007     0.583589        -0.721194       0.0869504       0.103029        -0.265751       0.478288        0.836422        -0.43368       
  2.1e+010        0.00015176      2.1102e-007     0.555696        -0.740528       0.092807        0.104025        -0.245267       0.490038        0.820395        -0.441889      
  2.2e+010        0.00015176      2.1102e-007     0.523632        -0.75393        0.099243        0.104889        -0.218578       0.49442         0.8002          -0.462958      
  2.3e+010        0.00015176      2.1102e-007     0.491383        -0.766591       0.105155        0.104586        -0.193688       0.499663        0.797033        -0.487855      
  2.4e+010        0.00015176      2.1102e-007     0.460366        -0.783285       0.10934         0.105108        -0.173992       0.501196        0.812052        -0.488091      
  2.5e+010        0.00015176      2.1102e-007     0.432747        -0.795335       0.117222        0.10873         -0.159695       0.516058        0.846251        -0.4831        
  2.6e+010        0.00015176      2.1102e-007     0.40106         -0.802842       0.126976        0.103999        -0.119645       0.522358        0.795229        -0.515293      
  2.7e+010        0.00015176      2.1102e-007     0.364934        -0.814638       0.130868        0.102422        -0.0993949      0.521762        0.718817        -0.53356       
  2.8e+010        0.00015176      2.1102e-007     0.336901        -0.821685       0.137109        0.0994875       -0.0706442      0.51929         0.687613        -0.585961      
  2.9e+010        0.00015176      2.1102e-007     0.310975        -0.825601       0.139413        0.0978463       -0.0554874      0.513375        0.693113        -0.588537      
  3e+010          0.00015176      2.1102e-007     0.278406        -0.829791       0.144242        0.0977527       -0.037086       0.510257        0.699752        -0.575215      
  3.1e+010        0.00015176      2.1102e-007     0.246195        -0.839068       0.149967        0.0952693       -0.0129891      0.508269        0.675357        -0.584112      
  3.2e+010        0.00015176      2.1102e-007     0.227391        -0.839048       0.154592        0.0930986       0.00729813      0.500942        0.65299         -0.59323       
  3.3e+010        0.00015176      2.1102e-007     0.194548        -0.834049       0.159389        0.0910285       0.0220878       0.49838         0.648011        -0.607479      
  3.4e+010        0.00015176      2.1102e-007     0.157823        -0.833215       0.164822        0.0879983       0.0439107       0.496433        0.637089        -0.616035      
  3.5e+010        0.00015176      2.1102e-007     0.137837        -0.841334       0.16848         0.0850294       0.0624423       0.487996        0.625626        -0.621192      
  3.6e+010        0.00015176      2.1102e-007     0.117238        -0.837337       0.17195         0.0814312       0.0779315       0.480249        0.599113        -0.633002      
  3.7e+010        0.00015176      2.1102e-007     0.0881229       -0.833081       0.175515        0.0789538       0.0920582       0.473324        0.592996        -0.638932      
  3.8e+010        0.00015176      2.1102e-007     0.0585186       -0.829936       0.179358        0.0755411       0.110157        0.469128        0.581175        -0.650042      
  3.9e+010        0.00015176      2.1102e-007     0.0434751       -0.826251       0.181856        0.0720358       0.126648        0.459412        0.555587        -0.657469      
  4e+010          0.00015176      2.1102e-007     0.0247343       -0.825008       0.18443         0.0691597       0.136624        0.452077        0.550733        -0.668381      
  4.1e+010        0.00015176      2.1102e-007     -0.00780704     -0.824907       0.188093        0.0667135       0.151471        0.4474          0.533307        -0.670758      
  4.2e+010        0.00015176      2.1102e-007     -0.0239751      -0.816758       0.191332        0.0624038       0.166807        0.436643        0.515291        -0.679875      
  4.3e+010        0.00015176      2.1102e-007     -0.0527073      -0.807567       0.193729        0.0592238       0.177082        0.426117        0.503865        -0.683265      
  4.4e+010        0.00015176      2.1102e-007     -0.0624571      -0.808667       0.196124        0.0565484       0.189667        0.419942        0.488424        -0.681284      
  4.5e+010        0.00015176      2.1102e-007     -0.0843827      -0.802947       0.199403        0.0529708       0.201492        0.412801        0.467165        -0.702318      
  4.6e+010        0.00015176      2.1102e-007     -0.101322       -0.803058       0.20204         0.0501336       0.210767        0.404226        0.464459        -0.700377      
  4.7e+010        0.00015176      2.1102e-007     -0.128608       -0.790381       0.204687        0.0461439       0.222746        0.395574        0.44805         -0.697786      
  4.8e+010        0.00015176      2.1102e-007     -0.144183       -0.792423       0.207856        0.0413354       0.237923        0.385435        0.41772         -0.713786      
  4.9e+010        0.00015176      2.1102e-007     -0.154729       -0.782928       0.20869         0.0374532       0.242642        0.373704        0.419442        -0.719301      
  5e+010          0.00015176      2.1102e-007     -0.173654       -0.782418       0.211898        0.0346954       0.251129        0.370693        0.412707        -0.712692      
  5.1e+010        0.00015176      2.1102e-007     -0.202548       -0.766706       0.214323        0.0281399       0.267543        0.355876        0.386617        -0.714786      
  5.2e+010        0.00015176      2.1102e-007     -0.214298       -0.773524       0.213459        0.0225512       0.269776        0.342651        0.36821         -0.729815      
  5.3e+010        0.00015176      2.1102e-007     -0.225427       -0.756209       0.215017        0.0202395       0.277047        0.338917        0.369733        -0.728371      
  5.4e+010        0.00015176      2.1102e-007     -0.25153        -0.749461       0.217169        0.0148564       0.289312        0.329346        0.352432        -0.727209      
  5.5e+010        0.00015176      2.1102e-007     -0.25563        -0.741076       0.215774        0.00952133      0.293306        0.314873        0.329117        -0.736234      
  5.6e+010        0.00015176      2.1102e-007     -0.275681       -0.746898       0.213947        0.00778746      0.29452         0.309588        0.325817        -0.73702       
  5.7e+010        0.00015176      2.1102e-007     -0.285046       -0.732036       0.217247        0.00678011      0.304463        0.304536        0.333839        -0.737996      
  5.8e+010        0.00015176      2.1102e-007     -0.313249       -0.719224       0.218895        0.00175309      0.313838        0.291184        0.307394        -0.747074      
  5.9e+010        0.00015176      2.1102e-007     -0.330161       -0.718584       0.220453        -0.00291798     0.319718        0.281214        0.296819        -0.746244      
  6e+010          0.00015176      2.1102e-007     -0.335327       -0.712813       0.221551        -0.00845218     0.326334        0.270447        0.288192        -0.757451      
  6.1e+010        0.00015176      2.1102e-007     -0.344094       -0.695104       0.21916         -0.0134266      0.331723        0.260853        0.262649        -0.754391      
  6.2e+010        0.00015176      2.1102e-007     -0.376933       -0.683328       0.218438        -0.0173247      0.334051        0.249374        0.257005        -0.76931       
  6.3e+010        0.00015176      2.1102e-007     -0.371504       -0.698175       0.219314        -0.0208584      0.339131        0.242168        0.24585         -0.771454      
  6.4e+010        0.00015176      2.1102e-007     -0.387506       -0.669027       0.219628        -0.0262122      0.344841        0.228932        0.24496         -0.76296       
  6.5e+010        0.00015176      2.1102e-007     -0.395829       -0.669088       0.215761        -0.0312742      0.344331        0.216618        0.212416        -0.777746      
END_DB

BEGIN_DB
 ICCAP_VAR vc         1.5            
 ICCAP_VAR ve         0              
 ICCAP_VAR vs         0              
 ICCAP_VAR vb         0.745          

 #freq            ic              ib              R:S(1,1)        I:S(1,1)        R:S(1,2)        I:S(1,2)        R:S(2,1)        I:S(2,1)        R:S(2,2)        I:S(2,2)       
  1e+008          0.00018354      2.5382e-007     0.998493        -0.00425978     -3.05406e-005   0.000826343     -0.741444       -0.00602066     1.00003         -0.00302085    
  2e+008          0.00018354      2.5382e-007     0.998903        -0.00944545     4.20799e-005    0.00158834      -0.720893       -0.000186116    0.99999         -0.00541353    
  3e+008          0.00018354      2.5382e-007     0.999144        -0.0144188      3.1603e-005     0.00235452      -0.723805       0.00450782      1.00006         -0.00827985    
  4e+008          0.00018354      2.5382e-007     0.999294        -0.019271       8.31626e-005    0.00316664      -0.71431        0.0096335       0.99968         -0.0108935     
  5e+008          0.00018354      2.5382e-007     0.998841        -0.0248722      0.000100331     0.00394034      -0.722385       0.0140195       0.999774        -0.013492      
  6e+008          0.00018354      2.5382e-007     0.998802        -0.0295175      0.000175727     0.00472641      -0.722319       0.0174221       0.999865        -0.0160279     
  7e+008          0.00018354      2.5382e-007     0.998735        -0.0345534      0.000173757     0.00551765      -0.722656       0.0230318       0.999317        -0.0187672     
  8e+008          0.00018354      2.5382e-007     0.99843         -0.0392529      0.000239729     0.00628161      -0.725043       0.0278466       0.999654        -0.0212635     
  9e+008          0.00018354      2.5382e-007     0.998419        -0.0451158      0.000274018     0.00709426      -0.719264       0.0341819       0.99937         -0.024016      
  1e+009          0.00018354      2.5382e-007     0.997726        -0.0491026      0.000362289     0.00783907      -0.72528        0.0391077       0.999108        -0.02646       
  2e+009          0.00018354      2.5382e-007     0.993524        -0.0973407      0.00124444      0.0156208       -0.705958       0.0792051       0.996784        -0.0526571     
  3e+009          0.00018354      2.5382e-007     0.985738        -0.146912       0.00272215      0.0232596       -0.710173       0.11595         0.994272        -0.0787898     
  4e+009          0.00018354      2.5382e-007     0.97568         -0.193686       0.0047469       0.0307331       -0.70342        0.157748        0.990993        -0.103589      
  5e+009          0.00018354      2.5382e-007     0.963735        -0.238419       0.00730041      0.0380139       -0.685934       0.194461        0.986083        -0.128189      
  6e+009          0.00018354      2.5382e-007     0.948132        -0.284426       0.0103771       0.045048        -0.669024       0.230605        0.97958         -0.154497      
  7e+009          0.00018354      2.5382e-007     0.930561        -0.329452       0.0139495       0.0518696       -0.654153       0.266808        0.97439         -0.179477      
  8e+009          0.00018354      2.5382e-007     0.911879        -0.36958        0.0179292       0.0582372       -0.637777       0.299693        0.967083        -0.202056      
  9e+009          0.00018354      2.5382e-007     0.88974         -0.411635       0.0223941       0.0644075       -0.617153       0.331324        0.958153        -0.2258        
  1e+010          0.00018354      2.5382e-007     0.866083        -0.451989       0.0271917       0.0698861       -0.590317       0.362394        0.947833        -0.250686      
  1.1e+010        0.00018354      2.5382e-007     0.841475        -0.487421       0.0321453       0.0753532       -0.572122       0.387197        0.940748        -0.271624      
  1.2e+010        0.00018354      2.5382e-007     0.814732        -0.522064       0.037789        0.0804382       -0.550455       0.418201        0.930623        -0.292699      
  1.3e+010        0.00018354      2.5382e-007     0.78442         -0.555764       0.0434983       0.0848413       -0.529149       0.446102        0.916954        -0.312497      
  1.4e+010        0.00018354      2.5382e-007     0.756578        -0.587744       0.0498047       0.0887614       -0.499258       0.466074        0.90675         -0.335417      
  1.5e+010        0.00018354      2.5382e-007     0.727524        -0.614135       0.0560551       0.0919262       -0.464014       0.482318        0.895285        -0.354501      
