! VERSION = 6.00
!Data measured by ggf on Tue Mar 20 13:10:02 2018 using model file NPN_MEAS_SCALE
BEGIN_HEADER
 ICCAP_INPUTS
  vc         V  C GROUND SMU_C 0.2 SYNC       1 1 vb
  ve         V  E GROUND SMU_E 0 CON        0
  vs         V  S GROUND SMU_S 0 CON        0
  freq       F  LIST       1 74 100000000 200000000 300000000 400000000 500000000 600000000 700000000 800000000 900000000 1000000000 2000000000 3000000000 4000000000 5000000000 6000000000 7000000000 8000000000 9000000000 10000000000 11000000000 12000000000 13000000000 14000000000 15000000000 16000000000 17000000000 18000000000 19000000000 20000000000 21000000000 22000000000 23000000000 24000000000 25000000000 26000000000 27000000000 28000000000 29000000000 30000000000 31000000000 32000000000 33000000000 34000000000 35000000000 36000000000 37000000000 38000000000 39000000000 40000000000 41000000000 42000000000 43000000000 44000000000 45000000000 46000000000 47000000000 48000000000 49000000000 50000000000 51000000000 52000000000 53000000000 54000000000 55000000000 56000000000 57000000000 58000000000 59000000000 60000000000 61000000000 62000000000 63000000000 64000000000 65000000000
  vb         V  B GROUND SMU_B 0.015 LIN        2    0.74       0.87       27   0.005     
 ICCAP_OUTPUTS
  ic         I  C GROUND SMU_C M
  ib         I  B GROUND SMU_B M
  S          S  B C GROUND NWA M
  S_deemb    S B C GROUND n/a M
 ICCAP_VALUES
  TNOM "27"
  TEMP "27"
  TECHNO "SG13G2"
  LOT "EDJ802"
  WAFER "02"
  CHIP "(3.3)"
  MODULE "S439S"
  DEV_NAME "D02"
  DEV_GEOM_L "5.0"
  DEV_GEOM_W "0.07"
  NUM_OF_TRANS_RF "2"
  REMARKS "Nx=1; Power -30/-20dBm, Slope: 0.1dB/GHz"
  TIMEDATE "Wed Jan 24 08:28:21     2018"
  OPERATOR "ggf"
END_HEADER

BEGIN_DB
 ICCAP_VAR vc         1.74           
 ICCAP_VAR ve         0              
 ICCAP_VAR vs         0              
 ICCAP_VAR vb         0.74           

 #freq            ic              ib              R:S(1,1)        I:S(1,1)        R:S(1,2)        I:S(1,2)        R:S(2,1)        I:S(2,1)        R:S(2,2)        I:S(2,2)        R:S_deemb(1,1)  I:S_deemb(1,1)  R:S_deemb(1,2)  I:S_deemb(1,2)  R:S_deemb(2,1)  I:S_deemb(2,1)  R:S_deemb(2,2)  I:S_deemb(2,2) 
  1e+008          0.00015304      2.0634e-007     0.998455        -0.00380043     -2.01568e-005   0.000726984     -0.62021        -0.00507662     1.00026         -0.00261962     0.998479        -0.00246392     -3.07459e-005   0.00060679      -0.620681       -0.00605637     1.0003          -0.00116188    
  2e+008          0.00015304      2.0634e-007     0.999225        -0.00883388     4.3363e-005     0.00157924      -0.60278        0.000198287     1.00037         -0.00587996     0.999197        -0.00641463     8.34729e-005    0.00142972      -0.603162       -0.00133242     1.00043         -0.00344142    
  3e+008          0.00015304      2.0634e-007     0.998959        -0.0132313      3.16968e-005    0.00234391      -0.605307       0.00373044      1.00024         -0.00799531     0.998875        -0.00984027     1.73498e-005    0.00213438      -0.605518       0.00143746      1.00012         -0.00444584    
  4e+008          0.00015304      2.0634e-007     0.999405        -0.0177731      5.07344e-005    0.0031134       -0.597128       0.00798459      0.999852        -0.0105325      0.999134        -0.013221       5.04877e-005    0.00288487      -0.597438       0.00488808      0.999989        -0.00583425    
  5e+008          0.00015304      2.0634e-007     0.999213        -0.0239643      0.000108189     0.0039152       -0.604174       0.0120399       0.999987        -0.0131137      0.998936        -0.017732       9.3627e-005     0.00362805      -0.604469       0.00807521      1.00002         -0.00735823    
  6e+008          0.00015304      2.0634e-007     0.999067        -0.0285204      0.000111349     0.00467111      -0.604031       0.015099        1               -0.0156301      0.999193        -0.0215307      4.83186e-005    0.00429771      -0.604354       0.010426        1               -0.00874572    
  7e+008          0.00015304      2.0634e-007     0.998962        -0.0332663      0.000143695     0.00546002      -0.604231       0.0197894       0.999514        -0.018352       0.99901         -0.0254197      0.000105309     0.00506931      -0.604633       0.0144285       0.999552        -0.0103064     
  8e+008          0.00015304      2.0634e-007     0.998727        -0.0380832      0.000246184     0.00622998      -0.606428       0.0237998       0.999857        -0.0207077      0.998879        -0.0288834      0.000179089     0.00576245      -0.606873       0.0176525       0.999906        -0.011575      
  9e+008          0.00015304      2.0634e-007     0.99838         -0.0429862      0.000263729     0.00704581      -0.601216       0.0287564       0.999618        -0.0234537      0.998527        -0.0327929      0.000142548     0.00649968      -0.601814       0.021946        0.999805        -0.0131574     
  1e+009          0.00015304      2.0634e-007     0.99795         -0.0476075      0.000319149     0.00779399      -0.606741       0.0334624       0.999321        -0.0260317      0.998376        -0.0361972      0.000227538     0.00723642      -0.607479       0.0257928       0.999531        -0.014633      
  2e+009          0.00015304      2.0634e-007     0.994237        -0.0943105      0.00118819      0.0154852       -0.59005        0.0678148       0.997106        -0.051467       0.996104        -0.0716965      0.000812697     0.014322        -0.592118       0.0528957       0.998089        -0.0286931     
  3e+009          0.00015304      2.0634e-007     0.986783        -0.142668       0.00266992      0.0230401       -0.593968       0.0990689       0.994539        -0.0763885      0.991481        -0.109073       0.0017573       0.0213895       -0.598208       0.0767303       0.996845        -0.0426496     
  4e+009          0.00015304      2.0634e-007     0.977416        -0.188238       0.00458595      0.030422        -0.588464       0.134828        0.991683        -0.101243       0.98553         -0.144102       0.00298451      0.0283303       -0.595892       0.1055          0.995857        -0.0565246     
  5e+009          0.00015304      2.0634e-007     0.96624         -0.232027       0.00705434      0.0377197       -0.5736         0.166318        0.987072        -0.125281       0.978874        -0.177696       0.00455074      0.0353008       -0.584948       0.130616        0.993509        -0.0696504     
  6e+009          0.00015304      2.0634e-007     0.951452        -0.276964       0.0100599       0.0447244       -0.559422       0.197268        0.980917        -0.150985       0.969461        -0.2132         0.00652407      0.0420758       -0.575477       0.155716        0.990432        -0.0844631     
  7e+009          0.00015304      2.0634e-007     0.93491         -0.321145       0.0135365       0.0514975       -0.547125       0.228374        0.976042        -0.175534       0.959527        -0.247937       0.0087974       0.0487777       -0.568849       0.181125        0.988706        -0.0985027     
  8e+009          0.00015304      2.0634e-007     0.917139        -0.36102        0.0174117       0.0579394       -0.533245       0.257123        0.969193        -0.19767        0.948237        -0.279359       0.0113411       0.0552402       -0.560818       0.204996        0.985544        -0.110531      
  9e+009          0.00015304      2.0634e-007     0.896232        -0.401751       0.0217738       0.0641012       -0.515786       0.284208        0.960722        -0.22106        0.935084        -0.313143       0.0143028       0.0616745       -0.549915       0.228153        0.981331        -0.123926      
  1e+010          0.00015304      2.0634e-007     0.873736        -0.441815       0.0264965       0.0696014       -0.493102       0.311187        0.950912        -0.245689       0.920924        -0.344639       0.0173804       0.0675844       -0.534545       0.251611        0.976388        -0.138816      
  1.1e+010        0.00015304      2.0634e-007     0.850398        -0.476256       0.0313942       0.0751032       -0.477743       0.332509        0.944246        -0.266266       0.906073        -0.374432       0.0207267       0.0736516       -0.525954       0.270145        0.974313        -0.149912      
  1.2e+010        0.00015304      2.0634e-007     0.824546        -0.511673       0.0369162       0.0802227       -0.459317       0.360045        0.934557        -0.287124       0.889488        -0.403905       0.0244433       0.0795695       -0.51616        0.295106        0.969893        -0.161651      
  1.3e+010        0.00015304      2.0634e-007     0.795707        -0.544682       0.042508        0.0847451       -0.441488       0.38393         0.921484        -0.306841       0.87003         -0.432983       0.0283138       0.0851535       -0.506828       0.317683        0.962825        -0.173286      
  1.4e+010        0.00015304      2.0634e-007     0.768761        -0.576782       0.0487432       0.0887489       -0.415881       0.401856        0.91181         -0.329581       0.852936        -0.461354       0.0327571       0.090574        -0.489327       0.335561        0.959305        -0.187637      
  1.5e+010        0.00015304      2.0634e-007     0.740948        -0.603657       0.0549272       0.0920653       -0.385346       0.415984        0.901062        -0.348455       0.834012        -0.485548       0.0373569       0.0954078       -0.465947       0.351451        0.954391        -0.198702      
  1.6e+010        0.00015304      2.0634e-007     0.710309        -0.631582       0.0610699       0.0950155       -0.363955       0.432428        0.889701        -0.365705       0.813305        -0.511464       0.0419086       0.100023        -0.452566       0.368727        0.948642        -0.208561      
  1.7e+010        0.00015304      2.0634e-007     0.678591        -0.656502       0.0675093       0.0975206       -0.336109       0.443676        0.87433         -0.383458       0.790967        -0.535964       0.0469014       0.104476        -0.431907       0.38318         0.940328        -0.21981       
  1.8e+010        0.00015304      2.0634e-007     0.648567        -0.67936        0.0736186       0.0996032       -0.314305       0.457204        0.86267         -0.401495       0.77038         -0.558329       0.0515927       0.108665        -0.417973       0.398884        0.935388        -0.230793      
  1.9e+010        0.00015304      2.0634e-007     0.619326        -0.697977       0.0800977       0.101415        -0.290608       0.472855        0.852263        -0.423414       0.749413        -0.577108       0.0566643       0.112696        -0.4026         0.417677        0.932043        -0.245098      
  2e+010          0.00015304      2.0634e-007     0.584085        -0.720619       0.0860553       0.102287        -0.266783       0.47806         0.837993        -0.431573       0.724081        -0.601707       0.0617192       0.115821        -0.384366       0.427264        0.923104        -0.248691      
  2.1e+010        0.00015304      2.0634e-007     0.556311        -0.739836       0.0918747       0.103255        -0.246315       0.489719        0.821945        -0.439815       0.705089        -0.621657       0.0667007       0.119263        -0.371389       0.443359        0.914128        -0.25314       
  2.2e+010        0.00015304      2.0634e-007     0.524202        -0.753398       0.0982332       0.10414         -0.219949       0.494252        0.801979        -0.460569       0.680663        -0.637854       0.0722669       0.12293         -0.350759       0.453969        0.903709        -0.268971      
  2.3e+010        0.00015304      2.0634e-007     0.491922        -0.765929       0.10409         0.103845        -0.194925       0.499287        0.798835        -0.485565       0.6557          -0.653292       0.077339        0.125213        -0.331164       0.463813        0.906749        -0.284998      
  2.4e+010        0.00015304      2.0634e-007     0.460594        -0.782644       0.108235        0.104374        -0.175307       0.500803        0.813971        -0.485419       0.632867        -0.672569       0.0807512       0.127278        -0.314283       0.469127        0.921635        -0.278725      
  2.5e+010        0.00015304      2.0634e-007     0.433137        -0.794686       0.116025        0.107964        -0.161393       0.515403        0.847956        -0.480667       0.613833        -0.686085       0.0872081       0.132452        -0.30374        0.485766        0.946698        -0.270489      
  2.6e+010        0.00015304      2.0634e-007     0.401441        -0.80164        0.125975        0.103199        -0.121755       0.522391        0.797413        -0.51266        0.58743         -0.697538       0.097149        0.131723        -0.271494       0.502044        0.907436        -0.293723      
  2.7e+010        0.00015304      2.0634e-007     0.36573         -0.81363        0.129472        0.101612        -0.101035       0.521677        0.721238        -0.531051       0.558524        -0.715459       0.101806        0.134088        -0.256406       0.51241         0.85871         -0.320939      
  2.8e+010        0.00015304      2.0634e-007     0.337476        -0.820786       0.135749        0.0989158       -0.0720184      0.518676        0.690139        -0.58347        0.536791        -0.72723        0.108466        0.135991        -0.233563       0.520074        0.849196        -0.368462      
  2.9e+010        0.00015304      2.0634e-007     0.311469        -0.824594       0.138058        0.0972903       -0.0571713      0.512981        0.695354        -0.586138       0.516399        -0.734622       0.110663        0.136389        -0.221558       0.518524        0.858808        -0.361206      
  3e+010          0.00015304      2.0634e-007     0.279236        -0.82835        0.142922        0.0970768       -0.0389618      0.510116        0.702136        -0.573055       0.489319        -0.743925       0.115631        0.137891        -0.203482       0.520284        0.860904        -0.343116      
  3.1e+010        0.00015304      2.0634e-007     0.247417        -0.837696       0.148652        0.0948481       -0.013928       0.507821        0.678142        -0.581178       0.464924        -0.758992       0.122032        0.138444        -0.179708       0.527032        0.842197        -0.354274      
  3.2e+010        0.00015304      2.0634e-007     0.228752        -0.838085       0.153068        0.092452        0.00522556      0.501174        0.655414        -0.591682       0.450381        -0.762373       0.127235        0.138665        -0.161426       0.528209        0.828962        -0.364472      
  3.3e+010        0.00015304      2.0634e-007     0.195562        -0.832912       0.157906        0.090392        0.0207508       0.498316        0.650625        -0.60528        0.419151        -0.76432        0.132411        0.139657        -0.148006       0.531226        0.832274        -0.370749      
  3.4e+010        0.00015304      2.0634e-007     0.158785        -0.832181       0.163262        0.0876258       0.0421833       0.496354        0.639795        -0.613843       0.385679        -0.772761       0.138775        0.139781        -0.127965       0.537771        0.82642         -0.376897      
  3.5e+010        0.00015304      2.0634e-007     0.138998        -0.839929       0.166901        0.0845937       0.0607472       0.487901        0.628314        -0.618992       0.371685        -0.784726       0.143537        0.139125        -0.108269       0.537076        0.819969        -0.380134      
  3.6e+010        0.00015304      2.0634e-007     0.118433        -0.836278       0.17034         0.08088         0.076177        0.47988         0.602125        -0.630545       0.35405         -0.785067       0.148659        0.137851        -0.0918538      0.536613        0.803955        -0.393272      
  3.7e+010        0.00015304      2.0634e-007     0.0899079       -0.831779       0.173989        0.0785475       0.0900877       0.47351         0.595938        -0.636826       0.326397        -0.787399       0.152886        0.137822        -0.077998       0.535131        0.802863        -0.394262      
  3.8e+010        0.00015304      2.0634e-007     0.0598455       -0.828634       0.177708        0.0752385       0.108135        0.468561        0.584045        -0.647651       0.297355        -0.791875       0.157755        0.136856        -0.0591946      0.537678        0.798842        -0.402992      
  3.9e+010        0.00015304      2.0634e-007     0.0443472       -0.824759       0.180297        0.0715265       0.1251          0.458808        0.559218        -0.655046       0.284497        -0.79084        0.162224        0.135286        -0.03995        0.53557         0.780997        -0.414114      
  4e+010          0.00015304      2.0634e-007     0.0250634       -0.823724       0.182752        0.0689372       0.134992        0.452259        0.553883        -0.665729       0.268205        -0.794081       0.165293        0.135142        -0.0307492      0.534274        0.784676        -0.419098      
  4.1e+010        0.00015304      2.0634e-007     -0.00595966     -0.823607       0.186441        0.0665229       0.149727        0.447147        0.536635        -0.668264       0.238428        -0.802313       0.170133        0.135025        -0.0145627      0.535794        0.772537        -0.421628      
  4.2e+010        0.00015304      2.0634e-007     -0.0226426      -0.815495       0.189515        0.0621895       0.165175        0.436088        0.519508        -0.677696       0.223319        -0.7981         0.174703        0.133175        0.00234816      0.532166        0.763962        -0.432366      
  4.3e+010        0.00015304      2.0634e-007     -0.0521549      -0.806657       0.191906        0.0588877       0.175593        0.425542        0.507343        -0.681348       0.192765        -0.796844       0.178849        0.13188         0.0171827       0.526996        0.757968        -0.435448      
  4.4e+010        0.00015304      2.0634e-007     -0.0606528      -0.807172       0.194145        0.0565671       0.188027        0.419797        0.491995        -0.679125       0.187014        -0.799035       0.182243        0.13162         0.0306117       0.528017        0.745943        -0.433942      
  4.5e+010        0.00015304      2.0634e-007     -0.0825272      -0.801621       0.197392        0.0528661       0.20045         0.412932        0.471159        -0.699734       0.165743        -0.798763       0.187179        0.130503        0.0444006       0.52822         0.737783        -0.457324      
  4.6e+010        0.00015304      2.0634e-007     -0.0991886      -0.802231       0.199992        0.0501108       0.209473        0.404705        0.468277        -0.698056       0.152385        -0.804229       0.190691        0.130121        0.0550913       0.52491         0.739016        -0.452181      
  4.7e+010        0.00015304      2.0634e-007     -0.127465       -0.788886       0.203018        0.04609         0.221142        0.394811        0.452308        -0.69541        0.121214        -0.798271       0.196102        0.128359        0.070673        0.521193        0.726923        -0.451579      
  4.8e+010        0.00015304      2.0634e-007     -0.143368       -0.790989       0.206095        0.0410641       0.2361          0.384099        0.422267        -0.711093       0.108437        -0.804096       0.202208        0.126125        0.0908595       0.518923        0.706682        -0.474615      
