! VERSION = 6.00
!Data measured by ggf on Wed Jan 24 08:45:45 2018 using model file NPN_MEAS_SCALE
BEGIN_HEADER
 ICCAP_INPUTS
  ve         V  E GROUND SMU_E 0.2 CON        0
  vc         V  C GROUND SMU_C 0.2 SYNC       1 0.5 vb
  vs         V  S GROUND SMU_S 0.015 CON        0
  vb         V  B GROUND SMU_B 0.015 LIN        1    -1         1          101  0.02      
 ICCAP_OUTPUTS
  ib         I  B GROUND SMU_B M
  ic         I  C GROUND SMU_C M
 ICCAP_VALUES
  TNOM "27"
  TEMP "27"
  TECHNO "SG13G2"
  LOT "EDJ802"
  WAFER "02"
  CHIP "(3.3)"
  MODULE "S439S"
  DEV_NAME "D02"
  DEV_GEOM_L "5.0"
  DEV_GEOM_W "0.07"
  NUM_OF_TRANS_RF "2"
  REMARKS "Nx=1; Power -30/-20dBm, Slope: 0.1dB/GHz"
  TIMEDATE "Wed Jan 24 08:28:21     2018"
  OPERATOR "ggf"
END_HEADER

BEGIN_DB
 ICCAP_VAR ve         0              
 ICCAP_VAR vs         0              

 #vb              vc              ib              ic             
  -1              -0.5            -1.556e-006     -1.6724e-006   
  -0.98           -0.48           -1.3796e-006    -9.305e-007    
  -0.96           -0.46           -1.2206e-006    -4.9792e-007   
  -0.94           -0.44           -1.079e-006     -2.5592e-007   
  -0.92           -0.42           -9.4984e-007    -1.2658e-007   
  -0.9            -0.4            -8.3518e-007    -6.178e-008    
  -0.88           -0.38           -7.3294e-007    -2.9016e-008   
  -0.86           -0.36           -6.4126e-007    -1.32e-008     
  -0.84           -0.34           -5.5976e-007    -5.728e-009    
  -0.82           -0.32           -4.874e-007     -2.733e-009    
  -0.8            -0.3            -4.2318e-007    -4.051e-009    
  -0.78           -0.28           -3.6618e-007    -4.102e-011    
  -0.76           -0.26           -3.1658e-007    4.2526e-010    
  -0.74           -0.24           -2.7238e-007    -3.69e-010     
  -0.72           -0.22           -2.3378e-007    -3.04e-010     
  -0.7            -0.2            -2.0022e-007    -2.936e-010    
  -0.68           -0.18           -1.7056e-007    -2.758e-010    
  -0.66           -0.16           -1.4514e-007    -2.334e-010    
  -0.64           -0.14           -1.2276e-007    -1.562e-010    
  -0.62           -0.12           -1.0374e-007    -1.44e-010     
  -0.6            -0.1            -8.7272e-008    -8.54e-011     
  -0.58           -0.08           -7.3128e-008    -1.036e-010    
  -0.56           -0.06           -6.0972e-008    -1.196e-010    
  -0.54           -0.04           -5.0674e-008    4.48e-011      
  -0.52           -0.02           -4.1914e-008    1.12e-011      
  -0.5            0               -3.4488e-008    -2.1e-011      
  -0.48           0.02            -2.8262e-008    -8.38e-011     
  -0.46           0.04            -2.3024e-008    -3.84e-011     
  -0.44           0.06            -1.8658e-008    8.36e-011      
  -0.42           0.08            -1.5032e-008    1.326e-010     
  -0.4            0.1             -1.2052e-008    1.038e-010     
  -0.38           0.12            -9.5924e-009    5.36e-011      
  -0.36           0.14            -7.5828e-009    3.5e-011       
  -0.34           0.16            -5.9486e-009    -1.96e-011     
  -0.32           0.18            -4.6234e-009    -5.48e-011     
  -0.3            0.2             -3.5626e-009    -4.22e-011     
  -0.28           0.22            -2.7212e-009    -7.56e-011     
  -0.26           0.24            -2.054e-009     1.06e-011      
  -0.24           0.26            -1.5316e-009    -4.84e-011     
  -0.22           0.28            -1.1274e-009    -9.6e-012      
  -0.2            0.3             -8.166e-010     1.32e-011      
  -0.18           0.32            -5.8172e-010    -8.84e-011     
  -0.16           0.34            -4.0346e-010    -2.24e-011     
  -0.14           0.36            -2.7282e-010    -1.62e-011     
  -0.12           0.38            -1.7652e-010    -1.254e-010    
  -0.1            0.4             -1.0616e-010    -3.88e-011     
  -0.08           0.42            -6.322e-011     -1.468e-010    
  -0.06           0.44            -2.958e-011     -1.178e-010    
  -0.04           0.46            -7.74e-012      -1.04e-010     
  -0.02           0.48            1.98e-012       -2.96e-011     
  0               0.5             1.176e-011      -1.26e-011     
  0.02            0.52            1.382e-011      -6.74e-011     
  0.04            0.54            1.808e-011      -5.4e-011      
  0.06            0.56            2.052e-011      -7.44e-011     
  0.08            0.58            1.926e-011      -4.46e-011     
  0.1             0.6             1.742e-011      -1.18e-010     
  0.12            0.62            1.816e-011      -1.6e-011      
  0.14            0.64            1.764e-011      -6.86e-011     
  0.16            0.66            1.606e-011      -4.38e-011     
  0.18            0.68            1.714e-011      -1.074e-010    
  0.2             0.7             1.658e-011      8.88e-011      
  0.22            0.72            1.418e-011      -1.512e-010    
  0.24            0.74            1.314e-011      5.62e-011      
  0.26            0.76            1.748e-011      -5.9e-011      
  0.28            0.78            1.744e-011      4.28e-011      
  0.3             0.8             1.578e-011      -5.38e-011     
  0.32            0.82            1.42e-011       7.2e-011       
  0.34            0.84            1.56e-011       -2e-012        
  0.36            0.86            1.52e-011       5.6e-011       
  0.38            0.88            1.42e-011       1.42e-010      
  0.4             0.9             1.61e-011       2.798e-010     
  0.42            0.92            1.564e-011      7.292e-010     
  0.44            0.94            2.19e-011       1.3828e-009    
  0.46            0.96            2.33e-011       3.1364e-009    
  0.48            0.98            3.06e-011       1.017e-008     
  0.5             1               5.454e-011      1.7384e-008    
  0.52            1.02            8.866e-011      3.6786e-008    
  0.54            1.04            1.5694e-010     7.8148e-008    
  0.56            1.06            2.916e-010      1.652e-007     
  0.58            1.08            5.8006e-010     3.5236e-007    
  0.6             1.1             1.1888e-009     7.5424e-007    
  0.62            1.12            2.4494e-009     1.6218e-006    
  0.64            1.14            5.128e-009      3.473e-006     
  0.66            1.16            1.076e-008      7.427e-006     
  0.68            1.18            2.2702e-008     1.5914e-005    
  0.7             1.2             4.7796e-008     3.3852e-005    
  0.72            1.22            1.0082e-007     7.2012e-005    
  0.74            1.24            2.1186e-007     0.00015188     
  0.76            1.26            4.431e-007      0.00031668     
  0.78            1.28            9.1748e-007     0.00065096     
  0.8             1.3             1.8522e-006     0.0012936      
  0.82            1.32            3.6408e-006     0.0024594      
  0.84            1.34            6.8792e-006     0.0043516      
  0.86            1.36            1.505e-005      0.0066624      
  0.88            1.38            4.2306e-005     0.0079016      
  0.9             1.4             9.4816e-005     0.0091236      
  0.92            1.42            0.00018512      0.0108096      
  0.94            1.44            0.00032626      0.013064       
  0.96            1.46            0.00053644      0.015902       
  0.98            1.48            0.00083154      0.019212       
  1               1.5             0.001233        0.022976       
END_DB

