! VERSION = 6.00
!Data measured by ggf on Wed Jan 24 08:45:45 2018 using model file NPN_MEAS_SCALE
BEGIN_HEADER
 ICCAP_INPUTS
  ve         V  E GROUND SMU_E 0.2 CON        0
  vc         V  C GROUND SMU_C 0.2 LIN        2    0.5        2.5        5    0.5       
  vs         V  S GROUND SMU_S 0.015 CON        0
  vb         V  B GROUND SMU_B 0.015 LIN        1    0.4        1          31   0.02      
 ICCAP_OUTPUTS
  ib         I  B GROUND SMU_B M
  ic         I  C GROUND SMU_C M
 ICCAP_VALUES
  TNOM "27"
  TEMP "27"
  TECHNO "SG13G2"
  LOT "EDJ802"
  WAFER "02"
  CHIP "(3.3)"
  MODULE "S439S"
  DEV_NAME "D02"
  DEV_GEOM_L "5.0"
  DEV_GEOM_W "0.07"
  NUM_OF_TRANS_RF "2"
  REMARKS "Nx=1; Power -30/-20dBm, Slope: 0.1dB/GHz"
  TIMEDATE "Wed Jan 24 08:28:21     2018"
  OPERATOR "ggf"
END_HEADER

BEGIN_DB
 ICCAP_VAR ve         0              
 ICCAP_VAR vc         0.5            
 ICCAP_VAR vs         0              

 #vb              ib              ic             
  0.4             1.7476e-010     1.36e-009      
  0.42            1.0318e-010     1.697e-009     
  0.44            8.1e-011        2.2408e-009    
  0.46            6.916e-011      3.9796e-009    
  0.48            7.088e-011      8.2222e-009    
  0.5             7.036e-011      1.6088e-008    
  0.52            1.0764e-010     3.5454e-008    
  0.54            1.7964e-010     7.616e-008     
  0.56            3.2354e-010     1.6382e-007    
  0.58            6.328e-010      3.5078e-007    
  0.6             1.2768e-009     7.5168e-007    
  0.62            2.6232e-009     1.6164e-006    
  0.64            5.4714e-009     3.465e-006     
  0.66            1.1446e-008     7.406e-006     
  0.68            2.3988e-008     1.5856e-005    
  0.7             5.0184e-008     3.3722e-005    
  0.72            1.052e-007      7.1628e-005    
  0.74            2.1968e-007     0.00015062     
  0.76            4.5518e-007     0.00031236     
  0.78            9.3242e-007     0.00063588     
  0.8             1.8588e-006     0.0012414      
  0.82            3.7604e-006     0.0022836      
  0.84            1.1802e-005     0.0033978      
  0.86            3.392e-005      0.0041294      
  0.88            7.4068e-005     0.0050082      
  0.9             0.0001407       0.0061742      
  0.92            0.0002467       0.0076812      
  0.94            0.000406        0.009509       
  0.96            0.0006379       0.011644       
  0.98            0.00096174      0.013982       
  1               0.0014212       0.016372       
END_DB

BEGIN_DB
 ICCAP_VAR ve         0              
 ICCAP_VAR vc         1              
 ICCAP_VAR vs         0              

 #vb              ib              ic             
  0.4             -5.04e-012      2.0058e-009    
  0.42            2.22e-012       1.997e-009     
  0.44            9.62e-012       2.415e-009     
  0.46            1.622e-011      4.2524e-009    
  0.48            2.506e-011      8.3814e-009    
  0.5             4.034e-011      1.708e-008     
  0.52            7.772e-011      3.5686e-008    
  0.54            1.4488e-010     7.6334e-008    
  0.56            2.7938e-010     1.6418e-007    
  0.58            5.6832e-010     3.514e-007     
  0.6             1.173e-009      7.531e-007     
  0.62            2.435e-009      1.6214e-006    
  0.64            5.1116e-009     3.4694e-006    
  0.66            1.0732e-008     7.4216e-006    
  0.68            2.2656e-008     1.5898e-005    
  0.7             4.7706e-008     3.3834e-005    
  0.72            1.004e-007      7.1922e-005    
  0.74            2.1132e-007     0.00015154     
  0.76            4.4076e-007     0.00031538     
  0.78            9.097e-007      0.00064598     
  0.8             1.8234e-006     0.0012752      
  0.82            3.5414e-006     0.0023988      
  0.84            6.731e-006      0.0041682      
  0.86            1.9108e-005     0.0057516      
  0.88            5.1266e-005     0.0066748      
  0.9             0.000108862     0.0078118      
  0.92            0.00020348      0.0093876      
  0.94            0.00034764      0.011416       
  0.96            0.00055874      0.01389        
  0.98            0.00084874      0.01672        
  1               0.0012336       0.019894       
END_DB

BEGIN_DB
 ICCAP_VAR ve         0              
 ICCAP_VAR vc         1.5            
 ICCAP_VAR vs         0              

 #vb              ib              ic             
  0.4             -1.666e-011     2.3878e-009    
  0.42            -4.4e-012       2.2152e-009    
  0.44            -3.6e-013       2.6114e-009    
  0.46            7.28e-012       4.3946e-009    
  0.48            2.18e-011       8.446e-009     
  0.5             3.364e-011      1.7236e-008    
  0.52            7.32e-011       3.5806e-008    
  0.54            1.3578e-010     7.649e-008     
  0.56            2.671e-010      1.6456e-007    
  0.58            5.444e-010      3.5174e-007    
  0.6             1.1262e-009     7.5352e-007    
  0.62            2.3524e-009     1.6238e-006    
  0.64            4.9392e-009     3.4736e-006    
  0.66            1.0416e-008     7.4302e-006    
  0.68            2.208e-008      1.5928e-005    
  0.7             4.6652e-008     3.3902e-005    
  0.72            9.889e-008      7.2138e-005    
  0.74            2.0852e-007     0.0001522      
  0.76            4.3718e-007     0.00031798     
  0.78            9.1038e-007     0.000655       
  0.8             1.8526e-006     0.001305       
  0.82            3.6682e-006     0.0024946      
  0.84            6.9706e-006     0.0044352      
  0.86            1.4334e-005     0.0069444      
  0.88            4.0184e-005     0.0082788      
  0.9             9.1852e-005     0.009456       
  0.92            0.00018196      0.0110912      
  0.94            0.0003235       0.013302       
  0.96            0.00053438      0.016088       
  0.98            0.00082976      0.019328       
  1               0.0012308       0.022978       
END_DB

BEGIN_DB
 ICCAP_VAR ve         0              
 ICCAP_VAR vc         2              
 ICCAP_VAR vs         0              

 #vb              ib              ic             
  0.4             -4.746e-011     3.0364e-009    
  0.42            -3.802e-011     2.6584e-009    
  0.44            -2.598e-011     2.8016e-009    
  0.46            -2.018e-011     4.5914e-009    
  0.48            -1.046e-011     8.679e-009     
  0.5             8.6e-013        1.6632e-008    
  0.52            3.104e-011      3.5952e-008    
  0.54            8.636e-011      7.6676e-008    
  0.56            1.9586e-010     1.6456e-007    
  0.58            4.272e-010      3.5208e-007    
  0.6             9.1784e-010     7.5432e-007    
  0.62            1.958e-009      1.6248e-006    
  0.64            4.1872e-009     3.4758e-006    
  0.66            8.9576e-009     7.4372e-006    
  0.68            1.9246e-008     1.5942e-005    
  0.7             4.1162e-008     3.3944e-005    
  0.72            8.847e-008      7.2314e-005    
  0.74            1.8916e-007     0.0001529      
  0.76            4.0424e-007     0.00032026     
  0.78            8.6056e-007     0.00066418     
  0.8             1.8012e-006     0.0013372      
  0.82            3.6994e-006     0.0025956      
  0.84            7.323e-006      0.0047134      
  0.86            1.419e-005      0.0077644      
  0.88            3.653e-005      0.0097906      
  0.9             8.5674e-005     0.0111238      
  0.92            0.00017602      0.012898       
  0.94            0.00032368      0.015378       
  0.96            0.00054958      0.01858        
  0.98            0.00087334      0.022352       
  1               0.001324        0.02662        
END_DB

BEGIN_DB
 ICCAP_VAR ve         0              
 ICCAP_VAR vc         2.5            
 ICCAP_VAR vs         0              

 #vb              ib              ic             
  0.4             -1.3214e-010    2.762e-009     
  0.42            -1.181e-010     3.0832e-009    
  0.44            -1.0948e-010    3.1304e-009    
  0.46            -1.024e-010     5.3524e-009    
  0.48            -9.166e-011     8.6512e-009    
  0.5             -9.582e-011     1.7392e-008    
  0.52            -9.146e-011     3.6684e-008    
  0.54            -9.662e-011     7.7054e-008    
  0.56            -1.1126e-010    1.6512e-007    
  0.58            -1.2512e-010    3.53e-007      
  0.6             -1.4872e-010    7.5552e-007    
  0.62            -1.4146e-010    1.6286e-006    
  0.64            8.54e-012       3.4798e-006    
  0.66            6.1016e-010     7.4504e-006    
  0.68            2.508e-009      1.598e-005     
  0.7             7.8924e-009     3.4018e-005    
  0.72            2.2542e-008     7.2524e-005    
  0.74            6.0794e-008     0.00015362     
  0.76            1.5914e-007     0.00032282     
  0.78            4.1302e-007     0.00067364     
  0.8             1.047e-006      0.0013712      
  0.82            2.5672e-006     0.0027086      
  0.84            5.7268e-006     0.0050422      
  0.86            1.13208e-005    0.008585       
  0.88            3.1752e-005     0.011263       
  0.9             8.2118e-005     0.01284        
  0.92            0.00017862      0.0149         
  0.94            0.00034402      0.01782        
  0.96            0.00060784      0.021654       
  0.98            0.00100166      0.026186       
  1               0.0015662       0.031282       
END_DB

