! VERSION = 6.00
!Data measured by ggf on Wed Jan 24 08:45:45 2018 using model file NPN_MEAS_SCALE
BEGIN_HEADER
 ICCAP_INPUTS
  vc         V  C GROUND SMU_C 0.2 LIN        1    0          3          61   0.05      
  vs         V  S GROUND SMU_S 0.015 CON        0
  ve         V  E GROUND SMU_E 0.2 CON        0
  ib         I  B GROUND SMU_B 2 LIST       2 6 2E-009 6.25E-007 1.25E-006 2.5E-006 5E-006 1E-005
 ICCAP_OUTPUTS
  ic         I  C GROUND SMU_C M
  vb         V  B GROUND SMU_B M
 ICCAP_VALUES
  TNOM "27"
  TEMP "27"
  TECHNO "SG13G2"
  LOT "EDJ802"
  WAFER "02"
  CHIP "(3.3)"
  MODULE "S439S"
  DEV_NAME "D02"
  DEV_GEOM_L "5.0"
  DEV_GEOM_W "0.07"
  NUM_OF_TRANS_RF "2"
  REMARKS "Nx=1; Power -30/-20dBm, Slope: 0.1dB/GHz"
  TIMEDATE "Wed Jan 24 08:28:21     2018"
  OPERATOR "ggf"
END_HEADER

BEGIN_DB
 ICCAP_VAR vs         0              
 ICCAP_VAR ve         0              
 ICCAP_VAR ib         2e-009         

 #vc              ic              vb             
  0               -4.2354e-009    0.40364        
  0.05            -1.0248e-009    0.407          
  0.1             -2.182e-010     0.44172        
  0.15            2.9106e-009     0.46544        
  0.2             1.1082e-008     0.4908         
  0.25            2.5812e-008     0.5134         
  0.3             6.5936e-008     0.53832        
  0.35            1.5154e-007     0.56036        
  0.4             2.952e-007      0.57756        
  0.45            5.0898e-007     0.59136        
  0.5             7.2118e-007     0.60008        
  0.55            9.1564e-007     0.60592        
  0.6             1.071e-006      0.6096         
  0.65            1.1484e-006     0.61144        
  0.7             1.2078e-006     0.6126         
  0.75            1.244e-006      0.61336        
  0.8             1.2696e-006     0.61388        
  0.85            1.2884e-006     0.61424        
  0.9             1.305e-006      0.61448        
  0.95            1.3148e-006     0.61472        
  1               1.3258e-006     0.61488        
  1.05            1.3334e-006     0.61504        
  1.1             1.3422e-006     0.61512        
  1.15            1.344e-006      0.61524        
  1.2             1.3536e-006     0.61536        
  1.25            1.3572e-006     0.61544        
  1.3             1.358e-006      0.61552        
  1.35            1.364e-006      0.61564        
  1.4             1.3728e-006     0.61572        
  1.45            1.3742e-006     0.6158         
  1.5             1.3836e-006     0.61592        
  1.55            1.386e-006      0.61604        
  1.6             1.3954e-006     0.61624        
  1.65            1.4044e-006     0.6164         
  1.7             1.4202e-006     0.61668        
  1.75            1.439e-006      0.61696        
  1.8             1.4538e-006     0.61732        
  1.85            1.4766e-006     0.61776        
  1.9             1.5084e-006     0.61828        
  1.95            1.5478e-006     0.61896        
  2               1.5958e-006     0.61984        
  2.05            1.664e-006      0.62084        
  2.1             1.7408e-006     0.62212        
  2.15            1.8456e-006     0.62372        
  2.2             1.9838e-006     0.62568        
  2.25            2.1704e-006     0.62816        
  2.3             2.4386e-006     0.63128        
  2.35            2.8344e-006     0.6354         
  2.4             3.466e-006      0.64092        
  2.45            4.5638e-006     0.64856        
  2.5             6.9966e-006     0.6606         
  2.55            1.5064e-005     0.68296        
  2.6             2.5734e-005     0.70548        
  2.65            0.00030156      0.77           
  2.7             0.00100426      0.79116        
  2.75            0.0017916       0.80732        
  2.8             0.002933        0.82168        
  2.85            0.0051048       0.83876        
  2.9             0.011458        0.87076        
  2.95            0.01216         0.87516        
  3               0.012732        0.879          
END_DB

BEGIN_DB
 ICCAP_VAR vs         0              
 ICCAP_VAR ve         0              
 ICCAP_VAR ib         6.25e-007      

 #vc              ic              vb             
  0               -1.2018e-005    0.64544        
  0.05            9.849e-006      0.69252        
  0.1             9.3126e-005     0.73088        
  0.15            0.0002346       0.75336        
  0.2             0.00033668      0.76268        
  0.25            0.0003842       0.76616        
  0.3             0.00040534      0.76756        
  0.35            0.00041634      0.76824        
  0.4             0.00042306      0.76864        
  0.45            0.0004277       0.76892        
  0.5             0.00043134      0.76908        
  0.55            0.0004343       0.76928        
  0.6             0.00043668      0.7694         
  0.65            0.0004389       0.76948        
  0.7             0.000441        0.76956        
  0.75            0.00044248      0.76964        
  0.8             0.00044366      0.76968        
  0.85            0.00044502      0.76972        
  0.9             0.00044602      0.76976        
  0.95            0.00044694      0.7698         
  1               0.00044786      0.76984        
  1.05            0.00044858      0.76984        
  1.1             0.00044942      0.76984        
  1.15            0.00045002      0.76988        
  1.2             0.0004507       0.76988        
  1.25            0.00045116      0.76988        
  1.3             0.00045166      0.76988        
  1.35            0.00045222      0.76988        
  1.4             0.0004528       0.76988        
  1.45            0.00045356      0.76992        
  1.5             0.00045418      0.76992        
  1.55            0.00045488      0.76996        
  1.6             0.00045592      0.77           
  1.65            0.00045746      0.77           
  1.7             0.00045934      0.77012        
  1.75            0.00046166      0.77024        
  1.8             0.00046488      0.7704         
  1.85            0.00046874      0.7706         
  1.9             0.00047388      0.77088        
  1.95            0.00048056      0.77124        
  2               0.00048932      0.77168        
  2.05            0.00049986      0.77224        
  2.1             0.00051376      0.77296        
  2.15            0.00053092      0.77384        
  2.2             0.00055264      0.77492        
  2.25            0.00058102      0.77628        
  2.3             0.0006171       0.77792        
  2.35            0.00066498      0.77992        
  2.4             0.00072702      0.78236        
  2.45            0.0008108       0.78532        
  2.5             0.00092868      0.78908        
  2.55            0.00109028      0.79352        
  2.6             0.0013214       0.79888        
  2.65            0.0016582       0.80532        
  2.7             0.0021472       0.81272        
  2.75            0.0028704       0.8212         
  2.8             0.0040696       0.83172        
  2.85            0.0104936       0.86576        
  2.9             0.01155         0.87144        
  2.95            0.012212        0.87564        
  3               0.012772        0.87936        
END_DB

BEGIN_DB
 ICCAP_VAR vs         0              
 ICCAP_VAR ve         0              
 ICCAP_VAR ib         1.25e-006      

 #vc              ic              vb             
  0               -2.3738e-005    0.67032        
  0.05            2.7648e-005     0.71612        
  0.1             0.00019392      0.75132        
  0.15            0.00043966      0.77148        
  0.2             0.00062972      0.78084        
  0.25            0.0007374       0.785          
  0.3             0.00079044      0.78688        
  0.35            0.00081754      0.78776        
  0.4             0.00083414      0.78824        
  0.45            0.00084508      0.78856        
  0.5             0.00085398      0.7888         
  0.55            0.00086078      0.78896        
  0.6             0.00086592      0.78908        
  0.65            0.00086982      0.78916        
  0.7             0.00087368      0.7892         
  0.75            0.00087714      0.78924        
  0.8             0.00087988      0.78928        
  0.85            0.0008823       0.78932        
  0.9             0.00088394      0.78932        
  0.95            0.00088572      0.78932        
  1               0.00088732      0.78932        
  1.05            0.00088858      0.78932        
  1.1             0.00088962      0.78928        
  1.15            0.00089084      0.78928        
  1.2             0.00089232      0.78928        
  1.25            0.00089312      0.78924        
  1.3             0.00089394      0.78924        
  1.35            0.00089464      0.7892         
  1.4             0.0008955       0.78916        
  1.45            0.00089628      0.78916        
  1.5             0.0008971       0.78912        
  1.55            0.00089816      0.78912        
  1.6             0.00089942      0.78912        
  1.65            0.00090154      0.78912        
  1.7             0.00090412      0.78916        
  1.75            0.00090744      0.7892         
  1.8             0.00091232      0.78932        
  1.85            0.00091906      0.78948        
  1.9             0.0009267       0.78964        
  1.95            0.000937        0.78992        
  2               0.0009502       0.79024        
  2.05            0.00096712      0.79072        
  2.1             0.0009885       0.79124        
  2.15            0.0010158       0.792          
  2.2             0.00104948      0.79284        
  2.25            0.00109262      0.79392        
  2.3             0.0011466       0.79524        
  2.35            0.0012166       0.79688        
  2.4             0.0013046       0.79884        
  2.45            0.001421        0.8012         
  2.5             0.0015754       0.80408        
  2.55            0.0017774       0.80752        
  2.6             0.0020508       0.81156        
  2.65            0.0024304       0.81648        
  2.7             0.0029596       0.82228        
  2.75            0.0037522       0.82944        
  2.8             0.0052022       0.8396         
  2.85            0.0107516       0.86712        
  2.9             0.011634        0.87208        
  2.95            0.012264        0.87608        
  3               0.012808        0.87972        
END_DB

BEGIN_DB
 ICCAP_VAR vs         0              
 ICCAP_VAR ve         0              
 ICCAP_VAR ib         2.5e-006       

 #vc              ic              vb             
  0               -4.0882e-005    0.696          
  0.05            7.5578e-005     0.73968        
  0.1             0.00037402      0.77068        
  0.15            0.00073962      0.78776        
  0.2             0.00102888      0.79648        
  0.25            0.0012418       0.80156        
  0.3             0.0013974       0.80476        
  0.35            0.001502        0.80668        
  0.4             0.0015712       0.80788        
  0.45            0.0016148       0.8086         
  0.5             0.0016458       0.80904        
  0.55            0.0016664       0.80932        
  0.6             0.001683        0.80952        
  0.65            0.001695        0.8096         
  0.7             0.0017042       0.80968        
  0.75            0.0017126       0.80976        
  0.8             0.0017194       0.80976        
  0.85            0.0017246       0.80976        
  0.9             0.0017286       0.80972        
  0.95            0.001732        0.80972        
  1               0.0017348       0.80964        
  1.05            0.0017374       0.8096         
  1.1             0.0017398       0.80956        
  1.15            0.0017416       0.80948        
  1.2             0.001743        0.8094         
  1.25            0.0017454       0.80936        
  1.3             0.0017464       0.80924        
  1.35            0.0017458       0.80916        
  1.4             0.001746        0.80908        
  1.45            0.0017486       0.80904        
  1.5             0.0017492       0.80896        
  1.55            0.00175         0.80888        
  1.6             0.0017508       0.8088         
  1.65            0.0017532       0.80876        
  1.7             0.0017556       0.80872        
  1.75            0.0017606       0.80868        
  1.8             0.0017666       0.80872        
  1.85            0.0017756       0.80876        
  1.9             0.0017852       0.80884        
  1.95            0.0018          0.809          
  2               0.0018178       0.80924        
  2.05            0.0018422       0.80952        
  2.1             0.001873        0.80992        
  2.15            0.0019114       0.8104         
  2.2             0.0019582       0.81104        
  2.25            0.0020196       0.81184        
  2.3             0.0020964       0.81288        
  2.35            0.0021934       0.81412        
  2.4             0.0023118       0.8156         
  2.45            0.0024644       0.81744        
  2.5             0.0026654       0.81968        
  2.55            0.002916        0.82228        
  2.6             0.0032518       0.82548        
  2.65            0.0037098       0.82944        
  2.7             0.0043598       0.8344         
  2.75            0.0054228       0.84128        
  2.8             0.0094406       0.86124        
  2.85            0.0110744       0.86912        
  2.9             0.011782        0.87328        
  2.95            0.012364        0.877          
  3               0.012886        0.88048        
END_DB

BEGIN_DB
 ICCAP_VAR vs         0              
 ICCAP_VAR ve         0              
 ICCAP_VAR ib         5e-006         

 #vc              ic              vb             
  0               -5.7866e-005    0.72252        
  0.05            0.0001847       0.7628         
  0.1             0.00063596      0.78848        
  0.15            0.00108274      0.80204        
  0.2             0.00143         0.80944        
  0.25            0.0017126       0.8142         
  0.3             0.001959        0.81784        
  0.35            0.0021738       0.82064        
  0.4             0.0023708       0.82304        
  0.45            0.0025438       0.825          
  0.5             0.002698        0.82664        
  0.55            0.002834        0.828          
  0.6             0.0029472       0.82908        
  0.65            0.0030384       0.82984        
  0.7             0.003111        0.8304         
  0.75            0.0031658       0.83076        
  0.8             0.0032064       0.831          
  0.85            0.0032376       0.83116        
  0.9             0.003262        0.83124        
  0.95            0.0032804       0.83124        
  1               0.003292        0.83116        
  1.05            0.0033028       0.83112        
  1.1             0.0033112       0.831          
  1.15            0.0033172       0.83092        
  1.2             0.0033202       0.83076        
  1.25            0.0033238       0.83064        
  1.3             0.0033276       0.83052        
  1.35            0.003329        0.83036        
  1.4             0.0033296       0.8302         
  1.45            0.0033288       0.83           
  1.5             0.0033288       0.82988        
  1.55            0.0033314       0.82968        
  1.6             0.0033292       0.82952        
  1.65            0.0033294       0.82936        
  1.7             0.003332        0.8292         
  1.75            0.0033354       0.82908        
  1.8             0.0033428       0.829          
  1.85            0.0033508       0.82892        
  1.9             0.003364        0.82888        
  1.95            0.0033794       0.82888        
  2               0.0034044       0.82896        
  2.05            0.0034348       0.82908        
  2.1             0.0034756       0.82928        
  2.15            0.0035256       0.8296         
  2.2             0.0035906       0.83004        
  2.25            0.0036744       0.8306         
  2.3             0.003776        0.83128        
  2.35            0.003906        0.83224        
  2.4             0.00407         0.8334         
  2.45            0.0042772       0.8348         
  2.5             0.0045462       0.83668        
  2.55            0.0048938       0.83892        
  2.6             0.00537         0.8418         
  2.65            0.0060638       0.84576        
  2.7             0.0072352       0.85172        
  2.75            0.0095204       0.86216        
  2.8             0.010781        0.86816        
  2.85            0.011466        0.87196        
  2.9             0.012022        0.8754         
  2.95            0.012536        0.87872        
  3               0.013022        0.88192        
END_DB

BEGIN_DB
 ICCAP_VAR vs         0              
 ICCAP_VAR ve         0              
 ICCAP_VAR ib         1e-005         

 #vc              ic              vb             
  0               -6.0582e-005    0.74924        
  0.05            0.00035606      0.78404        
  0.1             0.00090788      0.80428        
  0.15            0.0013954       0.81528        
  0.2             0.0017718       0.8214         
  0.25            0.0020812       0.82552        
  0.3             0.0023594       0.82876        
  0.35            0.002612        0.83144        
  0.4             0.0028546       0.83384        
  0.45            0.003082        0.83592        
  0.5             0.0033008       0.83784        
  0.55            0.003515        0.8396         
  0.6             0.0037168       0.84112        
  0.65            0.0039106       0.84248        
  0.7             0.0041004       0.84384        
  0.75            0.0042794       0.845          
  0.8             0.004452        0.84604        
  0.85            0.0046196       0.84708        
  0.9             0.0047764       0.84792        
  0.95            0.0049252       0.84868        
  1               0.0050688       0.8494         
  1.05            0.0052008       0.85           
  1.1             0.0053252       0.85048        
  1.15            0.0054354       0.85092        
  1.2             0.0055364       0.85124        
  1.25            0.0056274       0.85148        
  1.3             0.005704        0.85168        
  1.35            0.0057698       0.85172        
  1.4             0.0058246       0.85176        
  1.45            0.00587         0.85172        
  1.5             0.0059046       0.8516         
  1.55            0.005928        0.8514         
  1.6             0.0059484       0.85124        
  1.65            0.005966        0.85104        
  1.7             0.0059788       0.8508         
  1.75            0.0059914       0.8506         
  1.8             0.0060058       0.85036        
  1.85            0.0060208       0.8502         
  1.9             0.0060426       0.85004        
  1.95            0.0060698       0.84992        
  2               0.0061032       0.84984        
  2.05            0.006146        0.84984        
  2.1             0.0062068       0.84988        
  2.15            0.0062794       0.85004        
  2.2             0.0063758       0.85032        
  2.25            0.0064998       0.85076        
  2.3             0.0066538       0.85136        
  2.35            0.0068596       0.85216        
