! VERSION = 6.00
!Data measured by ggf on Wed Jan 24 08:45:45 2018 using model file NPN_MEAS_SCALE
BEGIN_HEADER
 ICCAP_INPUTS
  vc         V  C GROUND SMU_C 0.2 LIN        1    0          3          61   0.05      
  ve         V  E GROUND SMU_E 0.2 CON        0
  vs         V  S GROUND SMU_S 0.015 CON        0
  vb         V  B GROUND SMU_B 0.015 LIN        2    0.6        0.9        7    0.05      
 ICCAP_OUTPUTS
  ic         I  C DEFAULT SMU_C M
  ib         I  B GROUND SMU_B M
 ICCAP_VALUES
  TNOM "27"
  TEMP "27"
  TECHNO "SG13G2"
  LOT "EDJ802"
  WAFER "02"
  CHIP "(3.3)"
  MODULE "S439S"
  DEV_NAME "D02"
  DEV_GEOM_L "5.0"
  DEV_GEOM_W "0.07"
  NUM_OF_TRANS_RF "2"
  REMARKS "Nx=1; Power -30/-20dBm, Slope: 0.1dB/GHz"
  TIMEDATE "Wed Jan 24 08:28:21     2018"
  OPERATOR "ggf"
END_HEADER

BEGIN_DB
 ICCAP_VAR ve         0              
 ICCAP_VAR vs         0              
 ICCAP_VAR vb         0.6            

 #vc              ic              ib             
  0               -2.673e-006     1.819e-007     
  0.05            1.9564e-007     5.663e-008     
  0.1             6.5498e-007     2.103e-008     
  0.15            7.3166e-007     8.6798e-009    
  0.2             7.4564e-007     4.0902e-009    
  0.25            7.5014e-007     2.2924e-009    
  0.3             7.5118e-007     1.6056e-009    
  0.35            7.5188e-007     1.3738e-009    
  0.4             7.5278e-007     1.2894e-009    
  0.45            7.5276e-007     1.2618e-009    
  0.5             7.5322e-007     1.2388e-009    
  0.55            7.5338e-007     1.2244e-009    
  0.6             7.5338e-007     1.2094e-009    
  0.65            7.5442e-007     1.195e-009     
  0.7             7.541e-007      1.1904e-009    
  0.75            7.545e-007      1.1784e-009    
  0.8             7.5462e-007     1.175e-009     
  0.85            7.5458e-007     1.1638e-009    
  0.9             7.5526e-007     1.1616e-009    
  0.95            7.5474e-007     1.1538e-009    
  1               7.5552e-007     1.1488e-009    
  1.05            7.5552e-007     1.148e-009     
  1.1             7.552e-007      1.1382e-009    
  1.15            7.5522e-007     1.135e-009     
  1.2             7.5584e-007     1.132e-009     
  1.25            7.5592e-007     1.123e-009     
  1.3             7.5644e-007     1.1252e-009    
  1.35            7.566e-007      1.1178e-009    
  1.4             7.5624e-007     1.1196e-009    
  1.45            7.5678e-007     1.1102e-009    
  1.5             7.5672e-007     1.0992e-009    
  1.55            7.5654e-007     1.0976e-009    
  1.6             7.5752e-007     1.088e-009     
  1.65            7.5794e-007     1.0748e-009    
  1.7             7.5722e-007     1.0678e-009    
  1.75            7.5772e-007     1.0458e-009    
  1.8             7.5784e-007     1.0252e-009    
  1.85            7.5762e-007     1.0082e-009    
  1.9             7.5886e-007     9.8034e-010    
  1.95            7.5854e-007     9.4686e-010    
  2               7.5912e-007     9.0706e-010    
  2.05            7.5878e-007     8.544e-010     
  2.1             7.5784e-007     7.9694e-010    
  2.15            7.5844e-007     7.2848e-010    
  2.2             7.5812e-007     6.5228e-010    
  2.25            7.5842e-007     5.5736e-010    
  2.3             7.5838e-007     4.5176e-010    
  2.35            7.5846e-007     3.2488e-010    
  2.4             7.591e-007      1.8456e-010    
  2.45            7.5924e-007     2.264e-011     
  2.5             7.5892e-007     -1.66e-010     
  2.55            7.598e-007      -3.756e-010    
  2.6             7.5986e-007     -6.1464e-010   
  2.65            7.6068e-007     -8.9074e-010   
  2.7             7.615e-007      -1.1976e-009   
  2.75            7.6144e-007     -1.5456e-009   
  2.8             7.619e-007      -1.942e-009    
  2.85            7.6264e-007     -2.3836e-009   
  2.9             7.6326e-007     -2.8742e-009   
  2.95            7.64e-007       -3.4374e-009   
  3               7.6456e-007     -4.05e-009     
END_DB

BEGIN_DB
 ICCAP_VAR ve         0              
 ICCAP_VAR vs         0              
 ICCAP_VAR vb         0.65           

 #vc              ic              ib             
  0               -1.3764e-005    7.1136e-007    
  0.05            1.6148e-006     1.9028e-007    
  0.1             4.4834e-006     6.377e-008     
  0.15            4.954e-006      2.7506e-008    
  0.2             5.0276e-006     1.5458e-008    
  0.25            5.0498e-006     1.0824e-008    
  0.3             5.0606e-006     9.041e-009     
  0.35            5.0656e-006     8.358e-009     
  0.4             5.0684e-006     8.0694e-009    
  0.45            5.0686e-006     7.925e-009     
  0.5             5.0682e-006     7.82e-009      
  0.55            5.075e-006      7.7372e-009    
  0.6             5.0712e-006     7.6716e-009    
  0.65            5.0734e-006     7.6162e-009    
  0.7             5.0746e-006     7.5608e-009    
  0.75            5.074e-006      7.5194e-009    
  0.8             5.0768e-006     7.4762e-009    
  0.85            5.0788e-006     7.4404e-009    
  0.9             5.0768e-006     7.4048e-009    
  0.95            5.0766e-006     7.375e-009     
  1               5.0816e-006     7.3512e-009    
  1.05            5.084e-006      7.3242e-009    
  1.1             5.0844e-006     7.3016e-009    
  1.15            5.0832e-006     7.2852e-009    
  1.2             5.0818e-006     7.2598e-009    
  1.25            5.083e-006      7.2436e-009    
  1.3             5.084e-006      7.23e-009      
  1.35            5.085e-006      7.2066e-009    
  1.4             5.0838e-006     7.1822e-009    
  1.45            5.088e-006      7.159e-009     
  1.5             5.0878e-006     7.1282e-009    
  1.55            5.088e-006      7.091e-009     
  1.6             5.0854e-006     7.0548e-009    
  1.65            5.0884e-006     7.0016e-009    
  1.7             5.0812e-006     6.934e-009     
  1.75            5.0848e-006     6.8628e-009    
  1.8             5.0868e-006     6.7608e-009    
  1.85            5.0912e-006     6.6336e-009    
  1.9             5.0928e-006     6.4856e-009    
  1.95            5.0942e-006     6.3068e-009    
  2               5.0914e-006     6.0866e-009    
  2.05            5.0902e-006     5.8276e-009    
  2.1             5.0944e-006     5.514e-009     
  2.15            5.092e-006      5.1498e-009    
  2.2             5.0938e-006     4.7186e-009    
  2.25            5.0924e-006     4.2118e-009    
  2.3             5.0956e-006     3.6262e-009    
  2.35            5.0944e-006     2.9286e-009    
  2.4             5.0962e-006     2.1496e-009    
  2.45            5.094e-006      1.2374e-009    
  2.5             5.1004e-006     1.877e-010     
  2.55            5.0986e-006     -9.9734e-010   
  2.6             5.0984e-006     -2.3558e-009   
  2.65            5.1014e-006     -3.9208e-009   
  2.7             5.1044e-006     -5.6696e-009   
  2.75            5.1054e-006     -7.6472e-009   
  2.8             5.1094e-006     -9.9374e-009   
  2.85            5.1116e-006     -1.2452e-008   
  2.9             5.1152e-006     -1.531e-008    
  2.95            5.1176e-006     -1.8586e-008   
  3               5.124e-006      -2.215e-008    
END_DB

BEGIN_DB
 ICCAP_VAR ve         0              
 ICCAP_VAR vs         0              
 ICCAP_VAR vb         0.7            

 #vc              ic              ib             
  0               -4.3766e-005    2.7878e-006    
  0.05            1.376e-005      7.8074e-007    
  0.1             2.9798e-005     2.4042e-007    
  0.15            3.293e-005      1.0824e-007    
  0.2             3.3484e-005     7.1484e-008    
  0.25            3.3608e-005     5.8896e-008    
  0.3             3.3654e-005     5.3976e-008    
  0.35            3.368e-005      5.1952e-008    
  0.4             3.3722e-005     5.092e-008     
  0.45            3.3724e-005     5.027e-008     
  0.5             3.3758e-005     4.977e-008     
  0.55            3.3758e-005     4.9368e-008    
  0.6             3.3784e-005     4.9052e-008    
  0.65            3.379e-005      4.8752e-008    
  0.7             3.3796e-005     4.8498e-008    
  0.75            3.3806e-005     4.8296e-008    
  0.8             3.382e-005      4.8094e-008    
  0.85            3.3826e-005     4.7904e-008    
  0.9             3.3822e-005     4.777e-008     
  0.95            3.3844e-005     4.7614e-008    
  1               3.3846e-005     4.7476e-008    
  1.05            3.387e-005      4.7368e-008    
  1.1             3.3864e-005     4.7266e-008    
  1.15            3.388e-005      4.7152e-008    
  1.2             3.3876e-005     4.7056e-008    
  1.25            3.3882e-005     4.6966e-008    
  1.3             3.3906e-005     4.6878e-008    
  1.35            3.3906e-005     4.6776e-008    
  1.4             3.3902e-005     4.6678e-008    
  1.45            3.3926e-005     4.6582e-008    
  1.5             3.3918e-005     4.6454e-008    
  1.55            3.3918e-005     4.629e-008     
  1.6             3.393e-005      4.6102e-008    
  1.65            3.3938e-005     4.5826e-008    
  1.7             3.3942e-005     4.551e-008     
  1.75            3.3942e-005     4.512e-008     
  1.8             3.396e-005      4.4596e-008    
  1.85            3.3966e-005     4.396e-008     
  1.9             3.3956e-005     4.3212e-008    
  1.95            3.3966e-005     4.2222e-008    
  2               3.3972e-005     4.1056e-008    
  2.05            3.397e-005      3.966e-008     
  2.1             3.3968e-005     3.7902e-008    
  2.15            3.4e-005        3.589e-008     
  2.2             3.4002e-005     3.3492e-008    
  2.25            3.3996e-005     3.0628e-008    
  2.3             3.4018e-005     2.734e-008     
  2.35            3.4006e-005     2.343e-008     
  2.4             3.403e-005      1.8966e-008    
  2.45            3.4026e-005     1.3786e-008    
  2.5             3.4042e-005     7.7406e-009    
  2.55            3.405e-005      9.3346e-010    
  2.6             3.4044e-005     -6.8972e-009   
  2.65            3.407e-005      -1.592e-008    
  2.7             3.4092e-005     -2.6078e-008   
  2.75            3.4116e-005     -3.7614e-008   
  2.8             3.4142e-005     -5.0914e-008   
  2.85            3.4146e-005     -6.5712e-008   
  2.9             3.4166e-005     -8.2468e-008   
  2.95            3.418e-005      -1.0164e-007   
  3               3.4198e-005     -1.2276e-007   
END_DB

BEGIN_DB
 ICCAP_VAR ve         0              
 ICCAP_VAR vs         0              
 ICCAP_VAR vb         0.75           

 #vc              ic              ib             
  0               -6.0196e-005    1.0244e-005    
  0.05            0.00011494      3.4052e-006    
  0.1             0.00018594      1.1982e-006    
  0.15            0.00020916      5.5572e-007    
  0.2             0.00021432      3.9668e-007    
  0.25            0.00021574      3.5014e-007    
  0.3             0.0002163       3.3236e-007    
  0.35            0.00021672      3.2424e-007    
  0.4             0.000217        3.1956e-007    
  0.45            0.00021724      3.163e-007     
  0.5             0.0002174       3.1406e-007    
  0.55            0.00021766      3.1214e-007    
  0.6             0.00021782      3.1044e-007    
  0.65            0.00021802      3.092e-007     
  0.7             0.0002182       3.0802e-007    
  0.75            0.00021828      3.07e-007      
  0.8             0.0002185       3.0612e-007    
  0.85            0.00021864      3.0546e-007    
  0.9             0.00021876      3.0474e-007    
  0.95            0.00021894      3.0426e-007    
  1               0.00021906      3.0374e-007    
  1.05            0.00021924      3.035e-007     
  1.1             0.00021928      3.0324e-007    
  1.15            0.00021946      3.0294e-007    
  1.2             0.00021958      3.0256e-007    
  1.25            0.00021974      3.023e-007     
  1.3             0.00021988      3.0212e-007    
  1.35            0.00021998      3.0188e-007    
  1.4             0.00022016      3.0156e-007    
  1.45            0.00022022      3.012e-007     
  1.5             0.0002204       3.0092e-007    
  1.55            0.00022046      3.002e-007     
  1.6             0.00022064      2.995e-007     
  1.65            0.0002207       2.9842e-007    
  1.7             0.00022094      2.9716e-007    
  1.75            0.00022104      2.9552e-007    
  1.8             0.0002212       2.9336e-007    
  1.85            0.00022126      2.9048e-007    
  1.9             0.00022142      2.8674e-007    
  1.95            0.00022158      2.8196e-007    
  2               0.00022168      2.761e-007     
  2.05            0.00022178      2.69e-007      
  2.1             0.00022186      2.6012e-007    
  2.15            0.00022208      2.4968e-007    
  2.2             0.00022218      2.3722e-007    
  2.25            0.00022232      2.2196e-007    
  2.3             0.00022248      2.0422e-007    
  2.35            0.00022258      1.8314e-007    
  2.4             0.0002227       1.589e-007     
  2.45            0.00022288      1.3102e-007    
  2.5             0.00022294      9.7632e-008    
  2.55            0.00022316      5.9992e-008    
  2.6             0.00022328      1.6674e-008    
  2.65            0.00022338      -3.3596e-008   
  2.7             0.00022366      -9.0382e-008   
  2.75            0.00022388      -1.5504e-007   
  2.8             0.0002241       -2.3018e-007   
  2.85            0.00022424      -3.1368e-007   
  2.9             0.00022444      -4.089e-007    
  2.95            0.00022484      -5.1808e-007   
  3               0.00022506      -6.3838e-007   
END_DB

BEGIN_DB
 ICCAP_VAR ve         0              
 ICCAP_VAR vs         0              
 ICCAP_VAR vb         0.8            

 #vc              ic              ib             
  0               -3.7022e-005    4.4984e-005    
  0.05            0.00050432      1.8054e-005    
  0.1             0.00083714      8.3048e-006    
  0.15            0.00103456      4.522e-006     
  0.2             0.00113844      2.9984e-006    
  0.25            0.0011906       2.3376e-006    
  0.3             0.0012148       2.0586e-006    
  0.35            0.001226        1.9452e-006    
  0.4             0.0012326       1.892e-006     
  0.45            0.0012376       1.8644e-006    
  0.5             0.0012416       1.8458e-006    
  0.55            0.0012456       1.8336e-006    
  0.6             0.0012492       1.8252e-006    
  0.65            0.0012526       1.8184e-006    
  0.7             0.0012562       1.815e-006     
  0.75            0.0012592       1.8114e-006    
  0.8             0.0012626       1.8118e-006    
  0.85            0.0012656       1.812e-006     
  0.9             0.0012686       1.8122e-006    
  0.95            0.001272        1.8128e-006    
  1               0.0012752       1.8148e-006    
  1.05            0.0012782       1.8154e-006    
  1.1             0.0012816       1.8176e-006    
  1.15            0.0012846       1.8202e-006    
  1.2             0.0012876       1.8226e-006    
  1.25            0.0012906       1.8252e-006    
  1.3             0.0012936       1.8302e-006    
  1.35            0.0012968       1.8326e-006    
  1.4             0.0012998       1.836e-006     
  1.45            0.0013028       1.8392e-006    
  1.5             0.0013062       1.8446e-006    
  1.55            0.0013092       1.8464e-006    
  1.6             0.0013124       1.8488e-006    
  1.65            0.0013154       1.8496e-006    
  1.7             0.0013184       1.8504e-006    
  1.75            0.0013216       1.8488e-006    
  1.8             0.001325        1.8446e-006    
  1.85            0.0013282       1.8378e-006    
  1.9             0.0013312       1.8318e-006    
  1.95            0.0013346       1.817e-006     
  2               0.0013378       1.7988e-006    
  2.05            0.001341        1.773e-006     
  2.1             0.001344        1.7404e-006    
  2.15            0.0013472       1.6998e-006    
  2.2             0.001351        1.651e-006     
  2.25            0.0013542       1.5902e-006    
  2.3             0.0013578       1.5166e-006    
  2.35            0.0013608       1.4268e-006    
  2.4             0.0013644       1.3204e-006    
  2.45            0.0013678       1.1936e-006    
  2.5             0.0013718       1.0426e-006    
  2.55            0.0013752       8.7024e-007    
  2.6             0.0013796       6.6762e-007    
  2.65            0.001383        4.3128e-007    
  2.7             0.0013874       1.6216e-007    
  2.75            0.001391        -1.4744e-007   
  2.8             0.0013954       -5.1004e-007   
  2.85            0.0013992       -9.1716e-007   
  2.9             0.0014052       -1.3826e-006   
  2.95            0.0014086       -1.9228e-006   
  3               0.0014132       -2.5206e-006   
END_DB

BEGIN_DB
 ICCAP_VAR ve         0              
 ICCAP_VAR vs         0              
 ICCAP_VAR vb         0.85           

 #vc              ic              ib             
  0               -3.3628e-005    0.00022246     
  0.05            0.0010078       0.00011414     
  0.1             0.0017456       6.6176e-005    
  0.15            0.0022402       4.6206e-005    
  0.2             0.0025686       3.7552e-005    
  0.25            0.002817        3.292e-005     
  0.3             0.003032        2.964e-005     
  0.35            0.0032254       2.7036e-005    
  0.4             0.0034134       2.4686e-005    
  0.45            0.0035924       2.2644e-005    
  0.5             0.0037668       2.0802e-005    
  0.55            0.0039386       1.9098e-005    
  0.6             0.0041018       1.759e-005     
  0.65            0.0042588       1.6226e-005    
  0.7             0.0044122       1.5004e-005    
  0.75            0.0045546       1.3924e-005    
  0.8             0.004689        1.2986e-005    
  0.85            0.004816        1.2156e-005    
  0.9             0.0049308       1.1462e-005    
  0.95            0.0050354       1.0896e-005    
  1               0.0051306       1.044e-005     
  1.05            0.0052144       1.0088e-005    
  1.1             0.0052896       9.8372e-006    
  1.15            0.0053578       9.6594e-006    
  1.2             0.0054174       9.5358e-006    
  1.25            0.0054732       9.464e-006     
  1.3             0.0055246       9.4338e-006    
  1.35            0.0055736       9.4334e-006    
  1.4             0.00562         9.4502e-006    
  1.45            0.0056648       9.4862e-006    
  1.5             0.0057092       9.5378e-006    
  1.55            0.0057522       9.5994e-006    
  1.6             0.0057954       9.673e-006     
  1.65            0.0058388       9.7386e-006    
  1.7             0.005882        9.8076e-006    
  1.75            0.0059258       9.8804e-006    
  1.8             0.0059702       9.9484e-006    
  1.85            0.0060144       1.00082e-005   
  1.9             0.0060592       1.00622e-005   
  1.95            0.0061056       1.01056e-005   
  2               0.0061518       1.01294e-005   
  2.05            0.0061996       1.01342e-005   
  2.1             0.0062486       1.0117e-005    
  2.15            0.0062968       1.00494e-005   
  2.2             0.0063468       9.959e-006     
  2.25            0.006398        9.8284e-006    
  2.3             0.006451        9.6412e-006    
  2.35            0.006505        9.3688e-006    
