! VERSION = 6.00
!Data measured by ggf on Wed Jan 24 08:45:44 2018 using model file NPN_MEAS_SCALE
BEGIN_HEADER
 ICCAP_INPUTS
  vc         V  C GROUND SMU_C 0.2 SYNC       1 1 vb
  ve         V  E GROUND SMU_E 0 CON        0
  vs         V  S GROUND SMU_S 0 CON        0
  freq       F  LIST       1 74 100000000 200000000 300000000 400000000 500000000 600000000 700000000 800000000 900000000 1000000000 2000000000 3000000000 4000000000 5000000000 6000000000 7000000000 8000000000 9000000000 10000000000 11000000000 12000000000 13000000000 14000000000 15000000000 16000000000 17000000000 18000000000 19000000000 20000000000 21000000000 22000000000 23000000000 24000000000 25000000000 26000000000 27000000000 28000000000 29000000000 30000000000 31000000000 32000000000 33000000000 34000000000 35000000000 36000000000 37000000000 38000000000 39000000000 40000000000 41000000000 42000000000 43000000000 44000000000 45000000000 46000000000 47000000000 48000000000 49000000000 50000000000 51000000000 52000000000 53000000000 54000000000 55000000000 56000000000 57000000000 58000000000 59000000000 60000000000 61000000000 62000000000 63000000000 64000000000 65000000000
  vb         V  B GROUND SMU_B 0.015 LIN        2    0.74       0.87       27   0.005     
 ICCAP_OUTPUTS
  ic         I  C GROUND SMU_C M
  ib         I  B GROUND SMU_B M
  S          S  B C GROUND NWA M
  S_deemb    S B C GROUND n/a B
 ICCAP_VALUES
  TNOM "27"
  TEMP "27"
  TECHNO "SG13G2"
  LOT "EDJ802"
  WAFER "02"
  CHIP "(3.3)"
  MODULE "S439S"
  DEV_NAME "D02"
  DEV_GEOM_L "5.0"
  DEV_GEOM_W "0.07"
  NUM_OF_TRANS_RF "2"
  REMARKS "Nx=1; Power -30/-20dBm, Slope: 0.1dB/GHz"
  TIMEDATE "Wed Jan 24 08:28:21     2018"
  OPERATOR "ggf"
END_HEADER

BEGIN_DB
 ICCAP_VAR vc         1.74           
 ICCAP_VAR ve         0              
 ICCAP_VAR vs         0              
 ICCAP_VAR vb         0.74           

 #freq            ic              ib              R:S(1,1)        I:S(1,1)        R:S(1,2)        I:S(1,2)        R:S(2,1)        I:S(2,1)        R:S(2,2)        I:S(2,2)        R:S_deemb(1,1)  I:S_deemb(1,1)  R:S_deemb(1,2)  I:S_deemb(1,2)  R:S_deemb(2,1)  I:S_deemb(2,1)  R:S_deemb(2,2)  I:S_deemb(2,2) 
  1e+008          0.00015304      2.0634e-007     0.998455        -0.00380043     -2.01568e-005   0.000726984     -0.62021        -0.00507662     1.00026         -0.00261962     0.998494        -0.00230532     3.38137e-005    0.000795128     -0.726224       -0.00716198     1.00064         -0.000861563   
  2e+008          0.00015304      2.0634e-007     0.999225        -0.00883388     4.3363e-005     0.00157924      -0.60278        0.000198287     1.00037         -0.00587996     0.999204        -0.00698906     9.96792e-005    0.0016706       -0.706264       -0.00121002     1.00041         -0.0028723     
  3e+008          0.00015304      2.0634e-007     0.998959        -0.0132313      3.16968e-005    0.00234391      -0.605307       0.00373044      1.00024         -0.00799531     0.999021        -0.0112871      4.80454e-005    0.00255039      -0.709013       0.00271646      1.00027         -0.00449038    
  4e+008          0.00015304      2.0634e-007     0.999405        -0.0177731      5.07344e-005    0.0031134       -0.597128       0.00798459      0.999852        -0.0105325      0.99926         -0.0150914      5.19129e-005    0.00343147      -0.699687       0.00666109      1.00042         -0.00599024    
  5e+008          0.00015304      2.0634e-007     0.999213        -0.0239643      0.000108189     0.0039152       -0.604174       0.0120399       0.999987        -0.0131137      0.99912         -0.0193692      7.79023e-005    0.00428716      -0.707954       0.0102558       1.00034         -0.00763236    
  6e+008          0.00015304      2.0634e-007     0.999067        -0.0285204      0.000111349     0.00467111      -0.604031       0.015099        1               -0.0156301      0.999181        -0.0233874      7.18633e-005    0.00513117      -0.707653       0.0130922       1.00024         -0.00921987    
  7e+008          0.00015304      2.0634e-007     0.998962        -0.0332663      0.000143695     0.00546002      -0.604231       0.0197894       0.999514        -0.018352       0.998886        -0.0275709      0.000175369     0.00603558      -0.70821        0.0181301       1.00002         -0.0107567     
  8e+008          0.00015304      2.0634e-007     0.998727        -0.0380832      0.000246184     0.00622998      -0.606428       0.0237998       0.999857        -0.0207077      0.998626        -0.0315921      0.000167959     0.00687493      -0.710361       0.0220507       1.00001         -0.0122209     
  9e+008          0.00015304      2.0634e-007     0.99838         -0.0429862      0.000263729     0.00704581      -0.601216       0.0287564       0.999618        -0.0234537      0.998306        -0.0354585      0.000190744     0.00768377      -0.704952       0.0270136       1.00004         -0.0136851     
  1e+009          0.00015304      2.0634e-007     0.99795         -0.0476075      0.000319149     0.00779399      -0.606741       0.0334624       0.999321        -0.0260317      0.998098        -0.0394899      0.00026328      0.00858059      -0.711274       0.0317978       0.999808        -0.0152351     
  2e+009          0.00015304      2.0634e-007     0.994237        -0.0943105      0.00118819      0.0154852       -0.59005        0.0678148       0.997106        -0.051467       0.994895        -0.0782479      0.00099512      0.0170056       -0.693187       0.0648187       0.998753        -0.0301538     
  3e+009          0.00015304      2.0634e-007     0.986783        -0.142668       0.00266992      0.0230401       -0.593968       0.0990689       0.994539        -0.0763885      0.990044        -0.118195       0.00215916      0.0255091       -0.699438       0.0937056       0.997183        -0.0450189     
  4e+009          0.00015304      2.0634e-007     0.977416        -0.188238       0.00458595      0.030422        -0.588464       0.134828        0.991683        -0.101243       0.983067        -0.156686       0.00372551      0.0337685       -0.696505       0.129164        0.995185        -0.0594256     
  5e+009          0.00015304      2.0634e-007     0.96624         -0.232027       0.00705434      0.0377197       -0.5736         0.166318        0.987072        -0.125281       0.974665        -0.193874       0.00574832      0.0420241       -0.682352       0.159394        0.992766        -0.0738223     
  6e+009          0.00015304      2.0634e-007     0.951452        -0.276964       0.0100599       0.0447244       -0.559422       0.197268        0.980917        -0.150985       0.963955        -0.231084       0.00815388      0.0499386       -0.670228       0.189003        0.990025        -0.088017      
  7e+009          0.00015304      2.0634e-007     0.93491         -0.321145       0.0135365       0.0514975       -0.547125       0.228374        0.976042        -0.175534       0.951749        -0.267543       0.0109653       0.0579316       -0.661622       0.219981        0.987021        -0.102116      
  8e+009          0.00015304      2.0634e-007     0.917139        -0.36102        0.0174117       0.0579394       -0.533245       0.257123        0.969193        -0.19767        0.937937        -0.302437       0.0142194       0.0654719       -0.650961       0.24822         0.983215        -0.115938      
  9e+009          0.00015304      2.0634e-007     0.896232        -0.401751       0.0217738       0.0641012       -0.515786       0.284208        0.960722        -0.22106        0.923357        -0.337205       0.0178603       0.072952        -0.636479       0.275206        0.979137        -0.129723      
  1e+010          0.00015304      2.0634e-007     0.873736        -0.441815       0.0264965       0.0696014       -0.493102       0.311187        0.950912        -0.245689       0.906726        -0.369584       0.0216456       0.0800032       -0.618864       0.302679        0.974539        -0.142976      
  1.1e+010        0.00015304      2.0634e-007     0.850398        -0.476256       0.0313942       0.0751032       -0.477743       0.332509        0.944246        -0.266266       0.888861        -0.403731       0.0259243       0.086972        -0.606547       0.326499        0.969874        -0.15613       
  1.2e+010        0.00015304      2.0634e-007     0.824546        -0.511673       0.0369162       0.0802227       -0.459317       0.360045        0.934557        -0.287124       0.869414        -0.434108       0.0304786       0.0936828       -0.592664       0.354648        0.96466         -0.168956      
  1.3e+010        0.00015304      2.0634e-007     0.795707        -0.544682       0.042508        0.0847451       -0.441488       0.38393         0.921484        -0.306841       0.848695        -0.46468        0.0352188       0.100063        -0.580187       0.381328        0.959292        -0.181212      
  1.4e+010        0.00015304      2.0634e-007     0.768761        -0.576782       0.0487432       0.0887489       -0.415881       0.401856        0.91181         -0.329581       0.827161        -0.492056       0.0406186       0.106171        -0.558132       0.401136        0.953642        -0.193911      
  1.5e+010        0.00015304      2.0634e-007     0.740948        -0.603657       0.0549272       0.0920653       -0.385346       0.415984        0.901062        -0.348455       0.806031        -0.518436       0.0461776       0.111671        -0.530284       0.419519        0.947672        -0.205889      
  1.6e+010        0.00015304      2.0634e-007     0.710309        -0.631582       0.0610699       0.0950155       -0.363955       0.432428        0.889701        -0.365705       0.782785        -0.543354       0.0516505       0.116952        -0.513662       0.439186        0.940977        -0.217421      
  1.7e+010        0.00015304      2.0634e-007     0.678591        -0.656502       0.0675093       0.0975206       -0.336109       0.443676        0.87433         -0.383458       0.760002        -0.567887       0.0576668       0.12185         -0.488778       0.455368        0.934452        -0.228823      
  1.8e+010        0.00015304      2.0634e-007     0.648567        -0.67936        0.0736186       0.0996032       -0.314305       0.457204        0.86267         -0.401495       0.736033        -0.590349       0.0634384       0.126369        -0.470564       0.473341        0.927894        -0.240062      
  1.9e+010        0.00015304      2.0634e-007     0.619326        -0.697977       0.0800977       0.101415        -0.290608       0.472855        0.852263        -0.423414       0.709934        -0.612916       0.069323        0.130694        -0.451064       0.492709        0.920977        -0.250204      
  2e+010          0.00015304      2.0634e-007     0.584085        -0.720619       0.0860553       0.102287        -0.266783       0.47806         0.837993        -0.431573       0.686394        -0.631858       0.0755206       0.134413        -0.42979        0.50454         0.913219        -0.260226      
  2.1e+010        0.00015304      2.0634e-007     0.556311        -0.739836       0.0918747       0.103255        -0.246315       0.489719        0.821945        -0.439815       0.660306        -0.650855       0.0817807       0.137983        -0.411627       0.523519        0.905434        -0.270332      
  2.2e+010        0.00015304      2.0634e-007     0.524202        -0.753398       0.0982332       0.10414         -0.219949       0.494252        0.801979        -0.460569       0.636024        -0.667866       0.0882397       0.141368        -0.385369       0.533384        0.898823        -0.280349      
  2.3e+010        0.00015304      2.0634e-007     0.491922        -0.765929       0.10409         0.103845        -0.194925       0.499287        0.798835        -0.485565       0.610132        -0.683304       0.0941411       0.143788        -0.362598       0.54271         0.892011        -0.288789      
  2.4e+010        0.00015304      2.0634e-007     0.460594        -0.782644       0.108235        0.104374        -0.175307       0.500803        0.813971        -0.485419       0.585833        -0.698711       0.0997995       0.145461        -0.33847        0.551993        0.884811        -0.293887      
  2.5e+010        0.00015304      2.0634e-007     0.433137        -0.794686       0.116025        0.107964        -0.161393       0.515403        0.847956        -0.480667       0.55916         -0.71062        0.106356        0.147738        -0.315904       0.56113         0.876122        -0.302362      
  2.6e+010        0.00015304      2.0634e-007     0.401441        -0.80164        0.125975        0.103199        -0.121755       0.522391        0.797413        -0.51266        0.534008        -0.724113       0.113843        0.149185        -0.292334       0.570885        0.864043        -0.312284      
  2.7e+010        0.00015304      2.0634e-007     0.36573         -0.81363        0.129472        0.101612        -0.101035       0.521677        0.721238        -0.531051       0.508197        -0.735589       0.11992         0.151604        -0.274723       0.582973        0.857407        -0.323195      
  2.8e+010        0.00015304      2.0634e-007     0.337476        -0.820786       0.135749        0.0989158       -0.0720184      0.518676        0.690139        -0.58347        0.482945        -0.747462       0.126516        0.15407         -0.255221       0.589216        0.851792        -0.333951      
  2.9e+010        0.00015304      2.0634e-007     0.311469        -0.824594       0.138058        0.0972903       -0.0571713      0.512981        0.695354        -0.586138       0.45722         -0.756136       0.131388        0.154656        -0.237679       0.592902        0.846687        -0.337847      
  3e+010          0.00015304      2.0634e-007     0.279236        -0.82835        0.142922        0.0970768       -0.0389618      0.510116        0.702136        -0.573055       0.432917        -0.762971       0.137012        0.155129        -0.214216       0.593113        0.840616        -0.343951      
  3.1e+010        0.00015304      2.0634e-007     0.247417        -0.837696       0.148652        0.0948481       -0.013928       0.507821        0.678142        -0.581178       0.410839        -0.768174       0.143098        0.155343        -0.191254       0.597638        0.831437        -0.350874      
  3.2e+010        0.00015304      2.0634e-007     0.228752        -0.838085       0.153068        0.092452        0.00522556      0.501174        0.655414        -0.591682       0.386872        -0.775535       0.1495          0.155704        -0.168899       0.599919        0.823256        -0.359091      
  3.3e+010        0.00015304      2.0634e-007     0.195562        -0.832912       0.157906        0.090392        0.0207508       0.498316        0.650625        -0.60528        0.363362        -0.781794       0.155103        0.1557          -0.151877       0.601824        0.816702        -0.366279      
  3.4e+010        0.00015304      2.0634e-007     0.158785        -0.832181       0.163262        0.0876258       0.0421833       0.496354        0.639795        -0.613843       0.338259        -0.785975       0.160634        0.155088        -0.131191       0.604724        0.809723        -0.371794      
  3.5e+010        0.00015304      2.0634e-007     0.138998        -0.839929       0.166901        0.0845937       0.0607472       0.487901        0.628314        -0.618992       0.317174        -0.788625       0.166125        0.15457         -0.109831       0.605052        0.801294        -0.377929      
  3.6e+010        0.00015304      2.0634e-007     0.118433        -0.836278       0.17034         0.08088         0.076177        0.47988         0.602125        -0.630545       0.296228        -0.790711       0.171575        0.153573        -0.0923533      0.604697        0.793326        -0.38378       
  3.7e+010        0.00015304      2.0634e-007     0.0899079       -0.831779       0.173989        0.0785475       0.0900877       0.47351         0.595938        -0.636826       0.275927        -0.792817       0.175611        0.153007        -0.0760761      0.600896        0.787398        -0.3903        
  3.8e+010        0.00015304      2.0634e-007     0.0598455       -0.828634       0.177708        0.0752385       0.108135        0.468561        0.584045        -0.647651       0.25559         -0.798539       0.180266        0.152112        -0.0570552      0.602825        0.780857        -0.395118      
  3.9e+010        0.00015304      2.0634e-007     0.0443472       -0.824759       0.180297        0.0715265       0.1251          0.458808        0.559218        -0.655046       0.234163        -0.799558       0.184978        0.15126         -0.0384496      0.600808        0.773572        -0.400617      
  4e+010          0.00015304      2.0634e-007     0.0250634       -0.823724       0.182752        0.0689372       0.134992        0.452259        0.553883        -0.665729       0.21309         -0.800667       0.189655        0.150472        -0.0248895      0.598141        0.766169        -0.406495      
  4.1e+010        0.00015304      2.0634e-007     -0.00595966     -0.823607       0.186441        0.0665229       0.149727        0.447147        0.536635        -0.668264       0.19258         -0.800434       0.194269        0.149444        -0.00775923     0.598513        0.759441        -0.413063      
  4.2e+010        0.00015304      2.0634e-007     -0.0226426      -0.815495       0.189515        0.0621895       0.165175        0.436088        0.519508        -0.677696       0.172858        -0.801029       0.199025        0.14796         0.00925372      0.595062        0.751473        -0.417162      
  4.3e+010        0.00015304      2.0634e-007     -0.0521549      -0.806657       0.191906        0.0588877       0.175593        0.425542        0.507343        -0.681348       0.160742        -0.801443       0.202515        0.146667        0.0239067       0.588561        0.745352        -0.422534      
  4.4e+010        0.00015304      2.0634e-007     -0.0606528      -0.807172       0.194145        0.0565671       0.188027        0.419797        0.491995        -0.679125       0.135176        -0.799458       0.20753         0.145338        0.0407968       0.589627        0.737657        -0.428584      
  4.5e+010        0.00015304      2.0634e-007     -0.0825272      -0.801621       0.197392        0.0528661       0.20045         0.412932        0.471159        -0.699734       0.117065        -0.799524       0.211496        0.143692        0.0543844       0.58588         0.730867        -0.433326      
  4.6e+010        0.00015304      2.0634e-007     -0.0991886      -0.802231       0.199992        0.0501108       0.209473        0.404705        0.468277        -0.698056       0.101648        -0.797364       0.215163        0.142052        0.0674683       0.581366        0.723873        -0.438002      
  4.7e+010        0.00015304      2.0634e-007     -0.127465       -0.788886       0.203018        0.04609         0.221142        0.394811        0.452308        -0.69541        0.0870469       -0.799735       0.219008        0.141105        0.0812627       0.578517        0.716152        -0.443153      
  4.8e+010        0.00015304      2.0634e-007     -0.143368       -0.790989       0.206095        0.0410641       0.2361          0.384099        0.422267        -0.711093       0.0662544       -0.794461       0.223674        0.139912        0.0985884       0.575903        0.708568        -0.448331      
