! VERSION = 6.00
!Data measured by ggf on Wed Jan 24 08:45:44 2018 using model file NPN_MEAS_SCALE
BEGIN_HEADER
 ICCAP_INPUTS
  vc         V  C GROUND SMU_C 0.2 SYNC       1 0 vb
  ve         V  E GROUND SMU_E 0.2 CON        0
  vs         V  S GROUND SMU_S 0 CON        0
  freq       F  LIST       1 74 100000000 200000000 300000000 400000000 500000000 600000000 700000000 800000000 900000000 1000000000 2000000000 3000000000 4000000000 5000000000 6000000000 7000000000 8000000000 9000000000 10000000000 11000000000 12000000000 13000000000 14000000000 15000000000 16000000000 17000000000 18000000000 19000000000 20000000000 21000000000 22000000000 23000000000 24000000000 25000000000 26000000000 27000000000 28000000000 29000000000 30000000000 31000000000 32000000000 33000000000 34000000000 35000000000 36000000000 37000000000 38000000000 39000000000 40000000000 41000000000 42000000000 43000000000 44000000000 45000000000 46000000000 47000000000 48000000000 49000000000 50000000000 51000000000 52000000000 53000000000 54000000000 55000000000 56000000000 57000000000 58000000000 59000000000 60000000000 61000000000 62000000000 63000000000 64000000000 65000000000
  vb         V  B GROUND SMU_B 0.015 LIN        2    0.74       0.87       27   0.005     
 ICCAP_OUTPUTS
  ic         I  C GROUND SMU_C M
  ib         I  B GROUND SMU_B M
  S          S  B C GROUND NWA M
  S_deemb    S B C GROUND n/a B
 ICCAP_VALUES
  TNOM "27"
  TEMP "27"
  TECHNO "SG13G2"
  LOT "EDJ802"
  WAFER "02"
  CHIP "(3.3)"
  MODULE "S439S"
  DEV_NAME "D02"
  DEV_GEOM_L "5.0"
  DEV_GEOM_W "0.07"
  NUM_OF_TRANS_RF "2"
  REMARKS "Nx=1; Power -30/-20dBm, Slope: 0.1dB/GHz"
  TIMEDATE "Wed Jan 24 08:28:21     2018"
  OPERATOR "ggf"
END_HEADER

BEGIN_DB
 ICCAP_VAR vc         0.74           
 ICCAP_VAR ve         0              
 ICCAP_VAR vs         0              
 ICCAP_VAR vb         0.74           

 #freq            ic              ib              R:S(1,1)        I:S(1,1)        R:S(1,2)        I:S(1,2)        R:S(2,1)        I:S(2,1)        R:S(2,2)        I:S(2,2)        R:S_deemb(1,1)  I:S_deemb(1,1)  R:S_deemb(1,2)  I:S_deemb(1,2)  R:S_deemb(2,1)  I:S_deemb(2,1)  R:S_deemb(2,2)  I:S_deemb(2,2) 
  1e+008          0.00014964      2.1616e-007     0.998575        -0.00386949     6.67236e-005    0.000741904     -0.613217       -0.00563537     1.00022         -0.00281302     0.9986          -0.00253324     5.61003e-005    0.000621826     -0.613679       -0.00660633     1.00027         -0.00135584    
  2e+008          0.00014964      2.1616e-007     0.999141        -0.00893073     1.43542e-006    0.00162377      -0.596653       0.000180942     1.00031         -0.0060909      0.999113        -0.00651208     4.14093e-005    0.00147415      -0.59703        -0.00133513     1.00037         -0.00365296    
  3e+008          0.00014964      2.1616e-007     0.999229        -0.0139478      5.1803e-005     0.00247483      -0.59937        0.0043336       1.00015         -0.00823297     0.999147        -0.0105563      3.68905e-005    0.00226533      -0.599578       0.00205942      1.00003         -0.00468414    
  4e+008          0.00014964      2.1616e-007     0.999572        -0.0187825      6.8158e-005     0.00332642      -0.591298       0.00849548      0.999745        -0.0109731      0.999306        -0.0142299      6.67391e-005    0.00309793      -0.591605       0.00542281      0.999885        -0.00627564    
  5e+008          0.00014964      2.1616e-007     0.998898        -0.0237137      9.47521e-005    0.0041277       -0.597812       0.0120828       0.99984         -0.0135838      0.998619        -0.0174837      7.88805e-005    0.0038405       -0.598104       0.00815758      0.999875        -0.00782972    
  6e+008          0.00014964      2.1616e-007     0.999061        -0.0290077      0.000133572     0.00492726      -0.598045       0.0155831       0.999911        -0.016206       0.999191        -0.0220187      6.85436e-005    0.00455404      -0.598366       0.0109504       0.99992         -0.00932288    
  7e+008          0.00014964      2.1616e-007     0.998946        -0.0340156      0.000199033     0.00578585      -0.598146       0.0204921       0.999411        -0.0190097      0.999           -0.0261697      0.000157735     0.00539557      -0.59855        0.0151778       0.999455        -0.0109654     
  8e+008          0.00014964      2.1616e-007     0.998627        -0.0387398      0.00022256      0.00660368      -0.600355       0.0246119       0.999738        -0.0214605      0.998786        -0.0295416      0.000151668     0.00613596      -0.600804       0.018519        0.999794        -0.0123295     
  9e+008          0.00014964      2.1616e-007     0.998352        -0.0437561      0.000284829     0.00740895      -0.595177       0.029574        0.999417        -0.0243297      0.998507        -0.033564       0.000159425     0.00686311      -0.595781       0.0228238       0.999613        -0.0140365     
  1e+009          0.00014964      2.1616e-007     0.997988        -0.0484962      0.000383981     0.00823135      -0.600532       0.0345057       0.999167        -0.026918       0.998425        -0.0370865      0.000286805     0.00767458      -0.601279       0.0269055       0.999389        -0.015522      
  2e+009          0.00014964      2.1616e-007     0.993533        -0.0961231      0.00132762      0.0163677       -0.583657       0.0697485       0.996635        -0.0532774      0.995445        -0.0735289      0.000929628     0.0152088       -0.585776       0.0549749       0.997663        -0.0305171     
  3e+009          0.00014964      2.1616e-007     0.985861        -0.145196       0.00289489      0.0243502       -0.586783       0.102074        0.993801        -0.0790565      0.990654        -0.111643       0.00193286      0.0227106       -0.591142       0.0799858       0.996206        -0.045349      
  4e+009          0.00014964      2.1616e-007     0.976123        -0.191171       0.00500903      0.0321289       -0.580613       0.138531        0.990525        -0.104563       0.984383        -0.147111       0.00332325      0.0300633       -0.588237       0.109577        0.994862        -0.0599098     
  5e+009          0.00014964      2.1616e-007     0.964118        -0.235647       0.00770245      0.0398139       -0.56491        0.170557        0.985465        -0.129237       0.976972        -0.181468       0.00507114      0.0374454       -0.576537       0.135386        0.992144        -0.0737185     
  6e+009          0.00014964      2.1616e-007     0.948738        -0.2816         0.0109287       0.047074        -0.549695       0.202121        0.978853        -0.155528       0.967077        -0.218072       0.00722165      0.0445064       -0.56613        0.161294        0.988699        -0.0891809     
  7e+009          0.00014964      2.1616e-007     0.931386        -0.325307       0.0146769       0.0542254       -0.536594       0.233111        0.973537        -0.180475       0.956342        -0.252449       0.00971174      0.0516286       -0.558738       0.186797        0.986619        -0.10369       
  8e+009          0.00014964      2.1616e-007     0.913029        -0.365355       0.0188261       0.0609114       -0.521828       0.261821        0.966148        -0.203113       0.944519        -0.284158       0.0124788       0.0583846       -0.549868       0.210862        0.983018        -0.116316      
  9e+009          0.00014964      2.1616e-007     0.891528        -0.4063         0.023502        0.0673226       -0.503703       0.288781        0.957154        -0.226901       0.930825        -0.318286       0.0157014       0.0651298       -0.538323       0.234125        0.978381        -0.130216      
  1e+010          0.00014964      2.1616e-007     0.868321        -0.446066       0.0285633       0.0729813       -0.480103       0.315378        0.946887        -0.251759       0.915954        -0.349648       0.0190694       0.0712729       -0.522024       0.257495        0.973067        -0.145452      
  1.1e+010        0.00014964      2.1616e-007     0.844225        -0.480334       0.0337721       0.078694        -0.464203       0.336529        0.939643        -0.272777       0.900332        -0.379437       0.0226766       0.0776284       -0.512885       0.2761          0.970529        -0.157128      
  1.2e+010        0.00014964      2.1616e-007     0.818011        -0.515659       0.0396296       0.0839972       -0.444817       0.363616        0.929464        -0.29392        0.88339         -0.408967       0.0266756       0.0838215       -0.502079       0.300943        0.965719        -0.169299      
  1.3e+010        0.00014964      2.1616e-007     0.788661        -0.548217       0.0455812       0.0885709       -0.426094       0.386978        0.915775        -0.313744       0.863351        -0.437758       0.0308793       0.0895575       -0.491747       0.323329        0.958101        -0.181221      
  1.4e+010        0.00014964      2.1616e-007     0.761259        -0.579925       0.0521578       0.0927067       -0.400088       0.404477        0.905584        -0.336686       0.845728        -0.465906       0.0356261       0.095219        -0.473753       0.341061        0.954151        -0.19595       
  1.5e+010        0.00014964      2.1616e-007     0.733113        -0.606433       0.0586603       0.0960738       -0.369357       0.418138        0.894247        -0.355735       0.826389        -0.489875       0.0405218       0.10021         -0.450059       0.356714        0.948725        -0.207383      
  1.6e+010        0.00014964      2.1616e-007     0.702255        -0.633448       0.0651507       0.0990697       -0.34779        0.433784        0.882407        -0.373011       0.805275        -0.514992       0.0454035       0.104984        -0.4363         0.373409        0.942549        -0.217448      
  1.7e+010        0.00014964      2.1616e-007     0.67007         -0.658529       0.071954        0.101533        -0.319468       0.444791        0.866527        -0.390806       0.782443        -0.539839       0.0507639       0.109524        -0.415038       0.38791         0.933767        -0.228947      
  1.8e+010        0.00014964      2.1616e-007     0.639617        -0.681151       0.0783995       0.103564        -0.297414       0.457683        0.8543          -0.408936       0.76132         -0.562141       0.0558012       0.113789        -0.400646       0.403231        0.928313        -0.24025       
  1.9e+010        0.00014964      2.1616e-007     0.610416        -0.699271       0.0851897       0.105338        -0.273373       0.472424        0.843375        -0.43091        0.740251        -0.580484       0.0611883       0.117905        -0.384652       0.42136         0.924505        -0.254837      
  2e+010          0.00014964      2.1616e-007     0.575032        -0.721447       0.0914156       0.106151        -0.249457       0.477049        0.828701        -0.438924       0.714608        -0.604705       0.0665346       0.121082        -0.366082       0.430527        0.915147        -0.258468      
  2.1e+010        0.00014964      2.1616e-007     0.546953        -0.740304       0.0974902       0.107074        -0.228917       0.488123        0.812248        -0.447029       0.695158        -0.624425       0.071798        0.124593        -0.352756       0.446208        0.905729        -0.262988      
  2.2e+010        0.00014964      2.1616e-007     0.514823        -0.753294       0.104212        0.107863        -0.202254       0.492225        0.791782        -0.467851       0.670501        -0.640092       0.0777761       0.128308        -0.331562       0.456615        0.894822        -0.279155      
  2.3e+010        0.00014964      2.1616e-007     0.482585        -0.765418       0.110335        0.107368        -0.177302       0.496586        0.7882          -0.492701       0.645423        -0.655154       0.0831659       0.130508        -0.311793       0.465923        0.897447        -0.295258      
  2.4e+010        0.00014964      2.1616e-007     0.451312        -0.781827       0.114693        0.10784         -0.157943       0.497707        0.803266        -0.492614       0.622526        -0.674156       0.0868034       0.132601        -0.295033       0.470846        0.912311        -0.289086      
  2.5e+010        0.00014964      2.1616e-007     0.423971        -0.793498       0.122948        0.111404        -0.143203       0.512129        0.836653        -0.488147       0.603468        -0.687317       0.0937286       0.137856        -0.283603       0.487511        0.936863        -0.281162      
  2.6e+010        0.00014964      2.1616e-007     0.392565        -0.800695       0.133074        0.106341        -0.103868       0.517518        0.78496         -0.519269       0.577349        -0.69896        0.10392         0.136926        -0.251073       0.502255        0.896319        -0.303985      
  2.7e+010        0.00014964      2.1616e-007     0.356284        -0.811983       0.136988        0.104525        -0.0829929      0.516201        0.708459        -0.537527       0.547553        -0.716268       0.109156        0.13925         -0.235249       0.51212         0.847039        -0.331473      
  2.8e+010        0.00014964      2.1616e-007     0.32819         -0.81834        0.143415        0.101466        -0.054996       0.513026        0.676776        -0.589716       0.525676        -0.727202       0.116134        0.14093         -0.213153       0.519563        0.836827        -0.379259      
  2.9e+010        0.00014964      2.1616e-007     0.302412        -0.82175        0.145645        0.09968         -0.0402329      0.506525        0.682322        -0.592108       0.505358        -0.734147       0.118289        0.141209        -0.200892       0.517284        0.846755        -0.371767      
  3e+010          0.00014964      2.1616e-007     0.270368        -0.825493       0.150579        0.0994242       -0.0217985      0.503502        0.688702        -0.578854       0.478425        -0.743412       0.123331        0.142714        -0.182496       0.518998        0.848449        -0.353635      
  3.1e+010        0.00014964      2.1616e-007     0.238545        -0.834637       0.156516        0.0967842       0.00213544      0.500435        0.664357        -0.586579       0.453889        -0.758272       0.130107        0.142931        -0.159484       0.524613        0.829219        -0.364538      
  3.2e+010        0.00014964      2.1616e-007     0.219822        -0.834591       0.161225        0.0944106       0.0217696       0.493528        0.641727        -0.596486       0.439063        -0.761218       0.135642        0.143314        -0.140411       0.52571         0.815833        -0.374232      
  3.3e+010        0.00014964      2.1616e-007     0.186951        -0.829041       0.166144        0.0921868       0.0368447       0.490129        0.636276        -0.610458       0.408008        -0.762648       0.140986        0.144216        -0.127147       0.528115        0.818606        -0.381282      
  3.4e+010        0.00014964      2.1616e-007     0.150614        -0.827555       0.171625        0.0889409       0.0579017       0.487443        0.625189        -0.618624       0.374714        -0.770099       0.147655        0.143895        -0.107129       0.533766        0.812357        -0.387177      
  3.5e+010        0.00014964      2.1616e-007     0.131044        -0.835712       0.17545         0.0857853       0.0761795       0.479239        0.613379        -0.623566       0.360997        -0.782441       0.152689        0.143216        -0.0876823      0.533282        0.805484        -0.390414      
  3.6e+010        0.00014964      2.1616e-007     0.110574        -0.831635       0.178768        0.0820236       0.0919959       0.470612        0.586375        -0.635498       0.343272        -0.782249       0.15775         0.141888        -0.0704226      0.532325        0.788692        -0.404382      
  3.7e+010        0.00014964      2.1616e-007     0.0822415       -0.827015       0.182687        0.079437        0.105452        0.46381         0.580625        -0.640755       0.315753        -0.784368       0.16235         0.141711        -0.0568359      0.530251        0.787717        -0.404257      
  3.8e+010        0.00014964      2.1616e-007     0.0523433       -0.823599       0.186516        0.075988        0.12209         0.459165        0.568424        -0.65148        0.286787        -0.788473       0.167413        0.140659        -0.0395487      0.532628        0.783339        -0.41313       
  3.9e+010        0.00014964      2.1616e-007     0.0372611       -0.82006        0.189136        0.072082        0.13873         0.448699        0.543321        -0.6585         0.274453        -0.787664       0.172012        0.138933        -0.0202705      0.529644        0.765017        -0.424048      
  4e+010          0.00014964      2.1616e-007     0.0182997       -0.818521       0.191599        0.0690153       0.14885         0.441914        0.5378          -0.668897       0.258292        -0.790206       0.175287        0.138325        -0.0105787      0.528213        0.768372        -0.42896       
  4.1e+010        0.00014964      2.1616e-007     -0.0131638      -0.818743       0.195297        0.0665176       0.163498        0.436544        0.520402        -0.671153       0.228102        -0.798913       0.180206        0.138142        0.00575235      0.52942         0.755951        -0.43136       
  4.2e+010        0.00014964      2.1616e-007     -0.0289826      -0.809562       0.198706        0.0619136       0.178085        0.42519         0.502932        -0.680103       0.213558        -0.793207       0.185258        0.136154        0.0219506       0.525105        0.746761        -0.441867      
  4.3e+010        0.00014964      2.1616e-007     -0.0587962      -0.800714       0.20112         0.0585166       0.187978        0.415281        0.49105         -0.683532       0.182644        -0.792013       0.189499        0.134781        0.0360493       0.520396        0.74094         -0.444702      
  4.4e+010        0.00014964      2.1616e-007     -0.0673885      -0.801278       0.202907        0.0558356       0.200445        0.407644        0.475413        -0.681233       0.176794        -0.79422        0.192579        0.13398         0.0504218       0.519347        0.728568        -0.443285      
  4.5e+010        0.00014964      2.1616e-007     -0.0889795      -0.796143       0.206573        0.0521312       0.212028        0.401364        0.454171        -0.701232       0.155943        -0.794312       0.198016        0.133046        0.0632033       0.519832        0.719614        -0.466349      
  4.6e+010        0.00014964      2.1616e-007     -0.105182       -0.79599        0.209286        0.0492446       0.221255        0.392359        0.451531        -0.699356       0.142792        -0.79871        0.201717        0.132595        0.0745067       0.515714        0.720998        -0.460982      
  4.7e+010        0.00014964      2.1616e-007     -0.133121       -0.782457       0.212019        0.0447922       0.233312        0.383157        0.435233        -0.69664        0.111935        -0.792354       0.20701         0.130226        0.0903262       0.512851        0.708463        -0.460515      
  4.8e+010        0.00014964      2.1616e-007     -0.148848       -0.785165       0.215235        0.0398027       0.246687        0.372899        0.404775        -0.71188        0.099565        -0.798803       0.213296        0.128097        0.108689        0.510382        0.687513        -0.483362      
