! VERSION = 6.00
!Data measured by ggf on Wed Jan 24 08:45:44 2018 using model file NPN_MEAS_SCALE
BEGIN_HEADER
 ICCAP_INPUTS
  vbe        V  B GROUND SMU_B 0.015 LIN        2    0.6        -1.8       25   -0.1      
  vc         V  C GROUND SMU_C 0.015 CON        0
  ve         V  E GROUND SMU_E 0 CON        0
  vs         V  S GROUND SMU_S 0 CON        0
  freq       F  LIST       1 74 100000000 200000000 300000000 400000000 500000000 600000000 700000000 800000000 900000000 1000000000 2000000000 3000000000 4000000000 5000000000 6000000000 7000000000 8000000000 9000000000 10000000000 11000000000 12000000000 13000000000 14000000000 15000000000 16000000000 17000000000 18000000000 19000000000 20000000000 21000000000 22000000000 23000000000 24000000000 25000000000 26000000000 27000000000 28000000000 29000000000 30000000000 31000000000 32000000000 33000000000 34000000000 35000000000 36000000000 37000000000 38000000000 39000000000 40000000000 41000000000 42000000000 43000000000 44000000000 45000000000 46000000000 47000000000 48000000000 49000000000 50000000000 51000000000 52000000000 53000000000 54000000000 55000000000 56000000000 57000000000 58000000000 59000000000 60000000000 61000000000 62000000000 63000000000 64000000000 65000000000
 ICCAP_OUTPUTS
  S          S  B C GROUND NWA M
  ib         I  B GROUND SMU_B M
  S_deemb    S B C GROUND n/a B
 ICCAP_VALUES
  TNOM "27"
  TEMP "27"
  TECHNO "SG13G2"
  LOT "EDJ802"
  WAFER "02"
  CHIP "(3.3)"
  MODULE "S439S"
  DEV_NAME "D02"
  DEV_GEOM_L "5.0"
  DEV_GEOM_W "0.07"
  NUM_OF_TRANS_RF "2"
  REMARKS "Nx=1; Power -30/-20dBm, Slope: 0.1dB/GHz"
  TIMEDATE "Wed Jan 24 08:28:21     2018"
  OPERATOR "ggf"
END_HEADER

BEGIN_DB
 ICCAP_VAR vbe        0.6            
 ICCAP_VAR vc         0              
 ICCAP_VAR ve         0              
 ICCAP_VAR vs         0              

 #freq            R:S(1,1)        I:S(1,1)        R:S(1,2)        I:S(1,2)        R:S(2,1)        I:S(2,1)        R:S(2,2)        I:S(2,2)        ib              R:S_deemb(1,1)  I:S_deemb(1,1)  R:S_deemb(1,2)  I:S_deemb(1,2)  R:S_deemb(2,1)  I:S_deemb(2,1)  R:S_deemb(2,2)  I:S_deemb(2,2) 
  1e+008          0.999347        -0.00327719     0.00021938      0.00128259      0.000390781     0.00140582      0.994534        -0.00283356     1.829e-007      0.999369        -0.00197734     0.000208076     0.00116305      0.000258532     0.0013098       0.994573        -0.00142296    
  2e+008          0.999633        -0.0080345      0.000340387     0.00257108      0.00027897      0.00246679      0.994593        -0.0063218      1.829e-007      0.999617        -0.0056601      0.00037801      0.00242273      0.00020542      0.00243557      0.994666        -0.00394545    
  3e+008          0.999692        -0.0118097      0.000391027     0.00375045      0.000382288     0.00377846      0.994333        -0.00885787     1.829e-007      0.999601        -0.00848089     0.000371837     0.00354257      0.000401399     0.0036314       0.994213        -0.00539762    
  4e+008          1.0002          -0.0166251      0.000440018     0.00502258      0.000362847     0.00488657      0.993932        -0.0119359      1.829e-007      0.999922        -0.0121396      0.000430806     0.00479629      0.000299641     0.00461726      0.994078        -0.00734091    
  5e+008          0.999647        -0.0211191      0.000514046     0.00630471      0.000486492     0.00612969      0.99382         -0.0148431      1.829e-007      0.999352        -0.0149736      0.000485193     0.00602042      0.00040889      0.00587264      0.993864        -0.00921883    
  6e+008          0.999888        -0.0258513      0.000616729     0.00752651      0.000516561     0.00740007      0.993759        -0.0175162      1.829e-007      0.999983        -0.0189706      0.000534044     0.00715755      0.000520794     0.00701734      0.993765        -0.010798      
  7e+008          0.999764        -0.0301875      0.000700194     0.0087254       0.000553576     0.00860295      0.993538        -0.0207232      1.829e-007      0.999784        -0.0224554      0.00063581      0.00833988      0.000482728     0.00816549      0.993594        -0.0128564     
  8e+008          0.999543        -0.0344536      0.000773712     0.0099636       0.000707962     0.00981587      0.993998        -0.0235127      1.829e-007      0.999651        -0.0253912      0.000672429     0.00950182      0.000640703     0.00936664      0.994065        -0.01459       
  9e+008          0.999173        -0.0390433      0.000904339     0.011202        0.0008117       0.0110224       0.993583        -0.0264595      1.829e-007      0.999255        -0.0290101      0.000740727     0.0106635       0.000643788     0.0105272       0.99378         -0.0164068     
  1e+009          0.998864        -0.0431784      0.00100369      0.0124014       0.000988011     0.0120771       0.993231        -0.0292988      1.829e-007      0.999226        -0.031931       0.000859594     0.0118533       0.000809622     0.011508        0.993468        -0.0181583     
  2e+009          0.995529        -0.0857756      0.002654        0.024398        0.0026547       0.0238784       0.990511        -0.0577027      1.829e-007      0.99714         -0.0634894      0.00207626      0.0232733       0.00201296      0.0227737       0.991589        -0.0354705     
  3e+009          0.989291        -0.129844       0.00542649      0.0362303       0.00515949      0.0355528       0.986422        -0.0855835      1.829e-007      0.993389        -0.0966792      0.00406895      0.034688        0.00386421      0.0340268       0.988909        -0.0527027     
  4e+009          0.981533        -0.171307       0.00888423      0.0475821       0.00851235      0.0466728       0.982086        -0.112131       1.829e-007      0.988587        -0.127645       0.00651785      0.045712        0.00623474      0.0448385       0.986508        -0.0686164     
  5e+009          0.971987        -0.2115         0.0131942       0.0587484       0.0127055       0.0577087       0.975941        -0.137998       1.829e-007      0.983009        -0.157602       0.00952597      0.0567246       0.00915778      0.0556034       0.982711        -0.0839269     
  6e+009          0.959037        -0.253046       0.0184116       0.0692487       0.0177682       0.0681174       0.968545        -0.165496       1.829e-007      0.974805        -0.189605       0.0132564       0.0672443       0.0127546       0.0660446       0.978499        -0.100907      
  7e+009          0.944864        -0.29433        0.0242749       0.0793235       0.0237133       0.0779246       0.962202        -0.191312       1.829e-007      0.966535        -0.221209       0.0174021       0.0775697       0.0169093       0.0760574       0.975365        -0.116609      
  8e+009          0.929731        -0.330017       0.0307633       0.0887768       0.0298516       0.0874233       0.954017        -0.214774       1.829e-007      0.956984        -0.248111       0.0220186       0.0874346       0.0212571       0.0860509       0.97093         -0.130381      
  9e+009          0.911614        -0.367716       0.0383876       0.098057        0.0368871       0.0963705       0.94326         -0.23942        1.829e-007      0.945788        -0.278388       0.0276516       0.0975209       0.0262576       0.0957021       0.964528        -0.145531      
  1e+010          0.892039        -0.405402       0.0457629       0.105446        0.0450679       0.104303        0.93336         -0.264903       1.829e-007      0.93361         -0.306885       0.0328137       0.105865        0.0323126       0.104648        0.95949         -0.161552      
  1.1e+010        0.8718          -0.437525       0.0543873       0.113811        0.0523757       0.112106        0.923899        -0.286937       1.829e-007      0.921047        -0.333698       0.0392582       0.115526        0.0374881       0.113576        0.954761        -0.174726      
  1.2e+010        0.850099        -0.469975       0.0631523       0.120744        0.0617379       0.118999        0.913266        -0.308539       1.829e-007      0.907515        -0.359233       0.0456239       0.124014        0.044393        0.122011        0.949365        -0.187621      
  1.3e+010        0.825625        -0.500764       0.0725126       0.127038        0.0704502       0.125127        0.898044        -0.329146       1.829e-007      0.89143         -0.384941       0.052705        0.132282        0.0508724       0.130152        0.940121        -0.200711      
  1.4e+010        0.802147        -0.532084       0.0822537       0.132394        0.0801417       0.130887        0.887002        -0.352181       1.829e-007      0.877002        -0.411328       0.0601112       0.14002         0.0581919       0.138116        0.935131        -0.215759      
  1.5e+010        0.777506        -0.557984       0.0915687       0.136471        0.0897104       0.134644        0.875917        -0.371425       1.829e-007      0.860521        -0.433293       0.0673967       0.146546        0.0657908       0.144341        0.929879        -0.227385      
  1.6e+010        0.751073        -0.585227       0.102411        0.140639        0.0990861       0.138697        0.861544        -0.389418       1.829e-007      0.843348        -0.457002       0.0761568       0.153676        0.073095        0.151006        0.921119        -0.238656      
  1.7e+010        0.722792        -0.60974        0.111643        0.143136        0.108612        0.141414        0.846259        -0.407304       1.829e-007      0.823925        -0.479579       0.0836672       0.15914         0.0808508       0.156879        0.912847        -0.250163      
  1.8e+010        0.696622        -0.632803       0.122767        0.146017        0.118298        0.144301        0.831206        -0.42617        1.829e-007      0.806771        -0.50046        0.0930002       0.165678        0.0887596       0.162892        0.904524        -0.262755      
  1.9e+010        0.671674        -0.650849       0.131731        0.147325        0.129056        0.14564         0.820857        -0.44818        1.829e-007      0.789549        -0.516834       0.100328        0.17025         0.097806        0.167922        0.901221        -0.277253      
  2e+010          0.640316        -0.673991       0.14173         0.147664        0.137318        0.146128        0.804742        -0.456079       1.829e-007      0.768037        -0.540069       0.109409        0.17426         0.105182        0.171736        0.890345        -0.280993      
  2.1e+010        0.616006        -0.69337        0.150677        0.148251        0.147341        0.147333        0.787757        -0.464812       1.829e-007      0.752311        -0.558266       0.117479        0.178628        0.114115        0.176926        0.880381        -0.286197      
  2.2e+010        0.587558        -0.708013       0.159424        0.148363        0.156232        0.146937        0.767845        -0.485838       1.829e-007      0.731719        -0.573527       0.125472        0.182762        0.122504        0.180571        0.870095        -0.302387      
  2.3e+010        0.558512        -0.722316       0.169506        0.147129        0.16518         0.146489        0.762112        -0.511022       1.829e-007      0.710176        -0.588974       0.134783        0.185758        0.130481        0.184079        0.870764        -0.319305      
  2.4e+010        0.529768        -0.740503       0.175634        0.146918        0.17187         0.1464          0.777303        -0.511661       1.829e-007      0.69027         -0.608307       0.140164        0.187949        0.136382        0.18642         0.886059        -0.31374       
  2.5e+010        0.506438        -0.753217       0.188633        0.150796        0.183267        0.150639        0.807158        -0.5093         1.829e-007      0.675701        -0.620762       0.151593        0.19466         0.146096        0.193157        0.907502        -0.308185      
  2.6e+010        0.477973        -0.763192       0.203576        0.142118        0.197512        0.143124        0.752694        -0.537764       1.829e-007      0.653826        -0.632957       0.167223        0.19205         0.160553        0.191582        0.863967        -0.328902      
  2.7e+010        0.443769        -0.775248       0.209074        0.13873         0.204796        0.139677        0.676493        -0.555644       1.829e-007      0.627302        -0.649241       0.17489         0.194362        0.170435        0.194163        0.814642        -0.356149      
  2.8e+010        0.419881        -0.784562       0.2176          0.132771        0.213186        0.132813        0.64416         -0.606724       1.829e-007      0.610426        -0.660374       0.184865        0.194913        0.180188        0.193635        0.803469        -0.403275      
  2.9e+010        0.39642         -0.790749       0.221303        0.129645        0.216341        0.131093        0.649817        -0.608991       1.829e-007      0.593225        -0.668488       0.188783        0.195067        0.183004        0.195053        0.81371         -0.396006      
  3e+010          0.365763        -0.796561       0.228302        0.128377        0.224188        0.12938         0.655932        -0.596332       1.829e-007      0.568591        -0.678848       0.196091        0.19655         0.191337        0.196465        0.815732        -0.37847       
  3.1e+010        0.336401        -0.808644       0.235924        0.123344        0.232112        0.124406        0.630412        -0.604072       1.829e-007      0.548191        -0.694878       0.205394        0.195429        0.201055        0.195299        0.795474        -0.389487      
  3.2e+010        0.319299        -0.811933       0.242228        0.119424        0.23799         0.120154        0.607252        -0.6136         1.829e-007      0.536518        -0.699865       0.21321         0.195456        0.208501        0.195114        0.781473        -0.399124      
  3.3e+010        0.288262        -0.808747       0.249839        0.115199        0.244418        0.117329        0.600555        -0.627388       1.829e-007      0.508506        -0.702273       0.222048        0.19586         0.215755        0.196285        0.783125        -0.406551      
  3.4e+010        0.253987        -0.81107        0.257588        0.109619        0.253201        0.111394        0.588379        -0.635672       1.829e-007      0.479232        -0.712142       0.23191         0.194485        0.226474        0.195008        0.776089        -0.412877      
  3.5e+010        0.234875        -0.821754       0.262226        0.104215        0.257627        0.105795        0.575867        -0.640472       1.829e-007      0.467614        -0.726224       0.238696        0.192403        0.233141        0.192712        0.768793        -0.416149      
  3.6e+010        0.215991        -0.820277       0.266748        0.0983201       0.262076        0.100018        0.548783        -0.651223       1.829e-007      0.453169        -0.727428       0.24602         0.189918        0.240413        0.190519        0.751678        -0.429034      
  3.7e+010        0.187264        -0.818426       0.272684        0.0932227       0.267568        0.0963374       0.540882        -0.65685        1.829e-007      0.426436        -0.731974       0.253673        0.188393        0.246917        0.190022        0.748882        -0.430311      
  3.8e+010        0.15971         -0.817345       0.277642        0.0874118       0.273941        0.0902842       0.528393        -0.667532       1.829e-007      0.401354        -0.737258       0.260883        0.185785        0.255802        0.187465        0.744474        -0.439366      
  3.9e+010        0.144787        -0.816548       0.280709        0.0807132       0.277224        0.0825542       0.502103        -0.673449       1.829e-007      0.390898        -0.738438       0.267167        0.181942        0.262599        0.182508        0.724783        -0.449597      
  4e+010          0.126089        -0.81752        0.284486        0.0755185       0.280009        0.0790034       0.495484        -0.683344       1.829e-007      0.376326        -0.742719       0.272782        0.180336        0.266496        0.182356        0.726921        -0.454719      
  4.1e+010        0.0949377       -0.820408       0.289455        0.0705148       0.28531         0.0741485       0.477195        -0.684984       1.829e-007      0.348211        -0.753577       0.280209        0.178474        0.274601        0.180508        0.713635        -0.45684       
  4.2e+010        0.0803866       -0.814747       0.292811        0.0637233       0.288185        0.0659581       0.459537        -0.693433       1.829e-007      0.336651        -0.75071        0.286216        0.174859        0.279566        0.175348        0.704238        -0.467235      
  4.3e+010        0.0512025       -0.80854        0.295853        0.0576409       0.291514        0.0617003       0.446538        -0.696336       1.829e-007      0.308055        -0.751599       0.292449        0.171334        0.286299        0.173963        0.697239        -0.470062      
  4.4e+010        0.0415587       -0.810533       0.29869         0.0531563       0.294879        0.0563195       0.430466        -0.693113       1.829e-007      0.302435        -0.754888       0.297606        0.169653        0.292277        0.171608        0.684273        -0.467852      
  4.5e+010        0.0212164       -0.808686       0.302787        0.0470168       0.298071        0.0503801       0.408493        -0.712365       1.829e-007      0.28479         -0.757453       0.304774        0.166876        0.298117        0.168721        0.674309        -0.490537      
  4.6e+010        0.00436255      -0.80989        0.305883        0.0417541       0.301805        0.0461823       0.405152        -0.709662       1.829e-007      0.272004        -0.762978       0.310079        0.164604        0.303697        0.167615        0.674802        -0.484786      
  4.7e+010        -0.0228151      -0.800466       0.309142        0.0350836       0.305611        0.0392612       0.388407        -0.70638        1.829e-007      0.244405        -0.760568       0.317174        0.160481        0.310877        0.163421        0.661878        -0.483935      
  4.8e+010        -0.0388983      -0.805767       0.312279        0.0276856       0.308568        0.030857        0.357825        -0.720931       1.829e-007      0.233774        -0.769223       0.324728        0.156402        0.319187        0.158253        0.640974        -0.505951      
  4.9e+010        -0.0479681      -0.798206       0.31294         0.0220872       0.308299        0.0257254       0.359374        -0.726489       1.829e-007      0.225306        -0.763373       0.327232        0.152854        0.320268        0.154749        0.649548        -0.507461      
  5e+010          -0.0676466      -0.800063       0.317904        0.0162669       0.314969        0.0225114       0.351142        -0.71868        1.829e-007      0.209399        -0.770312       0.335336        0.150803        0.329439        0.156158        0.642434        -0.497971      
  5.1e+010        -0.0968333      -0.788115       0.319334        0.00636046      0.315887        0.0100409       0.325394        -0.719857       1.829e-007      0.178862        -0.766873       0.342407        0.142008        0.33689         0.144695        0.620443        -0.505918      
  5.2e+010        -0.108929       -0.79731        0.318124        -0.00168776     0.312537        0.00396532      0.306236        -0.733388       1.829e-007      0.174585        -0.780438       0.346373        0.13617         0.33731         0.14011         0.610959        -0.524233      
