! VERSION = 6.00
!Data measured by ggf on Wed Jan 24 08:45:44 2018 using model file NPN_MEAS_SCALE
BEGIN_HEADER
 ICCAP_INPUTS
  vce        V  C GROUND SMU_C 0.015 LIN        2    1.8        -0.6       25   -0.1      
  vb         V  B GROUND SMU_B 0.015 CON        0
  ve         V  E GROUND SMU_E 0 CON        0
  vs         V  S GROUND SMU_S 0 CON        0
  freq       F  LIST       1 74 100000000 200000000 300000000 400000000 500000000 600000000 700000000 800000000 900000000 1000000000 2000000000 3000000000 4000000000 5000000000 6000000000 7000000000 8000000000 9000000000 10000000000 11000000000 12000000000 13000000000 14000000000 15000000000 16000000000 17000000000 18000000000 19000000000 20000000000 21000000000 22000000000 23000000000 24000000000 25000000000 26000000000 27000000000 28000000000 29000000000 30000000000 31000000000 32000000000 33000000000 34000000000 35000000000 36000000000 37000000000 38000000000 39000000000 40000000000 41000000000 42000000000 43000000000 44000000000 45000000000 46000000000 47000000000 48000000000 49000000000 50000000000 51000000000 52000000000 53000000000 54000000000 55000000000 56000000000 57000000000 58000000000 59000000000 60000000000 61000000000 62000000000 63000000000 64000000000 65000000000
 ICCAP_OUTPUTS
  S          S  B C GROUND NWA M
  ic         I  C GROUND SMU_C M
  S_deemb    S B C GROUND n/a B
 ICCAP_VALUES
  TNOM "27"
  TEMP "27"
  TECHNO "SG13G2"
  LOT "EDJ802"
  WAFER "02"
  CHIP "(3.3)"
  MODULE "S439S"
  DEV_NAME "D02"
  DEV_GEOM_L "5.0"
  DEV_GEOM_W "0.07"
  NUM_OF_TRANS_RF "2"
  REMARKS "Nx=1; Power -30/-20dBm, Slope: 0.1dB/GHz"
  TIMEDATE "Wed Jan 24 08:28:21     2018"
  OPERATOR "ggf"
END_HEADER

BEGIN_DB
 ICCAP_VAR vce        1.8            
 ICCAP_VAR vb         0              
 ICCAP_VAR ve         0              
 ICCAP_VAR vs         0              

 #freq            R:S(1,1)        I:S(1,1)        R:S(1,2)        I:S(1,2)        R:S(2,1)        I:S(2,1)        R:S(2,2)        I:S(2,2)        ic              R:S_deemb(1,1)  I:S_deemb(1,1)  R:S_deemb(1,2)  I:S_deemb(1,2)  R:S_deemb(2,1)  I:S_deemb(2,1)  R:S_deemb(2,2)  I:S_deemb(2,2) 
  1e+008          0.999359        -0.00275873     5.95697e-006    0.000746776     1.95482e-006    0.000707367     1.0004          -0.00239035     1.2548e-009     0.99938         -0.00145877     -4.58648e-006   0.000626548     -0.000129685    0.000610421     1.00044         -0.000971279   
  2e+008          0.999871        -0.00646723     1.94082e-005    0.00150715      1.98357e-005    0.00170384      1.00043         -0.00531088     1.2548e-009     0.999851        -0.00409225     5.9937e-005     0.00135758      -5.20202e-005   0.00167174      1.0005          -0.00292027    
  3e+008          1.00023         -0.0101964      3.06718e-005    0.00225046      -4.53246e-006   0.00226517      1.00032         -0.00718217     1.2548e-009     1.00013         -0.00686594     1.70685e-005    0.00204078      2.02397e-005    0.00211648      1.00019         -0.00370102    
  4e+008          1.00057         -0.0137019      4.24071e-005    0.00302959      7.10667e-005    0.00316715      0.999947        -0.00954163     1.2548e-009     1.00028         -0.00921557     4.31795e-005    0.0028009       1.65084e-005    0.00289562      1.00008         -0.0049181     
  5e+008          1.00041         -0.0180264      6.67308e-005    0.00381481      1.68656e-005    0.00374873      0.999983        -0.011792       1.2548e-009     1.0001          -0.011877       5.39086e-005    0.00352726      -4.561e-005     0.00348821      1.00001         -0.00613231    
  6e+008          1.00023         -0.0213797      0.000119118     0.00454708      1.82902e-005    0.00464998      1.00009         -0.01406        1.2548e-009     1.0003          -0.0144965      5.86702e-005    0.00417334      4.35007e-005    0.00426276      1.00007         -0.00729858    
  7e+008          1.00035         -0.0250412      0.000104938     0.00531761      0.00012084      0.00529199      0.999593        -0.0165831      1.2548e-009     1.00032         -0.017305       6.98079e-005    0.00492629      7.86704e-005    0.00484981      0.999614        -0.00866773    
  8e+008          1.00014         -0.0285359      0.000157919     0.00609055      0.000212582     0.00612891      1.00004         -0.0187273      1.2548e-009     1.00019         -0.0194685      9.50176e-005    0.00562173      0.000182013     0.00567394      1.00006         -0.00974985    
  9e+008          1.0001          -0.0323289      0.000210285     0.00684255      0.0002124       0.00687813      0.999698        -0.0211552      1.2548e-009     1.00011         -0.022287       9.49748e-005    0.00629499      9.02792e-005    0.00637489      0.999838        -0.0110392     
  1e+009          0.999538        -0.0357583      0.000249392     0.00759284      0.000200023     0.00763292      0.999463        -0.0233918      1.2548e-009     0.999811        -0.0245026      0.000164476     0.00703383      7.66614e-005    0.00705223      0.99963         -0.0121799     
  2e+009          0.997934        -0.0712015      0.000949985     0.0151824       0.000947926     0.0151294       0.997641        -0.0464174      1.2548e-009     0.999198        -0.0488544      0.000599393     0.0140099       0.000522066     0.013976        0.998453        -0.0240186     
  3e+009          0.993502        -0.10867        0.00209735      0.0226429       0.00215749      0.022529        0.995927        -0.0690138      1.2548e-009     0.996848        -0.0753328      0.00123642      0.0209595       0.00133939      0.0208744       0.997833        -0.0357968     
  4e+009          0.988559        -0.1436         0.00370507      0.0299898       0.00375994      0.0299259       0.993899        -0.0915525      1.2548e-009     0.994312        -0.0995563      0.00218837      0.027828        0.0022931       0.0278218       0.997364        -0.0474722     
  5e+009          0.982415        -0.177765       0.00574801      0.0372628       0.00576872      0.0372881       0.990311        -0.113341       1.2548e-009     0.991472        -0.123151       0.0033651       0.0347133       0.00344902      0.0346896       0.99565         -0.058397      
  6e+009          0.97344         -0.213444       0.00825113      0.0443751       0.00819378      0.0443534       0.985615        -0.137041       1.2548e-009     0.986474        -0.148816       0.00486619      0.0415108       0.00487857      0.0414659       0.993595        -0.0711842     
  7e+009          0.963784        -0.248952       0.011171        0.0513597       0.0111969       0.0513338       0.982096        -0.159643       1.2548e-009     0.981825        -0.173983       0.00660083      0.04831         0.00659126      0.0482203       0.992712        -0.083205      
  8e+009          0.953556        -0.280211       0.0144445       0.0580699       0.0142927       0.0581261       0.977071        -0.179943       1.2548e-009     0.976312        -0.195682       0.00855263      0.0548966       0.00842546      0.0550008       0.990815        -0.0932407     
  9e+009          0.940943        -0.314411       0.0182075       0.0646574       0.0180198       0.0645446       0.970398        -0.201738       1.2548e-009     0.969833        -0.221479       0.0108886       0.0615955       0.010655        0.0614911       0.987846        -0.10478       
  1e+010          0.92738         -0.348489       0.0223158       0.0706945       0.0224107       0.0706688       0.962809        -0.225078       1.2548e-009     0.962678        -0.245132       0.0132931       0.0678352       0.0134621       0.0678389       0.98449         -0.117985      
  1.1e+010        0.912882        -0.377862       0.0265604       0.076805        0.0264155       0.0768201       0.958226        -0.244507       1.2548e-009     0.955153        -0.267921       0.0159015       0.0743007       0.0158046       0.0743197       0.983934        -0.127531      
  1.2e+010        0.89752         -0.407258       0.0314555       0.0826309       0.0315144       0.0824928       0.950698        -0.264427       1.2548e-009     0.947046        -0.288821       0.0188677       0.0806639       0.018914        0.0804799       0.981017        -0.137812      
  1.3e+010        0.87951         -0.436403       0.0364823       0.0879344       0.0365724       0.0876769       0.939701        -0.283658       1.2548e-009     0.936797        -0.311191       0.0219931       0.0867689       0.0220956       0.0866277       0.975464        -0.148346      
  1.4e+010        0.862321        -0.467229       0.0420766       0.0929386       0.0420583       0.0928847       0.932371        -0.305435       1.2548e-009     0.928213        -0.335213       0.0255243       0.0928942       0.0255113       0.0927898       0.973631        -0.160938      
  1.5e+010        0.844048        -0.492968       0.047867        0.0973379       0.0477837       0.0968146       0.924069        -0.323949       1.2548e-009     0.917801        -0.355123       0.0294109       0.0985646       0.0293998       0.0979812       0.9707          -0.170751      
  1.6e+010        0.823749        -0.520447       0.0536291       0.101437        0.0533386       0.101125        0.915135        -0.34123        1.2548e-009     0.906572        -0.377009       0.0332029       0.104079        0.032962        0.103599        0.966963        -0.179721      
  1.7e+010        0.801708        -0.545693       0.0598431       0.105149        0.0592752       0.104535        0.902032        -0.359003       1.2548e-009     0.893436        -0.398236       0.0375328       0.109532        0.0370289       0.108864        0.960598        -0.189976      
  1.8e+010        0.781724        -0.56932        0.0657088       0.108467        0.0649502       0.108165        0.8927          -0.377318       1.2548e-009     0.882545        -0.417408       0.0414737       0.114741        0.0407833       0.114122        0.957674        -0.200134      
  1.9e+010        0.762429        -0.589845       0.0720507       0.111609        0.072202        0.111068        0.884543        -0.399941       1.2548e-009     0.871473        -0.434206       0.04585         0.119917        0.0459955       0.119333        0.956351        -0.213999      
  2e+010          0.73631         -0.614908       0.0780853       0.113844        0.0774703       0.11301         0.872341        -0.408958       1.2548e-009     0.855795        -0.457209       0.0503789       0.124341        0.049923        0.123358        0.949543        -0.217378      
  2.1e+010        0.717484        -0.636833       0.0839644       0.11621         0.0836637       0.115773        0.85804         -0.417982       1.2548e-009     0.846268        -0.475748       0.0547566       0.129136        0.0544225       0.128592        0.942392        -0.221487      
  2.2e+010        0.693882        -0.654244       0.0906611       0.118537        0.0898412       0.117612        0.840036        -0.439341       1.2548e-009     0.831495        -0.491806       0.0599168       0.134296        0.0593028       0.133188        0.934046        -0.236598      
  2.3e+010        0.669369        -0.672092       0.0969936       0.119581        0.095811        0.11909         0.838804        -0.465607       1.2548e-009     0.815689        -0.508851       0.0647496       0.137993        0.0636932       0.137231        0.939109        -0.252689      
  2.4e+010        0.645202        -0.693575       0.101441        0.121174        0.100539        0.120629        0.854744        -0.465994       1.2548e-009     0.801399        -0.529417       0.0679591       0.141175        0.0671723       0.140319        0.954848        -0.246521      
  2.5e+010        0.625529        -0.709882       0.109255        0.126569        0.107782        0.126216        0.892307        -0.461046       1.2548e-009     0.791533        -0.543402       0.073801        0.148103        0.0724034       0.147355        0.983177        -0.237425      
  2.6e+010        0.601053        -0.723643       0.120567        0.123463        0.119062        0.123588        0.844843        -0.497272       1.2548e-009     0.77516         -0.557853       0.0841015       0.149526        0.0823876       0.149306        0.947973        -0.26283       
  2.7e+010        0.571268        -0.740331       0.124867        0.123           0.124055        0.123924        0.768811        -0.517105       1.2548e-009     0.754937        -0.577181       0.0886651       0.153663        0.0878736       0.154408        0.900716        -0.28993       
  2.8e+010        0.549272        -0.754432       0.132219        0.121609        0.131194        0.12108         0.739119        -0.57215        1.2548e-009     0.742017        -0.591828       0.095286        0.157412        0.0943791       0.156495        0.893767        -0.338135      
  2.9e+010        0.528921        -0.764256       0.135162        0.120848        0.133866        0.120604        0.743803        -0.576199       1.2548e-009     0.729465        -0.601823       0.0974872       0.158976        0.0960951       0.158235        0.903282        -0.331849      
  3e+010          0.501086        -0.775091       0.140951        0.122262        0.139291        0.121973        0.751324        -0.56372        1.2548e-009     0.709718        -0.615779       0.102706        0.162585        0.100922        0.161868        0.906342        -0.314064      
  3.1e+010        0.472132        -0.792338       0.147833        0.120602        0.146836        0.121165        0.728706        -0.573734       1.2548e-009     0.691879        -0.636069       0.109691        0.16439         0.108503        0.164575        0.890013        -0.326172      
  3.2e+010        0.457144        -0.799216       0.153526        0.119716        0.152096        0.119003        0.706909        -0.585441       1.2548e-009     0.68406         -0.643448       0.115321        0.166869        0.114045        0.165901        0.878505        -0.336667      
  3.3e+010        0.428533        -0.801266       0.159484        0.118774        0.157246        0.119148        0.702505        -0.600941       1.2548e-009     0.660939        -0.650263       0.120833        0.169698        0.118542        0.169262        0.883037        -0.344015      
  3.4e+010        0.394518        -0.809007       0.166614        0.116863        0.165294        0.117198        0.692545        -0.611204       1.2548e-009     0.634406        -0.665293       0.128401        0.171669        0.126709        0.171637        0.878908        -0.351078      
  3.5e+010        0.375631        -0.823633       0.171585        0.114279        0.169693        0.114287        0.6813          -0.618543       1.2548e-009     0.625238        -0.682874       0.134051        0.172368        0.131901        0.171871        0.873845        -0.355966      
  3.6e+010        0.356128        -0.826287       0.176025        0.111513        0.174333        0.111656        0.654976        -0.631895       1.2548e-009     0.612024        -0.688409       0.139591        0.17295         0.137658        0.172938        0.858944        -0.370494      
  3.7e+010        0.328805        -0.828137       0.181518        0.109721        0.178821        0.110808        0.649519        -0.639418       1.2548e-009     0.5885          -0.696226       0.145246        0.174432        0.141795        0.174676        0.859199        -0.371962      
  3.8e+010        0.300676        -0.832828       0.186944        0.107031        0.184969        0.108183        0.637858        -0.651954       1.2548e-009     0.565223        -0.708018       0.151426        0.175163        0.148798        0.175526        0.856422        -0.381857      
  3.9e+010        0.2851          -0.835828       0.190945        0.103549        0.188999        0.103573        0.61271         -0.661565       1.2548e-009     0.555834        -0.712796       0.157018        0.174885        0.154811        0.173966        0.839655        -0.394985      
  4e+010          0.266355        -0.83988        0.194548        0.101364        0.192297        0.102117        0.607177        -0.673503       1.2548e-009     0.542817        -0.719961       0.160771        0.175976        0.157901        0.175795        0.843879        -0.400718      
  4.1e+010        0.235586        -0.847614       0.199483        0.0994692       0.19802         0.100577        0.590221        -0.677498       1.2548e-009     0.517419        -0.73607        0.166469        0.177423        0.164769        0.17769         0.833025        -0.404146      
  4.2e+010        0.218655        -0.845155       0.204626        0.095324        0.20293         0.0949328       0.572358        -0.688956       1.2548e-009     0.504759        -0.737064       0.172932        0.17703         0.170387        0.175649        0.824975        -0.416879      
  4.3e+010        0.189995        -0.843611       0.208654        0.0916605       0.206104        0.0931995       0.560177        -0.693675       1.2548e-009     0.478826        -0.743029       0.178764        0.176566        0.175581        0.17712         0.819862        -0.420695      
  4.4e+010        0.17869         -0.848881       0.21135         0.0896058       0.210668        0.0905461       0.544461        -0.693077       1.2548e-009     0.473156        -0.750067       0.182289        0.177355        0.181273        0.178081        0.808646        -0.420618      
  4.5e+010        0.157122        -0.849354       0.216607        0.0868406       0.214192        0.0871601       0.523022        -0.715411       1.2548e-009     0.455368        -0.755595       0.188735        0.178671        0.185766        0.178082        0.801155        -0.445601      
  4.6e+010        0.139825        -0.854777       0.220873        0.0837889       0.218531        0.0858046       0.520105        -0.714469       1.2548e-009     0.444256        -0.765716       0.19392         0.179162        0.190389        0.180132        0.802981        -0.440828      
  4.7e+010        0.111555        -0.849277       0.225422        0.0798594       0.224099        0.0817867       0.503632        -0.713332       1.2548e-009     0.417157        -0.768363       0.200903        0.178923        0.197847        0.180154        0.791659        -0.441814      
  4.8e+010        0.0941237       -0.856969       0.230282        0.0747553       0.228324        0.0752514       0.473031        -0.73088        1.2548e-009     0.406303        -0.779894       0.208829        0.178301        0.206305        0.177813        0.772518        -0.466699      
  4.9e+010        0.0829666       -0.85195        0.23293         0.0712344       0.22879         0.0726948       0.473205        -0.737844       1.2548e-009     0.396241        -0.777404       0.212475        0.177567        0.206886        0.177201        0.780442        -0.469561      
  5e+010          0.0641427       -0.857453       0.237572        0.0679696       0.23515         0.0716016       0.466892        -0.731971       1.2548e-009     0.383165        -0.787956       0.218714        0.178321        0.214532        0.180903        0.776236        -0.460812      
  5.1e+010        0.0305928       -0.849474       0.241438        0.0609229       0.239089        0.0624109       0.440825        -0.735935       1.2548e-009     0.349234        -0.791142       0.22728         0.174258        0.223852        0.174899        0.755135        -0.471817      
  5.2e+010        0.0161517       -0.860809       0.242187        0.055037        0.237652        0.0564362       0.420567        -0.752394       1.2548e-009     0.344079        -0.807672       0.231893        0.171857        0.225737        0.171443        0.7463          -0.493415      
