! VERSION = 6.00
!Data measured by ggf on Mon Jan 22 13:11:04 2018 using model file NPN_MEAS_SCALE
BEGIN_HEADER
 ICCAP_INPUTS
  vb         V  B GROUND GND 0 CON        0
  vc         V  C GROUND GND 0 CON        0
  ve         V  E GROUND SMU_E 0 CON        0
  vs         V  S GROUND SMU_S 0 CON        0
  freq       F  LIST       1 74 100000000 200000000 300000000 400000000 500000000 600000000 700000000 800000000 900000000 1000000000 2000000000 3000000000 4000000000 5000000000 6000000000 7000000000 8000000000 9000000000 10000000000 11000000000 12000000000 13000000000 14000000000 15000000000 16000000000 17000000000 18000000000 19000000000 20000000000 21000000000 22000000000 23000000000 24000000000 25000000000 26000000000 27000000000 28000000000 29000000000 30000000000 31000000000 32000000000 33000000000 34000000000 35000000000 36000000000 37000000000 38000000000 39000000000 40000000000 41000000000 42000000000 43000000000 44000000000 45000000000 46000000000 47000000000 48000000000 49000000000 50000000000 51000000000 52000000000 53000000000 54000000000 55000000000 56000000000 57000000000 58000000000 59000000000 60000000000 61000000000 62000000000 63000000000 64000000000 65000000000
 ICCAP_OUTPUTS
  S          S  B C Ground NWA M
 ICCAP_VALUES
  TNOM "27"
  TEMP "27"
  TECHNO "SG13G2"
  LOT "EDJ802"
  WAFER "02"
  CHIP "(4.9)"
  MODULE "S439S"
  DEV_NAME "D44"
  DEV_GEOM_L "0.9"
  DEV_GEOM_W "0.07"
  NUM_OF_TRANS_RF "1"
  REMARKS "Nx=8; Power -30/-20dBm, Slope: 0.1dB/GHz"
  TIMEDATE "Mon Jan 22 10:41:20     2018"
  OPERATOR "ggf"
END_HEADER

BEGIN_DB
 ICCAP_VAR vb         0              
 ICCAP_VAR vc         0              
 ICCAP_VAR ve         0              
 ICCAP_VAR vs         0              

 #freq            R:S(1,1)        I:S(1,1)        R:S(1,2)        I:S(1,2)        R:S(2,1)        I:S(2,1)        R:S(2,2)        I:S(2,2)       
  1e+008          -0.985322       0.000819722     0.00366093      6.70521e-005    0.00401067      3.14371e-005    -0.985725       0.00071083     
  2e+008          -0.985098       0.00161006      0.00370734      0.000107156     0.00370962      0.000132632     -0.985628       0.0013149      
  3e+008          -0.985056       0.00214619      0.00369194      0.00021711      0.00357882      7.94387e-005    -0.985582       0.00190206     
  4e+008          -0.985016       0.00259858      0.00364305      0.000248608     0.00363212      0.000292344     -0.985428       0.00239632     
  5e+008          -0.98499        0.00321218      0.00369426      0.000355196     0.00359556      0.00026823      -0.985316       0.00293897     
  6e+008          -0.984814       0.00352047      0.00363481      0.000421166     0.00357002      0.000515171     -0.985079       0.00285794     
  7e+008          -0.984904       0.00407912      0.00367035      0.00048006      0.00361426      0.000437822     -0.985186       0.00390456     
  8e+008          -0.984611       0.00453589      0.00365596      0.000520427     0.00369667      0.000537213     -0.985079       0.00434431     
  9e+008          -0.984487       0.00496448      0.00364803      0.000619271     0.00362303      0.00062188      -0.984874       0.00483416     
  1e+009          -0.984249       0.00562055      0.00363251      0.000723794     0.0036101       0.000728779     -0.984735       0.00532384     
  2e+009          -0.983374       0.00963672      0.00363497      0.00141891      0.00365771      0.00141227      -0.983922       0.00936787     
  3e+009          -0.982321       0.0134719       0.00364108      0.0021484       0.00360735      0.00205399      -0.983401       0.0130715      
  4e+009          -0.98188        0.0173763       0.00362806      0.00294876      0.00364808      0.00290541      -0.982751       0.0167466      
  5e+009          -0.981561       0.0211735       0.00367945      0.00365169      0.00367786      0.00363894      -0.98261        0.0208398      
  6e+009          -0.980925       0.0249931       0.00373579      0.00427561      0.00370773      0.00422936      -0.981805       0.0241849      
  7e+009          -0.980506       0.0293233       0.00368168      0.00490835      0.00355494      0.00497345      -0.981044       0.028012       
  8e+009          -0.979898       0.0323579       0.00361415      0.00567503      0.00349255      0.0056694       -0.980769       0.0314425      
  9e+009          -0.979509       0.0360184       0.00361523      0.00633494      0.00350369      0.00627408      -0.98021        0.0349353      
  1e+010          -0.978801       0.0399283       0.00362843      0.00695036      0.0035841       0.00695802      -0.979851       0.0386933      
  1.1e+010        -0.978179       0.0437545       0.00352901      0.00745599      0.00355712      0.00741914      -0.979128       0.0424836      
  1.2e+010        -0.977254       0.0480996       0.00314082      0.00803587      0.00302043      0.00807827      -0.97838        0.0459667      
  1.3e+010        -0.975554       0.0501179       0.00265919      0.00900209      0.00274608      0.00894292      -0.977066       0.0491506      
  1.4e+010        -0.975189       0.0532349       0.00246222      0.0100837       0.00238514      0.0101006       -0.97672        0.0525996      
  1.5e+010        -0.974871       0.056535        0.00257378      0.0112601       0.002532        0.011053        -0.976256       0.0551933      
  1.6e+010        -0.974588       0.0597562       0.00262893      0.0120202       0.00257857      0.0119047       -0.975957       0.0589756      
  1.7e+010        -0.973805       0.0634397       0.00254038      0.0129152       0.00240289      0.0128416       -0.975654       0.0619667      
  1.8e+010        -0.973552       0.0663086       0.00250583      0.0139729       0.00241124      0.0138931       -0.974838       0.0653328      
  1.9e+010        -0.973479       0.0691084       0.00253856      0.0147507       0.00279441      0.0147404       -0.974828       0.0685604      
  2e+010          -0.973397       0.0727859       0.00267309      0.0157247       0.00238505      0.0159701       -0.974472       0.0721815      
  2.1e+010        -0.97333        0.0756996       0.00258998      0.0168197       0.00235912      0.0168225       -0.974341       0.0746587      
  2.2e+010        -0.974161       0.0789989       0.00278779      0.017979        0.0030916       0.0177725       -0.974338       0.0773108      
  2.3e+010        -0.974366       0.0829423       0.00313242      0.0190764       0.00294558      0.0190918       -0.974899       0.0814028      
  2.4e+010        -0.974641       0.0875272       0.00372934      0.0198794       0.00375408      0.0196489       -0.975125       0.0852359      
  2.5e+010        -0.974174       0.090776        0.0040091       0.0203203       0.00432516      0.0204791       -0.9749         0.0891649      
  2.6e+010        -0.97323        0.0950148       0.00422114      0.0210081       0.00443717      0.0209909       -0.975117       0.092623       
  2.7e+010        -0.973059       0.0989544       0.00418331      0.0218972       0.00366551      0.0218302       -0.973744       0.0961833      
  2.8e+010        -0.972699       0.101923        0.00425761      0.0225741       0.00465987      0.0228585       -0.972284       0.10166        
  2.9e+010        -0.972029       0.106904        0.00431471      0.0234639       0.00438932      0.0236834       -0.971651       0.103195       
  3e+010          -0.971164       0.110919        0.00450092      0.0246664       0.00448792      0.0246963       -0.972587       0.106068       
  3.1e+010        -0.970429       0.113691        0.00551566      0.0251091       0.00518505      0.0253811       -0.970671       0.111904       
  3.2e+010        -0.97016        0.116722        0.00544913      0.0256339       0.00609598      0.0252262       -0.97017        0.115381       
  3.3e+010        -0.969925       0.120889        0.00553935      0.0262439       0.00542351      0.0259455       -0.969919       0.116666       
  3.4e+010        -0.968608       0.124638        0.00552319      0.0271551       0.00546785      0.0266897       -0.969926       0.119728       
  3.5e+010        -0.969194       0.128372        0.00595848      0.0278155       0.00597027      0.0279626       -0.969617       0.124026       
  3.6e+010        -0.970276       0.131729        0.00614235      0.0283501       0.00677858      0.0287301       -0.970314       0.127445       
  3.7e+010        -0.969111       0.13526         0.00625642      0.0294097       0.00661488      0.0296351       -0.969961       0.130963       
  3.8e+010        -0.969079       0.141892        0.00651367      0.0301396       0.00582389      0.0298763       -0.969835       0.134444       
  3.9e+010        -0.967089       0.145619        0.00711356      0.0309714       0.00714587      0.0309413       -0.968977       0.139387       
  4e+010          -0.966748       0.147686        0.00726466      0.031405        0.00810073      0.0311346       -0.969353       0.143771       
  4.1e+010        -0.96618        0.15049         0.00801979      0.0319345       0.00816726      0.0317902       -0.967061       0.146923       
  4.2e+010        -0.964983       0.156458        0.00770717      0.0322619       0.00856093      0.0324801       -0.968153       0.15124        
  4.3e+010        -0.963417       0.160045        0.00758091      0.0340176       0.00838764      0.0332975       -0.966401       0.15439        
  4.4e+010        -0.964345       0.161579        0.00898757      0.0342382       0.0079414       0.0342389       -0.966294       0.158552       
  4.5e+010        -0.963841       0.165325        0.00901719      0.0343908       0.00951732      0.0347702       -0.965485       0.161354       
  4.6e+010        -0.962091       0.169801        0.00898965      0.0349384       0.00987189      0.0348063       -0.964873       0.165159       
  4.7e+010        -0.963175       0.174515        0.00898897      0.0360666       0.00855753      0.0353337       -0.964944       0.168583       
  4.8e+010        -0.962434       0.1777          0.0107076       0.0359806       0.01035         0.0362117       -0.963963       0.172572       
  4.9e+010        -0.961358       0.182148        0.00966837      0.0363329       0.0114537       0.0356845       -0.964963       0.176202       
  5e+010          -0.962007       0.185477        0.0101629       0.0373078       0.00981773      0.0363098       -0.964034       0.181967       
  5.1e+010        -0.960632       0.188545        0.0110284       0.0372203       0.00956564      0.0371286       -0.963304       0.182889       
  5.2e+010        -0.959071       0.193266        0.010383        0.0368962       0.0116599       0.0373242       -0.960337       0.189994       
  5.3e+010        -0.958837       0.198542        0.00946127      0.0385448       0.00930614      0.0373313       -0.961039       0.19152        
  5.4e+010        -0.958162       0.200413        0.0105649       0.0398401       0.00990266      0.0394673       -0.956393       0.195684       
  5.5e+010        -0.955723       0.203634        0.0110192       0.0401467       0.0114694       0.0407331       -0.958687       0.198763       
  5.6e+010        -0.956006       0.207395        0.0117548       0.0405516       0.0123399       0.0401364       -0.957222       0.201713       
  5.7e+010        -0.954728       0.211081        0.012681        0.0414987       0.011902        0.041415        -0.956194       0.207122       
  5.8e+010        -0.953675       0.214651        0.0132271       0.0410413       0.0137696       0.0408213       -0.955556       0.209262       
  5.9e+010        -0.951631       0.219323        0.0119985       0.040564        0.0129502       0.039328        -0.953095       0.213911       
  6e+010          -0.950604       0.22144         0.0124362       0.0417831       0.0112894       0.0412431       -0.953544       0.214991       
  6.1e+010        -0.948538       0.223848        0.0127344       0.0418361       0.0131544       0.0427231       -0.952996       0.218283       
  6.2e+010        -0.947803       0.226597        0.0127512       0.0434796       0.0142823       0.0428434       -0.951582       0.221645       
  6.3e+010        -0.94844        0.228856        0.014486        0.043579        0.01334         0.0419269       -0.952105       0.226374       
  6.4e+010        -0.948428       0.233028        0.0147668       0.0434084       0.0137178       0.0449801       -0.950843       0.226518       
  6.5e+010        -0.946945       0.233831        0.0140639       0.0430329       0.0161975       0.0419447       -0.950195       0.232145       
END_DB

