! VERSION = 6.00
!Data measured by ggf on Mon Jan 22 13:12:00 2018 using model file NPN_MEAS_SCALE
BEGIN_HEADER
 ICCAP_INPUTS
  vb         V  B GROUND GND 0 CON        0
  vc         V  C GROUND GND 0 CON        0
  ve         V  E GROUND SMU_E 0 CON        0
  vs         V  S GROUND SMU_S 0 CON        0
  freq       F  LIST       1 74 100000000 200000000 300000000 400000000 500000000 600000000 700000000 800000000 900000000 1000000000 2000000000 3000000000 4000000000 5000000000 6000000000 7000000000 8000000000 9000000000 10000000000 11000000000 12000000000 13000000000 14000000000 15000000000 16000000000 17000000000 18000000000 19000000000 20000000000 21000000000 22000000000 23000000000 24000000000 25000000000 26000000000 27000000000 28000000000 29000000000 30000000000 31000000000 32000000000 33000000000 34000000000 35000000000 36000000000 37000000000 38000000000 39000000000 40000000000 41000000000 42000000000 43000000000 44000000000 45000000000 46000000000 47000000000 48000000000 49000000000 50000000000 51000000000 52000000000 53000000000 54000000000 55000000000 56000000000 57000000000 58000000000 59000000000 60000000000 61000000000 62000000000 63000000000 64000000000 65000000000
 ICCAP_OUTPUTS
  S          S  B C Ground NWA M
 ICCAP_VALUES
  TNOM "27"
  TEMP "27"
  TECHNO "SG13G2"
  LOT "EDJ802"
  WAFER "02"
  CHIP "(4.9)"
  MODULE "S439S"
  DEV_NAME "D44"
  DEV_GEOM_L "0.9"
  DEV_GEOM_W "0.07"
  NUM_OF_TRANS_RF "1"
  REMARKS "Nx=8; Power -30/-20dBm, Slope: 0.1dB/GHz"
  TIMEDATE "Mon Jan 22 10:41:20     2018"
  OPERATOR "ggf"
END_HEADER

BEGIN_DB
 ICCAP_VAR vb         0              
 ICCAP_VAR vc         0              
 ICCAP_VAR ve         0              
 ICCAP_VAR vs         0              

 #freq            R:S(1,1)        I:S(1,1)        R:S(1,2)        I:S(1,2)        R:S(2,1)        I:S(2,1)        R:S(2,2)        I:S(2,2)       
  1e+008          0.999898        -0.00190499     -6.55599e-005   0.000141824     -2.13108e-006   8.92022e-005    0.999926        -0.00160663    
  2e+008          1.00025         -0.00331364     -6.59948e-005   0.000278049     5.53877e-006    0.000254628     1.00004         -0.00283688    
  3e+008          1.00012         -0.00468578     1.3186e-005     0.000542343     -7.80748e-005   0.000419681     0.999907        -0.00353915    
  4e+008          0.999634        -0.00542367     -1.96046e-005   0.000650266     -3.72684e-005   0.000722392     1.0002          -0.00542864    
  5e+008          1.00005         -0.00770773     1.52088e-006    0.00085223      1.64937e-005    0.000826298     1.00005         -0.00675737    
  6e+008          0.999734        -0.00843118     1.73066e-005    0.000990121     8.98442e-005    0.00109207      0.999945        -0.00822536    
  7e+008          0.999724        -0.00961836     1.81082e-005    0.00119054      1.84889e-005    0.00118793      1.00003         -0.00952673    
  8e+008          0.999529        -0.010906       1.94364e-005    0.00131159      8.35399e-006    0.00141495      0.999949        -0.0108074     
  9e+008          0.999685        -0.0121875      3.89107e-005    0.00149508      8.37992e-005    0.00154928      0.999834        -0.0121846     
  1e+009          0.999661        -0.0138481      8.93875e-008    0.00169609      3.08864e-005    0.00170958      1.00001         -0.0134445     
  2e+009          0.998982        -0.0271928      0.000106728     0.00337615      0.000122239     0.00331847      0.999422        -0.0266583     
  3e+009          0.998275        -0.0403951      0.000240633     0.00505393      0.000248626     0.00509934      0.998677        -0.0396641     
  4e+009          0.997239        -0.0537381      0.000394573     0.00668432      0.000543802     0.00665366      0.997838        -0.0533354     
  5e+009          0.996177        -0.0671926      0.00065168      0.00844145      0.000668841     0.0083995       0.996755        -0.0664914     
  6e+009          0.994781        -0.0808293      0.000874033     0.0100862       0.000873115     0.0100068       0.995131        -0.0798739     
  7e+009          0.993472        -0.0943763      0.00115805      0.0117644       0.00119278      0.0116207       0.993605        -0.0927834     
  8e+009          0.991284        -0.106044       0.00153147      0.0133743       0.00149447      0.0133773       0.99175         -0.105764      
  9e+009          0.989577        -0.120498       0.00195664      0.0150554       0.00193358      0.0151242       0.989923        -0.118613      
  1e+010          0.987251        -0.132857       0.0024516       0.0166989       0.00250599      0.0165499       0.987801        -0.131658      
  1.1e+010        0.984624        -0.14589        0.00292065      0.0183142       0.00303578      0.0183057       0.985359        -0.14457       
  1.2e+010        0.981866        -0.158156       0.00355595      0.0199958       0.00353852      0.0200303       0.982481        -0.157472      
  1.3e+010        0.978836        -0.17131        0.00421509      0.021487        0.00429331      0.0216741       0.979718        -0.170218      
  1.4e+010        0.975749        -0.184067       0.00502391      0.0230537       0.00501451      0.0231746       0.976429        -0.182389      
  1.5e+010        0.971907        -0.197372       0.00582413      0.0244794       0.00582309      0.0245325       0.973069        -0.194939      
  1.6e+010        0.968298        -0.209334       0.00662193      0.0259265       0.0065331       0.0258448       0.969479        -0.207385      
  1.7e+010        0.964414        -0.221393       0.00751211      0.0273333       0.0075696       0.027471        0.965824        -0.219728      
  1.8e+010        0.960241        -0.233721       0.00842185      0.0285691       0.0083751       0.0285571       0.96173         -0.231634      
  1.9e+010        0.955677        -0.245845       0.00930393      0.0299202       0.00941687      0.0299814       0.956924        -0.243866      
  2e+010          0.951114        -0.257511       0.010175        0.0311225       0.0103517       0.0314038       0.952754        -0.255166      
  2.1e+010        0.946221        -0.268959       0.0112823       0.032269        0.0112405       0.0324311       0.947716        -0.266961      
  2.2e+010        0.94126         -0.280361       0.0123017       0.0334697       0.0122798       0.0334067       0.943162        -0.27856       
  2.3e+010        0.936451        -0.291337       0.013253        0.0343952       0.0134035       0.0344506       0.938105        -0.289656      
  2.4e+010        0.931606        -0.302402       0.0141283       0.0354623       0.0140696       0.0355068       0.933386        -0.300166      
  2.5e+010        0.926806        -0.314138       0.0150851       0.0366796       0.0149312       0.0367972       0.927973        -0.311562      
  2.6e+010        0.921375        -0.324935       0.0162832       0.0378257       0.0164052       0.0380638       0.923122        -0.323454      
  2.7e+010        0.915092        -0.335125       0.0175618       0.0386912       0.01747         0.0385224       0.918217        -0.332284      
  2.8e+010        0.90892         -0.345449       0.0187434       0.0391529       0.019039        0.0395568       0.909998        -0.34432       
  2.9e+010        0.903655        -0.356336       0.0196508       0.0399087       0.0197639       0.0399544       0.904699        -0.353893      
  3e+010          0.898633        -0.36642        0.0202812       0.0407907       0.020453        0.0410318       0.899493        -0.364518      
  3.1e+010        0.892715        -0.377215       0.0214365       0.0416715       0.0216147       0.0416019       0.894477        -0.372739      
  3.2e+010        0.886732        -0.387181       0.0225803       0.0424101       0.0227093       0.0417376       0.888037        -0.383322      
  3.3e+010        0.880094        -0.396485       0.0236473       0.0431308       0.0237843       0.0432751       0.882534        -0.394229      
  3.4e+010        0.874058        -0.406253       0.0248885       0.0438911       0.0250985       0.043942        0.876373        -0.403925      
  3.5e+010        0.867361        -0.415713       0.0259815       0.0443157       0.0262012       0.0443983       0.869633        -0.412639      
  3.6e+010        0.860404        -0.425281       0.0269164       0.044922        0.0270151       0.0453011       0.864104        -0.421079      
  3.7e+010        0.854585        -0.43522        0.0281643       0.0456912       0.0282317       0.045945        0.857691        -0.431795      
  3.8e+010        0.848275        -0.443998       0.0293582       0.0463792       0.0296764       0.0471075       0.851595        -0.441349      
  3.9e+010        0.841924        -0.453196       0.0302772       0.0467324       0.030785        0.0468079       0.844972        -0.450466      
  4e+010          0.834282        -0.463113       0.0314168       0.0472157       0.032154        0.0473557       0.837567        -0.459221      
  4.1e+010        0.826228        -0.473121       0.0329132       0.0477969       0.0336455       0.0484812       0.83139         -0.468855      
  4.2e+010        0.818676        -0.480382       0.0345823       0.0484767       0.0348132       0.0486675       0.823646        -0.478736      
  4.3e+010        0.80975         -0.487935       0.0365067       0.0483746       0.0365824       0.0488062       0.816854        -0.488042      
  4.4e+010        0.803152        -0.49796        0.0373398       0.048012        0.0373268       0.048418        0.80777         -0.495726      
  4.5e+010        0.795773        -0.505684       0.0384159       0.0484566       0.0390465       0.0489411       0.800571        -0.503816      
  4.6e+010        0.787214        -0.513643       0.040301        0.0484552       0.0402166       0.0482978       0.792538        -0.511681      
  4.7e+010        0.777471        -0.521079       0.0411142       0.0479828       0.0416574       0.0490484       0.785462        -0.518744      
  4.8e+010        0.771087        -0.528965       0.0414586       0.0476347       0.0425068       0.0483087       0.777852        -0.526469      
  4.9e+010        0.765665        -0.533292       0.0424937       0.0487137       0.0424892       0.0478001       0.769575        -0.533881      
  5e+010          0.756977        -0.543357       0.0437976       0.0482          0.0439681       0.0487828       0.763021        -0.541081      
  5.1e+010        0.750246        -0.548537       0.0450259       0.0479135       0.0461164       0.0487359       0.754774        -0.550575      
  5.2e+010        0.742884        -0.555441       0.0458576       0.0469974       0.0467938       0.0465054       0.749236        -0.552804      
  5.3e+010        0.737277        -0.562669       0.0478632       0.0480632       0.0475556       0.0481952       0.738956        -0.564749      
  5.4e+010        0.727268        -0.571158       0.0484255       0.0466507       0.0487956       0.047168        0.733186        -0.569574      
  5.5e+010        0.721308        -0.576763       0.0492211       0.0461179       0.0502034       0.0458947       0.720359        -0.575278      
  5.6e+010        0.71659         -0.582395       0.0476304       0.0450893       0.0479279       0.0439714       0.717253        -0.580157      
  5.7e+010        0.709628        -0.592915       0.0480592       0.0470226       0.0479905       0.0473943       0.712434        -0.586363      
  5.8e+010        0.702751        -0.601125       0.0493434       0.0488162       0.0496905       0.0489797       0.706893        -0.596538      
  5.9e+010        0.694169        -0.608838       0.0523497       0.0499527       0.0527464       0.0494144       0.69928         -0.604536      
  6e+010          0.685726        -0.615595       0.0542655       0.0480817       0.0546889       0.0488587       0.689268        -0.611976      
  6.1e+010        0.677071        -0.625048       0.0536676       0.0484451       0.0549707       0.0481709       0.681934        -0.619326      
  6.2e+010        0.669573        -0.630537       0.0570354       0.049136        0.0565001       0.0487699       0.675375        -0.626982      
  6.3e+010        0.663451        -0.63926        0.0588074       0.0476827       0.0577358       0.0483154       0.665082        -0.632217      
  6.4e+010        0.65113         -0.646545       0.0612071       0.0472905       0.0622877       0.0476527       0.662144        -0.641178      
  6.5e+010        0.641827        -0.65632        0.0614334       0.0456371       0.0612873       0.0443021       0.64997         -0.649255      
END_DB

