! VERSION = 6.00
!Data measured by ggf on Mon Jan 22 13:30:34 2018 using model file NPN_MEAS_SCALE
BEGIN_HEADER
 ICCAP_INPUTS
  vbe        V  B GROUND SMU_B 0.015 LIN        2    0.6        -1.8       25   -0.1      
  vc         V  C GROUND SMU_C 0.015 CON        0
  ve         V  E GROUND SMU_E 0 CON        0
  vs         V  S GROUND SMU_S 0 CON        0
  freq       F  LIST       1 74 100000000 200000000 300000000 400000000 500000000 600000000 700000000 800000000 900000000 1000000000 2000000000 3000000000 4000000000 5000000000 6000000000 7000000000 8000000000 9000000000 10000000000 11000000000 12000000000 13000000000 14000000000 15000000000 16000000000 17000000000 18000000000 19000000000 20000000000 21000000000 22000000000 23000000000 24000000000 25000000000 26000000000 27000000000 28000000000 29000000000 30000000000 31000000000 32000000000 33000000000 34000000000 35000000000 36000000000 37000000000 38000000000 39000000000 40000000000 41000000000 42000000000 43000000000 44000000000 45000000000 46000000000 47000000000 48000000000 49000000000 50000000000 51000000000 52000000000 53000000000 54000000000 55000000000 56000000000 57000000000 58000000000 59000000000 60000000000 61000000000 62000000000 63000000000 64000000000 65000000000
 ICCAP_OUTPUTS
  S          S  B C GROUND NWA M
  ib         I  B GROUND SMU_B M
  S_deemb    S B C GROUND n/a B
 ICCAP_VALUES
  TNOM "27"
  TEMP "27"
  TECHNO "SG13G2"
  LOT "EDJ802"
  WAFER "02"
  CHIP "(3.3)"
  MODULE "S439S"
  DEV_NAME "D40"
  DEV_GEOM_L "0.9"
  DEV_GEOM_W "0.07"
  NUM_OF_TRANS_RF "2"
  REMARKS "Nx=4; Power -30/-20dBm, Slope: 0.1dB/GHz"
  TIMEDATE "Mon Jan 22 13:12:31     2018"
  OPERATOR "ggf"
END_HEADER

BEGIN_DB
 ICCAP_VAR vbe        0.6            
 ICCAP_VAR vc         0              
 ICCAP_VAR ve         0              
 ICCAP_VAR vs         0              

 #freq            R:S(1,1)        I:S(1,1)        R:S(1,2)        I:S(1,2)        R:S(2,1)        I:S(2,1)        R:S(2,2)        I:S(2,2)        ib              R:S_deemb(1,1)  I:S_deemb(1,1)  R:S_deemb(1,2)  I:S_deemb(1,2)  R:S_deemb(2,1)  I:S_deemb(2,1)  R:S_deemb(2,2)  I:S_deemb(2,2) 
  1e+008          0.999515        -0.00426112     0.000173669     0.00142453      -2.14157e-005   0.00145548      0.99394         -0.00332955     1.4834e-007     0.999622        -0.00235706     0.000236491     0.00128357      -2.18899e-005   0.00136666      0.994017        -0.00173267    
  2e+008          0.999931        -0.00831317     0.000186865     0.00284116      0.000233907     0.00294623      0.994629        -0.006236       1.4834e-007     0.9997          -0.0049993      0.000243536     0.00256406      0.000218952     0.00269269      0.994599        -0.0034144     
  3e+008          0.999755        -0.0124007      0.000289737     0.00424605      0.000311982     0.00422718      0.994025        -0.00928777     1.4834e-007     0.999677        -0.00771568     0.000257586     0.0037066       0.000371204     0.00380987      0.99414         -0.00577017    
  4e+008          0.999411        -0.0158216      0.000325454     0.00565312      0.000310184     0.00567318      0.994701        -0.0125166      1.4834e-007     0.999837        -0.0104029      0.000311987     0.00500683      0.000313986     0.00495482      0.994548        -0.00711662    
  5e+008          0.999354        -0.0199401      0.000375986     0.00705566      0.000307735     0.00706802      0.994018        -0.0155255      1.4834e-007     0.999402        -0.0122372      0.000320317     0.00620864      0.000237136     0.00624639      0.994035        -0.00880885    
  6e+008          0.999167        -0.0239056      0.00040582      0.00846439      0.000440057     0.00846567      0.994058        -0.0187871      1.4834e-007     0.999572        -0.0154836      0.000313        0.00748201      0.000274434     0.00738226      0.994208        -0.0106116     
  7e+008          0.999108        -0.0276453      0.000488161     0.00985992      0.000523404     0.00983327      0.994076        -0.021793       1.4834e-007     0.999569        -0.0180379      0.000368484     0.0086789       0.000403621     0.0086552       0.994178        -0.0123232     
  8e+008          0.998698        -0.0315768      0.000592876     0.011292        0.000535122     0.0111563       0.993906        -0.024884       1.4834e-007     0.999409        -0.0206895      0.000441602     0.00999376      0.000395708     0.00975423      0.994123        -0.0141432     
  9e+008          0.998832        -0.0353558      0.000644863     0.0126596       0.000766369     0.0125843       0.994041        -0.0281211      1.4834e-007     0.999448        -0.0231863      0.000439766     0.0111797       0.000517067     0.0110522       0.994418        -0.0160107     
  1e+009          0.998503        -0.0395763      0.000764627     0.0140801       0.000729707     0.0140198       0.993548        -0.03117        1.4834e-007     0.999221        -0.0257524      0.000557376     0.0124022       0.000492477     0.0123282       0.993803        -0.0178126     
  2e+009          0.99532         -0.0785334      0.0023147       0.0279312       0.00228391      0.0278146       0.990977        -0.0615429      1.4834e-007     0.997825        -0.0514886      0.00139701      0.0246527       0.00135487      0.0245929       0.99257         -0.0351294     
  3e+009          0.990437        -0.116702       0.00486603      0.0417001       0.00479655      0.0416282       0.986559        -0.0913123      1.4834e-007     0.995448        -0.0767435      0.00282758      0.0369325       0.00275183      0.0368126       0.99012         -0.0521937     
  4e+009          0.983522        -0.154723       0.00832271      0.0551469       0.00837558      0.054973        0.981154        -0.12039        1.4834e-007     0.992057        -0.101975       0.00476387      0.0490926       0.00467907      0.0489562       0.987219        -0.0680791     
  5e+009          0.975067        -0.192348       0.0127534       0.0683506       0.0126251       0.0682512       0.975307        -0.14836        1.4834e-007     0.98783         -0.126998       0.00722091      0.0610818       0.00708347      0.0610156       0.984499        -0.0835352     
  6e+009          0.964929        -0.228883       0.0179904       0.0811465       0.0179444       0.080939        0.967879        -0.176291       1.4834e-007     0.982846        -0.151138       0.010186        0.0730257       0.0101609       0.072892        0.981151        -0.0990144     
  7e+009          0.953376        -0.265294       0.0243129       0.0936587       0.0238727       0.0931931       0.958889        -0.203761       1.4834e-007     0.976989        -0.175649       0.0138729       0.0849366       0.0134471       0.0845706       0.976505        -0.114833      
  8e+009          0.940004        -0.300256       0.0312146       0.105261        0.0310578       0.104994        0.950527        -0.230406       1.4834e-007     0.970473        -0.201144       0.0179148       0.0963128       0.0178211       0.0960217       0.973127        -0.12992       
  9e+009          0.925054        -0.335107       0.0391215       0.1167          0.0386451       0.116193        0.939839        -0.256233       1.4834e-007     0.962723        -0.224306       0.022531        0.107824        0.0221291       0.107186        0.967662        -0.144806      
  1e+010          0.909043        -0.368697       0.0474485       0.126815        0.0473016       0.126386        0.930286        -0.281979       1.4834e-007     0.954675        -0.248838       0.0274829       0.118362        0.027349        0.118059        0.963948        -0.159532      
  1.1e+010        0.891278        -0.399138       0.0564426       0.136949        0.0562316       0.136586        0.918311        -0.30661        1.4834e-007     0.945305        -0.270234       0.0329069       0.129362        0.0326352       0.12898         0.958314        -0.17385       
  1.2e+010        0.872397        -0.429911       0.0662661       0.146287        0.0657139       0.145983        0.90551         -0.330969       1.4834e-007     0.935334        -0.293355       0.0389329       0.13996         0.0384342       0.139529        0.952542        -0.188338      
  1.3e+010        0.852116        -0.459534       0.0762931       0.154823        0.0762489       0.154263        0.892988        -0.353927       1.4834e-007     0.924517        -0.315294       0.0450701       0.150331        0.0450301       0.14958         0.946967        -0.201844      
  1.4e+010        0.83149         -0.487861       0.0872899       0.162307        0.087157        0.161935        0.879482        -0.376055       1.4834e-007     0.913458        -0.336839       0.0521723       0.160061        0.052102        0.159542        0.940961        -0.215537      
  1.5e+010        0.808578        -0.515031       0.0987568       0.169032        0.0975723       0.168531        0.865071        -0.397716       1.4834e-007     0.900932        -0.357742       0.0597871       0.169679        0.0586685       0.168879        0.934214        -0.22886       
  1.6e+010        0.786787        -0.539276       0.109768        0.174697        0.108635        0.173827        0.850566        -0.41871        1.4834e-007     0.888818        -0.377124       0.0671605       0.178337        0.0662719       0.177275        0.92767         -0.24189       
  1.7e+010        0.763466        -0.563541       0.121689        0.179771        0.120632        0.179304        0.836016        -0.439082       1.4834e-007     0.875657        -0.397378       0.0754496       0.187006        0.0743935       0.186168        0.921209        -0.254772      
  1.8e+010        0.739499        -0.586015       0.133656        0.184036        0.131806        0.183521        0.819024        -0.457855       1.4834e-007     0.861851        -0.416212       0.084038        0.195416        0.0822921       0.19446         0.912397        -0.267258      
  1.9e+010        0.715562        -0.606557       0.144778        0.187556        0.143651        0.186541        0.803279        -0.477146       1.4834e-007     0.848085        -0.433795       0.0919603       0.203119        0.0909344       0.201746        0.905819        -0.280015      
  2e+010          0.691015        -0.626469       0.15661         0.190128        0.155964        0.189633        0.787378        -0.493213       1.4834e-007     0.833579        -0.451762       0.101011        0.210305        0.100265        0.209396        0.897767        -0.29065       
  2.1e+010        0.666723        -0.644611       0.168477        0.191989        0.166291        0.191672        0.770132        -0.510062       1.4834e-007     0.819143        -0.468549       0.110174        0.217289        0.10799         0.216224        0.889391        -0.30228       
  2.2e+010        0.641649        -0.661358       0.179758        0.192692        0.178399        0.192197        0.755384        -0.525824       1.4834e-007     0.803502        -0.484506       0.119202        0.222981        0.11795         0.222131        0.882857        -0.312515      
  2.3e+010        0.617833        -0.676979       0.191097        0.193097        0.189215        0.193164        0.737828        -0.541451       1.4834e-007     0.788774        -0.499679       0.128643        0.228851        0.126499        0.228353        0.873945        -0.324116      
  2.4e+010        0.593492        -0.691948       0.201977        0.1931          0.199656        0.192699        0.722066        -0.554939       1.4834e-007     0.773457        -0.514479       0.137862        0.234108        0.13558         0.232938        0.866041        -0.333654      
  2.5e+010        0.569806        -0.707276       0.212775        0.192936        0.210478        0.192263        0.704264        -0.569936       1.4834e-007     0.759075        -0.529505       0.1469          0.239556        0.144815        0.238005        0.857231        -0.34495       
  2.6e+010        0.544712        -0.719067       0.224615        0.191811        0.221846        0.192028        0.686602        -0.583768       1.4834e-007     0.74241         -0.542605       0.157327        0.24455         0.154185        0.243696        0.847678        -0.35489       
  2.7e+010        0.519145        -0.730454       0.234848        0.190227        0.232366        0.189986        0.671681        -0.593603       1.4834e-007     0.725557        -0.556361       0.166702        0.24883         0.164227        0.247902        0.839611        -0.362684      
  2.8e+010        0.495083        -0.740647       0.244635        0.186766        0.242179        0.186562        0.652562        -0.60675        1.4834e-007     0.709631        -0.568526       0.176382        0.25209         0.173526        0.250728        0.831389        -0.372687      
  2.9e+010        0.471664        -0.750993       0.254318        0.184516        0.251035        0.185137        0.635904        -0.617227       1.4834e-007     0.69407         -0.580251       0.185797        0.255929        0.181961        0.255432        0.822103        -0.381477      
  3e+010          0.448529        -0.760109       0.263824        0.182065        0.261183        0.183127        0.620346        -0.628495       1.4834e-007     0.677936        -0.591526       0.195395        0.259453        0.191986        0.259467        0.814268        -0.3899        
  3.1e+010        0.423037        -0.768624       0.272289        0.17812         0.270721        0.178889        0.605667        -0.637308       1.4834e-007     0.659735        -0.602912       0.204335        0.261055        0.202214        0.261417        0.806231        -0.397654      
  3.2e+010        0.400637        -0.775836       0.282223        0.174817        0.279142        0.175313        0.588259        -0.64763        1.4834e-007     0.644063        -0.612681       0.214725        0.264462        0.211215        0.264388        0.797089        -0.406155      
  3.3e+010        0.376367        -0.781271       0.292036        0.170832        0.288233        0.171642        0.571873        -0.658178       1.4834e-007     0.626061        -0.622265       0.225584        0.267204        0.220981        0.266507        0.788387        -0.414591      
  3.4e+010        0.354399        -0.785622       0.300531        0.165925        0.297669        0.167485        0.555259        -0.666826       1.4834e-007     0.609671        -0.629556       0.235375        0.268441        0.231433        0.268983        0.779133        -0.422301      
  3.5e+010        0.332063        -0.790394       0.30766         0.160647        0.305609        0.161655        0.538693        -0.674451       1.4834e-007     0.593259        -0.637624       0.244443        0.268916        0.241604        0.269166        0.770022        -0.42966       
  3.6e+010        0.309042        -0.794911       0.315859        0.156011        0.31266         0.157438        0.522928        -0.682348       1.4834e-007     0.576113        -0.645934       0.254682        0.270261        0.250484        0.270211        0.760829        -0.43737       
  3.7e+010        0.288248        -0.799404       0.323548        0.150082        0.321036        0.1527          0.506541        -0.690257       1.4834e-007     0.560579        -0.653429       0.264298        0.27046         0.260361        0.272088        0.751745        -0.443795      
  3.8e+010        0.266722        -0.800908       0.331152        0.143898        0.328826        0.146979        0.490719        -0.697774       1.4834e-007     0.543469        -0.658653       0.274233        0.26999         0.269916        0.271886        0.742994        -0.450679      
  3.9e+010        0.246408        -0.803675       0.336869        0.138308        0.333832        0.14033         0.474919        -0.70433        1.4834e-007     0.528005        -0.664788       0.282359        0.26986         0.277698        0.270794        0.734167        -0.456761      
  4e+010          0.225407        -0.806776       0.343896        0.131786        0.340024        0.134721        0.457911        -0.709975       1.4834e-007     0.512509        -0.671596       0.292723        0.269399        0.28654         0.27089         0.724115        -0.462947      
  4.1e+010        0.202551        -0.809422       0.350081        0.125308        0.347294        0.12827         0.44286         -0.716222       1.4834e-007     0.494889        -0.679196       0.301841        0.268778        0.296698        0.270391        0.715461        -0.468573      
  4.2e+010        0.184456        -0.807493       0.356212        0.118336        0.353206        0.121383        0.426276        -0.722335       1.4834e-007     0.480166        -0.68101        0.310975        0.267146        0.306057        0.269015        0.706525        -0.474419      
  4.3e+010        0.162902        -0.806118       0.361023        0.11079         0.358859        0.114241        0.411627        -0.728356       1.4834e-007     0.461913        -0.685622       0.319518        0.265235        0.315335        0.267679        0.698514        -0.480086      
  4.4e+010        0.14579         -0.80797        0.365572        0.104787        0.362414        0.107912        0.393832        -0.731857       1.4834e-007     0.44898         -0.68918        0.328062        0.264689        0.322884        0.266458        0.687785        -0.485576      
  4.5e+010        0.12756         -0.807777       0.370587        0.098748        0.367201        0.101646        0.378927        -0.735402       1.4834e-007     0.434137        -0.693124       0.336718        0.263467        0.330986        0.26483         0.678747        -0.489867      
  4.6e+010        0.107545        -0.808948       0.37513         0.0911833       0.37091         0.0953102       0.363831        -0.73905        1.4834e-007     0.418726        -0.699741       0.345373        0.261211        0.338685        0.263838        0.670117        -0.494499      
  4.7e+010        0.0880932       -0.804561       0.377686        0.0840542       0.375797        0.0880598       0.350442        -0.74298        1.4834e-007     0.401892        -0.699993       0.352792        0.25806         0.347974        0.260969        0.66289         -0.499216      
  4.8e+010        0.0707786       -0.806486       0.382046        0.0784337       0.379482        0.0806977       0.33462         -0.746399       1.4834e-007     0.388193        -0.70545        0.361491        0.257317        0.356533        0.258333        0.653006        -0.5039        
  4.9e+010        0.0572282       -0.801499       0.38624         0.0708096       0.382603        0.0748178       0.320433        -0.749364       1.4834e-007     0.374852        -0.703479       0.370182        0.252858        0.364191        0.256045        0.64571         -0.507894      
  5e+010          0.0368717       -0.802808       0.390032        0.0638997       0.387973        0.0694891       0.304761        -0.751453       1.4834e-007     0.35886         -0.709675       0.378625        0.250938        0.37303         0.255855        0.634295        -0.512165      
  5.1e+010        0.0203637       -0.798478       0.392606        0.056853        0.391382        0.0609585       0.290261        -0.755649       1.4834e-007     0.342228        -0.709961       0.385877        0.247681        0.381294        0.251488        0.626539        -0.516533      
  5.2e+010        0.00592796      -0.796779       0.395857        0.0496746       0.391152        0.0537853       0.278844        -0.754161       1.4834e-007     0.331169        -0.711258       0.393729        0.244161        0.38569         0.246806        0.617501        -0.518092      
