! VERSION = 6.00
!Data measured by ggf on Mon Jan 22 13:30:34 2018 using model file NPN_MEAS_SCALE
BEGIN_HEADER
 ICCAP_INPUTS
  vc         V  C GROUND SMU_C 0.1 SYNC       1 0.5 vb
  ve         V  E GROUND SMU_E 0 CON        0
  vs         V  S GROUND SMU_S 0 CON        0
  freq       F  LIST       1 74 100000000 200000000 300000000 400000000 500000000 600000000 700000000 800000000 900000000 1000000000 2000000000 3000000000 4000000000 5000000000 6000000000 7000000000 8000000000 9000000000 10000000000 11000000000 12000000000 13000000000 14000000000 15000000000 16000000000 17000000000 18000000000 19000000000 20000000000 21000000000 22000000000 23000000000 24000000000 25000000000 26000000000 27000000000 28000000000 29000000000 30000000000 31000000000 32000000000 33000000000 34000000000 35000000000 36000000000 37000000000 38000000000 39000000000 40000000000 41000000000 42000000000 43000000000 44000000000 45000000000 46000000000 47000000000 48000000000 49000000000 50000000000 51000000000 52000000000 53000000000 54000000000 55000000000 56000000000 57000000000 58000000000 59000000000 60000000000 61000000000 62000000000 63000000000 64000000000 65000000000
  vb         V  B GROUND SMU_B 0.015 LIN        2    0.68       1.04       37   0.01      
 ICCAP_OUTPUTS
  ic         I  C GROUND SMU_C M
  ib         I  B GROUND SMU_B M
  S          S  B C GROUND NWA M
  S_deemb    S B C GROUND n/a B
 ICCAP_VALUES
  TNOM "27"
  TEMP "27"
  TECHNO "SG13G2"
  LOT "EDJ802"
  WAFER "02"
  CHIP "(3.3)"
  MODULE "S439S"
  DEV_NAME "D40"
  DEV_GEOM_L "0.9"
  DEV_GEOM_W "0.07"
  NUM_OF_TRANS_RF "2"
  REMARKS "Nx=4; Power -30/-20dBm, Slope: 0.1dB/GHz"
  TIMEDATE "Mon Jan 22 13:12:31     2018"
  OPERATOR "ggf"
END_HEADER

BEGIN_DB
 ICCAP_VAR vc         1.18           
 ICCAP_VAR ve         0              
 ICCAP_VAR vs         0              
 ICCAP_VAR vb         0.68           

 #freq            ic              ib              R:S(1,1)        I:S(1,1)        R:S(1,2)        I:S(1,2)        R:S(2,1)        I:S(2,1)        R:S(2,2)        I:S(2,2)        R:S_deemb(1,1)  I:S_deemb(1,1)  R:S_deemb(1,2)  I:S_deemb(1,2)  R:S_deemb(2,1)  I:S_deemb(2,1)  R:S_deemb(2,2)  I:S_deemb(2,2) 
  1e+008          1.6516e-005     1.9412e-008     0.999422        -0.00412487     -2.63051e-005   0.00108836      -0.0695301      0.000435825     0.998883        -0.00330705     0.999526        -0.00221599     3.72597e-005    0.000946668     -0.0695395      0.000223428     0.998957        -0.00169716    
  2e+008          1.6516e-005     1.9412e-008     0.999839        -0.00788898     2.3447e-005     0.00210565      -0.0675786      0.00155259      0.99965         -0.00546267     0.999604        -0.00456597     8.275e-005      0.00182748      -0.0675835      0.00108798      0.999615        -0.00261707    
  3e+008          1.6516e-005     1.9412e-008     0.999885        -0.0116934      1.29669e-005    0.00314768      -0.0676402      0.00319986      0.999362        -0.00752299     0.999803        -0.00698918     -1.39779e-005   0.00260556      -0.0675793      0.00249872      0.99947         -0.00396731    
  4e+008          1.6516e-005     1.9412e-008     0.99957         -0.0148131      7.84729e-005    0.00422729      -0.0666772      0.00459776      0.999654        -0.0107754      0.99999         -0.00937098     7.37476e-005    0.00357786      -0.0666756      0.00350975      0.999489        -0.0053263     
  5e+008          1.6516e-005     1.9412e-008     0.999588        -0.0188174      9.81441e-005    0.00526372      -0.0674565      0.00583029      0.999521        -0.0135575      0.999626        -0.0110832      5.68886e-005    0.00441226      -0.0675166      0.00451088      0.999523        -0.00677379    
  6e+008          1.6516e-005     1.9412e-008     0.999483        -0.0224418      0.000140116     0.00631005      -0.0674428      0.00713792      0.999572        -0.0162314      0.999875        -0.0139825      6.73197e-005    0.00532209      -0.0676091      0.00547886      0.9997          -0.00797535    
  7e+008          1.6516e-005     1.9412e-008     0.999373        -0.0261076      0.000200364     0.00737452      -0.0675396      0.00856219      0.999394        -0.0189817      0.999817        -0.0164559      0.000107235     0.00618698      -0.0676556      0.00672125      0.999467        -0.00941932    
  8e+008          1.6516e-005     1.9412e-008     0.999045        -0.0296169      0.000227814     0.00841301      -0.067734       0.00994488      0.999371        -0.0215212      0.999733        -0.0186791      0.000111482     0.00710603      -0.0678761      0.00778817      0.999549        -0.0106746     
  9e+008          1.6516e-005     1.9412e-008     0.999057        -0.0332696      0.00031955      0.00952793      -0.0670348      0.0113447       0.999163        -0.0244185      0.999646        -0.0210448      0.000157198     0.00803914      -0.0672823      0.00897148      0.999494        -0.0121923     
  1e+009          1.6516e-005     1.9412e-008     0.99892         -0.0372384      0.000332337     0.0105209       -0.0676579      0.0127594       0.999243        -0.0269647      0.999603        -0.0233486      0.000179681     0.00883113      -0.0678843      0.0101174       0.999437        -0.0134705     
  2e+009          1.6516e-005     1.9412e-008     0.996326        -0.0740633      0.00136113      0.0209854       -0.0649896      0.0256215       0.997236        -0.053649       0.998701        -0.0468681      0.000652386     0.0176622       -0.0658849      0.0205492       0.99861         -0.0269451     
  3e+009          1.6516e-005     1.9412e-008     0.991933        -0.110284       0.0030458       0.0313644       -0.0639021      0.0381134       0.994332        -0.0798479      0.996667        -0.0700678      0.00146721      0.026481        -0.0658449      0.0304759       0.997421        -0.0402214     
  4e+009          1.6516e-005     1.9412e-008     0.985946        -0.146327       0.00538479      0.0415525       -0.0616201      0.0509925       0.990544        -0.105893       0.994005        -0.0931662      0.00262853      0.0352603       -0.0651628      0.041114        0.995811        -0.0527981     
  5e+009          1.6516e-005     1.9412e-008     0.97886         -0.182164       0.00836304      0.0516003       -0.0573647      0.0633809       0.986473        -0.131141       0.990906        -0.116181       0.00405643      0.0439019       -0.0626561      0.0513005       0.994488        -0.0651956     
  6e+009          1.6516e-005     1.9412e-008     0.970207        -0.216967       0.0119158       0.0614084       -0.0529472      0.075439        0.981225        -0.156383       0.987127        -0.138307       0.00583351      0.0525849       -0.0604067      0.0614589       0.992873        -0.0775466     
  7e+009          1.6516e-005     1.9412e-008     0.959714        -0.251993       0.0161861       0.0710545       -0.0483837      0.0871586       0.974667        -0.181833       0.982042        -0.161136       0.00802072      0.0612662       -0.0584022      0.0714585       0.99022         -0.0908189     
  8e+009          1.6516e-005     1.9412e-008     0.948345        -0.28521        0.0209891       0.0802279       -0.0426973      0.0985093       0.968183        -0.20652        0.97722         -0.184441       0.0105128       0.0697644       -0.0554919      0.0813075       0.988242        -0.103401      
  9e+009          1.6516e-005     1.9412e-008     0.935106        -0.319765       0.0263462       0.0891192       -0.0363546      0.109501        0.960254        -0.230441       0.970963        -0.206827       0.0132197       0.0781467       -0.0523866      0.091           0.985034        -0.115663      
  1e+010          1.6516e-005     1.9412e-008     0.921001        -0.352308       0.0322808       0.0974621       -0.0286831      0.119675        0.952149        -0.254706       0.964564        -0.229757       0.0163495       0.0862818       -0.0481776      0.100657        0.982278        -0.128283      
  1.1e+010        1.6516e-005     1.9412e-008     0.905229        -0.38262        0.0385823       0.105563        -0.021573       0.130065        0.942962        -0.277728       0.957041        -0.250388       0.0197124       0.0944753       -0.0447968      0.11038         0.978911        -0.140108      
  1.2e+010        1.6516e-005     1.9412e-008     0.888319        -0.413185       0.0454719       0.113281        -0.0139501      0.139763        0.932735        -0.300908       0.948927        -0.272606       0.0233845       0.102552        -0.0410058      0.119805        0.975245        -0.152466      
  1.3e+010        1.6516e-005     1.9412e-008     0.870317        -0.441447       0.0526257       0.120441        -0.00589785     0.148873        0.922814        -0.322711       0.940109        -0.292328       0.0272235       0.110545        -0.0371685      0.129051        0.971817        -0.163785      
  1.4e+010        1.6516e-005     1.9412e-008     0.851389        -0.470167       0.0607013       0.127005        0.00387695      0.157093        0.911468        -0.344301       0.93079         -0.313516       0.0318551       0.118292        -0.031527       0.138185        0.967657        -0.175941      
  1.5e+010        1.6516e-005     1.9412e-008     0.830989        -0.496966       0.0688821       0.132758        0.0135678       0.164035        0.900027        -0.365154       0.92073         -0.333056       0.0366342       0.125672        -0.0259908      0.146474        0.963524        -0.187231      
  1.6e+010        1.6516e-005     1.9412e-008     0.810815        -0.523225       0.0770583       0.138113        0.0234624       0.170471        0.88732         -0.38598        0.91072         -0.353702       0.0414484       0.132846        -0.0200844      0.15464         0.958551        -0.199061      
  1.7e+010        1.6516e-005     1.9412e-008     0.789632        -0.547161       0.085841        0.142921        0.0340058       0.176878        0.875676        -0.405848       0.899769        -0.372633       0.046846        0.139884        -0.0139405      0.162929        0.954738        -0.210084      
  1.8e+010        1.6516e-005     1.9412e-008     0.767461        -0.570361       0.0944257       0.146763        0.0437472       0.182318        0.862027        -0.424703       0.88811         -0.391276       0.0522523       0.146379        -0.00818332     0.17094         0.949229        -0.221157      
  1.9e+010        1.6516e-005     1.9412e-008     0.745014        -0.592318       0.102944        0.150725        0.0540856       0.186969        0.84819         -0.444245       0.876414        -0.40945        0.057553        0.153174        -0.00194685     0.178335        0.944571        -0.232918      
  2e+010          1.6516e-005     1.9412e-008     0.722347        -0.613114       0.11189         0.153733        0.0644979       0.191524        0.834433        -0.460586       0.864315        -0.427348       0.0636351       0.159365        0.00459551      0.185856        0.938722        -0.242558      
  2.1e+010        1.6516e-005     1.9412e-008     0.699264        -0.632523       0.120867        0.156189        0.0738597       0.194956        0.819823        -0.47807        0.851775        -0.444648       0.0696886       0.16543         0.0103782       0.19271         0.933219        -0.253345      
  2.2e+010        1.6516e-005     1.9412e-008     0.675814        -0.65051        0.130082        0.157955        0.0855359       0.197329        0.805808        -0.494308       0.838511        -0.461039       0.0763266       0.17093         0.0188191       0.19934         0.927562        -0.263148      
  2.3e+010        1.6516e-005     1.9412e-008     0.65301         -0.667655       0.138619        0.159103        0.0956377       0.199731        0.791305        -0.510041       0.825626        -0.477108       0.0826035       0.176037        0.0255965       0.205771        0.921882        -0.27323       
  2.4e+010        1.6516e-005     1.9412e-008     0.629891        -0.684035       0.147017        0.160125        0.105451        0.201051        0.77755         -0.52477        0.812356        -0.492666       0.0888897       0.180937        0.0329114       0.211062        0.91647         -0.282774      
  2.5e+010        1.6516e-005     1.9412e-008     0.607128        -0.700216       0.155435        0.160984        0.115676        0.202707        0.761833        -0.540144       0.79959         -0.507891       0.095086        0.185917        0.0402354       0.217029        0.910025        -0.293019      
  2.6e+010        1.6516e-005     1.9412e-008     0.582404        -0.714095       0.164481        0.161272        0.126504        0.203993        0.74717         -0.555715       0.784449        -0.522716       0.101997        0.190768        0.0478268       0.223108        0.90423         -0.302989      
  2.7e+010        1.6516e-005     1.9412e-008     0.558572        -0.72751        0.172934        0.160919        0.135846        0.204403        0.733199        -0.566873       0.770651        -0.537767       0.108866        0.195082        0.0550331       0.228702        0.897827        -0.311242      
  2.8e+010        1.6516e-005     1.9412e-008     0.534663        -0.739361       0.181297        0.159523        0.145869        0.203583        0.714854        -0.581181       0.755982        -0.551466       0.116107        0.199277        0.0627599       0.233372        0.891066        -0.321329      
  2.9e+010        1.6516e-005     1.9412e-008     0.511411        -0.7515         0.188732        0.158618        0.153563        0.203225        0.700382        -0.593047       0.741728        -0.564771       0.122448        0.203085        0.0688035       0.237949        0.884824        -0.330115      
  3e+010          1.6516e-005     1.9412e-008     0.488405        -0.761775       0.196704        0.157709        0.163846        0.203044        0.686296        -0.605311       0.726619        -0.577084       0.129676        0.20704         0.0775921       0.243133        0.879057        -0.338367      
  3.1e+010        1.6516e-005     1.9412e-008     0.464022        -0.772215       0.204108        0.15553         0.173669        0.200394        0.671776        -0.614946       0.710794        -0.589992       0.13661         0.209549        0.0867905       0.246206        0.871726        -0.346451      
  3.2e+010        1.6516e-005     1.9412e-008     0.441088        -0.781135       0.212068        0.153928        0.182098        0.198494        0.65631         -0.626944       0.695759        -0.601738       0.143929        0.213402        0.0942777       0.250261        0.865585        -0.355298      
  3.3e+010        1.6516e-005     1.9412e-008     0.417384        -0.788203       0.219976        0.151697        0.191328        0.196797        0.641386        -0.63894        0.679622        -0.612836       0.151685        0.216668        0.102562        0.25379         0.859228        -0.363992      
  3.4e+010        1.6516e-005     1.9412e-008     0.394532        -0.793945       0.22745         0.148747        0.200251        0.195165        0.626145        -0.648924       0.663379        -0.621992       0.159284        0.219028        0.110595        0.258134        0.852336        -0.37197       
  3.5e+010        1.6516e-005     1.9412e-008     0.372347        -0.800743       0.234047        0.145384        0.209466        0.190944        0.610155        -0.658137       0.648412        -0.63234        0.166619        0.220902        0.120618        0.260125        0.844821        -0.380331      
  3.6e+010        1.6516e-005     1.9412e-008     0.348988        -0.806629       0.240837        0.142443        0.216329        0.187961        0.595499        -0.666664       0.631995        -0.642387       0.174247        0.223066        0.12798         0.261961        0.837394        -0.387838      
  3.7e+010        1.6516e-005     1.9412e-008     0.32779         -0.812395       0.247621        0.138641        0.225283        0.185223        0.580129        -0.676849       0.617087        -0.651538       0.181648        0.224636        0.136767        0.26564         0.830685        -0.395627      
  3.8e+010        1.6516e-005     1.9412e-008     0.305907        -0.815734       0.254227        0.134487        0.232614        0.181354        0.565417        -0.685821       0.600802        -0.659087       0.189322        0.225523        0.144297        0.266726        0.824023        -0.403015      
  3.9e+010        1.6516e-005     1.9412e-008     0.284923        -0.820035       0.259836        0.130742        0.239658        0.176359        0.549495        -0.694278       0.585622        -0.667422       0.196236        0.226942        0.152817        0.267948        0.816175        -0.410771      
  4e+010          1.6516e-005     1.9412e-008     0.263534        -0.824749       0.265772        0.126479        0.246179        0.173068        0.534335        -0.701407       0.570956        -0.67648        0.203885        0.228071        0.159962        0.270367        0.809258        -0.41732       
  4.1e+010        1.6516e-005     1.9412e-008     0.24077         -0.827267       0.271326        0.121985        0.253984        0.168155        0.518767        -0.710282       0.553986        -0.684084       0.210977        0.228865        0.169129        0.271333        0.801611        -0.425552      
  4.2e+010        1.6516e-005     1.9412e-008     0.221527        -0.827179       0.277372        0.116847        0.260385        0.162816        0.501735        -0.716523       0.539148        -0.688824       0.218879        0.228797        0.177615        0.271554        0.792507        -0.431254      
  4.3e+010        1.6516e-005     1.9412e-008     0.199397        -0.828316       0.282053        0.111347        0.266109        0.15723         0.487867        -0.723346       0.522011        -0.696983       0.225752        0.228744        0.185254        0.271702        0.786092        -0.436956      
  4.4e+010        1.6516e-005     1.9412e-008     0.18126         -0.830197       0.286184        0.106984        0.272334        0.151994        0.471177        -0.729077       0.508148        -0.7014         0.232581        0.229559        0.194396        0.272811        0.778168        -0.444068      
  4.5e+010        1.6516e-005     1.9412e-008     0.16151         -0.831326       0.290927        0.102836        0.277217        0.147984        0.456573        -0.734736       0.492569        -0.708017       0.239656        0.230114        0.200717        0.273614        0.770913        -0.450204      
  4.6e+010        1.6516e-005     1.9412e-008     0.141085        -0.8329         0.295585        0.0969031       0.282466        0.142553        0.44145         -0.739728       0.477243        -0.715711       0.247162        0.229415        0.208846        0.274259        0.763315        -0.456002      
  4.7e+010        1.6516e-005     1.9412e-008     0.120382        -0.831139       0.298833        0.0915161       0.288893        0.135717        0.427789        -0.744053       0.460405        -0.720023       0.254146        0.228454        0.219028        0.27257         0.756154        -0.461071      
  4.8e+010        1.6516e-005     1.9412e-008     0.102434        -0.832366       0.302237        0.0874504       0.292571        0.131415        0.412268        -0.749706       0.445859        -0.725609       0.260672        0.228834        0.225328        0.273345        0.748165        -0.467973      
