! VERSION = 6.00
!Data measured by ggf on Tue Jan 23 14:23:06 2018 using model file NPN_MEAS_SCALE
BEGIN_HEADER
 ICCAP_INPUTS
  ve         V  E GROUND SMU_E 0.2 CON        0
  vc         V  C GROUND SMU_C 0.2 LIN        2    0.5        2          4    0.5       
  vs         V  S GROUND SMU_S 0.015 CON        0
  vb         V  B GROUND SMU_B 0.015 LIN        1    0.4        1.04       33   0.02      
 ICCAP_OUTPUTS
  ib         I  B GROUND SMU_B M
  ic         I  C GROUND SMU_C M
 ICCAP_VALUES
  TNOM "27"
  TEMP "27"
  TECHNO "SG13G2"
  LOT "EDJ802"
  WAFER "02"
  CHIP "(3.3)"
  MODULE "S439S"
  DEV_NAME "D14"
  DEV_GEOM_L "2.5"
  DEV_GEOM_W "0.07"
  NUM_OF_TRANS_RF "1"
  REMARKS "Nx=5; Power -30/-20dBm, Slope: 0.1dB/GHz"
  TIMEDATE "Tue Jan 23 14:05:08     2018"
  OPERATOR "ggf"
END_HEADER

BEGIN_DB
 ICCAP_VAR ve         0              
 ICCAP_VAR vc         0.5            
 ICCAP_VAR vs         0              

 #vb              ib              ic             
  0.4             1.5704e-010     2.6934e-009    
  0.42            9.054e-011      2.442e-009     
  0.44            6.926e-011      2.6994e-009    
  0.46            6.48e-011       4.402e-009     
  0.48            7.174e-011      8.2676e-009    
  0.5             8.25e-011       1.58e-008      
  0.52            1.274e-010      3.4542e-008    
  0.54            2.076e-010      7.388e-008     
  0.56            3.5512e-010     1.585e-007     
  0.58            6.6512e-010     3.3914e-007    
  0.6             1.2938e-009     7.2662e-007    
  0.62            2.5664e-009     1.5622e-006    
  0.64            5.1972e-009     3.3466e-006    
  0.66            1.0668e-008     7.1502e-006    
  0.68            2.2072e-008     1.5304e-005    
  0.7             4.5934e-008     3.2482e-005    
  0.72            9.5532e-008     6.8888e-005    
  0.74            1.9778e-007     0.00014456     
  0.76            4.0506e-007     0.0002988      
  0.78            8.162e-007      0.0006053      
  0.8             1.5868e-006     0.0011764      
  0.82            2.9466e-006     0.0021726      
  0.84            5.1542e-006     0.003728       
  0.86            8.5034e-006     0.0059052      
  0.88            1.3374e-005     0.0086856      
  0.9             2.0268e-005     0.01197        
  0.92            3.0094e-005     0.015732       
  0.94            4.3892e-005     0.019874       
  0.96            6.3668e-005     0.024372       
  0.98            9.3746e-005     0.02883        
  1               0.00015386      0.032406       
  1.02            0.00027066      0.035078       
  1.04            0.00046466      0.03765        
END_DB

BEGIN_DB
 ICCAP_VAR ve         0              
 ICCAP_VAR vc         1              
 ICCAP_VAR vs         0              

 #vb              ib              ic             
  0.4             -4.24e-010      2.9022e-009    
  0.42            -3.7298e-010    2.6106e-009    
  0.44            -3.341e-010     3.014e-009     
  0.46            -2.9304e-010    4.6254e-009    
  0.48            -2.5264e-010    8.529e-009     
  0.5             -2.1464e-010    1.6038e-008    
  0.52            -1.5346e-010    3.4718e-008    
  0.54            -6.202e-011     7.3994e-008    
  0.56            9.416e-011      1.5868e-007    
  0.58            3.9888e-010     3.3918e-007    
  0.6             9.9e-010        7.265e-007     
  0.62            2.2042e-009     1.5632e-006    
  0.64            4.7332e-009     3.3474e-006    
  0.66            1.00242e-008    7.1522e-006    
  0.68            2.1054e-008     1.5314e-005    
  0.7             4.4276e-008     3.2542e-005    
  0.72            9.2976e-008     6.9096e-005    
  0.74            1.9434e-007     0.00014536     
  0.76            4.0152e-007     0.00030188     
  0.78            8.206e-007      0.00061644     
  0.8             1.6256e-006     0.0012128      
  0.82            3.1074e-006     0.0022798      
  0.84            5.6374e-006     0.003992       
  0.86            9.7408e-006     0.0064546      
  0.88            1.6206e-005     0.00967        
  0.9             2.622e-005      0.01355        
  0.92            4.165e-005      0.018088       
  0.94            6.491e-005      0.023182       
  0.96            9.9624e-005     0.028864       
  0.98            0.00014942      0.03501        
  1               0.0002197       0.041626       
  1.02            0.00031414      0.048358       
  1.04            0.0004438       0.0544         
END_DB

BEGIN_DB
 ICCAP_VAR ve         0              
 ICCAP_VAR vc         1.5            
 ICCAP_VAR vs         0              

 #vb              ib              ic             
  0.4             -3.091e-009     4.6614e-009    
  0.42            -2.8714e-009    4.6788e-009    
  0.44            -2.6662e-009    5.0238e-009    
  0.46            -2.4686e-009    6.2402e-009    
  0.48            -2.296e-009     1.0018e-008    
  0.5             -2.1364e-009    1.8412e-008    
  0.52            -1.9898e-009    3.6508e-008    
  0.54            -1.839e-009     7.541e-008     
  0.56            -1.7092e-009    1.6024e-007    
  0.58            -1.575e-009     3.4052e-007    
  0.6             -1.4016e-009    7.2758e-007    
  0.62            -1.1128e-009    1.564e-006     
  0.64            -4.3212e-010    3.3466e-006    
  0.66            1.2622e-009     7.15e-006      
  0.68            5.4998e-009     1.531e-005     
  0.7             1.5732e-008     3.2558e-005    
  0.72            4.0544e-008     6.9208e-005    
  0.74            9.7918e-008     0.00014594     
  0.76            2.2954e-007     0.00030428     
  0.78            5.2278e-007     0.00062648     
  0.8             1.1466e-006     0.0012496      
  0.82            2.4452e-006     0.0023956      
  0.84            4.9984e-006     0.004301       
  0.86            9.8278e-006     0.007137       
  0.88            1.8738e-005     0.010974       
  0.9             3.4628e-005     0.015762       
  0.92            6.2616e-005     0.021556       
  0.94            0.000109778     0.02829        
  0.96            0.0001873       0.03602        
  0.98            0.00030716      0.044548       
  1               0.00048484      0.053742       
  1.02            0.00072554      0.062804       
  1.04            0.00103786      0.070682       
END_DB

BEGIN_DB
 ICCAP_VAR ve         0              
 ICCAP_VAR vc         2              
 ICCAP_VAR vs         0              

 #vb              ib              ic             
  0.4             -1.5054e-008    2.0258e-008    
  0.42            -1.4252e-008    1.7582e-008    
  0.44            -1.354e-008     1.6904e-008    
  0.46            -1.2762e-008    1.7698e-008    
  0.48            -1.2148e-008    2.0666e-008    
  0.5             -1.1624e-008    2.8414e-008    
  0.52            -1.1294e-008    4.6134e-008    
  0.54            -1.12e-008      8.4842e-008    
  0.56            -1.1738e-008    1.7048e-007    
  0.58            -1.3428e-008    3.5226e-007    
  0.6             -1.731e-008     7.4262e-007    
  0.62            -2.5564e-008    1.5858e-006    
  0.64            -4.2222e-008    3.3826e-006    
  0.66            -7.5224e-008    7.2152e-006    
  0.68            -1.4058e-007    1.5446e-005    
  0.7             -2.6562e-007    3.282e-005     
  0.72            -5.0886e-007    6.9818e-005    
  0.74            -9.6982e-007    0.00014748     
  0.76            -1.8326e-006    0.00030906     
  0.78            -3.4106e-006    0.000642       
  0.8             -6.134e-006     0.0013008      
  0.82            -1.0456e-005    0.0025584      
  0.84            -1.614e-005     0.0047494      
  0.86            -2.093e-005     0.0081942      
  0.88            -1.9114e-005    0.013142       
  0.9             6.2972e-007     0.019748       
  0.92            6.0744e-005     0.028394       
  0.94            0.0002007       0.039258       
  0.96            0.00048252      0.052328       
  0.98            0.00094142      0.06591        
  1               0.0015448       0.077476       
  1.02            0.0022848       0.08694        
  1.04            0.0031852       0.095402       
END_DB

