! VERSION = 6.00
!Data measured by ggf on Tue Jan 23 14:23:06 2018 using model file NPN_MEAS_SCALE
BEGIN_HEADER
 ICCAP_INPUTS
  vbe        V  B GROUND SMU_B 0.015 LIN        2    0.6        -1.8       25   -0.1      
  vc         V  C GROUND SMU_C 0.015 CON        0
  ve         V  E GROUND SMU_E 0 CON        0
  vs         V  S GROUND SMU_S 0 CON        0
  freq       F  LIST       1 74 100000000 200000000 300000000 400000000 500000000 600000000 700000000 800000000 900000000 1000000000 2000000000 3000000000 4000000000 5000000000 6000000000 7000000000 8000000000 9000000000 10000000000 11000000000 12000000000 13000000000 14000000000 15000000000 16000000000 17000000000 18000000000 19000000000 20000000000 21000000000 22000000000 23000000000 24000000000 25000000000 26000000000 27000000000 28000000000 29000000000 30000000000 31000000000 32000000000 33000000000 34000000000 35000000000 36000000000 37000000000 38000000000 39000000000 40000000000 41000000000 42000000000 43000000000 44000000000 45000000000 46000000000 47000000000 48000000000 49000000000 50000000000 51000000000 52000000000 53000000000 54000000000 55000000000 56000000000 57000000000 58000000000 59000000000 60000000000 61000000000 62000000000 63000000000 64000000000 65000000000
 ICCAP_OUTPUTS
  S          S  B C GROUND NWA M
  ib         I  B GROUND SMU_B M
  S_deemb    S B C GROUND n/a B
 ICCAP_VALUES
  TNOM "27"
  TEMP "27"
  TECHNO "SG13G2"
  LOT "EDJ802"
  WAFER "02"
  CHIP "(3.3)"
  MODULE "S439S"
  DEV_NAME "D14"
  DEV_GEOM_L "2.5"
  DEV_GEOM_W "0.07"
  NUM_OF_TRANS_RF "1"
  REMARKS "Nx=5; Power -30/-20dBm, Slope: 0.1dB/GHz"
  TIMEDATE "Tue Jan 23 14:05:08     2018"
  OPERATOR "ggf"
END_HEADER

BEGIN_DB
 ICCAP_VAR vbe        0.6            
 ICCAP_VAR vc         0              
 ICCAP_VAR ve         0              
 ICCAP_VAR vs         0              

 #freq            R:S(1,1)        I:S(1,1)        R:S(1,2)        I:S(1,2)        R:S(2,1)        I:S(2,1)        R:S(2,2)        I:S(2,2)        ib              R:S_deemb(1,1)  I:S_deemb(1,1)  R:S_deemb(1,2)  I:S_deemb(1,2)  R:S_deemb(2,1)  I:S_deemb(2,1)  R:S_deemb(2,2)  I:S_deemb(2,2) 
  1e+008          0.99951         -0.00302294     0.000199718     0.00169837      0.000312534     0.00155277      0.994653        -0.00264084     1.7386e-007     0.999512        -0.0020694      0.000138221     0.00157802      0.000397684     0.0013064       0.994524        -0.00152514    
  2e+008          1.0003          -0.00843447     0.000223666     0.00345129      0.000539581     0.00353647      0.994579        -0.00607326     1.7386e-007     1.00011         -0.00609214     0.000219697     0.00318953      0.000520234     0.00322478      0.994307        -0.00324277    
  3e+008          0.999955        -0.0127053      0.000269902     0.00518515      0.00030768      0.00505848      0.994555        -0.00950518     1.7386e-007     0.999534        -0.00935303     0.000249226     0.00492327      0.00026         0.00477329      0.994322        -0.00623627    
  4e+008          1.00035         -0.0173616      0.00030894      0.0068885       0.000275912     0.00681622      0.994448        -0.0127993      1.7386e-007     0.999877        -0.012923       0.000268892     0.0065432       0.000254579     0.00656926      0.994375        -0.00835205    
  5e+008          0.999836        -0.0219178      0.000386373     0.00861312      0.000385735     0.00844169      0.994268        -0.0161305      1.7386e-007     0.999252        -0.0156978      0.000319709     0.00819468      0.000356796     0.00798967      0.994093        -0.0105563     
  6e+008          0.999931        -0.026731       0.000498308     0.0103035       0.000481878     0.0103337       0.994046        -0.0192097      1.7386e-007     0.999739        -0.019718       0.000427851     0.0098281       0.000444123     0.00981965      0.993827        -0.0125511     
  7e+008          0.999851        -0.0310894      0.000580754     0.0120048       0.000556947     0.011888        0.994132        -0.0227205      1.7386e-007     0.999487        -0.0231303      0.000481028     0.0114212       0.000477481     0.0112785       0.994035        -0.014847      
  8e+008          0.999601        -0.0357646      0.000732239     0.0137203       0.000743317     0.0135934       0.994121        -0.0258217      1.7386e-007     0.999382        -0.0265945      0.000601828     0.0130577       0.000584716     0.0129156       0.994102        -0.016879      
  9e+008          0.99915         -0.0400763      0.00083567      0.0154352       0.000833575     0.0153705       0.993972        -0.0291146      1.7386e-007     0.9989          -0.0299011      0.000667116     0.0146849       0.000612536     0.0146338       0.994011        -0.0190799     
  1e+009          0.998978        -0.0446983      0.000991065     0.0171145       0.000993835     0.0169427       0.993511        -0.0323212      1.7386e-007     0.999018        -0.0332129      0.000739687     0.0162784       0.000782118     0.016152        0.993623        -0.0211366     
  2e+009          0.995374        -0.0889646      0.00307691      0.0340039       0.00313543      0.0337456       0.991022        -0.0641369      1.7386e-007     0.996778        -0.0663126      0.00221054      0.0323893       0.00233817      0.0321466       0.992081        -0.0416382     
  3e+009          0.988844        -0.133709       0.00655488      0.0506196       0.00644896      0.0502632       0.98597         -0.0948952      1.7386e-007     0.99274         -0.0996114      0.00460529      0.0483974       0.00454768      0.0479801       0.988685        -0.0612265     
  4e+009          0.980468        -0.176959       0.0112015       0.0668511       0.0111812       0.066308        0.980316        -0.124914       1.7386e-007     0.987582        -0.132162       0.00770058      0.0641899       0.00768202      0.0636375       0.985308        -0.0803377     
  5e+009          0.969409        -0.219423       0.0171671       0.0825975       0.0169607       0.0821036       0.973379        -0.154532       1.7386e-007     0.980944        -0.164067       0.0117931       0.0797084       0.0116147       0.0791414       0.981304        -0.0992173     
  6e+009          0.956019        -0.260772       0.0242492       0.0976102       0.0238821       0.0968872       0.965468        -0.183611       1.7386e-007     0.972664        -0.196059       0.016696        0.0947566       0.0163886       0.0939968       0.97684         -0.11759       
  7e+009          0.94018         -0.302385       0.0324484       0.112153        0.0323247       0.111199        0.95668         -0.211842       1.7386e-007     0.962973        -0.227797       0.0223601       0.109682        0.0223544       0.108718        0.971982        -0.135787      
  8e+009          0.922969        -0.340865       0.0416883       0.125703        0.0412042       0.124848        0.94661         -0.239261       1.7386e-007     0.952338        -0.257722       0.0288819       0.12397         0.028485        0.123055        0.96631         -0.153422      
  9e+009          0.904445        -0.377664       0.0519173       0.138734        0.0509251       0.137467        0.93494         -0.26635        1.7386e-007     0.940596        -0.286354       0.036084        0.138121        0.0352441       0.136746        0.959677        -0.171115      
  1e+010          0.883247        -0.415336       0.0627327       0.150095        0.0624849       0.149166        0.923988        -0.292424       1.7386e-007     0.927088        -0.315783       0.0437174       0.150994        0.0436238       0.150075        0.954132        -0.187939      
  1.1e+010        0.860807        -0.449274       0.0746222       0.161597        0.0734286       0.160291        0.910272        -0.317926       1.7386e-007     0.912883        -0.3438         0.05239         0.164396        0.0513667       0.162912        0.945941        -0.204999      
  1.2e+010        0.836839        -0.481827       0.0869547       0.171443        0.0863681       0.170067        0.896898        -0.342274       1.7386e-007     0.897346        -0.370925       0.0613725       0.176634        0.0609623       0.175193        0.938871        -0.221213      
  1.3e+010        0.81199         -0.512438       0.0999295       0.180567        0.0988643       0.178811        0.881656        -0.365443       1.7386e-007     0.881331        -0.396597       0.0710345       0.188726        0.0702014       0.186766        0.930351        -0.236939      
  1.4e+010        0.78529         -0.541985       0.113661        0.188307        0.112558        0.187173        0.867098        -0.38796        1.7386e-007     0.863539        -0.421947       0.0815311       0.199911        0.080592        0.198553        0.922259        -0.252374      
  1.5e+010        0.759104        -0.569087       0.127182        0.194398        0.125991        0.192666        0.852827        -0.409267       1.7386e-007     0.845884        -0.445825       0.0921451       0.209676        0.0911613       0.207682        0.914488        -0.266905      
  1.6e+010        0.731418        -0.594175       0.141666        0.200542        0.139504        0.1988          0.835624        -0.429887       1.7386e-007     0.827281        -0.468126       0.103669        0.219994        0.101776        0.217886        0.903729        -0.281601      
  1.7e+010        0.703483        -0.617989       0.155535        0.204404        0.153298        0.20275         0.819706        -0.449413       1.7386e-007     0.808323        -0.490163       0.115062        0.228384        0.113067        0.226302        0.895599        -0.295273      
  1.8e+010        0.675428        -0.639738       0.170184        0.208325        0.167059        0.206893        0.801685        -0.468851       1.7386e-007     0.788688        -0.510373       0.127216        0.237362        0.124341        0.235196        0.884711        -0.309267      
  1.9e+010        0.646153        -0.659657       0.183386        0.210602        0.181941        0.208715        0.786452        -0.487164       1.7386e-007     0.767781        -0.530259       0.138341        0.244456        0.137191        0.242163        0.876076        -0.321592      
  2e+010          0.618268        -0.677681       0.197692        0.212014        0.194049        0.210203        0.768265        -0.502271       1.7386e-007     0.748588        -0.547547       0.151086        0.251263        0.147732        0.248487        0.864954        -0.333469      
  2.1e+010        0.58932         -0.694357       0.210987        0.212571        0.208919        0.211264        0.749507        -0.516968       1.7386e-007     0.727182        -0.564466       0.163287        0.257373        0.161481        0.255428        0.854729        -0.345507      
  2.2e+010        0.561303        -0.709545       0.223985        0.212094        0.221339        0.210291        0.732239        -0.533363       1.7386e-007     0.706803        -0.580445       0.175406        0.262611        0.172967        0.260031        0.84616         -0.357379      
  2.3e+010        0.532857        -0.723066       0.237476        0.210936        0.233917        0.209967        0.717468        -0.549914       1.7386e-007     0.685678        -0.595624       0.1878          0.267234        0.184289        0.265337        0.835994        -0.367776      
  2.4e+010        0.505256        -0.737001       0.248612        0.209315        0.245779        0.208458        0.707182        -0.556047       1.7386e-007     0.665856        -0.610569       0.198749        0.269769        0.196068        0.268065        0.826499        -0.374287      
  2.5e+010        0.47575         -0.747621       0.262131        0.210079        0.258352        0.209504        0.700865        -0.561886       1.7386e-007     0.644277        -0.622858       0.211424        0.273253        0.207594        0.271995        0.81343         -0.384924      
  2.6e+010        0.449129        -0.758261       0.278318        0.204583        0.273869        0.205303        0.673026        -0.584754       1.7386e-007     0.624076        -0.635386       0.226731        0.275233        0.221996        0.274824        0.796741        -0.394823      
  2.7e+010        0.420481        -0.766434       0.288269        0.200202        0.285231        0.200727        0.639361        -0.598198       1.7386e-007     0.601971        -0.645932       0.238647        0.279399        0.235256        0.278865        0.789095        -0.407925      
  2.8e+010        0.394164        -0.774162       0.300296        0.195064        0.295835        0.194969        0.617957        -0.61727        1.7386e-007     0.581216        -0.656466       0.251206        0.282844        0.246538        0.281307        0.77958         -0.419193      
  2.9e+010        0.367259        -0.780947       0.30909         0.190393        0.304803        0.191375        0.605111        -0.626631       1.7386e-007     0.559649        -0.66713        0.261306        0.284031        0.256504        0.283781        0.77287         -0.425388      
  3e+010          0.340739        -0.785151       0.318807        0.186719        0.315205        0.187494        0.595554        -0.632787       1.7386e-007     0.538659        -0.67478        0.271944        0.28463         0.267781        0.284238        0.76439         -0.431708      
  3.1e+010        0.315641        -0.789819       0.328698        0.180795        0.325683        0.181361        0.578243        -0.639117       1.7386e-007     0.519246        -0.681768       0.283468        0.283902        0.280198        0.283647        0.752049        -0.439214      
  3.2e+010        0.291188        -0.79408        0.338728        0.175132        0.333989        0.1753          0.557804        -0.648827       1.7386e-007     0.499463        -0.689643       0.29591         0.284533        0.290788        0.283129        0.741179        -0.448506      
  3.3e+010        0.265954        -0.796873       0.348598        0.168925        0.343814        0.170392        0.540833        -0.659801       1.7386e-007     0.478825        -0.696945       0.30787         0.284786        0.302186        0.284892        0.731359        -0.456297      
  3.4e+010        0.23982         -0.797646       0.357218        0.162143        0.353354        0.16347         0.526764        -0.66695        1.7386e-007     0.456805        -0.701838       0.318892        0.283235        0.314029        0.283394        0.721869        -0.46276       
  3.5e+010        0.218376        -0.799318       0.364785        0.155504        0.361221        0.156215        0.509934        -0.673075       1.7386e-007     0.439437        -0.70645        0.329104        0.281554        0.324761        0.281233        0.710671        -0.469319      
  3.6e+010        0.196161        -0.798535       0.372338        0.148103        0.368674        0.150091        0.490674        -0.679279       1.7386e-007     0.420432        -0.708645       0.340223        0.279398        0.335317        0.280583        0.699648        -0.475703      
  3.7e+010        0.175493        -0.7988         0.379665        0.141294        0.375236        0.143668        0.475223        -0.68804        1.7386e-007     0.403008        -0.712504       0.35012         0.277624        0.34465         0.278699        0.690624        -0.482887      
  3.8e+010        0.154163        -0.799978       0.386478        0.133993        0.384132        0.135735        0.460493        -0.693319       1.7386e-007     0.38549         -0.717147       0.359841        0.274918        0.356458        0.275878        0.68105         -0.488163      
  3.9e+010        0.132495        -0.798624       0.392201        0.126615        0.388465        0.127411        0.444377        -0.69796        1.7386e-007     0.367038        -0.719425       0.369055        0.272217        0.364592        0.271506        0.67132         -0.493363      
  4e+010          0.111385        -0.798416       0.399206        0.118598        0.394582        0.121773        0.426698        -0.703865       1.7386e-007     0.348964        -0.722843       0.379713        0.269394        0.373429        0.271298        0.660436        -0.49863       
  4.1e+010        0.091537        -0.796347       0.405417        0.111225        0.402184        0.114322        0.410774        -0.709914       1.7386e-007     0.331604        -0.723974       0.389005        0.266421        0.384108        0.268784        0.650401        -0.505645      
  4.2e+010        0.0720645       -0.793603       0.410543        0.10267         0.40695         0.104569        0.395789        -0.713293       1.7386e-007     0.315672        -0.72556        0.397571        0.26222         0.39311         0.263134        0.640098        -0.508896      
  4.3e+010        0.0550292       -0.793766       0.415176        0.094834        0.411051        0.098603        0.379855        -0.717191       1.7386e-007     0.301327        -0.728567       0.406421        0.259176        0.40016         0.261371        0.630343        -0.514249      
  4.4e+010        0.0338476       -0.788526       0.419881        0.0873206       0.416306        0.0891555       0.363766        -0.720482       1.7386e-007     0.281404        -0.727956       0.415518        0.255529        0.410518        0.255876        0.620502        -0.518257      
  4.5e+010        0.015303        -0.78739        0.424589        0.0792164       0.420507        0.0821563       0.349032        -0.725339       1.7386e-007     0.265751        -0.729459       0.423966        0.251832        0.418041        0.2535          0.611705        -0.522678      
  4.6e+010        -0.000781245    -0.783292       0.428649        0.0707887       0.42526         0.0757163       0.334173        -0.727378       1.7386e-007     0.252368        -0.728908       0.432236        0.247247        0.426016        0.25132         0.601714        -0.526653      
  4.7e+010        -0.0167273      -0.782398       0.431863        0.0632129       0.429585        0.0666277       0.318706        -0.728786       1.7386e-007     0.238887        -0.730861       0.439999        0.243417        0.435487        0.245893        0.591636        -0.530186      
  4.8e+010        -0.0359815      -0.777597       0.435861        0.0556884       0.432028        0.057489        0.304706        -0.73299        1.7386e-007     0.221518        -0.728965       0.448098        0.239909        0.442807        0.240897        0.58344         -0.533535      
  4.9e+010        -0.0533698      -0.777298       0.438763        0.0463214       0.433836        0.0505121       0.29217         -0.735106       1.7386e-007     0.206838        -0.732782       0.455881        0.233668        0.448368        0.236139        0.575373        -0.536738      
  5e+010          -0.0695257      -0.77015        0.442468        0.0380909       0.440356        0.0434564       0.276622        -0.736288       1.7386e-007     0.191909        -0.729336       0.464054        0.228672        0.458983        0.233561        0.564655        -0.540199      
  5.1e+010        -0.084123       -0.765383       0.444969        0.0302765       0.441082        0.0333561       0.263736        -0.738134       1.7386e-007     0.17921         -0.727927       0.471437        0.224194        0.465295        0.22587         0.556589        -0.542638      
  5.2e+010        -0.0998098      -0.760269       0.4469          0.0201851       0.441785        0.0249262       0.249456        -0.740615       1.7386e-007     0.165626        -0.725679       0.479043        0.217534        0.471297        0.220307        0.547803        -0.544938      
