! VERSION = 6.00
!Data measured by ggf on Tue Jan 23 13:00:59 2018 using model file NPN_MEAS_SCALE
BEGIN_HEADER
 ICCAP_INPUTS
  vb         V  B GROUND GND 0 CON        0
  vc         V  C GROUND GND 0 CON        0
  ve         V  E GROUND SMU_E 0 CON        0
  vs         V  S GROUND SMU_S 0 CON        0
  freq       F  LIST       1 74 100000000 200000000 300000000 400000000 500000000 600000000 700000000 800000000 900000000 1000000000 2000000000 3000000000 4000000000 5000000000 6000000000 7000000000 8000000000 9000000000 10000000000 11000000000 12000000000 13000000000 14000000000 15000000000 16000000000 17000000000 18000000000 19000000000 20000000000 21000000000 22000000000 23000000000 24000000000 25000000000 26000000000 27000000000 28000000000 29000000000 30000000000 31000000000 32000000000 33000000000 34000000000 35000000000 36000000000 37000000000 38000000000 39000000000 40000000000 41000000000 42000000000 43000000000 44000000000 45000000000 46000000000 47000000000 48000000000 49000000000 50000000000 51000000000 52000000000 53000000000 54000000000 55000000000 56000000000 57000000000 58000000000 59000000000 60000000000 61000000000 62000000000 63000000000 64000000000 65000000000
 ICCAP_OUTPUTS
  S          S  B C Ground NWA M
 ICCAP_VALUES
  TNOM "27"
  TEMP "27"
  TECHNO "SG13G2"
  LOT "EDJ802"
  WAFER "02"
  CHIP "(3.3)"
  MODULE "S439S"
  DEV_NAME "D11"
  DEV_GEOM_L "5.0"
  DEV_GEOM_W "0.07"
  NUM_OF_TRANS_RF "1"
  REMARKS "Nx=2; Power -30/-20dBm, Slope: 0.1dB/GHz"
  TIMEDATE "Tue Jan 23 12:58:58     2018"
  OPERATOR "ggf"
END_HEADER

BEGIN_DB
 ICCAP_VAR vb         0              
 ICCAP_VAR vc         0              
 ICCAP_VAR ve         0              
 ICCAP_VAR vs         0              

 #freq            R:S(1,1)        I:S(1,1)        R:S(1,2)        I:S(1,2)        R:S(2,1)        I:S(2,1)        R:S(2,2)        I:S(2,2)       
  1e+008          -0.97406        0.000339521     0.00355763      6.21902e-005    0.00360869      -1.65977e-005   -0.975043       0.000927643    
  2e+008          -0.974061       0.00103045      0.00354207      0.000145731     0.00345634      6.04934e-005    -0.975307       0.00218504     
  3e+008          -0.973983       0.00224387      0.00346291      0.000216998     0.00341805      0.000145956     -0.97488        0.00227597     
  4e+008          -0.973852       0.00237378      0.00348097      0.000279756     0.00344804      0.00026599      -0.974942       0.00272346     
  5e+008          -0.973989       0.0035245       0.00352515      0.000362792     0.00343816      0.000343489     -0.974696       0.00342664     
  6e+008          -0.973686       0.00352532      0.00350462      0.000456002     0.00348898      0.000419813     -0.974496       0.00404059     
  7e+008          -0.973588       0.00422065      0.00350444      0.000520141     0.00344295      0.000497012     -0.974472       0.00459946     
  8e+008          -0.973392       0.00465832      0.00352036      0.000572317     0.00343963      0.000612803     -0.974339       0.0050877      
  9e+008          -0.973435       0.00505362      0.00349687      0.000631349     0.00351211      0.00069038      -0.974179       0.00565069     
  1e+009          -0.973459       0.00543077      0.0034874       0.000734277     0.00344138      0.000706967     -0.974195       0.00617576     
  2e+009          -0.972281       0.0103071       0.00352683      0.00147789      0.00348126      0.00147814      -0.9731         0.0112451      
  3e+009          -0.971524       0.0146336       0.00358949      0.0022145       0.00362197      0.00209457      -0.972194       0.0159465      
  4e+009          -0.971105       0.0188266       0.00362656      0.00294575      0.00354355      0.00299504      -0.971528       0.0203127      
  5e+009          -0.97067        0.0235767       0.0037175       0.00360235      0.00368768      0.00371143      -0.971245       0.0247343      
  6e+009          -0.970266       0.0270681       0.00379801      0.004175        0.00390067      0.00415045      -0.970918       0.0293526      
  7e+009          -0.969533       0.0307763       0.00378565      0.00477892      0.00377875      0.0047049       -0.970141       0.033903       
  8e+009          -0.968722       0.0348075       0.0037708       0.00547982      0.00364935      0.00539054      -0.969622       0.0383779      
  9e+009          -0.968567       0.0401607       0.00381445      0.00611035      0.00374992      0.006051        -0.969326       0.0428209      
  1e+010          -0.967878       0.0437407       0.00385231      0.0066979       0.00388713      0.00658848      -0.96879        0.0473904      
  1.1e+010        -0.967326       0.048157        0.00374916      0.00712104      0.00372633      0.00719386      -0.967887       0.0522976      
  1.2e+010        -0.966299       0.0523283       0.00334959      0.00771195      0.00344739      0.00769857      -0.966787       0.0567474      
  1.3e+010        -0.965772       0.0565944       0.00290411      0.00859605      0.00296393      0.00846957      -0.966086       0.0608555      
  1.4e+010        -0.964657       0.0592694       0.00277359      0.00962565      0.0027256       0.00960913      -0.965087       0.0645341      
  1.5e+010        -0.964025       0.0627827       0.00289717      0.0107803       0.00291682      0.0105833       -0.964311       0.0683137      
  1.6e+010        -0.963885       0.0665008       0.00295733      0.0115262       0.00293938      0.0114579       -0.964145       0.0725643      
  1.7e+010        -0.963088       0.0700688       0.00294082      0.0124399       0.002932        0.0122105       -0.964355       0.0769343      
  1.8e+010        -0.962604       0.0733968       0.00294167      0.0135226       0.00293963      0.0132314       -0.963977       0.081027       
  1.9e+010        -0.962846       0.0764825       0.00310194      0.0142424       0.00311727      0.0141749       -0.961741       0.0845095      
  2e+010          -0.962971       0.0808944       0.00332911      0.0151085       0.00324527      0.0149918       -0.961129       0.0893557      
  2.1e+010        -0.963195       0.0841656       0.00335438      0.0162155       0.00328138      0.0164248       -0.962505       0.0941816      
  2.2e+010        -0.963352       0.088202        0.00370249      0.017255        0.00385206      0.0168475       -0.963214       0.0949325      
  2.3e+010        -0.963855       0.0922904       0.00410589      0.0182107       0.00394208      0.0179645       -0.958782       0.0938683      
  2.4e+010        -0.963876       0.0971599       0.00473139      0.0188997       0.00478778      0.0190059       -0.956607       0.0982667      
  2.5e+010        -0.963492       0.102405        0.00522484      0.019346        0.00500328      0.0189791       -0.96054        0.113683       
  2.6e+010        -0.962695       0.106753        0.00529034      0.0199138       0.00546091      0.0198748       -0.978667       0.129386       
  2.7e+010        -0.96145        0.110746        0.00572644      0.020658        0.0056925       0.0203527       -0.977727       0.15075        
  2.8e+010        -0.961732       0.114504        0.00570026      0.0210288       0.00611576      0.0204647       -0.965976       0.133913       
  2.9e+010        -0.959759       0.119556        0.00576577      0.0218902       0.00613823      0.0218643       -0.960335       0.128063       
  3e+010          -0.960647       0.123942        0.00614164      0.022745        0.00612924      0.0224668       -0.95485        0.135997       
  3.1e+010        -0.958208       0.12874         0.00690591      0.0227003       0.0066343       0.0226914       -0.954794       0.142276       
  3.2e+010        -0.957412       0.130924        0.00679227      0.0231833       0.00735862      0.0233648       -0.957021       0.145008       
  3.3e+010        -0.956969       0.135159        0.00676177      0.0236412       0.00654756      0.0235877       -0.957051       0.146002       
  3.4e+010        -0.955952       0.138828        0.00671891      0.0244676       0.00663574      0.0243216       -0.95514        0.151196       
  3.5e+010        -0.95604        0.142291        0.00707462      0.02512         0.00705788      0.0250456       -0.953672       0.157513       
  3.6e+010        -0.956057       0.146913        0.00694681      0.0255996       0.00744549      0.0256508       -0.957565       0.16053        
  3.7e+010        -0.955259       0.152154        0.00705287      0.0267437       0.00738225      0.02642         -0.956171       0.165289       
  3.8e+010        -0.955595       0.155496        0.00723102      0.0274808       0.00727859      0.0272773       -0.955211       0.17027        
  3.9e+010        -0.954102       0.159089        0.00778527      0.0282109       0.0079216       0.0284329       -0.954278       0.17599        
  4e+010          -0.953708       0.164204        0.00803299      0.0288112       0.0084445       0.0283372       -0.95439        0.180285       
  4.1e+010        -0.95248        0.168381        0.00886856      0.0294289       0.00819068      0.0289429       -0.953971       0.187041       
  4.2e+010        -0.951994       0.172839        0.00844612      0.029671        0.00829846      0.0297849       -0.94779        0.191183       
  4.3e+010        -0.951037       0.175438        0.00869925      0.0314917       0.0090799       0.0305753       -0.948722       0.194182       
  4.4e+010        -0.951115       0.180424        0.00998231      0.0314126       0.00968821      0.0312454       -0.949042       0.198578       
  4.5e+010        -0.951647       0.18327         0.0101422       0.0314719       0.0102862       0.031314        -0.948452       0.201801       
  4.6e+010        -0.949365       0.190286        0.0100468       0.0321159       0.0102493       0.0317291       -0.946502       0.207299       
  4.7e+010        -0.948303       0.192611        0.0104777       0.0332698       0.0108587       0.0324504       -0.947552       0.212057       
  4.8e+010        -0.948601       0.197995        0.0115368       0.0328826       0.0109168       0.0333202       -0.946821       0.215927       
  4.9e+010        -0.948076       0.200117        0.0109409       0.0334047       0.0124332       0.0327242       -0.945179       0.219481       
  5e+010          -0.946409       0.207541        0.0114402       0.0338347       0.0110657       0.0324205       -0.944895       0.226874       
  5.1e+010        -0.945064       0.211156        0.0123604       0.0340498       0.0118142       0.0341265       -0.943088       0.23202        
  5.2e+010        -0.944186       0.214924        0.0117594       0.0339198       0.0124661       0.0331381       -0.941296       0.234424       
  5.3e+010        -0.943193       0.218215        0.0109754       0.0353248       0.0107616       0.0339223       -0.940361       0.240122       
  5.4e+010        -0.941115       0.223946        0.0122325       0.0363211       0.0112612       0.035982        -0.938191       0.244927       
  5.5e+010        -0.940509       0.22708         0.0125416       0.036458        0.0131338       0.0364343       -0.937465       0.246782       
  5.6e+010        -0.939179       0.231433        0.0132187       0.0370951       0.0135435       0.0364183       -0.937228       0.251752       
  5.7e+010        -0.938424       0.236862        0.0139234       0.0373313       0.0134106       0.0368916       -0.93473        0.257317       
  5.8e+010        -0.935168       0.240128        0.0146435       0.0370513       0.0155319       0.0358162       -0.932952       0.260482       
  5.9e+010        -0.934602       0.242937        0.0138742       0.036798        0.0138409       0.0353534       -0.930435       0.266251       
  6e+010          -0.932678       0.246773        0.0140331       0.0377174       0.0128977       0.0363446       -0.930552       0.26898        
  6.1e+010        -0.932377       0.249031        0.014102        0.0377799       0.0147921       0.0383419       -0.929461       0.272778       
  6.2e+010        -0.930421       0.252559        0.0141835       0.039336        0.0154607       0.0372151       -0.9263         0.274066       
  6.3e+010        -0.930591       0.257748        0.0158748       0.0391829       0.0148266       0.0376992       -0.926004       0.279          
  6.4e+010        -0.928059       0.25954         0.0161954       0.0389709       0.0155401       0.0385133       -0.92317        0.28421        
  6.5e+010        -0.928675       0.264582        0.0154714       0.0390719       0.0178802       0.0381287       -0.924453       0.285758       
END_DB

