! VERSION = 6.00
!Data measured by ggf on Tue Jan 23 13:00:02 2018 using model file NPN_MEAS_SCALE
BEGIN_HEADER
 ICCAP_INPUTS
  vb         V  B GROUND GND 0 CON        0
  vc         V  C GROUND GND 0 CON        0
  ve         V  E GROUND SMU_E 0 CON        0
  vs         V  S GROUND SMU_S 0 CON        0
  freq       F  LIST       1 74 100000000 200000000 300000000 400000000 500000000 600000000 700000000 800000000 900000000 1000000000 2000000000 3000000000 4000000000 5000000000 6000000000 7000000000 8000000000 9000000000 10000000000 11000000000 12000000000 13000000000 14000000000 15000000000 16000000000 17000000000 18000000000 19000000000 20000000000 21000000000 22000000000 23000000000 24000000000 25000000000 26000000000 27000000000 28000000000 29000000000 30000000000 31000000000 32000000000 33000000000 34000000000 35000000000 36000000000 37000000000 38000000000 39000000000 40000000000 41000000000 42000000000 43000000000 44000000000 45000000000 46000000000 47000000000 48000000000 49000000000 50000000000 51000000000 52000000000 53000000000 54000000000 55000000000 56000000000 57000000000 58000000000 59000000000 60000000000 61000000000 62000000000 63000000000 64000000000 65000000000
 ICCAP_OUTPUTS
  S          S  B C Ground NWA M
 ICCAP_VALUES
  TNOM "27"
  TEMP "27"
  TECHNO "SG13G2"
  LOT "EDJ802"
  WAFER "02"
  CHIP "(3.3)"
  MODULE "S439S"
  DEV_NAME "D11"
  DEV_GEOM_L "5.0"
  DEV_GEOM_W "0.07"
  NUM_OF_TRANS_RF "1"
  REMARKS "Nx=2; Power -30/-20dBm, Slope: 0.1dB/GHz"
  TIMEDATE "Tue Jan 23 12:58:58     2018"
  OPERATOR "ggf"
END_HEADER

BEGIN_DB
 ICCAP_VAR vb         0              
 ICCAP_VAR vc         0              
 ICCAP_VAR ve         0              
 ICCAP_VAR vs         0              

 #freq            R:S(1,1)        I:S(1,1)        R:S(1,2)        I:S(1,2)        R:S(2,1)        I:S(2,1)        R:S(2,2)        I:S(2,2)       
  1e+008          0.999819        -0.000787293    -2.81864e-006   0.000155402     -6.12897e-005   -0.000202019    1.00017         -0.00119167    
  2e+008          1.00021         -0.00164329     4.3849e-006     0.000178183     5.28735e-005    0.000120335     1.00033         -0.00274124    
  3e+008          1.00033         -0.00302216     -3.20992e-005   0.000160058     3.57782e-005    0.000178867     1.00012         -0.00325244    
  4e+008          1.00061         -0.00407577     -1.58755e-005   0.000260709     -3.83936e-005   0.000152368     0.999919        -0.00441502    
  5e+008          1.00059         -0.00569569     7.10385e-006    0.000256149     7.11421e-007    0.000291301     1.00009         -0.00536085    
  6e+008          1.00036         -0.00633535     2.459e-005      0.000342729     -1.43456e-005   0.000347391     1.00018         -0.00646082    
  7e+008          1.00041         -0.00737085     1.85257e-005    0.000355244     -7.91946e-005   0.000363764     1.00004         -0.00760122    
  8e+008          1.00029         -0.00860682     1.21147e-006    0.000433802     1.45392e-005    0.000528718     1.00001         -0.00863758    
  9e+008          1.0004          -0.00944775     -5.39239e-006   0.000496865     2.27554e-005    0.000432937     1.00006         -0.00969921    
  1e+009          1.00032         -0.0107236      9.10835e-007    0.000539358     -5.73046e-005   0.000481858     0.999983        -0.0107409     
  2e+009          1.00015         -0.0212487      4.70569e-005    0.00113268      7.46016e-005    0.0011152       0.99967         -0.0216507     
  3e+009          0.999693        -0.0324867      6.49114e-005    0.00165638      0.000110188     0.00170146      0.999238        -0.0323442     
  4e+009          0.999137        -0.0429825      0.000114381     0.00223942      0.000132272     0.00231209      0.998681        -0.0429685     
  5e+009          0.998336        -0.0536431      0.000164171     0.00280004      0.000186868     0.00271263      0.997864        -0.0537091     
  6e+009          0.997229        -0.0635436      0.00020154      0.00334813      0.000118385     0.00333421      0.997041        -0.0645719     
  7e+009          0.996352        -0.075925       0.000297681     0.00391805      0.000288925     0.00394117      0.996038        -0.0753422     
  8e+009          0.994924        -0.0851939      0.000392073     0.00452742      0.000409485     0.00443629      0.994808        -0.0858718     
  9e+009          0.993862        -0.0961892      0.000556279     0.0050665       0.000482697     0.00510179      0.99337         -0.09667       
  1e+010          0.99237         -0.106925       0.000647868     0.00563913      0.000758965     0.00576011      0.991671        -0.107412      
  1.1e+010        0.990345        -0.117718       0.000827407     0.00624513      0.000906416     0.00622562      0.990237        -0.117893      
  1.2e+010        0.988484        -0.128007       0.00111008      0.00685854      0.00110687      0.00683045      0.988255        -0.128436      
  1.3e+010        0.986325        -0.138385       0.00140066      0.00737809      0.00129715      0.00740306      0.9857          -0.13871       
  1.4e+010        0.983884        -0.148929       0.00170396      0.00789668      0.00164481      0.00786724      0.98342         -0.149188      
  1.5e+010        0.98187         -0.158794       0.00200274      0.00827873      0.00199723      0.008184        0.98121         -0.159352      
  1.6e+010        0.979167        -0.168944       0.00227008      0.00878421      0.0023222       0.00877573      0.978974        -0.169389      
  1.7e+010        0.976549        -0.179233       0.00262159      0.00921639      0.00261418      0.0090847       0.975503        -0.179446      
  1.8e+010        0.973764        -0.189132       0.00300325      0.00951347      0.002839        0.00958274      0.972608        -0.189747      
  1.9e+010        0.970599        -0.199417       0.00328929      0.00990425      0.00332123      0.0100169       0.97033         -0.2006        
  2e+010          0.967432        -0.208761       0.00359456      0.0102599       0.00361493      0.0102254       0.96685         -0.209077      
  2.1e+010        0.963997        -0.218377       0.00391047      0.0104726       0.00387211      0.0105165       0.961282        -0.217299      
  2.2e+010        0.960854        -0.22813        0.00420374      0.0107855       0.00419945      0.0107489       0.956098        -0.228097      
  2.3e+010        0.956903        -0.237721       0.00443342      0.0109452       0.00435796      0.0109068       0.956292        -0.239658      
  2.4e+010        0.954007        -0.247277       0.00456457      0.0112666       0.00448092      0.0113249       0.957393        -0.241713      
  2.5e+010        0.950314        -0.257063       0.00477057      0.0117689       0.00472073      0.0116901       0.966553        -0.235734      
  2.6e+010        0.945795        -0.265965       0.00523777      0.0122608       0.0054986       0.0122812       0.962829        -0.259195      
  2.7e+010        0.942489        -0.275301       0.00564397      0.0122236       0.00570049      0.0121767       0.936929        -0.27381       
  2.8e+010        0.937604        -0.284762       0.00597436      0.0124202       0.00589567      0.012441        0.929064        -0.292654      
  2.9e+010        0.933843        -0.293903       0.00609148      0.0124714       0.00599698      0.012746        0.926128        -0.301627      
  3e+010          0.928593        -0.302487       0.0060494       0.0128224       0.00610995      0.0128502       0.927726        -0.304106      
  3.1e+010        0.924499        -0.311748       0.00647502      0.0133287       0.00627492      0.0133331       0.923957        -0.309494      
  3.2e+010        0.919161        -0.320493       0.00697425      0.0135774       0.00694806      0.0133703       0.916549        -0.318848      
  3.3e+010        0.913813        -0.329665       0.00730771      0.0138546       0.00710626      0.0140574       0.912939        -0.330288      
  3.4e+010        0.907191        -0.338056       0.00769916      0.0140543       0.0081594       0.0138099       0.910342        -0.337105      
  3.5e+010        0.90208         -0.345263       0.00816378      0.0141786       0.00839874      0.0140344       0.90647         -0.343992      
  3.6e+010        0.89715         -0.351948       0.0084748       0.0143625       0.00845585      0.0140096       0.898547        -0.353316      
  3.7e+010        0.891717        -0.359647       0.00890733      0.0144369       0.00903397      0.0141473       0.895465        -0.362378      
  3.8e+010        0.886968        -0.367265       0.0094498       0.0145052       0.00948008      0.0147941       0.891285        -0.370411      
  3.9e+010        0.881812        -0.375481       0.00949193      0.0144457       0.00963934      0.0148046       0.885488        -0.377891      
  4e+010          0.876435        -0.381942       0.00993154      0.0144491       0.00981367      0.0146361       0.880569        -0.386866      
  4.1e+010        0.87188         -0.388172       0.0105424       0.0148005       0.0109183       0.0150146       0.874728        -0.396311      
  4.2e+010        0.865053        -0.396882       0.0115208       0.014841        0.0116416       0.0143148       0.867106        -0.403601      
  4.3e+010        0.861809        -0.403449       0.011864        0.0143089       0.0118562       0.0145118       0.862126        -0.409609      
  4.4e+010        0.854816        -0.409056       0.0117813       0.0142637       0.0121724       0.0147556       0.855999        -0.416954      
  4.5e+010        0.849375        -0.416889       0.0122119       0.0144255       0.0119212       0.0145486       0.850069        -0.426263      
  4.6e+010        0.845046        -0.422883       0.0131382       0.0140993       0.0127735       0.0140129       0.844702        -0.432025      
  4.7e+010        0.839789        -0.430762       0.0136019       0.0137275       0.0134174       0.0133781       0.837038        -0.437911      
  4.8e+010        0.833974        -0.43621        0.0136245       0.0133657       0.0139577       0.0134232       0.831144        -0.446541      
  4.9e+010        0.829247        -0.445376       0.013932        0.0129874       0.014097        0.0131959       0.82612         -0.452086      
  5e+010          0.824067        -0.448382       0.0141589       0.0129281       0.0141377       0.0131383       0.819935        -0.457639      
  5.1e+010        0.819185        -0.455228       0.0141672       0.0123669       0.0145435       0.0129634       0.81423         -0.463738      
  5.2e+010        0.812563        -0.461388       0.0141636       0.0115704       0.0146436       0.0110887       0.808294        -0.47204       
  5.3e+010        0.809185        -0.469351       0.0150158       0.0120862       0.0147843       0.0122341       0.803289        -0.477239      
  5.4e+010        0.804278        -0.474285       0.015111        0.0112169       0.0155321       0.0116937       0.796713        -0.483443      
  5.5e+010        0.796817        -0.479586       0.0155482       0.0106359       0.0160136       0.0108356       0.78835         -0.489508      
  5.6e+010        0.795988        -0.48574        0.0137091       0.00907208      0.0138157       0.00866239      0.784622        -0.490786      
  5.7e+010        0.790022        -0.492574       0.0128447       0.0103786       0.0127459       0.0108215       0.78346         -0.496406      
  5.8e+010        0.78808         -0.50245        0.012902        0.0123789       0.0129071       0.0118892       0.780345        -0.506196      
  5.9e+010        0.780756        -0.510415       0.0147457       0.0129617       0.0140252       0.0130824       0.775161        -0.512126      
  6e+010          0.777177        -0.517399       0.0160229       0.0121093       0.0160466       0.0127925       0.768798        -0.519639      
  6.1e+010        0.77053         -0.526487       0.0156181       0.0119594       0.0164127       0.0112077       0.763497        -0.527045      
  6.2e+010        0.7652          -0.533102       0.017471        0.0121615       0.0168436       0.0119452       0.760824        -0.537565      
  6.3e+010        0.758747        -0.540012       0.0182852       0.0114637       0.0184          0.0117061       0.752957        -0.543406      
  6.4e+010        0.755338        -0.551052       0.0199265       0.0109415       0.02041         0.0109365       0.75121         -0.548309      
  6.5e+010        0.743851        -0.5551         0.0195818       0.00907866      0.0195635       0.00863087      0.743032        -0.561583      
END_DB

