! VERSION = 6.00
!Data measured by ggf on Tue Jan 23 13:17:38 2018 using model file NPN_MEAS_SCALE
BEGIN_HEADER
 ICCAP_INPUTS
  ve         V  E GROUND SMU_E 0.2 CON        0
  vc         V  C GROUND SMU_C 0.2 LIN        2    0.5        2          4    0.5       
  vs         V  S GROUND SMU_S 0.015 CON        0
  vb         V  B GROUND SMU_B 0.015 LIN        1    0.4        1.04       33   0.02      
 ICCAP_OUTPUTS
  ib         I  B GROUND SMU_B M
  ic         I  C GROUND SMU_C M
 ICCAP_VALUES
  TNOM "27"
  TEMP "27"
  TECHNO "SG13G2"
  LOT "EDJ802"
  WAFER "02"
  CHIP "(3.3)"
  MODULE "S439S"
  DEV_NAME "D11"
  DEV_GEOM_L "5.0"
  DEV_GEOM_W "0.07"
  NUM_OF_TRANS_RF "1"
  REMARKS "Nx=2; Power -30/-20dBm, Slope: 0.1dB/GHz"
  TIMEDATE "Tue Jan 23 12:58:58     2018"
  OPERATOR "ggf"
END_HEADER

BEGIN_DB
 ICCAP_VAR ve         0              
 ICCAP_VAR vc         0.5            
 ICCAP_VAR vs         0              

 #vb              ib              ic             
  0.4             1.5962e-010     2.57e-009      
  0.42            9.202e-011      2.3606e-009    
  0.44            6.732e-011      2.6028e-009    
  0.46            6.35e-011       3.9672e-009    
  0.48            6.628e-011      7.45e-009      
  0.5             6.988e-011      1.41e-008      
  0.52            1.079e-010      3.0656e-008    
  0.54            1.7852e-010     6.5392e-008    
  0.56            3.022e-010      1.4052e-007    
  0.58            5.6736e-010     3.005e-007     
  0.6             1.0974e-009     6.439e-007     
  0.62            2.1838e-009     1.3856e-006    
  0.64            4.4352e-009     2.9662e-006    
  0.66            9.1214e-009     6.3358e-006    
  0.68            1.8944e-008     1.356e-005     
  0.7             3.938e-008      2.8812e-005    
  0.72            8.2322e-008     6.1132e-005    
  0.74            1.7114e-007     0.00012842     
  0.76            3.5298e-007     0.00026652     
  0.78            7.1876e-007     0.00054308     
  0.8             1.4158e-006     0.00106592     
  0.82            2.682e-006      0.0019974      
  0.84            4.8024e-006     0.0034884      
  0.86            8.1146e-006     0.0056228      
  0.88            1.3066e-005     0.0083978      
  0.9             2.0232e-005     0.011714       
  0.92            3.0672e-005     0.015542       
  0.94            4.5562e-005     0.019776       
  0.96            6.7304e-005     0.024352       
  0.98            0.000102154     0.028696       
  1               0.0001767       0.031862       
  1.02            0.00031836      0.034298       
  1.04            0.00054774      0.036836       
END_DB

BEGIN_DB
 ICCAP_VAR ve         0              
 ICCAP_VAR vc         1              
 ICCAP_VAR vs         0              

 #vb              ib              ic             
  0.4             -2.707e-010     2.6966e-009    
  0.42            -2.3988e-010    2.4964e-009    
  0.44            -2.1404e-010    2.7058e-009    
  0.46            -1.8874e-010    4.114e-009     
  0.48            -1.626e-010     7.6682e-009    
  0.5             -1.3728e-010    1.4276e-008    
  0.52            -9.106e-011     3.0834e-008    
  0.54            -2.272e-011     6.5586e-008    
  0.56            1.0146e-010     1.405e-007     
  0.58            3.4858e-010     3.0062e-007    
  0.6             8.4632e-010     6.4376e-007    
  0.62            1.8642e-009     1.3852e-006    
  0.64            4.0092e-009     2.9642e-006    
  0.66            8.5056e-009     6.3378e-006    
  0.68            1.7988e-008     1.3564e-005    
  0.7             3.788e-008      2.8862e-005    
  0.72            7.9808e-008     6.1334e-005    
  0.74            1.6734e-007     0.00012916     
  0.76            3.4838e-007     0.00026932     
  0.78            7.18e-007       0.00055328     
  0.8             1.4426e-006     0.00110004     
  0.82            2.8204e-006     0.0021012      
  0.84            5.2674e-006     0.0037556      
  0.86            9.4006e-006     0.0062028      
  0.88            1.6194e-005     0.0094754      
  0.9             2.7036e-005     0.013486       
  0.92            4.4358e-005     0.018236       
  0.94            7.1142e-005     0.023616       
  0.96            0.000111954     0.029646       
  0.98            0.00017106      0.036168       
  1               0.00025472      0.043134       
  1.02            0.00036626      0.049826       
  1.04            0.00052816      0.055272       
END_DB

BEGIN_DB
 ICCAP_VAR ve         0              
 ICCAP_VAR vc         1.5            
 ICCAP_VAR vs         0              

 #vb              ib              ic             
  0.4             -1.6476e-009    3.8618e-009    
  0.42            -1.5426e-009    3.5504e-009    
  0.44            -1.4368e-009    3.6742e-009    
  0.46            -1.3534e-009    4.8854e-009    
  0.48            -1.263e-009     7.991e-009     
  0.5             -1.2066e-009    1.5418e-008    
  0.52            -1.111e-009     3.183e-008     
  0.54            -1.05304e-009   6.632e-008     
  0.56            -1.0029e-009    1.416e-007     
  0.58            -9.4966e-010    3.0152e-007    
  0.6             -8.6904e-010    6.4452e-007    
  0.62            -7.0388e-010    1.386e-006     
  0.64            -2.4846e-010    2.9638e-006    
  0.66            9.808e-010      6.337e-006     
  0.68            4.2652e-009     1.3564e-005    
  0.7             1.2536e-008     2.8864e-005    
  0.72            3.2608e-008     6.1428e-005    
  0.74            8.0798e-008     0.00012974     
  0.76            1.9192e-007     0.00027156     
  0.78            4.4544e-007     0.00056234     
  0.8             1.00314e-006    0.0011348      
  0.82            2.2072e-006     0.0022138      
  0.84            4.7038e-006     0.0040732      
  0.86            9.7256e-006     0.0069476      
  0.88            1.958e-005      0.0109654      
  0.9             3.8288e-005     0.016124       
  0.92            7.3192e-005     0.022516       
  0.94            0.00013508      0.030086       
  0.96            0.00024042      0.038866       
  0.98            0.00040612      0.048498       
  1               0.0006467       0.058456       
  1.02            0.00095594      0.067044       
  1.04            0.0013624       0.074134       
END_DB

BEGIN_DB
 ICCAP_VAR ve         0              
 ICCAP_VAR vc         2              
 ICCAP_VAR vs         0              

 #vb              ib              ic             
  0.4             -6.5814e-009    9.522e-009     
  0.42            -6.2548e-009    1.0278e-008    
  0.44            -6.0002e-009    1.029e-008     
  0.46            -5.696e-009     9.238e-009     
  0.48            -5.516e-009     1.2502e-008    
  0.5             -5.355e-009     1.9762e-008    
  0.52            -5.3336e-009    3.5932e-008    
  0.54            -5.5992e-009    7.0952e-008    
  0.56            -6.3948e-009    1.4678e-007    
  0.58            -8.204e-009     3.0842e-007    
  0.6             -1.1978e-008    6.5458e-007    
  0.62            -1.9718e-008    1.4018e-006    
  0.64            -3.5034e-008    2.994e-006     
  0.66            -6.5128e-008    6.392e-006     
  0.68            -1.2444e-007    1.3684e-005    
  0.7             -2.3876e-007    2.9106e-005    
  0.72            -4.596e-007     6.1972e-005    
  0.74            -8.8044e-007    0.00013112     
  0.76            -1.6702e-006    0.0002758      
  0.78            -3.1302e-006    0.00057638     
  0.8             -5.6922e-006    0.0011824      
  0.82            -9.886e-006     0.0023726      
  0.84            -1.5504e-005    0.004542       
  0.86            -2.0072e-005    0.0081474      
  0.88            -1.567e-005     0.013634       
  0.9             1.6768e-005     0.021462       
  0.92            0.00012366      0.0325         
  0.94            0.00039934      0.04716        
  0.96            0.00093982      0.0636         
  0.98            0.0016346       0.076298       
  1               0.0024766       0.086218       
  1.02            0.0034786       0.094806       
  1.04            0.0046328       0.102472       
END_DB

