! VERSION = 6.00
!Data measured by ggf on Tue Jan 23 13:17:38 2018 using model file NPN_MEAS_SCALE
BEGIN_HEADER
 ICCAP_INPUTS
  vc         V  C GROUND SMU_C 0.2 LIN        1    0          2          81   0.025     
  ve         V  E GROUND SMU_E 0.2 CON        0
  vs         V  S GROUND SMU_S 0.015 CON        0
  vb         V  B GROUND SMU_B 0.015 LIN        2    0.6        1          9    0.05      
 ICCAP_OUTPUTS
  ic         I  C DEFAULT SMU_C M
  ib         I  B GROUND SMU_B M
 ICCAP_VALUES
  TNOM "27"
  TEMP "27"
  TECHNO "SG13G2"
  LOT "EDJ802"
  WAFER "02"
  CHIP "(3.3)"
  MODULE "S439S"
  DEV_NAME "D11"
  DEV_GEOM_L "5.0"
  DEV_GEOM_W "0.07"
  NUM_OF_TRANS_RF "1"
  REMARKS "Nx=2; Power -30/-20dBm, Slope: 0.1dB/GHz"
  TIMEDATE "Tue Jan 23 12:58:58     2018"
  OPERATOR "ggf"
END_HEADER

BEGIN_DB
 ICCAP_VAR ve         0              
 ICCAP_VAR vs         0              
 ICCAP_VAR vb         0.6            

 #vc              ic              ib             
  0               -2.4568e-006    1.4428e-007    
  0.025           -5.9062e-007    9.617e-008     
  0.05            1.4138e-007     6.6018e-008    
  0.075           4.3204e-007     4.6508e-008    
  0.1             5.4896e-007     3.3168e-008    
  0.125           5.9806e-007     2.3788e-008    
  0.15            6.1978e-007     1.7192e-008    
  0.175           6.3054e-007     1.2448e-008    
  0.2             6.364e-007      9.062e-009     
  0.225           6.3978e-007     6.6798e-009    
  0.25            6.4194e-007     5.0012e-009    
  0.275           6.4334e-007     3.8204e-009    
  0.3             6.4444e-007     2.9914e-009    
  0.325           6.45e-007       2.396e-009     
  0.35            6.456e-007      1.9756e-009    
  0.375           6.4606e-007     1.665e-009     
  0.4             6.463e-007      1.4626e-009    
  0.425           6.4652e-007     1.312e-009     
  0.45            6.4676e-007     1.2108e-009    
  0.475           6.468e-007      1.1394e-009    
  0.5             6.469e-007      1.093e-009     
  0.525           6.4698e-007     1.0574e-009    
  0.55            6.4722e-007     1.0334e-009    
  0.575           6.4712e-007     1.022e-009     
  0.6             6.471e-007      1.009e-009     
  0.625           6.473e-007      1.00408e-009   
  0.65            6.4738e-007     1.00128e-009   
  0.675           6.475e-007      9.9454e-010    
  0.7             6.4748e-007     9.8704e-010    
  0.725           6.4754e-007     9.852e-010     
  0.75            6.4746e-007     9.7494e-010    
  0.775           6.4762e-007     9.7082e-010    
  0.8             6.4768e-007     9.6258e-010    
  0.825           6.475e-007      9.535e-010     
  0.85            6.4756e-007     9.4678e-010    
  0.875           6.4746e-007     9.3678e-010    
  0.9             6.474e-007      9.278e-010     
  0.925           6.4754e-007     9.1398e-010    
  0.95            6.476e-007      9e-010         
  0.975           6.4746e-007     8.8516e-010    
  1               6.4742e-007     8.6822e-010    
  1.025           6.4738e-007     8.4822e-010    
  1.05            6.4742e-007     8.2456e-010    
  1.075           6.4754e-007     7.984e-010     
  1.1             6.4724e-007     7.682e-010     
  1.125           6.473e-007      7.313e-010     
  1.15            6.474e-007      6.8976e-010    
  1.175           6.4722e-007     6.4028e-010    
  1.2             6.4726e-007     5.851e-010     
  1.225           6.472e-007      5.242e-010     
  1.25            6.4732e-007     4.545e-010     
  1.275           6.4744e-007     3.7806e-010    
  1.3             6.4746e-007     2.9308e-010    
  1.325           6.4718e-007     1.901e-010     
  1.35            6.4728e-007     8.374e-011     
  1.375           6.475e-007      -3.8e-011      
  1.4             6.476e-007      -1.7502e-010   
  1.425           6.4762e-007     -3.246e-010    
  1.45            6.4786e-007     -4.9106e-010   
  1.475           6.4788e-007     -6.7322e-010   
  1.5             6.4804e-007     -8.7328e-010   
  1.525           6.4816e-007     -1.09436e-009  
  1.55            6.4796e-007     -1.3376e-009   
  1.575           6.4842e-007     -1.5966e-009   
  1.6             6.487e-007      -1.8888e-009   
  1.625           6.4928e-007     -2.1938e-009   
  1.65            6.4942e-007     -2.548e-009    
  1.675           6.498e-007      -2.921e-009    
  1.7             6.502e-007      -3.333e-009    
  1.725           6.5052e-007     -3.7772e-009   
  1.75            6.509e-007      -4.2658e-009   
  1.775           6.5148e-007     -4.792e-009    
  1.8             6.521e-007      -5.3644e-009   
  1.825           6.5254e-007     -5.9778e-009   
  1.85            6.5326e-007     -6.6724e-009   
  1.875           6.5402e-007     -7.4264e-009   
  1.9             6.546e-007      -8.2088e-009   
  1.925           6.5546e-007     -9.076e-009    
  1.95            6.5632e-007     -1.00266e-008  
  1.975           6.5752e-007     -1.10614e-008  
  2               6.5842e-007     -1.2124e-008   
END_DB

BEGIN_DB
 ICCAP_VAR ve         0              
 ICCAP_VAR vs         0              
 ICCAP_VAR vb         0.65           

 #vc              ic              ib             
  0               -1.404e-005     3.9894e-007    
  0.025           -3.2488e-006    2.3648e-007    
  0.05            1.2946e-006     1.4958e-007    
  0.075           3.1242e-006     1.0108e-007    
  0.1             3.8446e-006     7.0882e-008    
  0.125           4.1316e-006     5.1382e-008    
  0.15            4.2472e-006     3.8416e-008    
  0.175           4.2978e-006     2.9092e-008    
  0.2             4.3202e-006     2.2362e-008    
  0.225           4.333e-006      1.7554e-008    
  0.25            4.3386e-006     1.4238e-008    
  0.275           4.3432e-006     1.1852e-008    
  0.3             4.3448e-006     1.0174e-008    
  0.325           4.3486e-006     8.9904e-009    
  0.35            4.35e-006       8.1696e-009    
  0.375           4.3506e-006     7.5892e-009    
  0.4             4.3526e-006     7.157e-009     
  0.425           4.3542e-006     6.8564e-009    
  0.45            4.3542e-006     6.6216e-009    
  0.475           4.3548e-006     6.4916e-009    
  0.5             4.3564e-006     6.3846e-009    
  0.525           4.3568e-006     6.3052e-009    
  0.55            4.3572e-006     6.259e-009     
  0.575           4.3576e-006     6.2184e-009    
  0.6             4.3574e-006     6.189e-009     
  0.625           4.3568e-006     6.1712e-009    
  0.65            4.3576e-006     6.1504e-009    
  0.675           4.3574e-006     6.1494e-009    
  0.7             4.3584e-006     6.1306e-009    
  0.725           4.358e-006      6.1204e-009    
  0.75            4.3576e-006     6.1098e-009    
  0.775           4.3582e-006     6.0992e-009    
  0.8             4.3582e-006     6.0864e-009    
  0.825           4.3576e-006     6.0662e-009    
  0.85            4.358e-006      6.0666e-009    
  0.875           4.3574e-006     6.0462e-009    
  0.9             4.358e-006      6.035e-009     
  0.925           4.3582e-006     6.0144e-009    
  0.95            4.3584e-006     5.9946e-009    
  0.975           4.3582e-006     5.9698e-009    
  1               4.357e-006      5.9352e-009    
  1.025           4.3576e-006     5.8954e-009    
  1.05            4.3568e-006     5.8462e-009    
  1.075           4.357e-006      5.791e-009     
  1.1             4.3578e-006     5.7224e-009    
  1.125           4.3566e-006     5.6372e-009    
  1.15            4.3578e-006     5.5356e-009    
  1.175           4.356e-006      5.4144e-009    
  1.2             4.3548e-006     5.2718e-009    
  1.225           4.3558e-006     5.0952e-009    
  1.25            4.3568e-006     4.8926e-009    
  1.275           4.3552e-006     4.6528e-009    
  1.3             4.3558e-006     4.3866e-009    
  1.325           4.3544e-006     4.0654e-009    
  1.35            4.3558e-006     3.699e-009     
  1.375           4.3556e-006     3.2824e-009    
  1.4             4.3562e-006     2.8146e-009    
  1.425           4.355e-006      2.2852e-009    
  1.45            4.356e-006      1.6868e-009    
  1.475           4.3574e-006     1.02576e-009   
  1.5             4.3582e-006     2.822e-010     
  1.525           4.3576e-006     -5.5238e-010   
  1.55            4.3518e-006     -1.4758e-009   
  1.575           4.3562e-006     -2.4986e-009   
  1.6             4.358e-006      -3.6218e-009   
  1.625           4.3594e-006     -4.8678e-009   
  1.65            4.3596e-006     -6.2512e-009   
  1.675           4.3614e-006     -7.768e-009    
  1.7             4.3626e-006     -9.4318e-009   
  1.725           4.3636e-006     -1.12708e-008  
  1.75            4.3614e-006     -1.328e-008    
  1.775           4.3688e-006     -1.5534e-008   
  1.8             4.3708e-006     -1.795e-008    
  1.825           4.3724e-006     -2.0628e-008   
  1.85            4.3766e-006     -2.357e-008    
  1.875           4.379e-006      -2.6742e-008   
  1.9             4.3814e-006     -3.0272e-008   
  1.925           4.3856e-006     -3.4084e-008   
  1.95            4.3896e-006     -3.8258e-008   
  1.975           4.393e-006      -4.2834e-008   
  2               4.397e-006      -4.779e-008    
END_DB

BEGIN_DB
 ICCAP_VAR ve         0              
 ICCAP_VAR vs         0              
 ICCAP_VAR vb         0.7            

 #vc              ic              ib             
  0               -5.689e-005     1.303e-006     
  0.025           -1.2072e-005    7.438e-007     
  0.05            1.0796e-005     4.3404e-007    
  0.075           2.1326e-005     2.7054e-007    
  0.1             2.5764e-005     1.8286e-007    
  0.125           2.7564e-005     1.3436e-007    
  0.15            2.8284e-005     1.0404e-007    
  0.175           2.8578e-005     8.4804e-008    
  0.2             2.871e-005      7.1248e-008    
  0.225           2.8766e-005     6.1878e-008    
  0.25            2.881e-005      5.532e-008     
  0.275           2.882e-005      5.0566e-008    
  0.3             2.8836e-005     4.7206e-008    
  0.325           2.8856e-005     4.4794e-008    
  0.35            2.8862e-005     4.3118e-008    
  0.375           2.887e-005      4.1948e-008    
  0.4             2.8878e-005     4.114e-008     
  0.425           2.8882e-005     4.0552e-008    
  0.45            2.8894e-005     4.0094e-008    
  0.475           2.8896e-005     3.9794e-008    
  0.5             2.8898e-005     3.949e-008     
  0.525           2.891e-005      3.929e-008     
  0.55            2.8914e-005     3.9192e-008    
  0.575           2.8914e-005     3.9082e-008    
  0.6             2.892e-005      3.9072e-008    
  0.625           2.8922e-005     3.8948e-008    
  0.65            2.8928e-005     3.8876e-008    
  0.675           2.8936e-005     3.8824e-008    
  0.7             2.893e-005      3.8756e-008    
  0.725           2.8936e-005     3.8696e-008    
  0.75            2.8936e-005     3.8698e-008    
  0.775           2.8936e-005     3.8666e-008    
  0.8             2.8936e-005     3.862e-008     
  0.825           2.894e-005      3.861e-008     
  0.85            2.8944e-005     3.8592e-008    
  0.875           2.8946e-005     3.8484e-008    
  0.9             2.8948e-005     3.8444e-008    
  0.925           2.895e-005      3.8364e-008    
  0.95            2.8952e-005     3.8314e-008    
  0.975           2.895e-005      3.8312e-008    
  1               2.8954e-005     3.823e-008     
  1.025           2.8954e-005     3.8122e-008    
  1.05            2.8956e-005     3.8002e-008    
  1.075           2.8958e-005     3.7796e-008    
  1.1             2.895e-005      3.7574e-008    
  1.125           2.8956e-005     3.7278e-008    
  1.15            2.8954e-005     3.6926e-008    
  1.175           2.8956e-005     3.6484e-008    
  1.2             2.8958e-005     3.59e-008      
  1.225           2.895e-005      3.5148e-008    
  1.25            2.8952e-005     3.4308e-008    
  1.275           2.8952e-005     3.3336e-008    
  1.3             2.896e-005      3.2154e-008    
  1.325           2.896e-005      3.073e-008     
  1.35            2.896e-005      2.9104e-008    
  1.375           2.8962e-005     2.7176e-008    
  1.4             2.896e-005      2.5006e-008    
  1.425           2.8966e-005     2.2492e-008    
  1.45            2.8964e-005     1.9616e-008    
  1.475           2.8964e-005     1.6352e-008    
  1.5             2.8968e-005     1.2692e-008    
  1.525           2.8964e-005     8.5842e-009    
  1.55            2.897e-005      3.9312e-009    
  1.575           2.8968e-005     -1.1728e-009   
  1.6             2.8972e-005     -6.8554e-009   
  1.625           2.898e-005      -1.323e-008    
  1.65            2.8992e-005     -2.027e-008    
  1.675           2.8996e-005     -2.8022e-008   
  1.7             2.9006e-005     -3.6638e-008   
  1.725           2.9012e-005     -4.611e-008    
  1.75            2.9028e-005     -5.6548e-008   
  1.775           2.9028e-005     -6.8164e-008   
  1.8             2.904e-005      -8.09e-008     
  1.825           2.9046e-005     -9.4892e-008   
  1.85            2.9074e-005     -1.10294e-007  
  1.875           2.9084e-005     -1.271e-007    
  1.9             2.9106e-005     -1.455e-007    
  1.925           2.9122e-005     -1.6604e-007   
  1.95            2.9144e-005     -1.8826e-007   
  1.975           2.917e-005      -2.1268e-007   
  2               2.9198e-005     -2.3926e-007   
END_DB

BEGIN_DB
 ICCAP_VAR ve         0              
 ICCAP_VAR vs         0              
 ICCAP_VAR vb         0.75           

 #vc              ic              ib             
  0               -0.00011832     4.261e-006     
  0.025           2.038e-005      2.561e-006     
  0.05            9.9378e-005     1.5586e-006    
  0.075           0.00014346      9.7654e-007    
  0.1             0.00016612      6.5406e-007    
  0.125           0.00017658      4.8396e-007    
  0.15            0.0001812       3.946e-007     
  0.175           0.00018312      3.4372e-007    
  0.2             0.00018402      3.131e-007     
  0.225           0.00018442      2.9226e-007    
  0.25            0.00018472      2.7878e-007    
  0.275           0.000185        2.695e-007     
  0.3             0.0001851       2.6226e-007    
  0.325           0.0001852       2.5734e-007    
  0.35            0.00018534      2.5408e-007    
  0.375           0.00018542      2.517e-007     
  0.4             0.0001856       2.4986e-007    
  0.425           0.00018566      2.4758e-007    
  0.45            0.00018578      2.4682e-007    
  0.475           0.00018586      2.4708e-007    
  0.5             0.00018588      2.467e-007     
  0.525           0.0001861       2.4582e-007    
  0.55            0.00018616      2.458e-007     
  0.575           0.00018622      2.4486e-007    
  0.6             0.00018628      2.4538e-007    
  0.625           0.00018636      2.4486e-007    
  0.65            0.00018642      2.4492e-007    
  0.675           0.00018654      2.4476e-007    
  0.7             0.00018664      2.443e-007     
  0.725           0.00018668      2.4444e-007    
  0.75            0.00018678      2.4378e-007    
  0.775           0.00018684      2.4446e-007    
  0.8             0.00018692      2.4438e-007    
  0.825           0.00018692      2.4412e-007    
  0.85            0.00018706      2.4406e-007    
  0.875           0.00018708      2.4422e-007    
  0.9             0.00018716      2.4364e-007    
  0.925           0.0001872       2.4384e-007    
  0.95            0.00018724      2.4362e-007    
  0.975           0.00018732      2.4344e-007    
  1               0.00018738      2.4322e-007    
  1.025           0.00018742      2.43e-007      
  1.05            0.00018754      2.4276e-007    
  1.075           0.00018754      2.42e-007      
  1.1             0.00018762      2.417e-007     
  1.125           0.00018772      2.4028e-007    
  1.15            0.0001877       2.3876e-007    
  1.175           0.00018786      2.3732e-007    
  1.2             0.00018782      2.3462e-007    
  1.225           0.00018792      2.3236e-007    
  1.25            0.00018796      2.2886e-007    
  1.275           0.00018798      2.2476e-007    
  1.3             0.000188        2.1932e-007    
  1.325           0.00018812      2.1308e-007    
  1.35            0.00018814      2.055e-007     
  1.375           0.00018816      1.9668e-007    
  1.4             0.00018828      1.8626e-007    
  1.425           0.00018832      1.742e-007     
  1.45            0.0001884       1.6004e-007    
  1.475           0.00018844      1.439e-007     
  1.5             0.00018848      1.2572e-007    
  1.525           0.00018854      1.0516e-007    
  1.55            0.00018862      8.1694e-008    
  1.575           0.00018872      5.5048e-008    
  1.6             0.0001888       2.5886e-008    
  1.625           0.00018888      -7.028e-009    
  1.65            0.00018896      -4.3988e-008   
  1.675           0.00018906      -8.4618e-008   
  1.7             0.00018908      -1.3074e-007   
  1.725           0.00018924      -1.8072e-007   
  1.75            0.0001893       -2.354e-007    
  1.775           0.00018942      -2.9684e-007   
  1.8             0.00018948      -3.646e-007    
  1.825           0.00018966      -4.3928e-007   
  1.85            0.00018978      -5.2176e-007   
  1.875           0.0001899       -6.1188e-007   
  1.9             0.00019006      -7.1154e-007   
  1.925           0.0001902       -8.2124e-007   
  1.95            0.00019044      -9.416e-007    
  1.975           0.0001906       -1.07364e-006  
  2               0.0001909       -1.2178e-006   
END_DB

BEGIN_DB
 ICCAP_VAR ve         0              
 ICCAP_VAR vs         0              
 ICCAP_VAR vb         0.8            

 #vc              ic              ib             
  0               -8.4456e-005    1.7218e-005    
  0.025           0.00044592      9.8654e-006    
  0.05            0.00071666      6.1424e-006    
  0.075           0.0008628       4.114e-006     
  0.1             0.0009468       2.933e-006     
  0.125           0.00099486      2.2446e-006    
  0.15            0.00102124      1.866e-006     
  0.175           0.00103438      1.6628e-006    
  0.2             0.00104174      1.5574e-006    
  0.225           0.00104622      1.5026e-006    
  0.25            0.0010492       1.4686e-006    
  0.275           0.00105182      1.4464e-006    
  0.3             0.00105382      1.4326e-006    
  0.325           0.00105582      1.4238e-006    
  0.35            0.00105808      1.417e-006     
  0.375           0.00105968      1.4126e-006    
  0.4             0.00106166      1.412e-006     
  0.425           0.00106342      1.4084e-006    
  0.45            0.0010653       1.411e-006     
  0.475           0.00106722      1.4122e-006    
  0.5             0.00106888      1.4092e-006    
  0.525           0.00107076      1.4114e-006    
  0.55            0.00107244      1.4112e-006    
  0.575           0.0010744       1.4116e-006    
  0.6             0.00107604      1.415e-006     
  0.625           0.0010778       1.4162e-006    
  0.65            0.00107948      1.4166e-006    
  0.675           0.00108114      1.418e-006     
  0.7             0.00108272      1.4216e-006    
  0.725           0.0010845       1.423e-006     
  0.75            0.00108636      1.4292e-006    
  0.775           0.00108798      1.4282e-006    
  0.8             0.00108982      1.4288e-006    
