! VERSION = 6.00
BEGIN_HEADER
 ICCAP_INPUTS
  vc         V  C GROUND SMU_C 0.1 SYNC       1 0.25 vb
  vb         V  B GROUND SMU_B 0.015 LIN        1    0.68       1.04       37   0.01      
  ve         V  E GROUND SMU_E 0 CON        0
  vs         V  S GROUND SMU_S 0 CON        0
  freq       F  CON        30000000000
 ICCAP_OUTPUTS
  ic         I  C GROUND SMU_C B
  S_deemb    S  B C GROUND n/a B
  ft         U
  ft_fit_qual U
  Fmax       U
  mag_s21    U
  ph_s21     U
  err_m_s21  U
  err_p_s21  U
END_HEADER

BEGIN_DB
 ICCAP_VAR ve         0              
 ICCAP_VAR vs         0              
 ICCAP_VAR freq       3e+010         

 #vb              vc              ic              R:S_deemb(1,1)  I:S_deemb(1,1)  R:S_deemb(1,2)  I:S_deemb(1,2)  R:S_deemb(2,1)  I:S_deemb(2,1)  R:S_deemb(2,2)  I:S_deemb(2,2)  R:ft(1,1)       I:ft(1,1)       R:ft_fit_qual(1,1) I:ft_fit_qual(1,1) R:Fmax(1,1)     I:Fmax(1,1)     R:mag_s21(1,1)  I:mag_s21(1,1)  R:ph_s21(1,1)   I:ph_s21(1,1)   R:err_m_s21(1,1) I:err_m_s21(1,1) R:err_p_s21(1,1) I:err_p_s21(1,1)
  0.68            0.93            1.357e-005      0.626072        -0.656355       0.173836        0.231427        0.134537        0.262004        0.858362        -0.357808       1.20568e+010    0               0.36829         0               1.85582e+010    0               0.294527        0               1.09641         0               19.0576         0               -8.73316        0              
  0.69            0.94            1.978e-005      0.618978        -0.660736       0.174359        0.229995        0.118559        0.27498         0.855587        -0.359874       1.21989e+010    0               0.811652        0               2.40494e+010    0               0.29945         0               1.16372         0               18.9225         0               -7.75968        0              
  0.7             0.95            2.885e-005      0.610492        -0.666242       0.174908        0.228146        0.0957929       0.294012        0.851795        -0.363027       1.25317e+010    0               1.14693         0               3.08033e+010    0               0.309224        0               1.25583         0               18.8818         0               -6.65146        0              
  0.71            0.96            4.199e-005      0.598605        -0.673352       0.175613        0.225919        0.0634739       0.321383        0.846013        -0.367337       1.31935e+010    0               1.46535         0               3.87385e+010    0               0.327591        0               1.3758          0               18.912          0               -5.54569        0              
  0.72            0.97            6.1344e-005     0.583496        -0.681891       0.17648         0.223024        0.0172381       0.362143        0.837644        -0.373651       1.45153e+010    0               1.19739         0               4.83486e+010    0               0.362553        0               1.52323         0               19.3492         0               -4.44983        0              
  0.73            0.98            8.921e-005      0.563268        -0.692279       0.177483        0.219109        -0.0465823      0.420953        0.825634        -0.382506       1.68538e+010    0               0.675393        0               5.95061e+010    0               0.423523        0               1.68101         0               19.9519         0               -3.84805        0              
  0.74            0.99            0.00012868      0.536435        -0.704803       0.178502        0.21388         -0.133341       0.504894        0.808458        -0.394172       2.06621e+010    0               0.295678        0               7.2328e+010     0               0.522205        0               1.829           0               20.3552         0               -3.74647        0              
  0.75            1               0.00018742      0.501273        -0.719747       0.179577        0.207122        -0.248028       0.624533        0.784204        -0.409625       2.64549e+010    0               0.280917        0               8.72991e+010    0               0.671982        0               1.94884         0               20.3504         0               -4.05916        0              
  0.76            1.01            0.00026862      0.454747        -0.73647        0.180536        0.198387        -0.396221       0.791489        0.750635        -0.428891       3.47231e+010    0               0.747101        0               1.04366e+011    0               0.885125        0               2.03493         0               19.7738         0               -4.49876        0              
  0.77            1.02            0.00038672      0.395023        -0.754136       0.181187        0.187274        -0.580851       1.02204         0.704926        -0.452315       4.60857e+010    0               1.22894         0               1.23783e+011    0               1.17557         0               2.0876          0               18.88           0               -4.97503        0              
  0.78            1.03            0.00055726      0.32139         -0.770319       0.180616        0.173808        -0.793106       1.32548         0.645479        -0.477686       6.07656e+010    0               1.99574         0               1.46329e+011    0               1.54464         0               2.11            0               17.3502         0               -5.5102         0              
  0.79            1.04            0.00078684      0.232233        -0.782085       0.178807        0.157874        -1.02196        1.71336         0.570809        -0.503008       7.91247e+010    0               2.50093         0               1.71114e+011    0               1.99499         0               2.10861         0               15.604          0               -6.04022        0              
  0.8             1.05            0.0011026       0.131731        -0.785548       0.174932        0.140186        -1.24564        2.18257         0.482282        -0.524708       1.01187e+011    0               2.46708         0               1.98446e+011    0               2.51301         0               2.08941         0               13.7309         0               -6.53702        0              
  0.81            1.06            0.0015404       0.0238991       -0.777586       0.168923        0.121928        -1.44075        2.71807         0.383702        -0.539166       1.26698e+011    0               1.65651         0               2.27949e+011    0               3.07631         0               2.0582          0               11.9634         0               -6.97759        0              
  0.82            1.07            0.0021174       -0.0837229      -0.75808        0.160994        0.104198        -1.59116        3.28736         0.280768        -0.543928       1.54995e+011    0               0.0432016       0               2.57573e+011    0               3.65219         0               2.02158         0               10.4179         0               -7.28812        0              
  0.83            1.08            0.0028688       -0.182133       -0.72853        0.151833        0.0883873       -1.67888        3.84302         0.182387        -0.539304       1.84262e+011    0               -1.79436        0               2.86381e+011    0               4.19374         0               1.98267         0               8.8667          0               -7.54525        0              
  0.84            1.09            0.0038068       -0.266683       -0.694733       0.142343        0.0753812       -1.71492        4.34881         0.0943445       -0.527707       2.13081e+011    0               -3.71162        0               3.15953e+011    0               4.67473         0               1.94642         0               7.39751         0               -7.67451        0              
  0.85            1.1             0.004955        -0.336224       -0.659729       0.133491        0.064677        -1.71348        4.7826          0.0195211       -0.512208       2.39733e+011    0               -5.37328        0               3.39122e+011    0               5.08028         0               1.91482         0               6.0071          0               -7.68561        0              
  0.86            1.11            0.006349        -0.391569       -0.626329       0.125508        0.0565882       -1.6875         5.1394          -0.0416155      -0.495427       2.63723e+011    0               -6.87396        0               3.60909e+011    0               5.40935         0               1.88805         0               4.70519         0               -7.62516        0              
  0.87            1.12            0.0079804       -0.436159       -0.596355       0.118675        0.0499655       -1.64747        5.4303          -0.0912655      -0.478888       2.84101e+011    0               -8.01308        0               3.77055e+011    0               5.67471         0               1.86536         0               3.59665         0               -7.54359        0              
  0.88            1.13            0.0098152       -0.47052        -0.569693       0.112722        0.0450746       -1.60046        5.65369         -0.130305       -0.463162       3.01135e+011    0               -8.95321        0               3.91084e+011    0               5.87586         0               1.84666         0               2.50285         0               -7.42425        0              
  0.89            1.14            0.011876        -0.498946       -0.545523       0.107488        0.0411003       -1.54955        5.8305          -0.161167       -0.448818       3.14789e+011    0               -9.7054         0               4.02527e+011    0               6.0329          0               1.83056         0               1.59889         0               -7.31408        0              
  0.9             1.15            0.01414         -0.523121       -0.522776       0.102885        0.0377085       -1.4956         5.9656          -0.185891       -0.43521        3.25191e+011    0               -10.3293        0               4.09029e+011    0               6.15022         0               1.81644         0               0.822752        0               -7.20916        0              
  0.91            1.16            0.016706        -0.542784       -0.50175        0.0986031       0.0353367       -1.44044        6.06586         -0.205069       -0.422409       3.33605e+011    0               -11.197         0               4.17332e+011    0               6.23454         0               1.80394         0               0.189754        0               -7.09092        0              
  0.92            1.17            0.019444        -0.560189       -0.482607       0.0947425       0.0329896       -1.38287        6.13474         -0.220396       -0.410573       3.38528e+011    0               -11.9445        0               4.21115e+011    0               6.28867         0               1.79251         0               -0.312922       0               -6.95482        0              
  0.93            1.18            0.0224          -0.575797       -0.463611       0.0911854       0.0309704       -1.32352        6.17639         -0.232087       -0.399141       3.4099e+011     0               -12.906         0               4.21785e+011    0               6.3166          0               1.78189         0               -0.648836       0               -6.77891        0              
  0.94            1.19            0.025628        -0.589479       -0.444273       0.087836        0.0292176       -1.26126        6.18958         -0.241109       -0.388518       3.41279e+011    0               -14.21          0               4.19633e+011    0               6.31678         0               1.77182         0               -0.846351       0               -6.54647        0              
  0.95            1.2             0.029098        -0.601586       -0.425073       0.0844485       0.0276753       -1.19513        6.17019         -0.247141       -0.377755       3.38711e+011    0               -15.7275        0               4.15037e+011    0               6.28487         0               1.76212         0               -0.961553       0               -6.237          0              
  0.96            1.21            0.032736        -0.612568       -0.406585       0.0815857       0.0265796       -1.12583        6.11645         -0.250848       -0.367737       3.33812e+011    0               -17.6063        0               4.09542e+011    0               6.2192          0               1.75282         0               -1.00151        0               -5.82354        0              
  0.97            1.22            0.036642        -0.622896       -0.386405       0.0787357       0.0253672       -1.04696        6.01699         -0.253216       -0.357015       3.25511e+011    0               -19.5542        0               3.97429e+011    0               6.1074          0               1.74307         0               -1.15114        0               -5.33741        0              
  0.98            1.23            0.040722        -0.631836       -0.364138       0.0762026       0.0242516       -0.944517       5.8404          -0.255241       -0.344128       3.12838e+011    0               -21.2468        0               3.77631e+011    0               5.91628         0               1.73113         0               -1.98282        0               -4.87076        0              
  0.99            1.24            0.045092        -0.641734       -0.335112       0.0737067       0.0225664       -0.792227       5.50341         -0.259074       -0.324905       2.90777e+011    0               -21.1793        0               3.41419e+011    0               5.56014         0               1.71377         0               -5.2115         0               -4.6157         0              
  1               1.25            0.049536        -0.650166       -0.289534       0.0714926       0.0205573       -0.545543       4.78724         -0.269673       -0.287562       2.50729e+011    0               -15.8362        0               2.7435e+011     0               4.81822         0               1.68426         0               -16.8161        0               -4.99709        0              
  1.01            1.26            0.05394         -0.652719       -0.223277       0.0695583       0.017101        -0.291679       3.54038         -0.288519       -0.22239        1.86124e+011    0               3.43417         0               1.77068e+011    0               3.55237         0               1.653           0               50              0               -5.39567        0              
  1.02            1.27            0.058134        -0.652994       -0.168215       0.0680347       0.0141855       -0.157258       2.3631          -0.3083         -0.15952        1.26194e+011    0               37.9671         0               1.08334e+011    0               2.36833         0               1.63725         0               50              0               -4.67061        0              
  1.03            1.28            0.061902        -0.658766       -0.135515       0.0668867       0.0123466       -0.0823422      1.66862         -0.324134       -0.12187        9.01828e+010    0               50              0               7.45759e+010    0               1.67065         0               1.6201          0               50              0               -3.79614        0              
  1.04            1.29            0.06543         -0.666512       -0.118055       0.0655948       0.0114314       -0.0389821      1.31417         -0.333965       -0.102873       7.14186e+010    0               50              0               5.86259e+010    0               1.31475         0               1.60045         0               50              0               -2.38018        0              
END_DB

