! VERSION = 6.00
!Data measured by ggf on Tue Jan 23 13:17:37 2018 using model file NPN_MEAS_SCALE
BEGIN_HEADER
 ICCAP_INPUTS
  vc         V  C GROUND SMU_C 0.2 SYNC       1 0.5 vb
  ve         V  E GROUND SMU_E 0 CON        0
  vs         V  S GROUND SMU_S 0 CON        0
  freq       F  LIST       1 74 100000000 200000000 300000000 400000000 500000000 600000000 700000000 800000000 900000000 1000000000 2000000000 3000000000 4000000000 5000000000 6000000000 7000000000 8000000000 9000000000 10000000000 11000000000 12000000000 13000000000 14000000000 15000000000 16000000000 17000000000 18000000000 19000000000 20000000000 21000000000 22000000000 23000000000 24000000000 25000000000 26000000000 27000000000 28000000000 29000000000 30000000000 31000000000 32000000000 33000000000 34000000000 35000000000 36000000000 37000000000 38000000000 39000000000 40000000000 41000000000 42000000000 43000000000 44000000000 45000000000 46000000000 47000000000 48000000000 49000000000 50000000000 51000000000 52000000000 53000000000 54000000000 55000000000 56000000000 57000000000 58000000000 59000000000 60000000000 61000000000 62000000000 63000000000 64000000000 65000000000
  vb         V  B GROUND SMU_B 0.015 LIN        2    0.68       1.04       37   0.01      
 ICCAP_OUTPUTS
  ic         I  C GROUND SMU_C M
  ib         I  B GROUND SMU_B M
  S          S  B C GROUND NWA M
  S_deemb    S B C GROUND n/a B
 ICCAP_VALUES
  TNOM "27"
  TEMP "27"
  TECHNO "SG13G2"
  LOT "EDJ802"
  WAFER "02"
  CHIP "(3.3)"
  MODULE "S439S"
  DEV_NAME "D11"
  DEV_GEOM_L "5.0"
  DEV_GEOM_W "0.07"
  NUM_OF_TRANS_RF "1"
  REMARKS "Nx=2; Power -30/-20dBm, Slope: 0.1dB/GHz"
  TIMEDATE "Tue Jan 23 12:58:58     2018"
  OPERATOR "ggf"
END_HEADER

BEGIN_DB
 ICCAP_VAR vc         1.18           
 ICCAP_VAR ve         0              
 ICCAP_VAR vs         0              
 ICCAP_VAR vb         0.68           

 #freq            ic              ib              R:S(1,1)        I:S(1,1)        R:S(1,2)        I:S(1,2)        R:S(2,1)        I:S(2,1)        R:S(2,2)        I:S(2,2)        R:S_deemb(1,1)  I:S_deemb(1,1)  R:S_deemb(1,2)  I:S_deemb(1,2)  R:S_deemb(2,1)  I:S_deemb(2,1)  R:S_deemb(2,2)  I:S_deemb(2,2) 
  1e+008          1.3532e-005     1.7172e-008     0.999427        -0.00335369     -2.33891e-005   0.00114326      -0.0570357      0.000612639     0.999872        -0.00245947     0.99961         -0.0025625      -2.18674e-005   0.000987893     -0.0569785      0.000756596     0.999708        -0.00126318    
  2e+008          1.3532e-005     1.7172e-008     1.00013         -0.00750114     1.74672e-005    0.0022555       -0.05529        0.00206933      0.99984         -0.00494522     0.999924        -0.00585144     7.71666e-006    0.00207685      -0.0553353      0.00182445      0.999512        -0.00219908    
  3e+008          1.3532e-005     1.7172e-008     0.999949        -0.0114123      3.55116e-005    0.0033989       -0.0556953      0.00342184      0.999835        -0.00746204     0.999644        -0.00838334     5.61929e-005    0.00323818      -0.0557328      0.00306312      0.999729        -0.00420457    
  4e+008          1.3532e-005     1.7172e-008     1.00007         -0.0146802      7.87503e-005    0.00454968      -0.0546468      0.00473798      0.999567        -0.0101227      0.999499        -0.010592       7.38773e-005    0.00428822      -0.0546177      0.00434653      0.999674        -0.00570111    
  5e+008          1.3532e-005     1.7172e-008     1.00027         -0.0200865      0.000112426     0.00567035      -0.0553195      0.00609796      0.999747        -0.0125734      0.999757        -0.0143757      7.19535e-005    0.00541304      -0.0553395      0.0054912       0.999694        -0.00720494    
  6e+008          1.3532e-005     1.7172e-008     1.00001         -0.0234785      0.000156202     0.00682977      -0.0552899      0.00743709      0.999734        -0.0151023      0.999767        -0.0171281      8.47385e-005    0.00648654      -0.0553139      0.00672471      0.999615        -0.0086313     
  7e+008          1.3532e-005     1.7172e-008     0.999927        -0.0273908      0.000191412     0.00795084      -0.0553139      0.00889008      0.999441        -0.0176637      0.999668        -0.0200032      0.000109382     0.00759554      -0.055295       0.00809895      0.999482        -0.010054      
  8e+008          1.3532e-005     1.7172e-008     0.999669        -0.0314298      0.000254171     0.00910075      -0.0555032      0.010248        0.999479        -0.02026        0.999583        -0.0228073      0.000169052     0.00866796      -0.0556062      0.00922692      0.999577        -0.0116119     
  9e+008          1.3532e-005     1.7172e-008     0.999516        -0.0354677      0.000338425     0.0102353       -0.0549527      0.0118845       0.999408        -0.0227419      0.99937         -0.0260016      0.000238674     0.00973962      -0.0550852      0.0109091       0.999484        -0.0130312     
  1e+009          1.3532e-005     1.7172e-008     0.99921         -0.0392521      0.000386319     0.0113444       -0.0554321      0.0132102       0.999243        -0.0252755      0.99921         -0.0285128      0.000255171     0.0108078       -0.0555182      0.0121154       0.999425        -0.0145236     
  2e+009          1.3532e-005     1.7172e-008     0.996678        -0.0786212      0.00156195      0.0226336       -0.0527244      0.0264675       0.997581        -0.0503545      0.997802        -0.0573986      0.000994258     0.0215387       -0.053407       0.0241946       0.998571        -0.0287183     
  3e+009          1.3532e-005     1.7172e-008     0.991858        -0.117965       0.00342108      0.0337555       -0.0515358      0.0393054       0.994962        -0.074851       0.995066        -0.085693       0.00218665      0.032234        -0.0530252      0.0359124       0.997184        -0.0426119     
  4e+009          1.3532e-005     1.7172e-008     0.985267        -0.156447       0.00608255      0.0447542       -0.0488738      0.0525017       0.991774        -0.0992995      0.991222        -0.11406        0.00391321      0.0428397       -0.0514555      0.0480961       0.995666        -0.0566042     
  5e+009          1.3532e-005     1.7172e-008     0.977057        -0.194317       0.00938084      0.0555586       -0.0444654      0.0653238       0.987711        -0.123473       0.986585        -0.141908       0.0060385       0.053393        -0.0484485      0.0602933       0.993823        -0.0703213     
  6e+009          1.3532e-005     1.7172e-008     0.967119        -0.231103       0.0134087       0.066021        -0.0398222      0.0776493       0.98298         -0.147593       0.980965        -0.16975        0.00871166      0.0637628       -0.0453285      0.071927        0.991623        -0.0839827     
  7e+009          1.3532e-005     1.7172e-008     0.955021        -0.268824       0.0181268       0.0762992       -0.0345824      0.0896728       0.977431        -0.171428       0.973868        -0.196477       0.0117213       0.0741101       -0.0421859      0.0834128       0.989066        -0.0976197     
  8e+009          1.3532e-005     1.7172e-008     0.942108        -0.304248       0.0234946       0.0860071       -0.0286935      0.101269        0.971181        -0.194491       0.966507        -0.224346       0.015332        0.0840335       -0.0384318      0.0948732       0.986247        -0.110889      
  9e+009          1.3532e-005     1.7172e-008     0.927447        -0.339619       0.0294346       0.0954363       -0.0219562      0.112214        0.964019        -0.217724       0.957773        -0.250872       0.0192034       0.0939559       -0.0340472      0.105702        0.983019        -0.124279      
  1e+010          1.3532e-005     1.7172e-008     0.911017        -0.374037       0.0359808       0.104261        -0.0139441      0.122901        0.956187        -0.240322       0.94805         -0.277304       0.0236446       0.103494        -0.0287761      0.116671        0.979581        -0.137315      
  1.1e+010        1.3532e-005     1.7172e-008     0.893196        -0.406711       0.0428965       0.112823        -0.00659491     0.13279         0.948101        -0.262548       0.937731        -0.302514       0.0282347       0.11296         -0.0241325      0.12715         0.975835        -0.150393      
  1.2e+010        1.3532e-005     1.7172e-008     0.874199        -0.438544       0.0505298       0.120831        0.00208968      0.142537        0.938757        -0.284345       0.926332        -0.327892       0.0333771       0.122172        -0.0183646      0.13776         0.971572        -0.163326      
  1.3e+010        1.3532e-005     1.7172e-008     0.854205        -0.468283       0.0584116       0.12829         0.0103711       0.151561        0.928765        -0.305178       0.914319        -0.351658       0.0387469       0.1312          -0.0130455      0.147898        0.967299        -0.175835      
  1.4e+010        1.3532e-005     1.7172e-008     0.832473        -0.497301       0.0671878       0.135052        0.0204179       0.159887        0.91833         -0.326007       0.901054        -0.375369       0.0449847       0.139905        -0.00614424     0.157979        0.96251         -0.188417      
  1.5e+010        1.3532e-005     1.7172e-008     0.810582        -0.525256       0.0760606       0.140933        0.0313012       0.166245        0.907923        -0.345604       0.887205        -0.398945       0.0514442       0.147997        0.00190581      0.166525        0.957639        -0.200219      
  1.6e+010        1.3532e-005     1.7172e-008     0.787767        -0.551571       0.0849624       0.146464        0.0409128       0.173319        0.896707        -0.365071       0.873147        -0.421312       0.0579489       0.155857        0.00845846      0.175612        0.952168        -0.212317      
  1.7e+010        1.3532e-005     1.7172e-008     0.764303        -0.576554       0.0944852       0.151188        0.0518442       0.178679        0.884375        -0.383769       0.858378        -0.442748       0.0651188       0.163395        0.0166396       0.183781        0.946761        -0.224058      
  1.8e+010        1.3532e-005     1.7172e-008     0.74001         -0.600072       0.103684        0.155198        0.0620929       0.184344        0.872456        -0.402572       0.842751        -0.463686       0.0720545       0.17046         0.0240709       0.192166        0.941416        -0.235775      
  1.9e+010        1.3532e-005     1.7172e-008     0.715269        -0.622106       0.112983        0.158945        0.0733128       0.188912        0.86027         -0.420838       0.826935        -0.483407       0.0791212       0.17738         0.0323653       0.199946        0.935283        -0.246663      
  2e+010          1.3532e-005     1.7172e-008     0.690346        -0.642594       0.122498        0.161805        0.0829623       0.19198         0.847311        -0.436279       0.810553        -0.502652       0.0868757       0.183573        0.0398857       0.206251        0.928948        -0.257274      
  2.1e+010        1.3532e-005     1.7172e-008     0.665139        -0.66218        0.131826        0.164175        0.0941537       0.19633         0.832301        -0.451249       0.793986        -0.521361       0.0947394       0.189764        0.0488638       0.2146          0.922429        -0.268405      
  2.2e+010        1.3532e-005     1.7172e-008     0.639897        -0.68001        0.141632        0.16597         0.10485         0.197745        0.817503        -0.468341       0.776885        -0.538421       0.103007        0.195644        0.0576723       0.220088        0.916408        -0.279434      
  2.3e+010        1.3532e-005     1.7172e-008     0.614243        -0.696605       0.15085         0.166909        0.115107        0.199793        0.807697        -0.485531       0.7598          -0.555129       0.110642        0.200466        0.0658197       0.225971        0.910634        -0.288662      
  2.4e+010        1.3532e-005     1.7172e-008     0.589299        -0.713352       0.159162        0.167689        0.125311        0.201253        0.800321        -0.492472       0.742931        -0.571711       0.118182        0.204021        0.0749817       0.230452        0.903715        -0.295695      
  2.5e+010        1.3532e-005     1.7172e-008     0.562194        -0.728596       0.168433        0.170363        0.13501         0.204372        0.799602        -0.49763        0.72456         -0.587564       0.126379        0.208291        0.0836184       0.235304        0.895235        -0.305975      
  2.6e+010        1.3532e-005     1.7172e-008     0.536672        -0.742111       0.180602        0.168766        0.14842         0.204268        0.777908        -0.523905       0.707086        -0.602689       0.136726        0.211995        0.0941153       0.24041         0.884129        -0.31628       
  2.7e+010        1.3532e-005     1.7172e-008     0.509916        -0.754399       0.18852         0.167598        0.15844         0.204213        0.745554        -0.539019       0.687361        -0.616226       0.14466         0.217481        0.103269        0.247586        0.879784        -0.32801       
  2.8e+010        1.3532e-005     1.7172e-008     0.484138        -0.765611       0.198034        0.16588         0.168313        0.20201         0.726513        -0.560293       0.669239        -0.629814       0.153439        0.222187        0.111951        0.251528        0.874132        -0.339075      
  2.9e+010        1.3532e-005     1.7172e-008     0.45796         -0.776205       0.205173        0.164419        0.176483        0.200924        0.716476        -0.570806       0.650136        -0.642999       0.160345        0.225146        0.119395        0.254809        0.86978         -0.345183      
  3e+010          1.3532e-005     1.7172e-008     0.432133        -0.784126       0.213427        0.163649        0.186407        0.200409        0.709491        -0.578275       0.631533        -0.654021       0.168697        0.227699        0.129156        0.258263        0.863405        -0.352622      
  3.1e+010        1.3532e-005     1.7172e-008     0.406204        -0.792965       0.221865        0.160999        0.19658         0.198268        0.695002        -0.5868         0.612631        -0.665709       0.177454        0.229127        0.139499        0.260645        0.854594        -0.361131      
  3.2e+010        1.3532e-005     1.7172e-008     0.380874        -0.799289       0.230507        0.158348        0.205874        0.195077        0.677738        -0.5985         0.593453        -0.675663       0.186828        0.231779        0.149245        0.263094        0.847106        -0.3706        
  3.3e+010        1.3532e-005     1.7172e-008     0.355017        -0.804783       0.238506        0.155607        0.214579        0.193033        0.6641          -0.61202        0.57389         -0.684902       0.195069        0.234047        0.157608        0.265833        0.840914        -0.378983      
  3.4e+010        1.3532e-005     1.7172e-008     0.328478        -0.808604       0.246564        0.151893        0.224302        0.190091        0.652059        -0.620844       0.553424        -0.69379        0.204252        0.234918        0.167569        0.268516        0.83363         -0.386107      
  3.5e+010        1.3532e-005     1.7172e-008     0.305689        -0.812349       0.253451        0.148063        0.23269         0.185719        0.63773         -0.629587       0.535517        -0.701642       0.212346        0.235216        0.17733         0.268568        0.825313        -0.393893      
  3.6e+010        1.3532e-005     1.7172e-008     0.282779        -0.814485       0.260054        0.143889        0.239823        0.18174         0.619935        -0.638769       0.516613        -0.707951       0.220687        0.235501        0.186106        0.269335        0.817107        -0.401438      
  3.7e+010        1.3532e-005     1.7172e-008     0.260685        -0.816204       0.26675         0.139868        0.246951        0.178376        0.607515        -0.649844       0.499209        -0.713663       0.228407        0.235976        0.19359         0.270535        0.811067        -0.409421      
  3.8e+010        1.3532e-005     1.7172e-008     0.238731        -0.818668       0.273264        0.135355        0.256042        0.173634        0.593695        -0.657541       0.481281        -0.720069       0.236424        0.235776        0.204093        0.270516        0.803268        -0.415444      
  3.9e+010        1.3532e-005     1.7172e-008     0.216315        -0.819768       0.278509        0.130914        0.262592        0.168096        0.578596        -0.664967       0.462997        -0.725132       0.24372         0.235485        0.212796        0.269499        0.795494        -0.422185      
  4e+010          1.3532e-005     1.7172e-008     0.195867        -0.821034       0.284459        0.126258        0.268156        0.165023        0.563736        -0.674442       0.446556        -0.730742       0.251419        0.235127        0.219417        0.270683        0.788068        -0.429813      
  4.1e+010        1.3532e-005     1.7172e-008     0.175113        -0.822352       0.290128        0.121973        0.275911        0.160214        0.547857        -0.683274       0.428991        -0.73691        0.258587        0.234945        0.228298        0.270851        0.780233        -0.437128      
  4.2e+010        1.3532e-005     1.7172e-008     0.154087        -0.820699       0.295862        0.116489        0.282166        0.153301        0.531564        -0.687607       0.412009        -0.739146       0.266476        0.234396        0.23737         0.269459        0.771563        -0.44209       
  4.3e+010        1.3532e-005     1.7172e-008     0.134571        -0.82213        0.300575        0.111224        0.287094        0.149055        0.518409        -0.693777       0.394707        -0.74457        0.273964        0.233026        0.244359        0.268639        0.764347        -0.448656      
  4.4e+010        1.3532e-005     1.7172e-008     0.116308        -0.819987       0.304625        0.106891        0.29367         0.144144        0.504238        -0.699783       0.37978         -0.746802       0.28069         0.231996        0.253471        0.268008        0.757342        -0.45419       
  4.5e+010        1.3532e-005     1.7172e-008     0.0967423       -0.820352       0.310262        0.102705        0.298279        0.139441        0.489654        -0.707737       0.363522        -0.750955       0.288383        0.23237         0.260542        0.267479        0.750544        -0.460573      
  4.6e+010        1.3532e-005     1.7172e-008     0.0791573       -0.818197       0.314958        0.0969766       0.304615        0.134354        0.475884        -0.711838       0.348404        -0.752699       0.295222        0.230516        0.268776        0.267068        0.742386        -0.465828      
  4.7e+010        1.3532e-005     1.7172e-008     0.0597609       -0.818313       0.319039        0.0917294       0.310261        0.129842        0.460812        -0.715904       0.331834        -0.756891       0.302586        0.229252        0.277202        0.267521        0.734351        -0.471436      
  4.8e+010        1.3532e-005     1.7172e-008     0.0418309       -0.81729        0.323434        0.0868049       0.315804        0.122445        0.445721        -0.722464       0.316755        -0.760237       0.309851        0.228077        0.286113        0.26414         0.72648         -0.477401      
