! VERSION = 6.00
!Data measured by ggf on Tue Jan 23 13:17:38 2018 using model file NPN_MEAS_SCALE
BEGIN_HEADER
 ICCAP_INPUTS
  vce        V  C GROUND SMU_C 0.015 LIN        2    1.8        -0.6       25   -0.1      
  vb         V  B GROUND SMU_B 0.015 CON        0
  ve         V  E GROUND SMU_E 0 CON        0
  vs         V  S GROUND SMU_S 0 CON        0
  freq       F  LIST       1 74 100000000 200000000 300000000 400000000 500000000 600000000 700000000 800000000 900000000 1000000000 2000000000 3000000000 4000000000 5000000000 6000000000 7000000000 8000000000 9000000000 10000000000 11000000000 12000000000 13000000000 14000000000 15000000000 16000000000 17000000000 18000000000 19000000000 20000000000 21000000000 22000000000 23000000000 24000000000 25000000000 26000000000 27000000000 28000000000 29000000000 30000000000 31000000000 32000000000 33000000000 34000000000 35000000000 36000000000 37000000000 38000000000 39000000000 40000000000 41000000000 42000000000 43000000000 44000000000 45000000000 46000000000 47000000000 48000000000 49000000000 50000000000 51000000000 52000000000 53000000000 54000000000 55000000000 56000000000 57000000000 58000000000 59000000000 60000000000 61000000000 62000000000 63000000000 64000000000 65000000000
 ICCAP_OUTPUTS
  S          S  B C GROUND NWA M
  ic         I  C GROUND SMU_C M
  S_deemb    S B C GROUND n/a B
 ICCAP_VALUES
  TNOM "27"
  TEMP "27"
  TECHNO "SG13G2"
  LOT "EDJ802"
  WAFER "02"
  CHIP "(3.3)"
  MODULE "S439S"
  DEV_NAME "D11"
  DEV_GEOM_L "5.0"
  DEV_GEOM_W "0.07"
  NUM_OF_TRANS_RF "1"
  REMARKS "Nx=2; Power -30/-20dBm, Slope: 0.1dB/GHz"
  TIMEDATE "Tue Jan 23 12:58:58     2018"
  OPERATOR "ggf"
END_HEADER

BEGIN_DB
 ICCAP_VAR vce        1.8            
 ICCAP_VAR vb         0              
 ICCAP_VAR ve         0              
 ICCAP_VAR vs         0              

 #freq            R:S(1,1)        I:S(1,1)        R:S(1,2)        I:S(1,2)        R:S(2,1)        I:S(2,1)        R:S(2,2)        I:S(2,2)        ic              R:S_deemb(1,1)  I:S_deemb(1,1)  R:S_deemb(1,2)  I:S_deemb(1,2)  R:S_deemb(2,1)  I:S_deemb(2,1)  R:S_deemb(2,2)  I:S_deemb(2,2) 
  1e+008          0.999739        -0.0034817      2.15636e-005    0.00108571      -0.000217367    0.00113852      0.999763        -0.00242845     -6.572e-008     0.999922        -0.00269491     2.3136e-005     0.000930376     -0.000157053    0.00134022      0.999599        -0.00123701    
  2e+008          0.999854        -0.00702147     0.000129274     0.00210586      -0.000198578    0.00196933      0.999937        -0.00543278     -6.572e-008     0.99965         -0.00537768     0.000119829     0.00192752      -0.000255982    0.00184818      0.99961         -0.00269176    
  3e+008          1.00024         -0.0103852      3.78193e-005    0.0031706       9.26211e-005    0.00318814      0.999874        -0.00718051     -6.572e-008     0.999929        -0.0073609      5.93632e-005    0.00300992      4.61983e-005    0.00300899      0.999768        -0.0039284     
  4e+008          1.00038         -0.0140037      4.42074e-005    0.00422052      5.18933e-005    0.00418572      0.999606        -0.00977106     -6.572e-008     0.999808        -0.00992265     4.09288e-005    0.00395895      7.16278e-005    0.0040324       0.999712        -0.00535772    
  5e+008          1.00023         -0.0181018      0.000108735     0.00525934      0.000157157     0.00529614      0.999737        -0.0120585      -6.572e-008     0.999711        -0.0124007      7.09734e-005    0.00500214      0.00012542      0.00500405      0.999681        -0.00669895    
  6e+008          1.00005         -0.0211319      0.000110221     0.00633086      1.86871e-005    0.00626604      0.999762        -0.014432       -6.572e-008     0.999788        -0.0147931      4.26492e-005    0.0059874       -9.54479e-006   0.00591715      0.999637        -0.00797229    
  7e+008          0.999844        -0.0245899      0.000175172     0.00733129      0.000137671     0.00735472      0.99954         -0.0168911      -6.572e-008     0.999563        -0.0172156      9.86596e-005    0.00697596      0.000158595     0.00699003      0.999574        -0.00929293    
  8e+008          0.999855        -0.0282509      0.000222876     0.00841819      0.000181811     0.00837186      0.999589        -0.0192476      -6.572e-008     0.999739        -0.0196417      0.000144869     0.00798512      9.02953e-005    0.00784365      0.999677        -0.0106133     
  9e+008          0.9998          -0.0316197      0.00029314      0.0095044       0.000229369     0.00945329      0.999412        -0.0216778      -6.572e-008     0.999615        -0.0221682      0.00020202      0.00900829      0.000111103     0.00902067      0.999476        -0.0119838     
  1e+009          0.99936         -0.0351839      0.00032731      0.0105053       0.000406775     0.010452        0.99934         -0.0241097      -6.572e-008     0.999312        -0.0244617      0.000207075     0.00996803      0.000345738     0.00997263      0.999508        -0.0133751     
  2e+009          0.997245        -0.0703667      0.00132124      0.020969        0.00119385      0.0209831       0.99784         -0.0480545      -6.572e-008     0.998178        -0.0491676      0.000797189     0.0198674       0.000642259     0.0198966       0.99877         -0.0264487     
  3e+009          0.993379        -0.105389       0.00289995      0.0313111       0.00293432      0.0314229       0.995667        -0.0712129      -6.572e-008     0.996143        -0.0731124      0.00176222      0.0297663       0.0017467       0.0298354       0.997749        -0.0390021     
  4e+009          0.988223        -0.13983        0.00514782      0.0415373       0.00508699      0.0415834       0.992864        -0.0946811      -6.572e-008     0.993405        -0.0973601      0.0031464       0.0395671       0.00306337      0.0395387       0.996519        -0.0520028     
  5e+009          0.98153         -0.174          0.00799205      0.0516266       0.0079386       0.0517436       0.989372        -0.11769        -6.572e-008     0.989882        -0.121381       0.00490407      0.0493562       0.00482485      0.0495585       0.995115        -0.0645183     
  6e+009          0.973709        -0.207673       0.0114318       0.0614379       0.0112975       0.0615218       0.984962        -0.140779       -6.572e-008     0.985957        -0.145896       0.00708421      0.0590024       0.00702763      0.0590876       0.993084        -0.0771117     
  7e+009          0.964088        -0.242239       0.0154783       0.0711742       0.0155042       0.0712403       0.979997        -0.163623       -6.572e-008     0.980783        -0.169158       0.00952848      0.068705        0.0095567       0.0687497       0.990936        -0.0896892     
  8e+009          0.953647        -0.273808       0.0200748       0.0804231       0.0200147       0.0805457       0.974507        -0.185722       -6.572e-008     0.975302        -0.192802       0.0124702       0.0780397       0.0123869       0.0782484       0.988688        -0.101892      
  9e+009          0.941538        -0.30575        0.0252388       0.0894182       0.0250145       0.0894228       0.968093        -0.208126       -6.572e-008     0.968439        -0.215455       0.0156754       0.0873728       0.0155194       0.0873154       0.986009        -0.114326      
  1e+010          0.928417        -0.337973       0.0308778       0.0979392       0.0311499       0.0980107       0.960953        -0.230116       -6.572e-008     0.96144         -0.239084       0.0193032       0.0964133       0.0194509       0.0964038       0.983072        -0.126609      
  1.1e+010        0.913642        -0.367428       0.0369138       0.106233        0.0367241       0.106426        0.953769        -0.251526       -6.572e-008     0.953423        -0.260396       0.0231087       0.105392        0.0228187       0.105589        0.980003        -0.138686      
  1.2e+010        0.898084        -0.39692        0.0436175       0.1142          0.043691        0.114287        0.945298        -0.272714       -6.572e-008     0.944796        -0.282639       0.0273797       0.114311        0.0274487       0.114435        0.976397        -0.150798      
  1.3e+010        0.88146         -0.425245       0.0505071       0.121589        0.0507307       0.121525        0.936135        -0.292975       -6.572e-008     0.935591        -0.304123       0.031801        0.122983        0.0321343       0.122915        0.972739        -0.162499      
  1.4e+010        0.863875        -0.452918       0.0582807       0.128536        0.0582039       0.128804        0.926655        -0.313297       -6.572e-008     0.925942        -0.325387       0.0370243       0.131554        0.0369654       0.131836        0.968697        -0.174291      
  1.5e+010        0.845762        -0.479229       0.0661792       0.134614        0.0661477       0.134267        0.917116        -0.332464       -6.572e-008     0.91531         -0.346226       0.0424787       0.139519        0.042518        0.13925         0.964506        -0.185375      
  1.6e+010        0.826274        -0.504906       0.074152        0.1404          0.0736521       0.140459        0.906966        -0.35171        -6.572e-008     0.904184        -0.36685        0.0479957       0.147303        0.0474285       0.14729         0.959945        -0.196917      
  1.7e+010        0.80642         -0.528919       0.0828021       0.14564         0.0820703       0.145216        0.895427        -0.370066       -6.572e-008     0.892582        -0.386077       0.0541628       0.155011        0.0535172       0.154567        0.955165        -0.207988      
  1.8e+010        0.785757        -0.552384       0.09111         0.150069        0.0902932       0.150394        0.884459        -0.388651       -6.572e-008     0.880358        -0.405674       0.0600616       0.162137        0.0593118       0.16222         0.950623        -0.219117      
  1.9e+010        0.765076        -0.574027       0.0994588       0.154406        0.0997106       0.154228        0.873099        -0.406974       -6.572e-008     0.868349        -0.423532       0.0659805       0.169263        0.0662293       0.169028        0.945209        -0.229705      
  2e+010          0.743397        -0.59506        0.108164        0.157977        0.107313        0.157439        0.861194        -0.42217        -6.572e-008     0.855198        -0.442056       0.0726695       0.175837        0.0718949       0.175139        0.939825        -0.239666      
  2.1e+010        0.721997        -0.615079       0.11675         0.161058        0.116724        0.16109         0.847103        -0.437104       -6.572e-008     0.842482        -0.459707       0.0794735       0.182414        0.079469        0.1824          0.934201        -0.250329      
  2.2e+010        0.699756        -0.633298       0.125907        0.163701        0.125072        0.162914        0.832931        -0.45425        -6.572e-008     0.828391        -0.47582        0.0867402       0.188822        0.0860698       0.187841        0.92877         -0.261016      
  2.3e+010        0.677634        -0.651056       0.13459         0.165531        0.133244        0.165288        0.82406         -0.471612       -6.572e-008     0.815115        -0.49219        0.0934814       0.194252        0.0922195       0.193697        0.923852        -0.270009      
  2.4e+010        0.655756        -0.668724       0.142417        0.167112        0.141469        0.167003        0.817603        -0.47865        -6.572e-008     0.801474        -0.508348       0.10022         0.198429        0.0993392       0.198018        0.917897        -0.276895      
  2.5e+010        0.631901        -0.685527       0.150936        0.170681        0.149863        0.170318        0.818176        -0.483424       -6.572e-008     0.786711        -0.524351       0.107385        0.203446        0.106418        0.202864        0.910643        -0.286752      
  2.6e+010        0.60964         -0.700622       0.162907        0.170298        0.161068        0.170983        0.797425        -0.510144       -6.572e-008     0.773108        -0.539569       0.117045        0.208141        0.114743        0.208388        0.900326        -0.296939      
  2.7e+010        0.584951        -0.714243       0.170474        0.170133        0.169706        0.170677        0.765183        -0.525818       -6.572e-008     0.75586         -0.553281       0.123984        0.214391        0.122988        0.214788        0.896395        -0.308542      
  2.8e+010        0.562436        -0.726908       0.179722        0.169523        0.178044        0.169401        0.746308        -0.547952       -6.572e-008     0.741644        -0.566682       0.131831        0.219928        0.130183        0.219255        0.891057        -0.319921      
  2.9e+010        0.539144        -0.739626       0.186568        0.169054        0.185032        0.16916         0.737081        -0.558609       -6.572e-008     0.726148        -0.580533       0.137899        0.223705        0.136308        0.223089        0.88755         -0.325704      
  3e+010          0.515161        -0.74967        0.194779        0.169474        0.193432        0.169649        0.73079         -0.566002       -6.572e-008     0.710231        -0.592626       0.145713        0.227482        0.144184        0.227231        0.881836        -0.332873      
  3.1e+010        0.490816        -0.761208       0.203033        0.167607        0.202315        0.168238        0.716778        -0.574997       -6.572e-008     0.693812        -0.605968       0.153843        0.229634        0.153054        0.230039        0.873683        -0.341597      
  3.2e+010        0.468449        -0.769242       0.211845        0.16628         0.210551        0.165998        0.699854        -0.587001       -6.572e-008     0.678562        -0.616133       0.162634        0.233692        0.161448        0.233147        0.866691        -0.351024      
  3.3e+010        0.443784        -0.776651       0.219995        0.164544        0.217456        0.165091        0.687058        -0.600387       -6.572e-008     0.661055        -0.626315       0.170433        0.236988        0.167692        0.236521        0.861269        -0.358743      
  3.4e+010        0.418573        -0.782967       0.228365        0.162101        0.226657        0.162586        0.675469        -0.610139       -6.572e-008     0.643125        -0.636768       0.179281        0.239343        0.176954        0.239569        0.854741        -0.366562      
  3.5e+010        0.397328        -0.789678       0.235285        0.159047        0.23403         0.159659        0.661573        -0.619239       -6.572e-008     0.628101        -0.646824       0.186912        0.240535        0.185195        0.240916        0.846988        -0.374442      
  3.6e+010        0.375224        -0.79404        0.242382        0.155949        0.240386        0.156741        0.643941        -0.629037       -6.572e-008     0.610995        -0.654872       0.195163        0.242211        0.192865        0.242631        0.839212        -0.382347      
  3.7e+010        0.354361        -0.798021       0.249514        0.152758        0.246767        0.154337        0.632068        -0.640083       -6.572e-008     0.595863        -0.662055       0.202814        0.243735        0.199269        0.244671        0.833665        -0.389921      
  3.8e+010        0.333537        -0.802007       0.25643         0.14928         0.255007        0.150617        0.619037        -0.647825       -6.572e-008     0.579906        -0.669258       0.210622        0.244837        0.208523        0.245505        0.826677        -0.395534      
  3.9e+010        0.311937        -0.805493       0.262221        0.145496        0.260186        0.146098        0.602961        -0.657022       -6.572e-008     0.563556        -0.676057       0.21806         0.245575        0.215477        0.245205        0.818578        -0.404346      
  4e+010          0.292819        -0.80983        0.268354        0.141692        0.265803        0.143684        0.589053        -0.666462       -6.572e-008     0.54985         -0.684137       0.225397        0.246309        0.221954        0.247263        0.812097        -0.411375      
  4.1e+010        0.271448        -0.813481       0.274631        0.1383          0.273047        0.14014         0.574095        -0.675324       -6.572e-008     0.532635        -0.692732       0.232661        0.247381        0.229839        0.248656        0.805207        -0.418146      
  4.2e+010        0.252502        -0.812784       0.280872        0.133655        0.279025        0.134607        0.557518        -0.680383       -6.572e-008     0.518528        -0.694656       0.240441        0.248027        0.238073        0.248775        0.796551        -0.423782      
  4.3e+010        0.231053        -0.815964       0.286613        0.128994        0.283245        0.131711        0.544693        -0.686996       -6.572e-008     0.499857        -0.70239        0.248621        0.247863        0.24382         0.249219        0.789891        -0.430558      
  4.4e+010        0.21535         -0.817929       0.290456        0.125359        0.289158        0.127888        0.530496        -0.693115       -6.572e-008     0.489632        -0.707933       0.254677        0.247795        0.251803        0.249716        0.782922        -0.436083      
  4.5e+010        0.196336        -0.819407       0.296823        0.122118        0.294668        0.123732        0.516118        -0.701713       -6.572e-008     0.474616        -0.712654       0.262511        0.249638        0.259689        0.250327        0.77655         -0.442827      
  4.6e+010        0.177587        -0.820178       0.302464        0.116985        0.300464        0.119613        0.502807        -0.70592        -6.572e-008     0.459253        -0.717685       0.270013        0.248926        0.267008        0.250902        0.768905        -0.447859      
  4.7e+010        0.157923        -0.820111       0.307058        0.111949        0.305449        0.116421        0.487599        -0.710336       -6.572e-008     0.44257         -0.721338       0.277591        0.248291        0.2741          0.252643        0.760952        -0.453779      
  4.8e+010        0.142058        -0.823139       0.311905        0.108299        0.310378        0.108967        0.472993        -0.717778       -6.572e-008     0.43157         -0.728173       0.284672        0.249052        0.282431        0.249212        0.753978        -0.460274      
  4.9e+010        0.124743        -0.823283       0.317402        0.103258        0.313794        0.104659        0.460995        -0.721538       -6.572e-008     0.417711        -0.730505       0.292801        0.248758        0.288114        0.248439        0.747069        -0.464546      
  5e+010          0.106334        -0.82457        0.322521        0.0978184       0.320364        0.102717        0.447014        -0.725469       -6.572e-008     0.402858        -0.738242       0.30107         0.246903        0.296362        0.251094        0.739649        -0.469905      
  5.1e+010        0.0884287       -0.822388       0.326293        0.0924071       0.324917        0.0940413       0.433079        -0.729433       -6.572e-008     0.387059        -0.739675       0.308062        0.245191        0.305377        0.246061        0.731534        -0.474834      
  5.2e+010        0.0709499       -0.822883       0.330007        0.0865396       0.326296        0.0883543       0.41966         -0.735375       -6.572e-008     0.37357         -0.744764       0.315219        0.243796        0.310043        0.244426        0.725065        -0.479772      
