! VERSION = 6.00
!Data measured by ggf on Wed Jan 24 09:16:49 2018 using model file NPN_MEAS_SCALE
BEGIN_HEADER
 ICCAP_INPUTS
  ve         V  E GROUND SMU_E 0.2 CON        0
  vc         V  C GROUND SMU_C 0.2 SYNC       1 0 vb
  vs         V  S GROUND SMU_S 0.015 CON        0
  vb         V  B GROUND SMU_B 0.015 LIN        1    -1         1          101  0.02      
 ICCAP_OUTPUTS
  ib         I  B GROUND SMU_B M
  ic         I  C GROUND SMU_C M
 ICCAP_VALUES
  TNOM "27"
  TEMP "27"
  TECHNO "SG13G2"
  LOT "EDJ802"
  WAFER "02"
  CHIP "(3.3)"
  MODULE "S439S"
  DEV_NAME "D03"
  DEV_GEOM_L "2.5"
  DEV_GEOM_W "0.07"
  NUM_OF_TRANS_RF "2"
  REMARKS "Nx=2; Power -30/-20dBm, Slope: 0.1dB/GHz"
  TIMEDATE "Wed Jan 24 08:59:39     2018"
  OPERATOR "ggf"
END_HEADER

BEGIN_DB
 ICCAP_VAR ve         0              
 ICCAP_VAR vs         0              

 #vb              vc              ib              ic             
  -1              -1              -0.00038442     -0.0059272     
  -0.98           -0.98           -0.00031634     -0.005093      
  -0.96           -0.96           -0.0002557      -0.0043344     
  -0.94           -0.94           -0.00020184     -0.003643      
  -0.92           -0.92           -0.00015536     -0.0030252     
  -0.9            -0.9            -0.0001156      -0.0024698     
  -0.88           -0.88           -8.2938e-005    -0.0019842     
  -0.86           -0.86           -5.7094e-005    -0.0015658     
  -0.84           -0.84           -3.7562e-005    -0.0012126     
  -0.82           -0.82           -2.3554e-005    -0.00091976    
  -0.8            -0.8            -1.418e-005     -0.0006858     
  -0.78           -0.78           -8.2516e-006    -0.00050322    
  -0.76           -0.76           -4.714e-006     -0.0003644     
  -0.74           -0.74           -2.6918e-006    -0.00026146    
  -0.72           -0.72           -1.555e-006     -0.00018604    
  -0.7            -0.7            -9.2226e-007    -0.00013146    
  -0.68           -0.68           -5.6616e-007    -9.207e-005    
  -0.66           -0.66           -3.6334e-007    -6.386e-005    
  -0.64           -0.64           -2.4422e-007    -4.3616e-005   
  -0.62           -0.62           -1.7258e-007    -2.9396e-005   
  -0.6            -0.6            -1.2784e-007    -1.9474e-005   
  -0.58           -0.58           -9.8396e-008    -1.2682e-005   
  -0.56           -0.56           -7.7552e-008    -8.0826e-006   
  -0.54           -0.54           -6.221e-008     -5.027e-006    
  -0.52           -0.52           -5.0314e-008    -3.0254e-006   
  -0.5            -0.5            -4.085e-008     -1.7578e-006   
  -0.48           -0.48           -3.3212e-008    -9.7914e-007   
  -0.46           -0.46           -2.6962e-008    -5.2386e-007   
  -0.44           -0.44           -2.1826e-008    -2.688e-007    
  -0.42           -0.42           -1.7562e-008    -1.3266e-007   
  -0.4            -0.4            -1.407e-008     -6.4462e-008   
  -0.38           -0.38           -1.1204e-008    -3.0018e-008   
  -0.36           -0.36           -8.853e-009     -1.3424e-008   
  -0.34           -0.34           -6.954e-009     -8.004e-009    
  -0.32           -0.32           -5.4044e-009    -2.9228e-009   
  -0.3            -0.3            -4.17e-009      -8.7262e-010   
  -0.28           -0.28           -3.1834e-009    1.6166e-010    
  -0.26           -0.26           -2.4034e-009    -4e-010        
  -0.24           -0.24           -1.7932e-009    -2.13e-010     
  -0.22           -0.22           -1.3208e-009    -2.02e-010     
  -0.2            -0.2            -9.5884e-010    -9.28e-011     
  -0.18           -0.18           -6.7922e-010    -2.34e-011     
  -0.16           -0.16           -4.7156e-010    -1.552e-010    
  -0.14           -0.14           -3.1812e-010    -1.094e-010    
  -0.12           -0.12           -2.0648e-010    -7.52e-011     
  -0.1            -0.1            -1.2822e-010    -1.66e-010     
  -0.08           -0.08           -7.262e-011     -2.266e-010    
  -0.06           -0.06           -3.498e-011     -1.524e-010    
  -0.04           -0.04           -1.286e-011     -1.458e-010    
  -0.02           -0.02           3.74e-012       -6e-011        
  0               0               1.53e-011       -1.578e-010    
  0.02            0.02            1.79e-011       -8.64e-011     
  0.04            0.04            2.222e-011      -1.928e-010    
  0.06            0.06            2.234e-011      -6.34e-011     
  0.08            0.08            2.01e-011       -7.6e-012      
  0.1             0.1             2.164e-011      -6.34e-011     
  0.12            0.12            1.988e-011      -7e-012        
  0.14            0.14            1.752e-011      -1.514e-010    
  0.16            0.16            1.8e-011        -5.16e-011     
  0.18            0.18            1.75e-011       -7.4e-012      
  0.2             0.2             1.824e-011      -8.76e-011     
  0.22            0.22            1.982e-011      2.82e-011      
  0.24            0.24            1.952e-011      -1.69e-010     
  0.26            0.26            1.724e-011      -9e-011        
  0.28            0.28            1.678e-011      -1.108e-010    
  0.3             0.3             1.492e-011      -1e-012        
  0.32            0.32            1.952e-011      -5.68e-011     
  0.34            0.34            1.696e-011      5.66e-011      
  0.36            0.36            1.94e-011       -6.64e-011     
  0.38            0.38            1.938e-011      1.78e-010      
  0.4             0.4             2.22e-011       3.188e-010     
  0.42            0.42            2.562e-011      7.636e-010     
  0.44            0.44            3.224e-011      1.5592e-009    
  0.46            0.46            3.598e-011      3.5438e-009    
  0.48            0.48            4.838e-011      1.2094e-008    
  0.5             0.5             7.826e-011      1.9952e-008    
  0.52            0.52            1.2332e-010     4.2668e-008    
  0.54            0.54            2.0784e-010     8.638e-008     
  0.56            0.56            3.8868e-010     1.912e-007     
  0.58            0.58            7.5002e-010     4.0908e-007    
  0.6             0.6             1.5018e-009     8.7584e-007    
  0.62            0.62            3.062e-009      1.8848e-006    
  0.64            0.64            6.3318e-009     4.035e-006     
  0.66            0.66            1.3168e-008     8.628e-006     
  0.68            0.68            2.7588e-008     1.8484e-005    
  0.7             0.7             5.7732e-008     3.9304e-005    
  0.72            0.72            1.2112e-007     8.3486e-005    
  0.74            0.74            2.5206e-007     0.00017562     
  0.76            0.76            5.2094e-007     0.00036438     
  0.78            0.78            1.06372e-006    0.0007417      
  0.8             0.8             2.1124e-006     0.0014506      
  0.82            0.82            4.082e-006      0.0026924      
  0.84            0.84            8.932e-006      0.0044634      
  0.86            0.86            2.8576e-005     0.0056292      
  0.88            0.88            6.8082e-005     0.0066668      
  0.9             0.9             0.00013544      0.0080054      
  0.92            0.92            0.00024346      0.0097948      
  0.94            0.94            0.00040504      0.012036       
  0.96            0.96            0.0006385       0.014744       
  0.98            0.98            0.0009551       0.017834       
  1               1               0.0013712       0.02131        
END_DB

