! VERSION = 6.00
!Data measured by ggf on Wed Jan 24 09:16:49 2018 using model file NPN_MEAS_SCALE
BEGIN_HEADER
 ICCAP_INPUTS
  ve         V  E GROUND SMU_E 0.2 CON        0
  vc         V  C GROUND SMU_C 0.2 SYNC       1 1 vb
  vs         V  S GROUND SMU_S 0.015 CON        0
  vb         V  B GROUND SMU_B 0.015 LIN        1    -1         1          101  0.02      
 ICCAP_OUTPUTS
  ib         I  B GROUND SMU_B M
  ic         I  C GROUND SMU_C M
 ICCAP_VALUES
  TNOM "27"
  TEMP "27"
  TECHNO "SG13G2"
  LOT "EDJ802"
  WAFER "02"
  CHIP "(3.3)"
  MODULE "S439S"
  DEV_NAME "D03"
  DEV_GEOM_L "2.5"
  DEV_GEOM_W "0.07"
  NUM_OF_TRANS_RF "2"
  REMARKS "Nx=2; Power -30/-20dBm, Slope: 0.1dB/GHz"
  TIMEDATE "Wed Jan 24 08:59:39     2018"
  OPERATOR "ggf"
END_HEADER

BEGIN_DB
 ICCAP_VAR ve         0              
 ICCAP_VAR vs         0              

 #vb              vc              ib              ic             
  -1              0               -1.7524e-006    -2.974e-010    
  -0.98           0.02            -1.5564e-006    -8.46e-011     
  -0.96           0.04            -1.3786e-006    -1.11e-010     
  -0.94           0.06            -1.2198e-006    -1.232e-010    
  -0.92           0.08            -1.0752e-006    -7e-011        
  -0.9            0.1             -9.469e-007     -6.74e-011     
  -0.88           0.12            -8.3158e-007    -4.94e-011     
  -0.86           0.14            -7.2856e-007    -6.86e-011     
  -0.84           0.16            -6.367e-007     -3.22e-011     
  -0.82           0.18            -5.5484e-007    -5.56e-011     
  -0.8            0.2             -4.8246e-007    -1.66e-011     
  -0.78           0.22            -4.1814e-007    -4.42e-011     
  -0.76           0.24            -3.616e-007     6.34e-011      
  -0.74           0.26            -3.118e-007     8.4e-012       
  -0.72           0.28            -2.6778e-007    6.4e-012       
  -0.7            0.3             -2.2958e-007    1.42e-011      
  -0.68           0.32            -1.96e-007      8.6e-012       
  -0.66           0.34            -1.6672e-007    -3.96e-011     
  -0.64           0.36            -1.4184e-007    -7.2e-012      
  -0.62           0.38            -1.1968e-007    4.02e-011      
  -0.6            0.4             -1.008e-007     2.88e-011      
  -0.58           0.42            -8.4576e-008    1.59e-010      
  -0.56           0.44            -7.0606e-008    4.14e-011      
  -0.54           0.46            -5.876e-008     1.138e-010     
  -0.52           0.48            -4.8674e-008    1.762e-010     
  -0.5            0.5             -4.0096e-008    1.51e-010      
  -0.48           0.52            -3.2908e-008    1.274e-010     
  -0.46           0.54            -2.683e-008     1.144e-010     
  -0.44           0.56            -2.178e-008     1.146e-010     
  -0.42           0.58            -1.7578e-008    1.638e-010     
  -0.4            0.6             -1.411e-008     1.4e-010       
  -0.38           0.62            -1.1246e-008    1.54e-010      
  -0.36           0.64            -8.8972e-009    1.812e-010     
  -0.34           0.66            -6.9966e-009    1.694e-010     
  -0.32           0.68            -5.4526e-009    6.84e-011      
  -0.3            0.7             -4.2096e-009    2.66e-011      
  -0.28           0.72            -3.2208e-009    1.1e-010       
  -0.26           0.74            -2.4408e-009    -1.32e-011     
  -0.24           0.76            -1.8296e-009    1.4e-011       
  -0.22           0.78            -1.358e-009     4.9e-011       
  -0.2            0.8             -9.876e-010     -2.76e-011     
  -0.18           0.82            -7.1446e-010    4.14e-011      
  -0.16           0.84            -5.0766e-010    -6.38e-011     
  -0.14           0.86            -3.537e-010     -4.4e-012      
  -0.12           0.88            -2.437e-010     -6.46e-011     
  -0.1            0.9             -1.6334e-010    5.76e-011      
  -0.08           0.92            -1.0774e-010    -6.86e-011     
  -0.06           0.94            -7.118e-011     -4.54e-011     
  -0.04           0.96            -4.536e-011     -6.9e-011      
  -0.02           0.98            -3.372e-011     6.24e-011      
  0               1               -2.15e-011      -5.8e-011      
  0.02            1.02            -1.788e-011     -6.68e-011     
  0.04            1.04            -1.74e-011      -3.88e-011     
  0.06            1.06            -1.298e-011     -1.6e-012      
  0.08            1.08            -1.45e-011      -6.8e-012      
  0.1             1.1             -1.592e-011     1.52e-011      
  0.12            1.12            -1.412e-011     2.12e-011      
  0.14            1.14            -1.6e-011       -1.74e-011     
  0.16            1.16            -2.004e-011     9.38e-011      
  0.18            1.18            -1.78e-011      -1.156e-010    
  0.2             1.2             -1.914e-011     2.26e-011      
  0.22            1.22            -2.05e-011      -4e-012        
  0.24            1.24            -1.736e-011     1.34e-011      
  0.26            1.26            -1.798e-011     4.02e-011      
  0.28            1.28            -1.746e-011     3.02e-011      
  0.3             1.3             -1.656e-011     5.18e-011      
  0.32            1.32            -1.77e-011      1.64e-011      
  0.34            1.34            -1.516e-011     2.54e-011      
  0.36            1.36            -1.574e-011     1.372e-010     
  0.38            1.38            -1.324e-011     2.704e-010     
  0.4             1.4             -1.356e-011     3.236e-010     
  0.42            1.42            -1.14e-011      7.5e-010       
  0.44            1.44            -6.26e-012      1.7106e-009    
  0.46            1.46            6.8e-013        3.5396e-009    
  0.48            1.48            1.282e-011      9.35e-009      
  0.5             1.5             3.58e-011       2.0234e-008    
  0.52            1.52            7.988e-011      4.2836e-008    
  0.54            1.54            1.535e-010      8.344e-008     
  0.56            1.56            3.173e-010      1.9186e-007    
  0.58            1.58            6.456e-010      4.0988e-007    
  0.6             1.6             1.3324e-009     8.7724e-007    
  0.62            1.62            2.7556e-009     1.8886e-006    
  0.64            1.64            5.7648e-009     4.0432e-006    
  0.66            1.66            1.2108e-008     8.645e-006     
  0.68            1.68            2.5574e-008     1.8538e-005    
  0.7             1.7             5.3826e-008     3.9444e-005    
  0.72            1.72            1.1376e-007     8.3952e-005    
  0.74            1.74            2.4016e-007     0.00017722     
  0.76            1.76            5.0304e-007     0.0003703      
  0.78            1.78            1.04738e-006    0.0007633      
  0.8             1.8             2.1412e-006     0.0015238      
  0.82            1.82            4.2758e-006     0.0029162      
  0.84            1.84            8.2204e-006     0.005198       
  0.86            1.86            1.6822e-005     0.0081746      
  0.88            1.88            4.5522e-005     0.009873       
  0.9             1.9             0.000102544     0.0113622      
  0.92            1.92            0.00020332      0.01336        
  0.94            1.94            0.0003644       0.016068       
  0.96            1.96            0.00060744      0.019502       
  0.98            1.98            0.0009533       0.023532       
  1               2               0.001432        0.0281         
END_DB

