! VERSION = 6.00
!Data measured by ggf on Wed Jan 24 09:16:49 2018 using model file NPN_MEAS_SCALE
BEGIN_HEADER
 ICCAP_INPUTS
  ve         V  E GROUND SMU_E 0.2 CON        0
  vc         V  C GROUND SMU_C 0.2 SYNC       1 -0.5 vb
  vs         V  S GROUND SMU_S 0.015 CON        0
  vb         V  B GROUND SMU_B 0.015 LIN        1    -1         1          101  0.02      
 ICCAP_OUTPUTS
  ib         I  B GROUND SMU_B M
  ic         I  C GROUND SMU_C M
 ICCAP_VALUES
  TNOM "27"
  TEMP "27"
  TECHNO "SG13G2"
  LOT "EDJ802"
  WAFER "02"
  CHIP "(3.3)"
  MODULE "S439S"
  DEV_NAME "D03"
  DEV_GEOM_L "2.5"
  DEV_GEOM_W "0.07"
  NUM_OF_TRANS_RF "2"
  REMARKS "Nx=2; Power -30/-20dBm, Slope: 0.1dB/GHz"
  TIMEDATE "Wed Jan 24 08:59:39     2018"
  OPERATOR "ggf"
END_HEADER

BEGIN_DB
 ICCAP_VAR ve         0              
 ICCAP_VAR vs         0              

 #vb              vc              ib              ic             
  -1              -1.5            -0.0036306      -0.049932      
  -0.98           -1.48           -0.0034582      -0.047372      
  -0.96           -1.46           -0.0032868      -0.044852      
  -0.94           -1.44           -0.003117       -0.04239       
  -0.92           -1.42           -0.0029516      -0.04          
  -0.9            -1.4            -0.0027872      -0.037672      
  -0.88           -1.38           -0.0026258      -0.035404      
  -0.86           -1.36           -0.002468       -0.03321       
  -0.84           -1.34           -0.0023138      -0.031088      
  -0.82           -1.32           -0.0021634      -0.02904       
  -0.8            -1.3            -0.0020166      -0.027056      
  -0.78           -1.28           -0.0018736      -0.025148      
  -0.76           -1.26           -0.0017338      -0.0233        
  -0.74           -1.24           -0.0015988      -0.02153       
  -0.72           -1.22           -0.0014686      -0.019836      
  -0.7            -1.2            -0.001343       -0.018214      
  -0.68           -1.18           -0.0012218      -0.016664      
  -0.66           -1.16           -0.0011054      -0.01519       
  -0.64           -1.14           -0.00099366     -0.013782      
  -0.62           -1.12           -0.00088708     -0.012444      
  -0.6            -1.1            -0.00078626     -0.011184      
  -0.58           -1.08           -0.00069094     -0.0099942     
  -0.56           -1.06           -0.00060138     -0.0088776     
  -0.54           -1.04           -0.00051744     -0.0078294     
  -0.52           -1.02           -0.00043972     -0.0068544     
  -0.5            -1              -0.00036822     -0.0059506     
  -0.48           -0.98           -0.0003028      -0.0051122     
  -0.46           -0.96           -0.0002444      -0.0043498     
  -0.44           -0.94           -0.00019256     -0.0036556     
  -0.42           -0.92           -0.0001479      -0.003035      
  -0.4            -0.9            -0.00010968     -0.0024772     
  -0.38           -0.88           -7.84e-005      -0.0019896     
  -0.36           -0.86           -5.3718e-005    -0.0015696     
  -0.34           -0.84           -3.5104e-005    -0.001215      
  -0.32           -0.82           -2.1806e-005    -0.00092128    
  -0.3            -0.8            -1.2948e-005    -0.0006867     
  -0.28           -0.78           -7.392e-006     -0.00050372    
  -0.26           -0.76           -4.0904e-006    -0.00036472    
  -0.24           -0.74           -2.2246e-006    -0.00026168    
  -0.22           -0.72           -1.1926e-006    -0.00018622    
  -0.2            -0.7            -6.3202e-007    -0.00013162    
  -0.18           -0.68           -3.267e-007     -9.2206e-005   
  -0.16           -0.66           -1.6232e-007    -6.398e-005    
  -0.14           -0.64           -7.3512e-008    -4.3738e-005   
  -0.12           -0.62           -2.6508e-008    -2.9514e-005   
  -0.1            -0.6            -1.5898e-009    -1.9602e-005   
  -0.08           -0.58           1.1318e-008     -1.2808e-005   
  -0.06           -0.56           1.8098e-008     -8.2048e-006   
  -0.04           -0.54           2.1564e-008     -5.1506e-006   
  -0.02           -0.52           2.3388e-008     -3.152e-006    
  0               -0.5            2.4362e-008     -1.883e-006    
  0.02            -0.48           2.4738e-008     -1.1044e-006   
  0.04            -0.46           2.5054e-008     -6.4918e-007   
  0.06            -0.44           2.5152e-008     -3.9376e-007   
  0.08            -0.42           2.5166e-008     -2.569e-007    
  0.1             -0.4            2.5242e-008     -1.8774e-007   
  0.12            -0.38           2.529e-008      -1.5348e-007   
  0.14            -0.36           2.5214e-008     -1.362e-007    
  0.16            -0.34           2.5222e-008     -1.2788e-007   
  0.18            -0.32           2.5286e-008     -1.2388e-007   
  0.2             -0.3            2.5214e-008     -1.213e-007    
  0.22            -0.28           2.5184e-008     -1.1952e-007   
  0.24            -0.26           2.5212e-008     -1.187e-007    
  0.26            -0.24           2.5158e-008     -1.1798e-007   
  0.28            -0.22           2.5264e-008     -1.1752e-007   
  0.3             -0.2            2.524e-008      -1.1684e-007   
  0.32            -0.18           2.526e-008      -1.1612e-007   
  0.34            -0.16           2.5216e-008     -1.1536e-007   
  0.36            -0.14           2.5206e-008     -1.1454e-007   
  0.38            -0.12           2.5212e-008     -1.145e-007    
  0.4             -0.1            2.522e-008      -1.1292e-007   
  0.42            -0.08           2.5234e-008     -1.1262e-007   
  0.44            -0.06           2.5194e-008     -1.106e-007    
  0.46            -0.04           2.5306e-008     -1.0796e-007   
  0.48            -0.02           2.5276e-008     -1.0226e-007   
  0.5             0               2.526e-008      -9.256e-008    
  0.52            0.02            2.531e-008      -7.054e-008    
  0.54            0.04            2.5432e-008     -2.3032e-008   
  0.56            0.06            2.5588e-008     8.0264e-008    
  0.58            0.08            2.5862e-008     2.9678e-007    
  0.6             0.1             2.6678e-008     7.6218e-007    
  0.62            0.12            2.841e-008      1.7642e-006    
  0.64            0.14            3.196e-008      3.9028e-006    
  0.66            0.16            3.935e-008      8.4666e-006    
  0.68            0.18            5.525e-008      1.825e-005     
  0.7             0.2             8.8262e-008     3.892e-005     
  0.72            0.22            1.5772e-007     8.2696e-005    
  0.74            0.24            3.012e-007      0.00017364     
  0.76            0.26            5.957e-007      0.00035894     
  0.78            0.28            1.2016e-006     0.00072482     
  0.8             0.3             2.5342e-006     0.0013872      
  0.82            0.32            7.371e-006      0.0023004      
  0.84            0.34            2.2178e-005     0.0030628      
  0.86            0.36            5.0446e-005     0.0038858      
  0.88            0.38            9.9276e-005     0.0049366      
  0.9             0.4             0.00017798      0.0062782      
  0.92            0.42            0.00030074      0.0079618      
  0.94            0.44            0.0004817       0.0099768      
  0.96            0.46            0.00074022      0.012326       
  0.98            0.48            0.00109174      0.014926       
  1               0.5             0.0015688       0.017702       
END_DB

