! VERSION = 6.00
!Data measured by ggf on Wed Jan 24 09:16:49 2018 using model file NPN_MEAS_SCALE
BEGIN_HEADER
 ICCAP_INPUTS
  ve         V  E GROUND SMU_E 0.2 CON        0
  vc         V  C GROUND SMU_C 0.2 LIN        2    0.5        2.5        5    0.5       
  vs         V  S GROUND SMU_S 0.015 CON        0
  vb         V  B GROUND SMU_B 0.015 LIN        1    0.4        1          31   0.02      
 ICCAP_OUTPUTS
  ib         I  B GROUND SMU_B M
  ic         I  C GROUND SMU_C M
 ICCAP_VALUES
  TNOM "27"
  TEMP "27"
  TECHNO "SG13G2"
  LOT "EDJ802"
  WAFER "02"
  CHIP "(3.3)"
  MODULE "S439S"
  DEV_NAME "D03"
  DEV_GEOM_L "2.5"
  DEV_GEOM_W "0.07"
  NUM_OF_TRANS_RF "2"
  REMARKS "Nx=2; Power -30/-20dBm, Slope: 0.1dB/GHz"
  TIMEDATE "Wed Jan 24 08:59:39     2018"
  OPERATOR "ggf"
END_HEADER

BEGIN_DB
 ICCAP_VAR ve         0              
 ICCAP_VAR vc         0.5            
 ICCAP_VAR vs         0              

 #vb              ib              ic             
  0.4             1.7928e-010     1.3494e-009    
  0.42            1.1076e-010     1.7108e-009    
  0.44            9.026e-011      2.5232e-009    
  0.46            8.074e-011      4.6238e-009    
  0.48            8.568e-011      9.3758e-009    
  0.5             9.994e-011      1.9588e-008    
  0.52            1.4168e-010     4.125e-008     
  0.54            2.2692e-010     8.8454e-008    
  0.56            4.0382e-010     1.9032e-007    
  0.58            7.7384e-010     4.0758e-007    
  0.6             1.5392e-009     8.7362e-007    
  0.62            3.1362e-009     1.8806e-006    
  0.64            6.4886e-009     4.0276e-006    
  0.66            1.3502e-008     8.6108e-006    
  0.68            2.8278e-008     1.8442e-005    
  0.7             5.9162e-008     3.9216e-005    
  0.72            1.2416e-007     8.3238e-005    
  0.74            2.581e-007      0.0001748      
  0.76            5.3226e-007     0.00036202     
  0.78            1.086e-006      0.0007335      
  0.8             2.1594e-006     0.0014242      
  0.82            4.566e-006      0.002576       
  0.84            1.5704e-005     0.0036254      
  0.86            4.194e-005      0.0044016      
  0.88            8.8552e-005     0.005371       
  0.9             0.0001647       0.0066498      
  0.92            0.0002848       0.0082888      
  0.94            0.00046294      0.010262       
  0.96            0.00071842      0.012558       
  0.98            0.00106966      0.01507        
  1               0.001557        0.01767        
END_DB

BEGIN_DB
 ICCAP_VAR ve         0              
 ICCAP_VAR vc         1              
 ICCAP_VAR vs         0              

 #vb              ib              ic             
  0.4             -6.7e-012       2.0558e-009    
  0.42            8.14e-012       1.9864e-009    
  0.44            1.52e-011       2.7768e-009    
  0.46            2.636e-011      4.8628e-009    
  0.48            4.028e-011      9.4258e-009    
  0.5             5.902e-011      1.8874e-008    
  0.52            1.068e-010      4.139e-008     
  0.54            1.9014e-010     8.8714e-008    
  0.56            3.5718e-010     1.9068e-007    
  0.58            7.0406e-010     4.0836e-007    
  0.6             1.4256e-009     8.7534e-007    
  0.62            2.9326e-009     1.8848e-006    
  0.64            6.097e-009      4.0362e-006    
  0.66            1.2766e-008     8.632e-006     
  0.68            2.6874e-008     1.8496e-005    
  0.7             5.6462e-008     3.9342e-005    
  0.72            1.1888e-007     8.361e-005     
  0.74            2.4864e-007     0.00017598     
  0.76            5.1592e-007     0.00036568     
  0.78            1.0596e-006     0.00074606     
  0.8             2.1108e-006     0.0014648      
  0.82            4.0724e-006     0.002731       
  0.84            8.0042e-006     0.004651       
  0.86            2.4984e-005     0.0060648      
  0.88            6.2972e-005     0.0070634      
  0.9             0.00012902      0.0083312      
  0.92            0.00023634      0.0100618      
  0.94            0.00039726      0.012254       
  0.96            0.00063012      0.014896       
  0.98            0.0009462       0.017908       
  1               0.0013614       0.021266       
END_DB

BEGIN_DB
 ICCAP_VAR ve         0              
 ICCAP_VAR vc         1.5            
 ICCAP_VAR vs         0              

 #vb              ib              ic             
  0.4             -5.59e-011      2.4796e-009    
  0.42            -4.054e-011     2.404e-009     
  0.44            -2.716e-011     2.9282e-009    
  0.46            -1.53e-011      4.9952e-009    
  0.48            4.4e-012        9.5706e-009    
  0.5             2.494e-011      1.988e-008     
  0.52            7.36e-011       4.1614e-008    
  0.54            1.56e-010       8.886e-008     
  0.56            3.2212e-010     1.9104e-007    
  0.58            6.607e-010      4.0888e-007    
  0.6             1.3696e-009     8.7614e-007    
  0.62            2.832e-009      1.8868e-006    
  0.64            5.9256e-009     4.0398e-006    
  0.66            1.2446e-008     8.6414e-006    
  0.68            2.6286e-008     1.8526e-005    
  0.7             5.5418e-008     3.942e-005     
  0.72            1.169e-007      8.3844e-005    
  0.74            2.4594e-007     0.0001768      
  0.76            5.1338e-007     0.00036878     
  0.78            1.0628e-006     0.0007572      
  0.8             2.1412e-006     0.0015014      
  0.82            4.2018e-006     0.0028422      
  0.84            7.9372e-006     0.0049884      
  0.86            1.8224e-005     0.0074134      
  0.88            4.99e-005       0.0086916      
  0.9             0.000109574     0.0100062      
  0.92            0.00021132      0.011814       
  0.94            0.00036846      0.014204       
  0.96            0.00059922      0.017172       
  0.98            0.00091888      0.020594       
  1               0.0013482       0.024434       
END_DB

BEGIN_DB
 ICCAP_VAR ve         0              
 ICCAP_VAR vc         2              
 ICCAP_VAR vs         0              

 #vb              ib              ic             
  0.4             -2.073e-010     3.2846e-009    
  0.42            -1.8918e-010    2.9844e-009    
  0.44            -1.7236e-010    3.4046e-009    
  0.46            -1.5592e-010    5.3938e-009    
  0.48            -1.3692e-010    9.5002e-009    
  0.5             -1.1392e-010    2.0206e-008    
  0.52            -6.798e-011     4.1828e-008    
  0.54            6.4e-012        8.9128e-008    
  0.56            1.4504e-010     1.9126e-007    
  0.58            4.3864e-010     4.0914e-007    
  0.6             1.038e-009      8.7694e-007    
  0.62            2.2994e-009     1.889e-006     
  0.64            4.9508e-009     4.044e-006     
  0.66            1.0682e-008     8.6502e-006    
  0.68            2.2968e-008     1.8552e-005    
  0.7             4.9066e-008     3.9494e-005    
  0.72            1.0506e-007     8.408e-005     
  0.74            2.2416e-007     0.00017762     
  0.76            4.7576e-007     0.00037172     
  0.78            1.00836e-006    0.0007681      
  0.8             2.0926e-006     0.0015392      
  0.82            4.249e-006      0.0029602      
  0.84            8.271e-006      0.0053026      
  0.86            1.6558e-005     0.00844        
  0.88            4.4414e-005     0.0102386      
  0.9             0.000101122     0.011702       
  0.92            0.00020232      0.013666       
  0.94            0.00036424      0.01634        
  0.96            0.00060816      0.019724       
  0.98            0.00095408      0.02367        
  1               0.0014304       0.028106       
END_DB

BEGIN_DB
 ICCAP_VAR ve         0              
 ICCAP_VAR vc         2.5            
 ICCAP_VAR vs         0              

 #vb              ib              ic             
  0.4             -4.7594e-010    6.75e-009      
  0.42            -4.5026e-010    2.0372e-009    
  0.44            -4.3104e-010    4.1744e-009    
  0.46            -4.1498e-010    5.8492e-009    
  0.48            -3.9692e-010    9.539e-009     
  0.5             -3.894e-010     2.0106e-008    
  0.52            -3.7078e-010    4.2514e-008    
  0.54            -3.6526e-010    8.9676e-008    
  0.56            -3.6682e-010    1.9234e-007    
  0.58            -3.7e-010       4.1002e-007    
  0.6             -3.7166e-010    8.7858e-007    
  0.62            -3.2442e-010    1.8882e-006    
  0.64            -9.874e-011     4.0486e-006    
  0.66            6.9782e-010     8.6622e-006    
  0.68            3.0972e-009     1.8588e-005    
  0.7             9.48e-009       3.9572e-005    
  0.72            2.7344e-008     8.4342e-005    
  0.74            7.261e-008      0.0001785      
  0.76            1.8792e-007     0.00037482     
  0.78            4.8352e-007     0.00077968     
  0.8             1.2132e-006     0.0015794      
  0.82            2.9038e-006     0.0030922      
  0.84            6.2048e-006     0.0056716      
  0.86            1.2108e-005     0.0093856      
  0.88            3.7474e-005     0.011752       
  0.9             9.4584e-005     0.013458       
  0.92            0.00020096      0.015716       
  0.94            0.00037876      0.018826       
  0.96            0.0006575       0.022818       
  0.98            0.00106718      0.02749        
  1               0.0016478       0.032716       
END_DB

