! VERSION = 6.00
!Data measured by ggf on Wed Jan 24 09:16:49 2018 using model file NPN_MEAS_SCALE
BEGIN_HEADER
 ICCAP_INPUTS
  ve         V  E GROUND SMU_E 0.2 CON        0
  vc         V  C GROUND SMU_C 0.2 SYNC       1 0.5 vb
  vs         V  S GROUND SMU_S 0.015 CON        0
  vb         V  B GROUND SMU_B 0.015 LIN        1    -1         1          101  0.02      
 ICCAP_OUTPUTS
  ib         I  B GROUND SMU_B M
  ic         I  C GROUND SMU_C M
 ICCAP_VALUES
  TNOM "27"
  TEMP "27"
  TECHNO "SG13G2"
  LOT "EDJ802"
  WAFER "02"
  CHIP "(3.3)"
  MODULE "S439S"
  DEV_NAME "D03"
  DEV_GEOM_L "2.5"
  DEV_GEOM_W "0.07"
  NUM_OF_TRANS_RF "2"
  REMARKS "Nx=2; Power -30/-20dBm, Slope: 0.1dB/GHz"
  TIMEDATE "Wed Jan 24 08:59:39     2018"
  OPERATOR "ggf"
END_HEADER

BEGIN_DB
 ICCAP_VAR ve         0              
 ICCAP_VAR vs         0              

 #vb              vc              ib              ic             
  -1              -0.5            -1.7542e-006    -1.771e-006    
  -0.98           -0.48           -1.5578e-006    -9.8546e-007   
  -0.96           -0.46           -1.3794e-006    -5.2738e-007   
  -0.94           -0.44           -1.22e-006      -2.7098e-007   
  -0.92           -0.42           -1.0764e-006    -1.3412e-007   
  -0.9            -0.4            -9.4668e-007    -6.541e-008    
  -0.88           -0.38           -8.3162e-007    -3.0794e-008   
  -0.86           -0.36           -7.2836e-007    -1.4102e-008   
  -0.84           -0.34           -6.3676e-007    -6.0858e-009   
  -0.82           -0.32           -5.5488e-007    -2.9372e-009   
  -0.8            -0.3            -4.8248e-007    -4.3318e-009   
  -0.78           -0.28           -4.18e-007      -1.0322e-010   
  -0.76           -0.26           -3.6156e-007    4.3722e-010    
  -0.74           -0.24           -3.1178e-007    -3.872e-010    
  -0.72           -0.22           -2.6776e-007    -3.512e-010    
  -0.7            -0.2            -2.2948e-007    -2.936e-010    
  -0.68           -0.18           -1.9594e-007    -2.214e-010    
  -0.66           -0.16           -1.6682e-007    -2.018e-010    
  -0.64           -0.14           -1.4136e-007    -1.428e-010    
  -0.62           -0.12           -1.1948e-007    -8.86e-011     
  -0.6            -0.1            -1.0058e-007    -1.452e-010    
  -0.58           -0.08           -8.454e-008     -2.94e-011     
  -0.56           -0.06           -7.058e-008     -1.864e-010    
  -0.54           -0.04           -5.8722e-008    -7.48e-011     
  -0.52           -0.02           -4.8648e-008    8.2e-012       
  -0.5            0               -4.0078e-008    -1.3e-011      
  -0.48           0.02            -3.2868e-008    2.54e-011      
  -0.46           0.04            -2.6802e-008    7.22e-011      
  -0.44           0.06            -2.1764e-008    1.398e-010     
  -0.42           0.08            -1.7532e-008    8.82e-011      
  -0.4            0.1             -1.4066e-008    8.38e-011      
  -0.38           0.12            -1.1204e-008    7.74e-011      
  -0.36           0.14            -8.8588e-009    2.52e-011      
  -0.34           0.16            -6.963e-009     5.6e-012       
  -0.32           0.18            -5.4194e-009    -1.06e-011     
  -0.3            0.2             -4.1766e-009    -4.04e-011     
  -0.28           0.22            -3.1906e-009    -7.62e-011     
  -0.26           0.24            -2.4156e-009    3.78e-011      
  -0.24           0.26            -1.7974e-009    -4.54e-011     
  -0.22           0.28            -1.3236e-009    -7.92e-011     
  -0.2            0.3             -9.6124e-010    -2.32e-011     
  -0.18           0.32            -6.8324e-010    -3.74e-011     
  -0.16           0.34            -4.7728e-010    -7.84e-011     
  -0.14           0.36            -3.2152e-010    6.2e-012       
  -0.12           0.38            -2.0988e-010    -1.338e-010    
  -0.1            0.4             -1.2914e-010    -1.24e-010     
  -0.08           0.42            -7.622e-011     -1.26e-010     
  -0.06           0.44            -4.024e-011     -9.12e-011     
  -0.04           0.46            -1.55e-011      -7.6e-011      
  -0.02           0.48            5.8e-013        -1.4e-011      
  0               0.5             1.088e-011      -3.3e-011      
  0.02            0.52            1.658e-011      -4.92e-011     
  0.04            0.54            1.628e-011      2.82e-011      
  0.06            0.56            1.6e-011        -1.74e-011     
  0.08            0.58            1.734e-011      1.46e-011      
  0.1             0.6             1.946e-011      -1.342e-010    
  0.12            0.62            1.624e-011      -2.8e-012      
  0.14            0.64            1.566e-011      -1.778e-010    
  0.16            0.66            1.274e-011      -8e-012        
  0.18            0.68            1.412e-011      -4.14e-011     
  0.2             0.7             1.516e-011      -1e-011        
  0.22            0.72            1.51e-011       -1.98e-011     
  0.24            0.74            1.172e-011      4e-012         
  0.26            0.76            1.38e-011       -8.56e-011     
  0.28            0.78            1.458e-011      -1.44e-011     
  0.3             0.8             1.364e-011      -7.32e-011     
  0.32            0.82            1.444e-011      5.88e-011      
  0.34            0.84            1.736e-011      -2.1e-011      
  0.36            0.86            1.712e-011      6.56e-011      
  0.38            0.88            1.798e-011      2.086e-010     
  0.4             0.9             1.828e-011      3.124e-010     
  0.42            0.92            2.108e-011      8.134e-010     
  0.44            0.94            2.77e-011       1.5744e-009    
  0.46            0.96            3.552e-011      3.6812e-009    
  0.48            0.98            4.25e-011       9.298e-009     
  0.5             1               7.342e-011      2.0104e-008    
  0.52            1.02            1.1478e-010     4.2874e-008    
  0.54            1.04            1.922e-010      8.556e-008     
  0.56            1.06            3.6276e-010     1.9168e-007    
  0.58            1.08            7.037e-010      4.0962e-007    
  0.6             1.1             1.4152e-009     8.772e-007     
  0.62            1.12            2.9026e-009     1.888e-006     
  0.64            1.14            6.0302e-009     4.042e-006     
  0.66            1.16            1.259e-008      8.643e-006     
  0.68            1.18            2.653e-008      1.8516e-005    
  0.7             1.2             5.577e-008      3.9404e-005    
  0.72            1.22            1.1744e-007     8.3782e-005    
  0.74            1.24            2.4664e-007     0.00017652     
  0.76            1.26            5.1394e-007     0.00036748     
  0.78            1.28            1.05792e-006    0.00075332     
  0.8             1.3             2.1264e-006     0.0014878      
  0.82            1.32            4.1484e-006     0.0028046      
  0.84            1.34            7.8282e-006     0.004896       
  0.86            1.36            1.9442e-005     0.0070764      
  0.88            1.38            5.2412e-005     0.0083126      
  0.9             1.4             0.000113272     0.0096758      
  0.92            1.42            0.00021544      0.011536       
  0.94            1.44            0.00037278      0.01398        
  0.96            1.46            0.00060406      0.01701        
  0.98            1.48            0.0009255       0.020518       
  1               1.5             0.0013576       0.024486       
END_DB

