! VERSION = 6.00
!Data measured by ggf on Wed Jan 24 09:16:49 2018 using model file NPN_MEAS_SCALE
BEGIN_HEADER
 ICCAP_INPUTS
  vc         V  C GROUND SMU_C 0.1 CON        0
  vs         V  S GROUND SMU_S 0.015 CON        0
  vb         V  B GROUND SMU_B 0.015 LIN        1    0          -2         81   -0.025    
  ve         V  E GROUND SMU_E 0.2 CON        0
 ICCAP_OUTPUTS
  ic         I  C GROUND SMU_C M
  ib         I  B GROUND SMU_B M
 ICCAP_VALUES
  TNOM "27"
  TEMP "27"
  TECHNO "SG13G2"
  LOT "EDJ802"
  WAFER "02"
  CHIP "(3.3)"
  MODULE "S439S"
  DEV_NAME "D03"
  DEV_GEOM_L "2.5"
  DEV_GEOM_W "0.07"
  NUM_OF_TRANS_RF "2"
  REMARKS "Nx=2; Power -30/-20dBm, Slope: 0.1dB/GHz"
  TIMEDATE "Wed Jan 24 08:59:39     2018"
  OPERATOR "ggf"
END_HEADER

BEGIN_DB
 ICCAP_VAR vc         0              
 ICCAP_VAR vs         0              
 ICCAP_VAR ve         0              

 #vb              ic              ib             
  0               -2.6794e-010    -5.332e-011    
  -0.025          3.282e-010      -6.956e-011    
  -0.05           3.7356e-010     -8.58e-011     
  -0.075          3.7786e-010     -1.242e-010    
  -0.1            4.6936e-010     -1.8756e-010   
  -0.125          4.495e-010      -2.8818e-010   
  -0.15           4.749e-010      -4.4746e-010   
  -0.175          5.253e-010      -6.7698e-010   
  -0.2            5.113e-010      -1.0206e-009   
  -0.225          7.3272e-010     -1.4906e-009   
  -0.25           8.1068e-010     -2.1466e-009   
  -0.275          6.5114e-010     -3.0418e-009   
  -0.3            6.835e-010      -4.2448e-009   
  -0.325          6.6388e-010     -5.8396e-009   
  -0.35           6.8812e-010     -7.9378e-009   
  -0.375          6.6622e-010     -1.0646e-008   
  -0.4            -2.9092e-010    -1.4146e-008   
  -0.425          5.31e-011       -1.862e-008    
  -0.45           -7.324e-011     -2.4246e-008   
  -0.475          -1.0598e-010    -3.132e-008    
  -0.5            -2.728e-011     -4.0134e-008   
  -0.525          -8.472e-011     -5.11e-008     
  -0.55           2.696e-011      -6.4466e-008   
  -0.575          -1.205e-010     -8.092e-008    
  -0.6            -1.956e-011     -1.0086e-007   
  -0.625          4.73e-011       -1.2504e-007   
  -0.65           -1.721e-010     -1.5404e-007   
  -0.675          -7.106e-011     -1.8846e-007   
  -0.7            -1.6042e-010    -2.2972e-007   
  -0.725          -5.232e-011     -2.7836e-007   
  -0.75           -1.2266e-010    -3.3614e-007   
  -0.775          -1.0524e-010    -4.0352e-007   
  -0.8            -9.144e-011     -4.8262e-007   
  -0.825          -7.42e-011      -5.743e-007    
  -0.85           -9.91e-011      -6.813e-007    
  -0.875          -1.2088e-010    -8.043e-007    
  -0.9            -8.84e-011      -9.4674e-007   
  -0.925          7.076e-011      -1.11e-006     
  -0.95           -6.766e-011     -1.2968e-006   
  -0.975          -9.244e-011     -1.5096e-006   
  -1              -4.592e-011     -1.7524e-006   
  -1.025          -7.236e-011     -2.0288e-006   
  -1.05           -5.072e-011     -2.3394e-006   
  -1.075          -5.61e-011      -2.6898e-006   
  -1.1            -7.708e-011     -3.0842e-006   
  -1.125          -3.328e-011     -3.5282e-006   
  -1.15           -2.782e-011     -4.022e-006    
  -1.175          -3.086e-011     -4.5778e-006   
  -1.2            -9.04e-012      -5.1932e-006   
  -1.225          -4.732e-011     -5.8804e-006   
  -1.25           3.368e-011      -6.6374e-006   
  -1.275          7.782e-011      -7.4834e-006   
  -1.3            -2.154e-011     -8.412e-006    
  -1.325          6.508e-011      -9.4414e-006   
  -1.35           5.328e-011      -1.05714e-005  
  -1.375          6.58e-012       -1.1812e-005   
  -1.4            6.29e-011       -1.3178e-005   
  -1.425          1.1866e-010     -1.467e-005    
  -1.45           1.5086e-010     -1.6296e-005   
  -1.475          1.1264e-010     -1.8084e-005   
  -1.5            1.97e-010       -2.0026e-005   
  -1.525          2.1176e-010     -2.2144e-005   
  -1.55           2.8698e-010     -2.4438e-005   
  -1.575          3.9362e-010     -2.694e-005    
  -1.6            4.5354e-010     -2.964e-005    
  -1.625          5.6016e-010     -3.2568e-005   
  -1.65           7.764e-010      -3.5734e-005   
  -1.675          8.4072e-010     -3.9146e-005   
  -1.7            2.4864e-009     -4.2834e-005   
  -1.725          1.0594e-009     -4.6786e-005   
  -1.75           1.9064e-009     -5.1072e-005   
  -1.775          2.4044e-009     -5.5642e-005   
  -1.8            2.8288e-009     -6.0568e-005   
  -1.825          3.6218e-009     -6.5834e-005   
  -1.85           4.4316e-009     -7.1492e-005   
  -1.875          5.3952e-009     -7.7554e-005   
  -1.9            6.6702e-009     -8.403e-005    
  -1.925          8.165e-009      -9.0908e-005   
  -1.95           1.00928e-008    -9.8288e-005   
  -1.975          1.22e-008       -0.00010612    
  -2              1.4102e-008     -0.00011448    
END_DB

