! VERSION = 6.00
!Data measured by ggf on Wed Jan 24 09:16:49 2018 using model file NPN_MEAS_SCALE
BEGIN_HEADER
 ICCAP_INPUTS
  vc         V  C GROUND SMU_C 0.2 SYNC       1 0 vb
  ve         V  E GROUND SMU_E 0.2 CON        0
  vs         V  S GROUND SMU_S 0 CON        0
  freq       F  LIST       1 74 100000000 200000000 300000000 400000000 500000000 600000000 700000000 800000000 900000000 1000000000 2000000000 3000000000 4000000000 5000000000 6000000000 7000000000 8000000000 9000000000 10000000000 11000000000 12000000000 13000000000 14000000000 15000000000 16000000000 17000000000 18000000000 19000000000 20000000000 21000000000 22000000000 23000000000 24000000000 25000000000 26000000000 27000000000 28000000000 29000000000 30000000000 31000000000 32000000000 33000000000 34000000000 35000000000 36000000000 37000000000 38000000000 39000000000 40000000000 41000000000 42000000000 43000000000 44000000000 45000000000 46000000000 47000000000 48000000000 49000000000 50000000000 51000000000 52000000000 53000000000 54000000000 55000000000 56000000000 57000000000 58000000000 59000000000 60000000000 61000000000 62000000000 63000000000 64000000000 65000000000
  vb         V  B GROUND SMU_B 0.015 LIN        2    0.74       0.87       27   0.005     
 ICCAP_OUTPUTS
  ic         I  C GROUND SMU_C M
  ib         I  B GROUND SMU_B M
  S          S  B C GROUND NWA M
  S_deemb    S B C GROUND n/a B
 ICCAP_VALUES
  TNOM "27"
  TEMP "27"
  TECHNO "SG13G2"
  LOT "EDJ802"
  WAFER "02"
  CHIP "(3.3)"
  MODULE "S439S"
  DEV_NAME "D03"
  DEV_GEOM_L "2.5"
  DEV_GEOM_W "0.07"
  NUM_OF_TRANS_RF "2"
  REMARKS "Nx=2; Power -30/-20dBm, Slope: 0.1dB/GHz"
  TIMEDATE "Wed Jan 24 08:59:39     2018"
  OPERATOR "ggf"
END_HEADER

BEGIN_DB
 ICCAP_VAR vc         0.74           
 ICCAP_VAR ve         0              
 ICCAP_VAR vs         0              
 ICCAP_VAR vb         0.74           

 #freq            ic              ib              R:S(1,1)        I:S(1,1)        R:S(1,2)        I:S(1,2)        R:S(2,1)        I:S(2,1)        R:S(2,2)        I:S(2,2)        R:S_deemb(1,1)  I:S_deemb(1,1)  R:S_deemb(1,2)  I:S_deemb(1,2)  R:S_deemb(2,1)  I:S_deemb(2,1)  R:S_deemb(2,2)  I:S_deemb(2,2) 
  1e+008          0.0001754       2.54e-007       0.998325        -0.00362945     4.50756e-005    0.00100161      -0.712133       -0.00625872     1.00092         -0.00295526     0.998549        -0.00248302     1.20722e-005    0.000939744     -0.712381       -0.00726586     1.00109         -0.00142231    
  2e+008          0.0001754       2.54e-007       0.999181        -0.009457       1.52025e-005    0.00189909      -0.692756       0.000806147     1.00085         -0.00663048     0.999217        -0.00698623     -9.12728e-007   0.00174941      -0.693361       -0.0011365      1.00108         -0.00409381    
  3e+008          0.0001754       2.54e-007       0.999334        -0.0150782      6.3315e-005     0.00288161      -0.695923       0.00597199      1.0006          -0.00918407     0.99929         -0.0115085      4.45172e-005    0.0026267       -0.696147       0.00315535      1.00071         -0.00540916    
  4e+008          0.0001754       2.54e-007       0.999587        -0.0201319      8.35342e-005    0.00380785      -0.68665        0.0108701       1.00021         -0.0119312      0.999296        -0.0154142      5.70438e-005    0.00345362      -0.687179       0.00710141      1.00063         -0.00684301    
  5e+008          0.0001754       2.54e-007       0.998871        -0.0255544      0.00010955      0.00477795      -0.694658       0.015258        1.00033         -0.0150396      0.998777        -0.0195752      4.43727e-005    0.0043321       -0.69507        0.0105992       1.00052         -0.0089003     
  6e+008          0.0001754       2.54e-007       0.998976        -0.0312863      0.000159587     0.00576223      -0.694335       0.0197338       1.00027         -0.0178165      0.998941        -0.0239382      0.000117792     0.00523267      -0.694653       0.0139954       1.00042         -0.0105105     
  7e+008          0.0001754       2.54e-007       0.998867        -0.0365744      0.000200561     0.00669953      -0.694664       0.0254031       0.999748        -0.0209554      0.998833        -0.028078       0.000105632     0.006104        -0.695272       0.0187097       1.0002          -0.0123478     
  8e+008          0.0001754       2.54e-007       0.998526        -0.0418639      0.000261912     0.00765565      -0.697046       0.030473        0.999975        -0.0235241      0.998699        -0.0320047      0.000163067     0.00696371      -0.697707       0.0228319       1.00035         -0.0137054     
  9e+008          0.0001754       2.54e-007       0.998155        -0.0472905      0.000314033     0.00858063      -0.691275       0.0363195       0.9998          -0.0266198      0.998353        -0.0364039      0.000172639     0.00779734      -0.692002       0.0277578       1.00029         -0.0156172     
  1e+009          0.0001754       2.54e-007       0.997692        -0.0524826      0.000422236     0.0095202       -0.697117       0.0421951       0.999403        -0.029415       0.998155        -0.0402754      0.000248264     0.00863691      -0.698046       0.0326288       0.99995         -0.0171638     
  2e+009          0.0001754       2.54e-007       0.993008        -0.103756       0.00158441      0.0189619       -0.677768       0.0847353       0.996821        -0.0580949      0.995274        -0.0795989      0.00102311      0.0172398       -0.680609       0.0660481       0.998479        -0.0336307     
  3e+009          0.0001754       2.54e-007       0.983941        -0.157121       0.00350948      0.0282208       -0.680275       0.124109        0.993437        -0.0863818      0.989469        -0.12096        0.00225374      0.0257831       -0.686177       0.0962294       0.996811        -0.0501855     
  4e+009          0.0001754       2.54e-007       0.972579        -0.206988       0.00613754      0.0372471       -0.671929       0.167871        0.989229        -0.113848       0.982406        -0.159773       0.00394038      0.0341374       -0.682158       0.131427        0.994802        -0.0658283     
  5e+009          0.0001754       2.54e-007       0.958931        -0.254776       0.00943159      0.0460471       -0.652565       0.206138        0.983238        -0.140731       0.97384         -0.197004       0.00605171      0.0424223       -0.667933       0.162192        0.991726        -0.0812122     
  6e+009          0.0001754       2.54e-007       0.940677        -0.30434        0.0134305       0.0543951       -0.633512       0.244217        0.975545        -0.169157       0.961952        -0.237549       0.00870136      0.0504143       -0.655173       0.193703        0.987518        -0.098216      
  7e+009          0.0001754       2.54e-007       0.920599        -0.350208       0.0179717       0.0624598       -0.616036       0.280788        0.969115        -0.195988       0.949519        -0.272989       0.0116078       0.0583392       -0.645116       0.223314        0.985107        -0.113786      
  8e+009          0.0001754       2.54e-007       0.899263        -0.392849       0.0230471       0.0700092       -0.59722        0.314849        0.960386        -0.220406       0.935671        -0.307798       0.014947        0.0659404       -0.633842       0.251979        0.980713        -0.12781       
  9e+009          0.0001754       2.54e-007       0.874826        -0.435766       0.0287363       0.0771842       -0.574195       0.346423        0.949852        -0.245721       0.920057        -0.342879       0.0187244       0.0734322       -0.619489       0.278962        0.975393        -0.142595      
  1e+010          0.0001754       2.54e-007       0.848291        -0.47708        0.0348398       0.0834875       -0.545386       0.377267        0.937925        -0.272206       0.902874        -0.377287       0.0228381       0.0803122       -0.599894       0.306864        0.969337        -0.159318      
  1.1e+010        0.0001754       2.54e-007       0.821126        -0.513161       0.0410998       0.0897065       -0.52477        0.401801        0.9291          -0.294404       0.885396        -0.407832       0.027046        0.0873075       -0.58803        0.32805         0.965699        -0.171771      
  1.2e+010        0.0001754       2.54e-007       0.791172        -0.549336       0.0481632       0.0954066       -0.499789       0.432598        0.917237        -0.316606       0.865692        -0.439769       0.0319078       0.094114        -0.573667       0.357247        0.960109        -0.184807      
  1.3e+010        0.0001754       2.54e-007       0.758582        -0.582374       0.0552252       0.100335        -0.475925       0.458656        0.901746        -0.337517       0.843289        -0.469605       0.0368248       0.100466        -0.56015        0.382565        0.951424        -0.197842      
  1.4e+010        0.0001754       2.54e-007       0.727321        -0.614477       0.062941        0.104544        -0.443849       0.477877        0.889844        -0.361222       0.822723        -0.499699       0.0424545       0.106548        -0.537863       0.403014        0.946624        -0.213156      
  1.5e+010        0.0001754       2.54e-007       0.69619         -0.64078        0.0706094       0.107928        -0.407216       0.492681        0.876701        -0.381083       0.801074        -0.524          0.0482123       0.111907        -0.509847       0.420895        0.940181        -0.225686      
  1.6e+010        0.0001754       2.54e-007       0.661847        -0.667595       0.0782059       0.110927        -0.380114       0.509826        0.863052        -0.398705       0.776866        -0.550294       0.0539667       0.117058        -0.49219        0.440231        0.932946        -0.2362        
  1.7e+010        0.0001754       2.54e-007       0.627335        -0.691139       0.0860544       0.113195        -0.34681        0.520193        0.845479        -0.41708        0.751991        -0.574321       0.0601415       0.121819        -0.467029       0.455179        0.92311         -0.248634      
  1.8e+010        0.0001754       2.54e-007       0.594162        -0.713085       0.0935159       0.11506         -0.319666       0.534117        0.831614        -0.435579       0.728474        -0.597364       0.0660453       0.126355        -0.449044       0.473168        0.916601        -0.260512      
  1.9e+010        0.0001754       2.54e-007       0.561128        -0.730285       0.101348        0.116513        -0.290301       0.549186        0.81905         -0.457445       0.703857        -0.615808       0.0723041       0.130641        -0.428991       0.493009        0.91191         -0.275245      
  2e+010          0.0001754       2.54e-007       0.523951        -0.750647       0.108471        0.11686         -0.261688       0.55289         0.802502        -0.465538       0.67619         -0.639408       0.0785924       0.133773        -0.406265       0.502783        0.901062        -0.279394      
  2.1e+010        0.0001754       2.54e-007       0.493442        -0.767892       0.115398        0.117388        -0.236689       0.563399        0.784616        -0.473989       0.654263        -0.658886       0.0846881       0.137305        -0.389279       0.519473        0.890641        -0.28466       
  2.2e+010        0.0001754       2.54e-007       0.459466        -0.779563       0.122914        0.117661        -0.205706       0.566229        0.762899        -0.494561       0.627281        -0.674287       0.0914696       0.140997        -0.364489       0.530401        0.879164        -0.30088       
  2.3e+010        0.0001754       2.54e-007       0.425084        -0.789578       0.129755        0.116577        -0.176608       0.569332        0.757637        -0.518905       0.600045        -0.688482       0.0975832       0.143088        -0.340969       0.540054        0.880427        -0.317134      
  2.4e+010        0.0001754       2.54e-007       0.39229         -0.804415       0.13467         0.116648        -0.154357       0.569097        0.771624        -0.519044       0.575287        -0.706928       0.101744        0.145075        -0.321481       0.544789        0.894811        -0.310946      
  2.5e+010        0.0001754       2.54e-007       0.363049        -0.813491       0.144085        0.11986         -0.136028       0.583737        0.801843        -0.516218       0.553856        -0.718803       0.109691        0.150332        -0.307015       0.562793        0.917536        -0.304158      
  2.6e+010        0.0001754       2.54e-007       0.330243        -0.817782       0.154887        0.113233        -0.0908911      0.586341        0.747427        -0.544298       0.525279        -0.72818        0.121191        0.148453        -0.268261       0.577082        0.873845        -0.325859      
  2.7e+010        0.0001754       2.54e-007       0.293817        -0.828004       0.159092        0.111047        -0.0669736      0.583795        0.671238        -0.562259       0.49445         -0.745304       0.126887        0.15097         -0.24996        0.588233        0.824606        -0.354048      
  2.8e+010        0.0001754       2.54e-007       0.264959        -0.831819       0.16581         0.106788        -0.0354265      0.577168        0.638557        -0.612554       0.470847        -0.754491       0.134645        0.151969        -0.22347        0.594628        0.813642        -0.40097       
  2.9e+010        0.0001754       2.54e-007       0.238041        -0.833352       0.168294        0.104491        -0.0190704      0.568229        0.644106        -0.614565       0.44857         -0.760571       0.13727         0.152005        -0.209099       0.590917        0.823503        -0.393669      
  3e+010          0.0001754       2.54e-007       0.205464        -0.835076       0.173419        0.103708        0.00169925      0.562976        0.649289        -0.601506       0.420743        -0.76855        0.142508        0.153099        -0.187638       0.591253        0.82408         -0.375429      
  3.1e+010        0.0001754       2.54e-007       0.17478         -0.841058       0.179649        0.100417        0.0272386       0.557714        0.623749        -0.608617       0.394768        -0.780621       0.149845        0.153048        -0.162136       0.595615        0.80443         -0.385754      
  3.2e+010        0.0001754       2.54e-007       0.155586        -0.83959        0.184346        0.0973232       0.0488653       0.548189        0.600816        -0.617642       0.378911        -0.782416       0.155646        0.153094        -0.140723       0.595818        0.790663        -0.395047      
  3.3e+010        0.0001754       2.54e-007       0.123081        -0.833345       0.189531        0.0944532       0.0661467       0.543819        0.594492        -0.631161       0.347694        -0.783307       0.161538        0.153471        -0.125132       0.598516        0.792565        -0.402033      
  3.4e+010        0.0001754       2.54e-007       0.0862362       -0.830003       0.195113        0.0905672       0.0894867       0.538572        0.581629        -0.639137       0.312757        -0.789349       0.168734        0.152822        -0.101387       0.602978        0.784973        -0.408627      
  3.5e+010        0.0001754       2.54e-007       0.0677788       -0.836097       0.198971        0.0868407       0.108599        0.528081        0.569241        -0.643257       0.299259        -0.799473       0.173886        0.151794        -0.0805628      0.600834        0.777556        -0.411402      
  3.6e+010        0.0001754       2.54e-007       0.0480271       -0.830633       0.202423        0.0825067       0.12538         0.518075        0.54275         -0.653586       0.280983        -0.79753        0.179413        0.150116        -0.0619773      0.599236        0.761415        -0.423829      
  3.7e+010        0.0001754       2.54e-007       0.0192879       -0.82509        0.20633         0.0794634       0.140044        0.509163        0.535184        -0.659079       0.25274         -0.799501       0.18438         0.149696        -0.0458014      0.596316        0.758719        -0.425124      
  3.8e+010        0.0001754       2.54e-007       -0.0101573      -0.821246       0.210371        0.0753978       0.158896        0.502845        0.522234        -0.669489       0.223282        -0.802795       0.190096        0.148166        -0.0257508      0.598851        0.75353         -0.434361      
  3.9e+010        0.0001754       2.54e-007       -0.0237864      -0.816899       0.213018        0.0711713       0.176423        0.490852        0.496538        -0.675177       0.212139        -0.800356       0.194945        0.146444        -0.00491033     0.595309        0.734704        -0.444245      
  4e+010          0.0001754       2.54e-007       -0.0438602      -0.81354        0.215867        0.0675838       0.188152        0.481265        0.490347        -0.684738       0.193964        -0.801614       0.198808        0.145522        0.00797904      0.590832        0.736286        -0.448923      
  4.1e+010        0.0001754       2.54e-007       -0.074158       -0.812268       0.219606        0.0643756       0.202872        0.474358        0.472995        -0.686256       0.164456        -0.808994       0.204068        0.144698        0.024197        0.591464        0.724285        -0.450178      
  4.2e+010        0.0001754       2.54e-007       -0.0905984      -0.802966       0.222655        0.059161        0.219639        0.461372        0.455812        -0.69528        0.148277        -0.803381       0.209356        0.142539        0.0444232       0.587695        0.717511        -0.461911      
  4.3e+010        0.0001754       2.54e-007       -0.117078       -0.79275        0.22498         0.0552222       0.230036        0.44932         0.442698        -0.698244       0.119675        -0.799465       0.213764        0.140631        0.0596942       0.581252        0.708944        -0.466032      
  4.4e+010        0.0001754       2.54e-007       -0.128505       -0.791674       0.227332        0.0516459       0.243817        0.440554        0.426149        -0.695083       0.110545        -0.800773       0.218138        0.139226        0.0764889       0.579566        0.694467        -0.464214      
  4.5e+010        0.0001754       2.54e-007       -0.149813       -0.785988       0.230614        0.0468573       0.255064        0.430775        0.404545        -0.713881       0.089401        -0.800564       0.223743        0.137139        0.0909898       0.576829        0.685318        -0.485773      
  4.6e+010        0.0001754       2.54e-007       -0.165548       -0.784818       0.232975        0.0435857       0.264556        0.42054         0.401287        -0.711482       0.0761396       -0.803929       0.227004        0.136323        0.10262         0.571872        0.685495        -0.480482      
  4.7e+010        0.0001754       2.54e-007       -0.19151        -0.772028       0.235694        0.0388717       0.276299        0.409372        0.384623        -0.707985       0.0468198       -0.797222       0.232663        0.134015        0.120511        0.56767         0.672016        -0.479796      
  4.8e+010        0.0001754       2.54e-007       -0.207618       -0.771266       0.238772        0.0327717       0.290688        0.395581        0.353955        -0.721584       0.0324149       -0.800666       0.239757        0.130732        0.141752        0.562289        0.650208        -0.501063      
