! VERSION = 6.00
!Data measured by ggf on Wed Jan 24 09:16:49 2018 using model file NPN_MEAS_SCALE
BEGIN_HEADER
 ICCAP_INPUTS
  vce        V  C GROUND SMU_C 0.015 LIN        2    1.8        -0.6       25   -0.1      
  vb         V  B GROUND SMU_B 0.015 CON        0
  ve         V  E GROUND SMU_E 0 CON        0
  vs         V  S GROUND SMU_S 0 CON        0
  freq       F  LIST       1 74 100000000 200000000 300000000 400000000 500000000 600000000 700000000 800000000 900000000 1000000000 2000000000 3000000000 4000000000 5000000000 6000000000 7000000000 8000000000 9000000000 10000000000 11000000000 12000000000 13000000000 14000000000 15000000000 16000000000 17000000000 18000000000 19000000000 20000000000 21000000000 22000000000 23000000000 24000000000 25000000000 26000000000 27000000000 28000000000 29000000000 30000000000 31000000000 32000000000 33000000000 34000000000 35000000000 36000000000 37000000000 38000000000 39000000000 40000000000 41000000000 42000000000 43000000000 44000000000 45000000000 46000000000 47000000000 48000000000 49000000000 50000000000 51000000000 52000000000 53000000000 54000000000 55000000000 56000000000 57000000000 58000000000 59000000000 60000000000 61000000000 62000000000 63000000000 64000000000 65000000000
 ICCAP_OUTPUTS
  S          S  B C GROUND NWA M
  ic         I  C GROUND SMU_C M
  S_deemb    S B C GROUND n/a B
 ICCAP_VALUES
  TNOM "27"
  TEMP "27"
  TECHNO "SG13G2"
  LOT "EDJ802"
  WAFER "02"
  CHIP "(3.3)"
  MODULE "S439S"
  DEV_NAME "D03"
  DEV_GEOM_L "2.5"
  DEV_GEOM_W "0.07"
  NUM_OF_TRANS_RF "2"
  REMARKS "Nx=2; Power -30/-20dBm, Slope: 0.1dB/GHz"
  TIMEDATE "Wed Jan 24 08:59:39     2018"
  OPERATOR "ggf"
END_HEADER

BEGIN_DB
 ICCAP_VAR vce        1.8            
 ICCAP_VAR vb         0              
 ICCAP_VAR ve         0              
 ICCAP_VAR vs         0              

 #freq            R:S(1,1)        I:S(1,1)        R:S(1,2)        I:S(1,2)        R:S(2,1)        I:S(2,1)        R:S(2,2)        I:S(2,2)        ic              R:S_deemb(1,1)  I:S_deemb(1,1)  R:S_deemb(1,2)  I:S_deemb(1,2)  R:S_deemb(2,1)  I:S_deemb(2,1)  R:S_deemb(2,2)  I:S_deemb(2,2) 
  1e+008          0.999598        -0.00215149     5.03697e-005    0.000925546     0.000126766     0.000819555     1.00089         -0.00248135     1.4668e-009     0.99981         -0.00102703     1.75141e-005    0.000863596     0.000357738     0.00078585      1.00105         -0.000973375   
  2e+008          1.00015         -0.0065429      -1.13499e-005   0.00180671      8.16735e-006    0.0018768       1.00067         -0.00518726     1.4668e-009     1.00017         -0.00412309     -2.6898e-005    0.00165687      -0.000185344    0.00169295      1.00089         -0.00270699    
  3e+008          1.00036         -0.010761       -4.10469e-006   0.00267188      -5.84747e-005   0.00277667      1.0007          -0.00779892     1.4668e-009     1.0003          -0.00727875     -2.13812e-005   0.00241654      6.98631e-005    0.00255773      1.00081         -0.00411903    
  4e+008          1.00082         -0.0144171      6.99864e-005    0.00357499      4.31542e-005    0.00359323      1.00046         -0.0101698      1.4668e-009     1.00049         -0.0098196      4.60086e-005    0.00322037      -0.000120233    0.00324114      1.00087         -0.00521078    
  5e+008          1.00049         -0.0189196      9.48796e-005    0.00445479      2.90378e-005    0.00437239      1.00049         -0.0127844      1.4668e-009     1.00034         -0.0130902      3.36832e-005    0.00400828      -1.80221e-005   0.00398734      1.00064         -0.00681054    
  6e+008          1.00042         -0.0225831      9.15602e-005    0.00532028      4.95525e-005    0.00536421      1.00047         -0.0151626      1.4668e-009     1.00031         -0.015414       5.61334e-005    0.00478977      0.000120683     0.00479429      1.0006          -0.0080533     
  7e+008          1.00043         -0.0265074      0.000161005     0.00620262      0.000101131     0.00620957      1.00001         -0.0178619      1.4668e-009     1.00029         -0.0182119      7.43931e-005    0.0056059       8.49634e-006    0.00555173      1.00041         -0.00947534    
  8e+008          1.00023         -0.0306187      0.000187405     0.0071205       0.000234782     0.00717311      1.00034         -0.0201065      1.4668e-009     1.00027         -0.0209913      9.9105e-005     0.00642684      0.000161687     0.00649827      1.00066         -0.0105451     
  9e+008          1.00019         -0.0344234      0.000228875     0.00796065      0.000187227     0.00791916      1.00008         -0.0226935      1.4668e-009     1.00021         -0.0237939      0.000101098     0.00717499      0.0001365       0.0070443       1.00049         -0.0119802     
  1e+009          0.999674        -0.0382578      0.000301777     0.00889644      0.000344299     0.00889255      0.999837        -0.0251146      1.4668e-009     0.999919        -0.0263424      0.000143935     0.00800987      0.000255748     0.00798738      1.00029         -0.0131906     
  2e+009          0.997775        -0.075883       0.00110745      0.0177022       0.00114527      0.017621        0.998046        -0.0494032      1.4668e-009     0.999227        -0.0522098      0.000610201     0.0159597       0.000636655     0.0157457       0.999377        -0.0255502     
  3e+009          0.992885        -0.11598        0.00261491      0.026424        0.00261821      0.0264668       0.996285        -0.0744466      1.4668e-009     0.996596        -0.0803324      0.00149477      0.0239265       0.00149712      0.0238882       0.998967        -0.0390841     
  4e+009          0.987341        -0.153222       0.00456586      0.0349859       0.0045891       0.0350562       0.993639        -0.0977252      1.4668e-009     0.994017        -0.106322       0.0025986       0.0317392       0.00265577      0.0317586       0.997966        -0.0507103     
  5e+009          0.980314        -0.190309       0.00704853      0.0435059       0.00714355      0.0435231       0.989443        -0.121007       1.4668e-009     0.990527        -0.132379       0.00399611      0.0396265       0.00416907      0.039607        0.996034        -0.0625483     
  6e+009          0.970093        -0.227809       0.0101921       0.051734        0.0102745       0.0517428       0.984359        -0.146159       1.4668e-009     0.984833        -0.160042       0.00589041      0.0473379       0.0059379       0.0474414       0.993694        -0.0761962     
  7e+009          0.959036        -0.264889       0.0137256       0.0597984       0.0138248       0.0596454       0.980262        -0.169977       1.4668e-009     0.979393        -0.18545        0.00787495      0.0550416       0.00793732      0.054882        0.992749        -0.0885795     
  8e+009          0.947322        -0.298143       0.0177667       0.067514        0.0178875       0.0674144       0.974504        -0.19174        1.4668e-009     0.973035        -0.209352       0.0102453       0.0625441       0.0104281       0.0624382       0.990429        -0.0996245     
  9e+009          0.933376        -0.334054       0.022377        0.0750579       0.022342        0.0748563       0.967163        -0.214697       1.4668e-009     0.965792        -0.235409       0.0129644       0.070085        0.0129254       0.0699184       0.987352        -0.11154       
  1e+010          0.917784        -0.368968       0.0274492       0.081888        0.027577        0.081895        0.958738        -0.239362       1.4668e-009     0.957399        -0.260968       0.0160204       0.0771305       0.0161371       0.0772974       0.983858        -0.125735      
  1.1e+010        0.901792        -0.400917       0.0325978       0.0887554       0.0325429       0.088683        0.953258        -0.259848       1.4668e-009     0.949269        -0.28467        0.0190396       0.0843756       0.0190111       0.0842596       0.982623        -0.135735      
  1.2e+010        0.884425        -0.432172       0.0385416       0.0953239       0.0388004       0.0950835       0.944953        -0.280732       1.4668e-009     0.940153        -0.308359       0.0226352       0.0915846       0.0228684       0.0914005       0.979595        -0.1465        
  1.3e+010        0.86453         -0.461984       0.044631        0.101213        0.0447915       0.100948        0.932824        -0.301064       1.4668e-009     0.928704        -0.33128        0.0263504       0.0984259       0.0265472       0.0982254       0.973421        -0.157871      
  1.4e+010        0.845013        -0.493606       0.0513701       0.106779        0.0515196       0.106688        0.92462         -0.323687       1.4668e-009     0.918797        -0.356874       0.0306231       0.105369        0.0308284       0.105176        0.971411        -0.170741      
  1.5e+010        0.825095        -0.520108       0.0582895       0.111547        0.0583249       0.110975        0.915348        -0.34333        1.4668e-009     0.907487        -0.377312       0.0351913       0.111661        0.0353336       0.111104        0.96821         -0.181557      
  1.6e+010        0.802495        -0.547764       0.0651925       0.115956        0.0649943       0.115565        0.905368        -0.361071       1.4668e-009     0.894474        -0.400012       0.0397419       0.117777        0.0395735       0.117266        0.964061        -0.190677      
  1.7e+010        0.778678        -0.573349       0.0725043       0.119891        0.0720485       0.11932         0.891082        -0.379692       1.4668e-009     0.880235        -0.421649       0.0447405       0.123806        0.0444001       0.12315         0.9571          -0.20174       
  1.8e+010        0.756523        -0.598056       0.0795532       0.123404        0.079039        0.122932        0.880821        -0.398765       1.4668e-009     0.868033        -0.442682       0.0495108       0.12962         0.0490543       0.129043        0.953812        -0.212407      
  1.9e+010        0.734706        -0.618256       0.0870902       0.126602        0.0872872       0.125905        0.871542        -0.42208        1.4668e-009     0.855026        -0.459285       0.0546752       0.135308        0.0550269       0.134595        0.952208        -0.226748      
  2e+010          0.70728         -0.642398       0.0942129       0.128748        0.093474        0.127749        0.858178        -0.431463       1.4668e-009     0.83831         -0.482024       0.0601218       0.140091        0.0596581       0.138903        0.944735        -0.230502      
  2.1e+010        0.686189        -0.664729       0.101142        0.131076        0.101034        0.130515        0.842997        -0.440838       1.4668e-009     0.827274        -0.501872       0.0652897       0.145298        0.0652763       0.144557        0.937147        -0.234925      
  2.2e+010        0.660957        -0.682064       0.109024        0.133264        0.108157        0.132032        0.824018        -0.462647       1.4668e-009     0.811024        -0.518446       0.0713815       0.150915        0.0707234       0.149382        0.928724        -0.250351      
  2.3e+010        0.634412        -0.699084       0.116412        0.133959        0.115169        0.133395        0.821496        -0.489653       1.4668e-009     0.793916        -0.535427       0.0770286       0.154847        0.0759647       0.153815        0.933163        -0.267431      
  2.4e+010        0.608305        -0.720343       0.121694        0.135404        0.120743        0.134928        0.837573        -0.49048        1.4668e-009     0.778053        -0.556593       0.0808373       0.158244        0.0800904       0.157356        0.949699        -0.260959      
  2.5e+010        0.587209        -0.735245       0.131033        0.141026        0.129654        0.140737        0.874207        -0.487397       1.4668e-009     0.766926        -0.570169       0.0877787       0.165809        0.0865776       0.165199        0.978398        -0.252522      
  2.6e+010        0.560281        -0.74894        0.143786        0.136574        0.142028        0.136767        0.822794        -0.522271       1.4668e-009     0.748466        -0.585287       0.0998959       0.166931        0.0977957       0.166371        0.939557        -0.278361      
  2.7e+010        0.52963         -0.764036       0.148644        0.135657        0.147989        0.135961        0.745916        -0.542017       1.4668e-009     0.726868        -0.603842       0.105068        0.171385        0.104088        0.17133         0.891557        -0.306278      
  2.8e+010        0.506349        -0.777263       0.157083        0.133246        0.155966        0.132683        0.71444         -0.597778       1.4668e-009     0.712777        -0.618346       0.113           0.175091        0.111968        0.173967        0.884216        -0.356086      
  2.9e+010        0.485037        -0.78604        0.160366        0.131869        0.159089        0.132011        0.719355        -0.601225       1.4668e-009     0.699128        -0.628214       0.115647        0.176409        0.113952        0.175993        0.89398         -0.349543      
  3e+010          0.455509        -0.795495       0.166753        0.132811        0.165367        0.132628        0.726182        -0.588851       1.4668e-009     0.677976        -0.641854       0.121373        0.179847        0.119888        0.179304        0.896389        -0.331284      
  3.1e+010        0.427264        -0.811269       0.174437        0.13055         0.173241        0.130634        0.702269        -0.598959       1.4668e-009     0.659057        -0.661578       0.129309        0.181757        0.128266        0.181077        0.880001        -0.343304      
  3.2e+010        0.410502        -0.817425       0.180616        0.128618        0.178805        0.128334        0.679254        -0.610549       1.4668e-009     0.649533        -0.668793       0.135701        0.183904        0.133681        0.183206        0.867687        -0.35429       
  3.3e+010        0.381227        -0.818682       0.187172        0.127401        0.184709        0.127899        0.674257        -0.625344       1.4668e-009     0.625515        -0.675195       0.141866        0.1868          0.139093        0.186553        0.871658        -0.361001      
  3.4e+010        0.346628        -0.825271       0.19492         0.124829        0.193353        0.124887        0.663002        -0.636379       1.4668e-009     0.59818         -0.689825       0.150395        0.18884         0.148588        0.188322        0.867287        -0.369403      
  3.5e+010        0.327689        -0.838898       0.200098        0.121609        0.198691        0.121947        0.650704        -0.643296       1.4668e-009     0.588512        -0.706726       0.156276        0.189332        0.154574        0.189183        0.861516        -0.374259      
  3.6e+010        0.308473        -0.840257       0.205176        0.118127        0.203344        0.118206        0.623884        -0.65615        1.4668e-009     0.574442        -0.710843       0.16283         0.189792        0.160601        0.1893          0.846952        -0.388637      
  3.7e+010        0.280418        -0.842028       0.210963        0.115746        0.208679        0.116605        0.616961        -0.663723       1.4668e-009     0.55074         -0.719612       0.16914         0.191186        0.166449        0.191303        0.845942        -0.391076      
  3.8e+010        0.251237        -0.846404       0.216853        0.112297        0.215443        0.113475        0.604695        -0.676319       1.4668e-009     0.525833        -0.731474       0.176242        0.191588        0.173776        0.19262         0.842908        -0.401541      
  3.9e+010        0.236062        -0.848516       0.221355        0.10815         0.220182        0.108453        0.578617        -0.685481       1.4668e-009     0.516748        -0.734834       0.182686        0.191381        0.180845        0.191519        0.825976        -0.414583      
  4e+010          0.215723        -0.851548       0.225473        0.105489        0.223535        0.106157        0.571867        -0.696371       1.4668e-009     0.501735        -0.74189        0.187065        0.192407        0.184786        0.19182         0.827886        -0.419972      
  4.1e+010        0.185255        -0.858109       0.231107        0.102539        0.229146        0.103985        0.555019        -0.700053       1.4668e-009     0.476632        -0.757598       0.193964        0.193256        0.190991        0.19381         0.817823        -0.422575      
  4.2e+010        0.167545        -0.856196       0.236708        0.0975912       0.234599        0.0975508       0.537176        -0.712301       1.4668e-009     0.462874        -0.759595       0.201503        0.193166        0.19877         0.191882        0.81274         -0.437136      
  4.3e+010        0.139632        -0.853606       0.240523        0.0931954       0.237315        0.0953776       0.523336        -0.716734       1.4668e-009     0.436877        -0.76418        0.207425        0.192096        0.202793        0.192974        0.804681        -0.44268       
  4.4e+010        0.125572        -0.856766       0.244118        0.0898704       0.242055        0.090742        0.506307        -0.715636       1.4668e-009     0.428094        -0.770176       0.212889        0.192316        0.209776        0.191983        0.791423        -0.442775      
  4.5e+010        0.103305        -0.857966       0.249431        0.0860472       0.247079        0.0873309       0.484176        -0.737051       1.4668e-009     0.409751        -0.777574       0.220021        0.192968        0.216759        0.193207        0.783721        -0.46668       
  4.6e+010        0.0868936       -0.86085        0.253589        0.0821634       0.251131        0.0840065       0.480432        -0.736071       1.4668e-009     0.398498        -0.784742       0.225136        0.192773        0.221258        0.193477        0.784375        -0.46247       
  4.7e+010        0.0577402       -0.855891       0.257978        0.0772046       0.25629         0.0798567       0.463451        -0.73413        1.4668e-009     0.369901        -0.788033       0.232686        0.191971        0.229911        0.194384        0.772195        -0.463201      
  4.8e+010        0.0383438       -0.862169       0.263012        0.0712776       0.260659        0.0718663       0.431704        -0.750511       1.4668e-009     0.356481        -0.800481       0.241952        0.191059        0.239004        0.190874        0.751827        -0.487622      
  4.9e+010        0.0261055       -0.857767       0.265278        0.0666126       0.261832        0.0687977       0.431586        -0.75719        1.4668e-009     0.346307        -0.797448       0.24572         0.189311        0.240945        0.190048        0.758965        -0.490082      
  5e+010          0.00765909      -0.860077       0.270043        0.0627311       0.267956        0.066791        0.424917        -0.751153       1.4668e-009     0.332723        -0.806588       0.252943        0.189691        0.248484        0.192769        0.754508        -0.481852      
  5.1e+010        -0.0262267      -0.849823       0.273696        0.0546475       0.271593        0.0559524       0.39782         -0.754196       1.4668e-009     0.295603        -0.807386       0.262416        0.184547        0.259433        0.18494         0.73181         -0.491987      
  5.2e+010        -0.0403756      -0.859225       0.273802        0.0481445       0.269447        0.0503608       0.377453        -0.769798       1.4668e-009     0.290216        -0.822681       0.267098        0.181693        0.260764        0.18196         0.723899        -0.51248       
