! VERSION = 6.00
!Data measured by ggf on Mon Jan 22 13:51:52 2018 using model file NPN_MEAS_SCALE
BEGIN_HEADER
 ICCAP_INPUTS
  vb         V  B GROUND GND 0 CON        0
  vc         V  C GROUND GND 0 CON        0
  ve         V  E GROUND SMU_E 0 CON        0
  vs         V  S GROUND SMU_S 0 CON        0
  freq       F  LIST       1 74 100000000 200000000 300000000 400000000 500000000 600000000 700000000 800000000 900000000 1000000000 2000000000 3000000000 4000000000 5000000000 6000000000 7000000000 8000000000 9000000000 10000000000 11000000000 12000000000 13000000000 14000000000 15000000000 16000000000 17000000000 18000000000 19000000000 20000000000 21000000000 22000000000 23000000000 24000000000 25000000000 26000000000 27000000000 28000000000 29000000000 30000000000 31000000000 32000000000 33000000000 34000000000 35000000000 36000000000 37000000000 38000000000 39000000000 40000000000 41000000000 42000000000 43000000000 44000000000 45000000000 46000000000 47000000000 48000000000 49000000000 50000000000 51000000000 52000000000 53000000000 54000000000 55000000000 56000000000 57000000000 58000000000 59000000000 60000000000 61000000000 62000000000 63000000000 64000000000 65000000000
 ICCAP_OUTPUTS
  S          S  B C Ground NWA M
 ICCAP_VALUES
  TNOM "27"
  TEMP "27"
  TECHNO "SG13G2"
  LOT "EDJ802"
  WAFER "02"
  CHIP "(3.3)"
  MODULE "S439S"
  DEV_NAME "D43"
  DEV_GEOM_L "0.9"
  DEV_GEOM_W "0.07"
  NUM_OF_TRANS_RF "1"
  REMARKS "Nx=8; Power -30/-20dBm, Slope: 0.1dB/GHz"
  TIMEDATE "Mon Jan 22 13:50:26     2018"
  OPERATOR "ggf"
END_HEADER

BEGIN_DB
 ICCAP_VAR vb         0              
 ICCAP_VAR vc         0              
 ICCAP_VAR ve         0              
 ICCAP_VAR vs         0              

 #freq            R:S(1,1)        I:S(1,1)        R:S(1,2)        I:S(1,2)        R:S(2,1)        I:S(2,1)        R:S(2,2)        I:S(2,2)       
  1e+008          0.999584        -0.00223954     -1.77454e-005   0.000248715     1.37153e-005    0.000340064     0.999659        -0.00191234    
  2e+008          0.999911        -0.0036136      1.84821e-005    0.000521375     0.000191513     0.000407324     0.999866        -0.00343216    
  3e+008          1.00003         -0.00508348     4.66847e-005    0.000865067     8.29555e-005    0.000783327     0.999631        -0.0044783     
  4e+008          0.999621        -0.00591477     1.96577e-005    0.00112565      -0.000118777    0.0011295       0.999871        -0.00670554    
  5e+008          1.00003         -0.00840884     2.85878e-005    0.00137988      1.33987e-006    0.00146942      0.999716        -0.00834674    
  6e+008          0.999595        -0.0092609      1.14067e-005    0.0016847       -1.31842e-005   0.0016175       0.999734        -0.0100184     
  7e+008          0.999637        -0.0106937      1.12672e-005    0.00194363      3.40892e-005    0.00203305      0.99971         -0.0116886     
  8e+008          0.999481        -0.0121074      5.73508e-005    0.00225195      -2.23481e-005   0.00240588      0.9996          -0.0132193     
  9e+008          0.999579        -0.0137661      3.21903e-005    0.00253073      -1.97939e-005   0.00245768      0.999512        -0.0149941     
  1e+009          0.99943         -0.0155046      4.96084e-005    0.00279395      5.44301e-005    0.00272018      0.999715        -0.0164479     
  2e+009          0.998899        -0.0306254      0.000218079     0.00555112      0.000145431     0.00549554      0.99878         -0.0328244     
  3e+009          0.997885        -0.0453628      0.000463565     0.00832771      0.000424253     0.00843092      0.997797        -0.0492306     
  4e+009          0.996688        -0.0602149      0.00079705      0.0110476       0.000755634     0.011098        0.996454        -0.065494      
  5e+009          0.995373        -0.0752235      0.00117972      0.0138412       0.00112101      0.0138573       0.9951          -0.0813935     
  6e+009          0.993906        -0.0904426      0.00168739      0.0165289       0.0017346       0.0165951       0.993069        -0.0976589     
  7e+009          0.991713        -0.104939       0.00231208      0.0192869       0.00235185      0.0193372       0.990566        -0.113855      
  8e+009          0.989747        -0.119667       0.00300648      0.0219767       0.0030371       0.0219739       0.988233        -0.129775      
  9e+009          0.987014        -0.134232       0.00379333      0.0246174       0.00370418      0.024671        0.985256        -0.145501      
  1e+010          0.984685        -0.149673       0.00471219      0.0271851       0.00465432      0.0272405       0.982293        -0.161419      
  1.1e+010        0.981313        -0.162641       0.0056368       0.0298535       0.00568004      0.0301061       0.978775        -0.177077      
  1.2e+010        0.977786        -0.177639       0.00676318      0.0325035       0.0067197       0.032594        0.97462         -0.192726      
  1.3e+010        0.974035        -0.191819       0.0079228       0.0349388       0.0079512       0.0350313       0.970746        -0.207993      
  1.4e+010        0.970162        -0.205785       0.00929208      0.037387        0.0093748       0.0376035       0.966174        -0.222968      
  1.5e+010        0.965668        -0.220507       0.0106676       0.0396699       0.0106119       0.0397641       0.961512        -0.237906      
  1.6e+010        0.961317        -0.233635       0.0121022       0.0419202       0.0120921       0.0419902       0.956194        -0.253234      
  1.7e+010        0.956971        -0.247087       0.0136268       0.0441397       0.0134746       0.0441856       0.951395        -0.26787       
  1.8e+010        0.951806        -0.260661       0.0152033       0.0460869       0.0151095       0.0462906       0.945536        -0.282225      
  1.9e+010        0.9464          -0.274277       0.0166296       0.0481376       0.0167593       0.0481497       0.939376        -0.29692       
  2e+010          0.941215        -0.287063       0.0182394       0.050087        0.0183818       0.0504363       0.933437        -0.3104        
  2.1e+010        0.935306        -0.299708       0.0199316       0.0519098       0.0199672       0.0521219       0.926743        -0.324616      
  2.2e+010        0.929225        -0.312596       0.0216396       0.0537903       0.0217572       0.0536846       0.920346        -0.338544      
  2.3e+010        0.923555        -0.324976       0.0232587       0.0553808       0.0232988       0.055612        0.913486        -0.351874      
  2.4e+010        0.917846        -0.33726        0.0248612       0.0571241       0.0248498       0.0571907       0.906918        -0.364649      
  2.5e+010        0.911783        -0.34977        0.0264106       0.0588809       0.0268284       0.0588018       0.899491        -0.378473      
  2.6e+010        0.904653        -0.361983       0.0284493       0.0605591       0.0287198       0.0607347       0.892613        -0.392245      
  2.7e+010        0.897876        -0.373327       0.0303793       0.0620536       0.0304935       0.0624291       0.885699        -0.403311      
  2.8e+010        0.890786        -0.385172       0.0321247       0.06324         0.0326235       0.0639709       0.874998        -0.41765       
  2.9e+010        0.884075        -0.396598       0.0336193       0.0646173       0.0340904       0.0644539       0.867155        -0.429071      
  3e+010          0.877139        -0.407804       0.0351405       0.0664441       0.0354395       0.0667272       0.859575        -0.441639      
  3.1e+010        0.869896        -0.419318       0.0372282       0.06758         0.0373244       0.0680559       0.851226        -0.451992      
  3.2e+010        0.863168        -0.430961       0.0394284       0.0692809       0.039974        0.0690089       0.841989        -0.463849      
  3.3e+010        0.854911        -0.441457       0.041453        0.0706982       0.0419628       0.0703401       0.833851        -0.476104      
  3.4e+010        0.846626        -0.451374       0.0437489       0.0720951       0.0440519       0.0723712       0.824795        -0.486724      
  3.5e+010        0.838342        -0.461494       0.0460593       0.0728865       0.0464699       0.0727749       0.81494         -0.496804      
  3.6e+010        0.829467        -0.472198       0.0479275       0.0738755       0.0486843       0.0741492       0.805977        -0.505993      
  3.7e+010        0.822399        -0.482268       0.0504464       0.0750292       0.0508545       0.0752563       0.797435        -0.516568      
  3.8e+010        0.814514        -0.492134       0.0529531       0.0760496       0.0531343       0.0760927       0.788382        -0.526989      
  3.9e+010        0.806456        -0.501721       0.0549676       0.0764888       0.0557489       0.0763844       0.778755        -0.536706      
  4e+010          0.797016        -0.512569       0.0570176       0.0769266       0.0575832       0.0767291       0.769665        -0.545797      
  4.1e+010        0.787054        -0.522421       0.0595975       0.07759         0.0604764       0.0781739       0.760287        -0.556373      
  4.2e+010        0.778333        -0.530238       0.0622856       0.0785119       0.0625961       0.0782267       0.74892         -0.56517       
  4.3e+010        0.767657        -0.537678       0.0654423       0.0784713       0.0650724       0.0784751       0.74029         -0.573193      
  4.4e+010        0.757969        -0.547821       0.0669425       0.0781134       0.0669907       0.0784348       0.730112        -0.581109      
  4.5e+010        0.749133        -0.555716       0.0688711       0.0791662       0.069712        0.0797429       0.72066         -0.589289      
  4.6e+010        0.739036        -0.563031       0.0722188       0.0790407       0.0726648       0.0791196       0.71139         -0.596811      
  4.7e+010        0.728127        -0.570162       0.0750186       0.0784341       0.0760677       0.0786825       0.702594        -0.60347       
  4.8e+010        0.719237        -0.577052       0.0763893       0.0779073       0.0774373       0.0783681       0.693888        -0.612344      
  4.9e+010        0.710716        -0.580849       0.0783865       0.0782525       0.0791495       0.0768739       0.684762        -0.619919      
  5e+010          0.701914        -0.589098       0.0809357       0.0774726       0.0807602       0.078118        0.676205        -0.62851       
  5.1e+010        0.692774        -0.592986       0.0828396       0.0762923       0.0846231       0.077547        0.6658          -0.637426      
  5.2e+010        0.685738        -0.598797       0.0836376       0.0753295       0.084455        0.0746573       0.657144        -0.642326      
  5.3e+010        0.67937         -0.605747       0.0869624       0.076619        0.0863699       0.0771454       0.646471        -0.653774      
  5.4e+010        0.670108        -0.612069       0.0884617       0.0750679       0.0899352       0.0753197       0.637053        -0.659734      
  5.5e+010        0.663562        -0.617688       0.0901388       0.0745899       0.0910268       0.0742013       0.622626        -0.66608       
  5.6e+010        0.660188        -0.622974       0.089274        0.073201        0.0898105       0.0725702       0.617464        -0.669946      
  5.7e+010        0.652043        -0.633785       0.0913652       0.075438        0.0913258       0.0760342       0.610367        -0.677803      
  5.8e+010        0.646723        -0.643612       0.0943467       0.0765223       0.0946944       0.0757452       0.600787        -0.68808       
  5.9e+010        0.636725        -0.651057       0.0988189       0.0770693       0.0989756       0.0752765       0.589568        -0.695414      
  6e+010          0.62632         -0.660024       0.100939        0.0730504       0.101938        0.0739932       0.579158        -0.7011        
  6.1e+010        0.618403        -0.669822       0.100583        0.0735384       0.102512        0.0724427       0.569539        -0.709168      
  6.2e+010        0.609629        -0.676008       0.105527        0.0733338       0.104891        0.0723548       0.560102        -0.716888      
  6.3e+010        0.600057        -0.6847         0.107033        0.0709103       0.107176        0.0721097       0.547743        -0.723438      
  6.4e+010        0.587397        -0.693289       0.110239        0.0702315       0.112362        0.0694566       0.541035        -0.73016       
  6.5e+010        0.576594        -0.702242       0.110479        0.0688213       0.110798        0.0670473       0.527371        -0.739056      
END_DB

