! VERSION = 6.00
!Data measured by ggf on Mon Jan 22 14:08:55 2018 using model file NPN_MEAS_SCALE
BEGIN_HEADER
 ICCAP_INPUTS
  ve         V  E GROUND SMU_E 0.1 CON        0
  vc         V  C GROUND SMU_C 0.1 LIN        2    0.5        2          4    0.5       
  vs         V  S GROUND SMU_S 0.015 CON        0
  vb         V  B GROUND SMU_B 0.015 LIN        1    0.4        1.04       33   0.02      
 ICCAP_OUTPUTS
  ib         I  B GROUND SMU_B M
  ic         I  C GROUND SMU_C M
 ICCAP_VALUES
  TNOM "27"
  TEMP "27"
  TECHNO "SG13G2"
  LOT "EDJ802"
  WAFER "02"
  CHIP "(3.3)"
  MODULE "S439S"
  DEV_NAME "D43"
  DEV_GEOM_L "0.9"
  DEV_GEOM_W "0.07"
  NUM_OF_TRANS_RF "1"
  REMARKS "Nx=8; Power -30/-20dBm, Slope: 0.1dB/GHz"
  TIMEDATE "Mon Jan 22 13:50:26     2018"
  OPERATOR "ggf"
END_HEADER

BEGIN_DB
 ICCAP_VAR ve         0              
 ICCAP_VAR vc         0.5            
 ICCAP_VAR vs         0              

 #vb              ib              ic             
  0.4             1.2236e-010     6.265e-010     
  0.42            7.95e-011       9.1306e-010    
  0.44            4.104e-011      1.7264e-009    
  0.46            5.208e-011      3.5946e-009    
  0.48            6.52e-011       7.6202e-009    
  0.5             6.9e-011        1.6334e-008    
  0.52            1.2934e-010     3.514e-008     
  0.54            1.8898e-010     7.5464e-008    
  0.56            3.5292e-010     1.6278e-007    
  0.58            6.5168e-010     3.4828e-007    
  0.6             1.2794e-009     7.468e-007     
  0.62            2.5094e-009     1.605e-006     
  0.64            5.1352e-009     3.4514e-006    
  0.66            1.0492e-008     7.3962e-006    
  0.68            2.16e-008       1.5758e-005    
  0.7             4.4606e-008     3.3438e-005    
  0.72            9.2296e-008     7.0748e-005    
  0.74            1.8906e-007     0.00014778     
  0.76            3.8378e-007     0.00030422     
  0.78            7.5666e-007     0.00060638     
  0.8             1.4322e-006     0.0011562      
  0.82            2.5736e-006     0.002078       
  0.84            4.3392e-006     0.003454       
  0.86            6.909e-006      0.0053066      
  0.88            1.0463e-005     0.0075732      
  0.9             1.532e-005      0.010189       
  0.92            2.1988e-005     0.013116       
  0.94            3.153e-005      0.016222       
  0.96            4.9366e-005     0.019042       
  0.98            9.8616e-005     0.020804       
  1               0.00020634      0.022036       
  1.02            0.00039346      0.023334       
  1.04            0.00069114      0.024778       
END_DB

BEGIN_DB
 ICCAP_VAR ve         0              
 ICCAP_VAR vc         1              
 ICCAP_VAR vs         0              

 #vb              ib              ic             
  0.4             -5.6524e-010    1.1722e-009    
  0.42            -5.1104e-010    1.3858e-009    
  0.44            -4.4728e-010    2.1626e-009    
  0.46            -3.952e-010     3.9878e-009    
  0.48            -3.5526e-010    7.994e-009     
  0.5             -3.056e-010     1.6666e-008    
  0.52            -2.2134e-010    3.5444e-008    
  0.54            -1.2922e-010    7.5728e-008    
  0.56            3.246e-011      1.6292e-007    
  0.58            3.307e-010      3.4852e-007    
  0.6             9.011e-010      7.4718e-007    
  0.62            2.1008e-009     1.6062e-006    
  0.64            4.5316e-009     3.4514e-006    
  0.66            9.6684e-009     7.4026e-006    
  0.68            2.0272e-008     1.5778e-005    
  0.7             4.2462e-008     3.3522e-005    
  0.72            8.8678e-008     7.0992e-005    
  0.74            1.836e-007      0.00014866     
  0.76            3.7624e-007     0.00030734     
  0.78            7.5066e-007     0.000617       
  0.8             1.4466e-006     0.0011886      
  0.82            2.6602e-006     0.0021652      
  0.84            4.6232e-006     0.003651       
  0.86            7.6218e-006     0.0056862      
  0.88            1.1998e-005     0.0082068      
  0.9             1.83e-005       0.0111564      
  0.92            2.734e-005      0.014494       
  0.94            3.9944e-005     0.01814        
  0.96            5.7148e-005     0.02204        
  0.98            8.0354e-005     0.026212       
  1               0.000110972     0.030582       
  1.02            0.00015012      0.034786       
  1.04            0.00021114      0.038212       
END_DB

BEGIN_DB
 ICCAP_VAR ve         0              
 ICCAP_VAR vc         1.5            
 ICCAP_VAR vs         0              

 #vb              ib              ic             
  0.4             -3.9282e-009    4.5768e-009    
  0.42            -3.7038e-009    4.5976e-009    
  0.44            -3.4414e-009    5.2044e-009    
  0.46            -3.254e-009     6.8602e-009    
  0.48            -3.0164e-009    1.06822e-008   
  0.5             -2.8636e-009    1.9234e-008    
  0.52            -2.6154e-009    3.7854e-008    
  0.54            -2.479e-009     7.796e-008     
  0.56            -2.325e-009     1.6478e-007    
  0.58            -2.1424e-009    3.5056e-007    
  0.6             -1.9942e-009    7.485e-007     
  0.62            -1.6702e-009    1.608e-006     
  0.64            -1.0696e-009    3.4528e-006    
  0.66            4.929e-010      7.4e-006       
  0.68            4.3092e-009     1.5778e-005    
  0.7             1.368e-008      3.3524e-005    
  0.72            3.6458e-008     7.109e-005     
  0.74            8.9506e-008     0.00014924     
  0.76            2.0976e-007     0.00030962     
  0.78            4.719e-007      0.00062616     
  0.8             1.0178e-006     0.0012196      
  0.82            2.1062e-006     0.0022558      
  0.84            4.1194e-006     0.003867       
  0.86            7.62e-006       0.0061212      
  0.88            1.3298e-005     0.0089646      
  0.9             2.2216e-005     0.012336       
  0.92            3.5884e-005     0.016206       
  0.94            5.5948e-005     0.020478       
  0.96            8.4402e-005     0.025084       
  0.98            0.00012396      0.030022       
  1               0.00017688      0.03523        
  1.02            0.00024444      0.040548       
  1.04            0.00032736      0.045808       
END_DB

BEGIN_DB
 ICCAP_VAR ve         0              
 ICCAP_VAR vc         2              
 ICCAP_VAR vs         0              

 #vb              ib              ic             
  0.4             -1.4222e-008    1.4982e-008    
  0.42            -1.3588e-008    1.4608e-008    
  0.44            -1.3018e-008    1.4826e-008    
  0.46            -1.2466e-008    1.6136e-008    
  0.48            -1.1962e-008    1.9684e-008    
  0.5             -1.1554e-008    2.7964e-008    
  0.52            -1.1338e-008    4.6524e-008    
  0.54            -1.1454e-008    8.6804e-008    
  0.56            -1.2124e-008    1.7448e-007    
  0.58            -1.395e-008     3.6162e-007    
  0.6             -1.8044e-008    7.6288e-007    
  0.62            -2.6602e-008    1.6292e-006    
  0.64            -4.3874e-008    3.488e-006     
  0.66            -7.812e-008     7.463e-006     
  0.68            -1.4486e-007    1.5912e-005    
  0.7             -2.7404e-007    3.3776e-005    
  0.72            -5.2248e-007    7.166e-005     
  0.74            -9.8954e-007    0.00015066     
  0.76            -1.8508e-006    0.00031426     
  0.78            -3.3556e-006    0.0006402      
  0.8             -5.7784e-006    0.0012636      
  0.82            -9.1628e-006    0.002382       
  0.84            -1.265e-005     0.0041684      
  0.86            -1.4262e-005    0.0067364      
  0.88            -1.1068e-005    0.0100468      
  0.9             2.0056e-007     0.014048       
  0.92            2.3356e-005     0.018712       
  0.94            6.1836e-005     0.023918       
  0.96            0.00011896      0.029556       
  0.98            0.00019846      0.035584       
  1               0.00030292      0.04187        
  1.02            0.00043196      0.04816        
  1.04            0.00058492      0.054254       
END_DB

