! VERSION = 6.00
!Data measured by ggf on Mon Jan 22 14:08:56 2018 using model file NPN_MEAS_SCALE
BEGIN_HEADER
 ICCAP_INPUTS
  vc         V  C GROUND SMU_C 0.1 LIN        1    0          2          81   0.025     
  ve         V  E GROUND SMU_E 0.1 CON        0
  vs         V  S GROUND SMU_S 0.015 CON        0
  vb         V  B GROUND SMU_B 0.015 LIN        2    0.6        1          9    0.05      
 ICCAP_OUTPUTS
  ic         I  C DEFAULT SMU_C M
  ib         I  B GROUND SMU_B M
 ICCAP_VALUES
  TNOM "27"
  TEMP "27"
  TECHNO "SG13G2"
  LOT "EDJ802"
  WAFER "02"
  CHIP "(3.3)"
  MODULE "S439S"
  DEV_NAME "D43"
  DEV_GEOM_L "0.9"
  DEV_GEOM_W "0.07"
  NUM_OF_TRANS_RF "1"
  REMARKS "Nx=8; Power -30/-20dBm, Slope: 0.1dB/GHz"
  TIMEDATE "Mon Jan 22 13:50:26     2018"
  OPERATOR "ggf"
END_HEADER

BEGIN_DB
 ICCAP_VAR ve         0              
 ICCAP_VAR vs         0              
 ICCAP_VAR vb         0.6            

 #vc              ic              ib             
  0               -1.6012e-006    1.729e-007     
  0.025           -2.1212e-007    1.229e-007     
  0.05            3.3536e-007     9.535e-008     
  0.075           5.519e-007      7.3224e-008    
  0.1             6.4358e-007     5.638e-008     
  0.125           6.8562e-007     4.3136e-008    
  0.15            7.0752e-007     3.2474e-008    
  0.175           7.2018e-007     2.4186e-008    
  0.2             7.2834e-007     1.771e-008     
  0.225           7.34e-007       1.2856e-008    
  0.25            7.38e-007       9.2582e-009    
  0.275           7.407e-007      6.6974e-009    
  0.3             7.4276e-007     4.8754e-009    
  0.325           7.4386e-007     3.6692e-009    
  0.35            7.4506e-007     2.783e-009     
  0.375           7.455e-007      2.2466e-009    
  0.4             7.4612e-007     1.834e-009     
  0.425           7.4666e-007     1.6122e-009    
  0.45            7.4668e-007     1.41e-009      
  0.475           7.467e-007      1.344e-009     
  0.5             7.4678e-007     1.2416e-009    
  0.525           7.47e-007       1.2214e-009    
  0.55            7.4714e-007     1.1654e-009    
  0.575           7.4728e-007     1.1772e-009    
  0.6             7.4698e-007     1.1228e-009    
  0.625           7.4714e-007     1.1446e-009    
  0.65            7.4714e-007     1.1152e-009    
  0.675           7.4732e-007     1.1268e-009    
  0.7             7.4704e-007     1.0966e-009    
  0.725           7.475e-007      1.112e-009     
  0.75            7.4708e-007     1.0778e-009    
  0.775           7.4742e-007     1.0986e-009    
  0.8             7.471e-007      1.0498e-009    
  0.825           7.4726e-007     1.069e-009     
  0.85            7.471e-007      1.018e-009     
  0.875           7.4738e-007     1.02094e-009   
  0.9             7.473e-007      1.0111e-009    
  0.925           7.4756e-007     9.8826e-010    
  0.95            7.4736e-007     9.6668e-010    
  0.975           7.4756e-007     9.2926e-010    
  1               7.4732e-007     9.1236e-010    
  1.025           7.4702e-007     8.654e-010     
  1.05            7.4732e-007     8.303e-010     
  1.075           7.4726e-007     7.6758e-010    
  1.1             7.4744e-007     7.2828e-010    
  1.125           7.4742e-007     6.5052e-010    
  1.15            7.4732e-007     5.9e-010       
  1.175           7.472e-007      4.945e-010     
  1.2             7.4736e-007     4.1604e-010    
  1.225           7.474e-007      2.9208e-010    
  1.25            7.4746e-007     2.0028e-010    
  1.275           7.4758e-007     4.974e-011     
  1.3             7.4738e-007     -9.66e-011     
  1.325           7.4796e-007     -2.5226e-010   
  1.35            7.4768e-007     -4.469e-010    
  1.375           7.4814e-007     -6.4058e-010   
  1.4             7.4786e-007     -8.7012e-010   
  1.425           7.4838e-007     -1.1127e-009   
  1.45            7.4816e-007     -1.3582e-009   
  1.475           7.486e-007      -1.6918e-009   
  1.5             7.4898e-007     -1.968e-009    
  1.525           7.4898e-007     -2.3168e-009   
  1.55            7.4938e-007     -2.715e-009    
  1.575           7.4954e-007     -3.1246e-009   
  1.6             7.4954e-007     -3.5574e-009   
  1.625           7.5022e-007     -4.0188e-009   
  1.65            7.5058e-007     -4.5366e-009   
  1.675           7.5126e-007     -5.1236e-009   
  1.7             7.5142e-007     -5.7286e-009   
  1.725           7.5186e-007     -6.3716e-009   
  1.75            7.5256e-007     -7.071e-009    
  1.775           7.5338e-007     -7.8324e-009   
  1.8             7.5422e-007     -8.6498e-009   
  1.825           7.5494e-007     -9.549e-009    
  1.85            7.5592e-007     -1.05038e-008  
  1.875           7.5694e-007     -1.1548e-008   
  1.9             7.5792e-007     -1.266e-008    
  1.925           7.5888e-007     -1.3872e-008   
  1.95            7.604e-007      -1.5154e-008   
  1.975           7.6146e-007     -1.6546e-008   
  2               7.6324e-007     -1.8034e-008   
END_DB

BEGIN_DB
 ICCAP_VAR ve         0              
 ICCAP_VAR vs         0              
 ICCAP_VAR vb         0.65           

 #vc              ic              ib             
  0               -9.2712e-006    4.0064e-007    
  0.025           -7.3146e-007    2.5744e-007    
  0.05            2.7168e-006     1.7912e-007    
  0.075           4.0794e-006     1.3232e-007    
  0.1             4.618e-006      1.0138e-007    
  0.125           4.8354e-006     7.9358e-008    
  0.15            4.929e-006      6.2352e-008    
  0.175           4.9736e-006     4.8998e-008    
  0.2             4.9966e-006     3.8444e-008    
  0.225           5.0112e-006     3.015e-008     
  0.25            5.0202e-006     2.367e-008     
  0.275           5.0274e-006     1.882e-008     
  0.3             5.031e-006      1.5218e-008    
  0.325           5.035e-006      1.2692e-008    
  0.35            5.038e-006      1.0838e-008    
  0.375           5.041e-006      9.5842e-009    
  0.4             5.043e-006      8.7034e-009    
  0.425           5.0458e-006     8.1772e-009    
  0.45            5.045e-006      7.7504e-009    
  0.475           5.0462e-006     7.522e-009     
  0.5             5.0456e-006     7.334e-009     
  0.525           5.0484e-006     7.2388e-009    
  0.55            5.0476e-006     7.1428e-009    
  0.575           5.0498e-006     7.0842e-009    
  0.6             5.0486e-006     7.0644e-009    
  0.625           5.0502e-006     7.018e-009     
  0.65            5.0482e-006     7.0104e-009    
  0.675           5.0494e-006     6.9616e-009    
  0.7             5.0504e-006     6.9822e-009    
  0.725           5.049e-006      6.9314e-009    
  0.75            5.0506e-006     6.9446e-009    
  0.775           5.0498e-006     6.8974e-009    
  0.8             5.0508e-006     6.9142e-009    
  0.825           5.0494e-006     6.876e-009     
  0.85            5.0512e-006     6.8536e-009    
  0.875           5.0496e-006     6.8484e-009    
  0.9             5.0508e-006     6.8072e-009    
  0.925           5.0494e-006     6.7952e-009    
  0.95            5.0502e-006     6.7426e-009    
  0.975           5.0498e-006     6.746e-009     
  1               5.05e-006       6.6702e-009    
  1.025           5.0496e-006     6.6358e-009    
  1.05            5.0488e-006     6.5474e-009    
  1.075           5.0496e-006     6.5038e-009    
  1.1             5.0486e-006     6.4062e-009    
  1.125           5.049e-006      6.2928e-009    
  1.15            5.0488e-006     6.1826e-009    
  1.175           5.0486e-006     6.0078e-009    
  1.2             5.0478e-006     5.8344e-009    
  1.225           5.048e-006      5.589e-009     
  1.25            5.048e-006      5.3672e-009    
  1.275           5.0476e-006     5.038e-009     
  1.3             5.0476e-006     4.7116e-009    
  1.325           5.0464e-006     4.2808e-009    
  1.35            5.0482e-006     3.8594e-009    
  1.375           5.0456e-006     3.317e-009     
  1.4             5.0476e-006     2.7322e-009    
  1.425           5.0476e-006     2.077e-009     
  1.45            5.047e-006      1.3278e-009    
  1.475           5.0462e-006     5.0784e-010    
  1.5             5.0508e-006     -4.257e-010    
  1.525           5.0486e-006     -1.4504e-009   
  1.55            5.0474e-006     -2.5544e-009   
  1.575           5.0494e-006     -3.8388e-009   
  1.6             5.0508e-006     -5.1776e-009   
  1.625           5.0508e-006     -6.737e-009    
  1.65            5.0528e-006     -8.3698e-009   
  1.675           5.0516e-006     -1.02504e-008  
  1.7             5.0536e-006     -1.224e-008    
  1.725           5.0564e-006     -1.4464e-008   
  1.75            5.0588e-006     -1.6916e-008   
  1.775           5.062e-006      -1.9562e-008   
  1.8             5.0642e-006     -2.2498e-008   
  1.825           5.066e-006      -2.5674e-008   
  1.85            5.0692e-006     -2.9184e-008   
  1.875           5.0716e-006     -3.3028e-008   
  1.9             5.0758e-006     -3.7226e-008   
  1.925           5.08e-006       -4.1736e-008   
  1.95            5.0828e-006     -4.6734e-008   
  1.975           5.09e-006       -5.2114e-008   
  2               5.0944e-006     -5.8028e-008   
END_DB

BEGIN_DB
 ICCAP_VAR ve         0              
 ICCAP_VAR vs         0              
 ICCAP_VAR vb         0.7            

 #vc              ic              ib             
  0               -4.142e-005     1.2476e-006    
  0.025           -1.4242e-007    7.2146e-007    
  0.05            1.9222e-005     4.446e-007     
  0.075           2.7564e-005     2.9864e-007    
  0.1             3.0962e-005     2.1792e-007    
  0.125           3.2324e-005     1.707e-007     
  0.15            3.287e-005      1.3922e-007    
  0.175           3.3108e-005     1.1668e-007    
  0.2             3.3214e-005     9.9944e-008    
  0.225           3.3274e-005     8.6544e-008    
  0.25            3.3314e-005     7.5872e-008    
  0.275           3.334e-005      6.7562e-008    
  0.3             3.3358e-005     6.1068e-008    
  0.325           3.338e-005      5.6278e-008    
  0.35            3.3394e-005     5.2608e-008    
  0.375           3.3402e-005     5.0002e-008    
  0.4             3.3414e-005     4.8188e-008    
  0.425           3.3422e-005     4.6918e-008    
  0.45            3.3436e-005     4.6048e-008    
  0.475           3.3444e-005     4.541e-008     
  0.5             3.3448e-005     4.492e-008     
  0.525           3.3454e-005     4.4684e-008    
  0.55            3.3456e-005     4.448e-008     
  0.575           3.3468e-005     4.426e-008     
  0.6             3.3476e-005     4.413e-008     
  0.625           3.3476e-005     4.4006e-008    
  0.65            3.349e-005      4.3952e-008    
  0.675           3.3486e-005     4.386e-008     
  0.7             3.3488e-005     4.375e-008     
  0.725           3.35e-005       4.3702e-008    
  0.75            3.3498e-005     4.3618e-008    
  0.775           3.3498e-005     4.352e-008     
  0.8             3.3504e-005     4.3492e-008    
  0.825           3.3504e-005     4.3454e-008    
  0.85            3.3512e-005     4.3334e-008    
  0.875           3.3514e-005     4.3412e-008    
  0.9             3.3504e-005     4.3288e-008    
  0.925           3.3518e-005     4.3206e-008    
  0.95            3.3506e-005     4.3162e-008    
  0.975           3.3514e-005     4.3116e-008    
  1               3.3526e-005     4.3022e-008    
  1.025           3.3518e-005     4.2894e-008    
  1.05            3.3518e-005     4.2752e-008    
  1.075           3.3522e-005     4.2572e-008    
  1.1             3.352e-005      4.2304e-008    
  1.125           3.3524e-005     4.1936e-008    
  1.15            3.3522e-005     4.1522e-008    
  1.175           3.3524e-005     4.1012e-008    
  1.2             3.3526e-005     4.0442e-008    
  1.225           3.3516e-005     3.9684e-008    
  1.25            3.3526e-005     3.8696e-008    
  1.275           3.3518e-005     3.756e-008     
  1.3             3.352e-005      3.629e-008     
  1.325           3.3526e-005     3.4656e-008    
  1.35            3.3524e-005     3.2834e-008    
  1.375           3.3518e-005     3.0634e-008    
  1.4             3.3534e-005     2.8222e-008    
  1.425           3.3522e-005     2.5336e-008    
  1.45            3.3516e-005     2.2038e-008    
  1.475           3.3534e-005     1.8342e-008    
  1.5             3.3522e-005     1.4192e-008    
  1.525           3.353e-005      9.4732e-009    
  1.55            3.3526e-005     4.2252e-009    
  1.575           3.3528e-005     -1.5968e-009   
  1.6             3.3526e-005     -8.1724e-009   
  1.625           3.3548e-005     -1.5372e-008   
  1.65            3.3552e-005     -2.3312e-008   
  1.675           3.3554e-005     -3.2174e-008   
  1.7             3.357e-005      -4.207e-008    
  1.725           3.357e-005      -5.2826e-008   
  1.75            3.3578e-005     -6.4896e-008   
  1.775           3.3598e-005     -7.8058e-008   
  1.8             3.3602e-005     -9.2516e-008   
  1.825           3.3616e-005     -1.0851e-007   
  1.85            3.3636e-005     -1.2606e-007   
  1.875           3.3652e-005     -1.4546e-007   
  1.9             3.3678e-005     -1.6648e-007   
  1.925           3.3692e-005     -1.8988e-007   
  1.95            3.372e-005      -2.1522e-007   
  1.975           3.3746e-005     -2.432e-007    
  2               3.3776e-005     -2.7348e-007   
END_DB

BEGIN_DB
 ICCAP_VAR ve         0              
 ICCAP_VAR vs         0              
 ICCAP_VAR vb         0.75           

 #vc              ic              ib             
  0               -9.0244e-005    4.274e-006     
  0.025           5.405e-005      2.5436e-006    
  0.05            0.00013374      1.5502e-006    
  0.075           0.00017536      9.8862e-007    
  0.1             0.00019522      6.892e-007     
  0.125           0.00020402      5.2996e-007    
  0.15            0.00020774      4.4646e-007    
  0.175           0.00020934      3.9686e-007    
  0.2             0.00021016      3.6538e-007    
  0.225           0.00021054      3.4288e-007    
  0.25            0.0002109       3.2602e-007    
  0.275           0.00021106      3.1224e-007    
  0.3             0.00021122      3.0194e-007    
  0.325           0.00021144      2.9394e-007    
  0.35            0.00021158      2.8756e-007    
  0.375           0.00021168      2.82e-007      
  0.4             0.00021182      2.7874e-007    
  0.425           0.00021194      2.7604e-007    
  0.45            0.0002121       2.7404e-007    
  0.475           0.00021222      2.7252e-007    
  0.5             0.0002123       2.72e-007      
  0.525           0.0002124       2.7082e-007    
  0.55            0.0002125       2.7054e-007    
  0.575           0.00021258      2.6958e-007    
  0.6             0.00021272      2.6978e-007    
  0.625           0.00021278      2.6918e-007    
  0.65            0.00021288      2.6884e-007    
  0.675           0.00021298      2.6854e-007    
  0.7             0.00021304      2.6836e-007    
  0.725           0.00021316      2.6822e-007    
  0.75            0.00021324      2.6786e-007    
  0.775           0.00021328      2.6766e-007    
  0.8             0.00021342      2.6774e-007    
  0.825           0.00021346      2.6754e-007    
  0.85            0.00021354      2.6738e-007    
  0.875           0.00021366      2.6702e-007    
  0.9             0.0002137       2.6656e-007    
  0.925           0.00021374      2.6624e-007    
  0.95            0.00021382      2.6632e-007    
  0.975           0.00021386      2.6564e-007    
  1               0.000214        2.6574e-007    
  1.025           0.000214        2.6572e-007    
  1.05            0.00021408      2.6506e-007    
  1.075           0.00021414      2.6446e-007    
  1.1             0.0002142       2.6366e-007    
  1.125           0.00021424      2.6284e-007    
  1.15            0.00021434      2.6114e-007    
  1.175           0.00021438      2.5994e-007    
  1.2             0.0002144       2.5746e-007    
  1.225           0.0002145       2.5456e-007    
  1.25            0.00021456      2.5094e-007    
  1.275           0.0002146       2.4626e-007    
  1.3             0.00021462      2.4092e-007    
  1.325           0.0002147       2.3388e-007    
  1.35            0.00021478      2.262e-007     
  1.375           0.00021482      2.1644e-007    
  1.4             0.0002149       2.0554e-007    
  1.425           0.00021494      1.922e-007     
  1.45            0.00021498      1.7724e-007    
  1.475           0.0002151       1.5994e-007    
  1.5             0.00021508      1.4008e-007    
  1.525           0.00021518      1.171e-007     
  1.55            0.00021528      9.1328e-008    
  1.575           0.00021532      6.2224e-008    
  1.6             0.00021542      2.9682e-008    
  1.625           0.0002155       -6.3786e-009   
  1.65            0.00021558      -4.6956e-008   
  1.675           0.00021564      -9.211e-008    
  1.7             0.00021574      -1.4218e-007   
  1.725           0.0002159       -1.9754e-007   
  1.75            0.000216        -2.5934e-007   
  1.775           0.00021612      -3.2752e-007   
  1.8             0.00021622      -4.0188e-007   
  1.825           0.0002163       -4.848e-007    
  1.85            0.00021652      -5.7618e-007   
  1.875           0.00021668      -6.7666e-007   
  1.9             0.00021682      -7.8786e-007   
  1.925           0.00021698      -9.1e-007      
  1.95            0.00021716      -1.04414e-006  
  1.975           0.0002174       -1.1906e-006   
  2               0.00021764      -1.3518e-006   
END_DB

BEGIN_DB
 ICCAP_VAR ve         0              
 ICCAP_VAR vs         0              
 ICCAP_VAR vb         0.8            

 #vc              ic              ib             
  0               -5.5282e-005    1.813e-005     
  0.025           0.00045154      1.1102e-005    
  0.05            0.00075638      6.924e-006     
  0.075           0.00092884      4.5416e-006    
  0.1             0.0010265       3.1664e-006    
  0.125           0.00107996      2.3864e-006    
  0.15            0.00110776      1.965e-006     
  0.175           0.0011218       1.7496e-006    
  0.2             0.00112896      1.6356e-006    
  0.225           0.00113336      1.5716e-006    
  0.25            0.0011366       1.5322e-006    
  0.275           0.00113878      1.5062e-006    
  0.3             0.0011412       1.487e-006     
  0.325           0.0011436       1.473e-006     
  0.35            0.0011456       1.462e-006     
  0.375           0.001147        1.4552e-006    
  0.4             0.0011492       1.4492e-006    
  0.425           0.0011512       1.4442e-006    
  0.45            0.0011528       1.4414e-006    
  0.475           0.0011546       1.4394e-006    
  0.5             0.0011562       1.4386e-006    
  0.525           0.0011582       1.4366e-006    
  0.55            0.0011598       1.4374e-006    
  0.575           0.0011612       1.438e-006     
  0.6             0.001163        1.4382e-006    
  0.625           0.0011648       1.4386e-006    
  0.65            0.0011662       1.4398e-006    
  0.675           0.0011682       1.4406e-006    
  0.7             0.0011698       1.4412e-006    
  0.725           0.0011712       1.4436e-006    
  0.75            0.001173        1.443e-006     
  0.775           0.0011744       1.4444e-006    
  0.8             0.001176        1.445e-006     
