! VERSION = 6.00
BEGIN_HEADER
 ICCAP_INPUTS
  vd         V  D GROUND SMU1 0.1 LIN        1    -0         -1.35      28   -0.05     
  vg         V  G GROUND SMU2 0.001 LIN        2    -0.554     -1.35      5    -0.199    
  vb         V  B GROUND SMU4 0.1 CON        -0
  vs         V  S GROUND SMU3 0.1 CON        -0
 ICCAP_OUTPUTS
  id         I  D GROUND SMU1 B
  ig         I  G GROUND SMU2 B
  ib         I  B GROUND SMU4 B
  is         I  S GROUND SMU3 B
 ICCAP_VALUES
  MASTER_SETUP_TYPE "~dc_idvd~"
  LINVT_VALUE "|idvg|100.0n|100.0m|1.000m|5|1.350|"
  LISTVT_VALUE ""
  TYPE "-1"
  TEMP "-40.0000 "
  IS_TNOM " 0.00000 "
  MAIN.W "10.00u"
  MAIN.L "130.0n"
  MAIN.AD "3.400p"
  MAIN.AS "3.400p"
  MAIN.PD "20.68u"
  MAIN.PS "20.68u"
  MAIN.NF "1.000"
  MAIN.M "1"
  MAIN.NRD "0.000"
  MAIN.NRS "0.000"
  MAIN.LDRIFT1 "1E-06"
  MAIN.LDRIFT2 "1E-06"
  MAIN.SA "0.000"
  MAIN.SB "0.000"
  MAIN.SD "0.000"
  MAIN.SCA "0.000"
  MAIN.SCB "0.000"
  MAIN.SCC "0.000"
  MAIN.SC "0.000"
  MODULE "S548"
  PIN_D "18"
  PIN_G "3"
  PIN_S "4"
  PIN_B "17"
  PIN_E ""
  PIN_6 ""
  XY_ID ""
  FUNC "Short"
  STI "SA ref"
  WPE "WPE ref"
  COMMENT ""
  DIS_MEAS ""
  TypeTCI "10"
END_HEADER

BEGIN_DB
 ICCAP_VAR vg         -0.554         
 ICCAP_VAR vb         -0             
 ICCAP_VAR vs         -0             

 #vd                    id                    ig                    ib                    is                   
  -0                    4.1054e-08            -6.64e-12             -3e-13                -4.7354e-08          
  -0.05                 -2.2208e-05           -5.76e-12             -3.2e-13              2.221e-05            
  -0.1                  -3.2976e-05           -5.04e-12             -3.6e-13              3.298e-05            
  -0.15                 -3.8612e-05           -4.64e-12             -2.8e-13              3.8626e-05           
  -0.2                  -4.2204e-05           -4.3e-12              -2.8e-13              4.2204e-05           
  -0.25                 -4.5006e-05           -4.36e-12             -2.4e-13              4.503e-05            
  -0.3                  -4.7452e-05           -4e-12                -2e-13                4.7464e-05           
  -0.35                 -4.9692e-05           -4.06e-12             -1.4e-13              4.9716e-05           
  -0.4                  -5.182e-05            -3.94e-12             -2.4e-13              5.1862e-05           
  -0.45                 -5.3874e-05           -3.86e-12             -1.6e-13              5.3906e-05           
  -0.5                  -5.5888e-05           -3.8e-12              -8e-14                5.5894e-05           
  -0.55                 -5.7854e-05           -3.78e-12             -2.4e-13              5.7878e-05           
  -0.6                  -5.9836e-05           -3.72e-12             -1.4e-13              5.987e-05            
  -0.65                 -6.1766e-05           -3.56e-12             -2.4e-13              6.1736e-05           
  -0.7                  -6.3646e-05           -3.64e-12             -2e-13                6.3654e-05           
  -0.75                 -6.5554e-05           -3.58e-12             -6e-14                6.5574e-05           
  -0.8                  -6.7444e-05           -3.3e-12              -1.2e-13              6.7572e-05           
  -0.85                 -6.9476e-05           -3.32e-12             -2.6e-13              6.9476e-05           
  -0.9                  -7.1328e-05           -3.08e-12             -2.6e-13              7.1354e-05           
  -0.95                 -7.3274e-05           -2.76e-12             -1.6e-13              7.3304e-05           
  -1                    -7.5226e-05           -2.68e-12             -1.2e-13              7.524e-05            
  -1.05                 -7.717e-05            -2.48e-12             -2e-14                7.7186e-05           
  -1.1                  -7.9254e-05           -1.92e-12             2e-14                 7.925e-05            
  -1.15                 -8.1224e-05           -1.64e-12             3.2e-13               8.1294e-05           
  -1.2                  -8.3282e-05           -1.1e-12              1.24e-12              8.326e-05            
  -1.25                 -8.5254e-05           -5.6e-13              3.72e-12              8.5288e-05           
  -1.3                  -8.7306e-05           1.2e-13               9.5e-12               8.731e-05            
  -1.35                 -8.934e-05            8.8e-13               2.186e-11             8.946e-05            
END_DB

BEGIN_DB
 ICCAP_VAR vg         -0.753         
 ICCAP_VAR vb         -0             
 ICCAP_VAR vs         -0             

 #vd                    id                    ig                    ib                    is                   
  -0                    2.6392e-07            -2.314e-11            -1e-13                -1.4314e-07          
  -0.05                 -9.7544e-05           -2.036e-11            -1.2e-13              9.7614e-05           
  -0.1                  -0.0001721            -1.808e-11            -2.2e-13              0.00017248           
  -0.15                 -0.00022664           -1.636e-11            -8e-14                0.0002271            
  -0.2                  -0.0002655            -1.508e-11            -1.4e-13              0.0002659            
  -0.25                 -0.00029326           -1.414e-11            -1.4e-13              0.0002934            
  -0.3                  -0.00031346           -1.344e-11            -1.2e-13              0.00031376           
  -0.35                 -0.00032926           -1.29e-11             -1.6e-13              0.00032966           
  -0.4                  -0.00034242           -1.258e-11            -8e-14                0.00034266           
  -0.45                 -0.00035354           -1.22e-11             -1.4e-13              0.00035384           
  -0.5                  -0.00036386           -1.208e-11            -8e-14                0.00036418           
  -0.55                 -0.0003732            -1.19e-11             -1e-13                0.00037368           
  -0.6                  -0.00038216           -1.178e-11            -6e-14                0.00038254           
  -0.65                 -0.00039052           -1.166e-11            -1.4e-13              0.00039096           
  -0.7                  -0.00039866           -1.152e-11            0                     0.00039904           
  -0.75                 -0.00040656           -1.154e-11            -6e-14                0.00040686           
  -0.8                  -0.00041418           -1.144e-11            -8e-14                0.00041458           
  -0.85                 -0.00042178           -1.126e-11            -4e-14                0.00042232           
  -0.9                  -0.00042934           -1.112e-11            -1.2e-13              0.00042964           
  -0.95                 -0.00043656           -1.1e-11              -1e-13                0.00043674           
  -1                    -0.00044362           -1.082e-11            -4e-14                0.00044394           
  -1.05                 -0.0004507            -1.08e-11             4e-14                 0.00045096           
  -1.1                  -0.0004577            -1.046e-11            1.2e-13               0.00045798           
  -1.15                 -0.00046462           -1.022e-11            3.6e-13               0.00046492           
  -1.2                  -0.0004715            -9.98e-12             1.06e-12              0.00047174           
  -1.25                 -0.00047838           -9.64e-12             3.12e-12              0.00047862           
  -1.3                  -0.0004851            -9.34e-12             8.42e-12              0.00048544           
  -1.35                 -0.00049196           -8.9e-12              2.136e-11             0.00049236           
END_DB

BEGIN_DB
 ICCAP_VAR vg         -0.952         
 ICCAP_VAR vb         -0             
 ICCAP_VAR vs         -0             

 #vd                    id                    ig                    ib                    is                   
  -0                    5.1236e-07            -6.134e-11            -1e-13                -1.8702e-07          
  -0.05                 -0.00017216           -5.538e-11            -2e-14                0.00017252           
  -0.1                  -0.00032282           -5.01e-11             0                     0.00032316           
  -0.15                 -0.000451             -4.562e-11            -4e-14                0.00045134           
  -0.2                  -0.00055746           -4.176e-11            -1e-13                0.00055808           
  -0.25                 -0.00064408           -3.856e-11            0                     0.00064442           
  -0.3                  -0.00071272           -3.598e-11            0                     0.0007131            
  -0.35                 -0.00076688           -3.408e-11            1.4e-13               0.0007673            
  -0.4                  -0.0008106            -3.258e-11            2e-14                 0.0008107            
  -0.45                 -0.00084504           -3.142e-11            -8e-14                0.00084528           
  -0.5                  -0.00087392           -3.056e-11            -6e-14                0.000874             
  -0.55                 -0.0008984            -2.976e-11            2e-14                 0.00089886           
  -0.6                  -0.00092034           -2.932e-11            4e-14                 0.00092062           
  -0.65                 -0.00094014           -2.894e-11            0                     0.00094038           
  -0.7                  -0.00095808           -2.846e-11            -8e-14                0.0009583            
  -0.75                 -0.0009749            -2.82e-11             -1.6e-13              0.00097532           
  -0.8                  -0.00099094           -2.794e-11            -1.4e-13              0.00099126           
  -0.85                 -0.00100562           -2.772e-11            -1.6e-13              0.00100624           
  -0.9                  -0.00102058           -2.746e-11            -1e-13                0.00102078           
  -0.95                 -0.00103458           -2.728e-11            -1e-13                0.00103474           
  -1                    -0.00104834           -2.704e-11            -6e-14                0.00104874           
  -1.05                 -0.00106166           -2.678e-11            -4e-14                0.00106168           
  -1.1                  -0.00107432           -2.668e-11            0                     0.00107398           
  -1.15                 -0.0010864            -2.654e-11            2e-13                 0.0010864            
  -1.2                  -0.00109862           -2.64e-11             7.2e-13               0.0010994            
  -1.25                 -0.00111132           -2.604e-11            1.7e-12               0.00111168           
  -1.3                  -0.0011239            -2.598e-11            4.78e-12              0.00112398           
  -1.35                 -0.00113652           -2.558e-11            1.23e-11              0.0011364            
END_DB

BEGIN_DB
 ICCAP_VAR vg         -1.151         
 ICCAP_VAR vb         -0             
 ICCAP_VAR vs         -0             

 #vd                    id                    ig                    ib                    is                   
  -0                    6.6378e-07            -1.3362e-10           -4e-14                -2.3346e-07          
  -0.05                 -0.000231             -1.2274e-10           -1e-13                0.00023136           
  -0.1                  -0.00044398           -1.1284e-10           -6e-14                0.0004443            
  -0.15                 -0.00063664           -1.0396e-10           -4e-14                0.00063712           
  -0.2                  -0.00080832           -9.622e-11            0                     0.00080868           
  -0.25                 -0.00095854           -8.946e-11            2e-14                 0.0009587            
  -0.3                  -0.00108818           -8.36e-11             -6e-14                0.0010884            
  -0.35                 -0.0011976            -7.866e-11            2e-14                 0.0011994            
  -0.4                  -0.0012902            -7.45e-11             0                     0.0012916            
  -0.45                 -0.0013676            -7.094e-11            -8e-14                0.0013698            
  -0.5                  -0.0014324            -6.82e-11             -4e-14                0.0014344            
  -0.55                 -0.0014872            -6.578e-11            0                     0.001489             
  -0.6                  -0.0015336            -6.418e-11            -1e-13                0.0015344            
  -0.65                 -0.0015728            -6.262e-11            0                     0.0015746            
  -0.7                  -0.0016078            -6.132e-11            -6e-14                0.0016096            
  -0.75                 -0.0016398            -6.026e-11            -1.2e-13              0.001641             
  -0.8                  -0.0016682            -5.942e-11            -8e-14                0.0016698            
  -0.85                 -0.0016938            -5.874e-11            2e-14                 0.0016956            
  -0.9                  -0.0017182            -5.824e-11            -2e-14                0.0017196            
  -0.95                 -0.0017408            -5.746e-11            8e-14                 0.0017428            
  -1                    -0.0017628            -5.71e-11             6e-14                 0.0017642            
  -1.05                 -0.0017824            -5.668e-11            -4e-14                0.0017846            
  -1.1                  -0.0018032            -5.632e-11            8e-14                 0.001805             
  -1.15                 -0.0018226            -5.594e-11            1.2e-13               0.0018234            
  -1.2                  -0.001841             -5.564e-11            3e-13                 0.0018422            
  -1.25                 -0.0018592            -5.532e-11            1.02e-12              0.0018606            
  -1.3                  -0.0018772            -5.494e-11            2.68e-12              0.0018788            
  -1.35                 -0.0018948            -5.47e-11             6.54e-12              0.0018964            
END_DB

BEGIN_DB
 ICCAP_VAR vg         -1.35          
 ICCAP_VAR vb         -0             
 ICCAP_VAR vs         -0             

 #vd                    id                    ig                    ib                    is                   
  -0                    7.0336e-07            -2.585e-10            1.48e-12              -2.6518e-07          
  -0.05                 -0.00027576           -2.4028e-10           1e-12                 0.00027608           
  -0.1                  -0.00053662           -2.2346e-10           6e-13                 0.00053694           
  -0.15                 -0.00078028           -2.083e-10            5.8e-13               0.0007806            
  -0.2                  -0.00100476           -1.946e-10            4.8e-13               0.00100492           
  -0.25                 -0.001209             -1.8208e-10           2e-13                 0.0012104            
  -0.3                  -0.0013936            -1.7084e-10           3e-13                 0.0013952            
  -0.35                 -0.0015584            -1.613e-10            1.8e-13               0.0015606            
  -0.4                  -0.0017044            -1.5254e-10           2.8e-13               0.0017064            
  -0.45                 -0.0018324            -1.4476e-10           3.2e-13               0.0018342            
  -0.5                  -0.0019438            -1.383e-10            3e-13                 0.001945             
  -0.55                 -0.0020404            -1.3284e-10           2.8e-13               0.0020422            
  -0.6                  -0.0021246            -1.28e-10             2.8e-13               0.0021256            
  -0.65                 -0.0021964            -1.2408e-10           2.6e-13               0.0021982            
  -0.7                  -0.0022588            -1.2094e-10           1e-13                 0.0022604            
  -0.75                 -0.0023136            -1.1802e-10           1.8e-13               0.0023154            
  -0.8                  -0.0023618            -1.1568e-10           2.8e-13               0.0023634            
  -0.85                 -0.002405             -1.1386e-10           2e-13                 0.0024064            
  -0.9                  -0.002444             -1.121e-10            2e-13                 0.0024452            
  -0.95                 -0.0024796            -1.107e-10            1.6e-13               0.0024816            
  -1                    -0.0025128            -1.0954e-10           1e-13                 0.0025136            
  -1.05                 -0.0025436            -1.0824e-10           2.8e-13               0.0025454            
  -1.1                  -0.0025722            -1.0736e-10           3.6e-13               0.0025738            
  -1.15                 -0.0025994            -1.0666e-10           2.8e-13               0.0026               
  -1.2                  -0.0026254            -1.0582e-10           3.4e-13               0.0026272            
  -1.25                 -0.0026512            -1.0508e-10           6.2e-13               0.0026524            
  -1.3                  -0.002675             -1.0448e-10           1.44e-12              0.002676             
  -1.35                 -0.002698             -1.0394e-10           3.66e-12              0.0026986            
END_DB

