! VERSION = 6.00
BEGIN_HEADER
 ICCAP_INPUTS
  vg         V  G GROUND SMU2 0.001 LIN        1    0.5        -1.35      38   -0.05     
  vb         V  B GROUND SMU4 0.1 LIN        2    0          1.2        7    0.2       
  vd         V  D GROUND SMU1 0.1 LIST       3 3 -0.05 -0.6 -1.2
  vs         V  S GROUND SMU3 0.1 CON        -0
 ICCAP_OUTPUTS
  id         I  D GROUND SMU1 B
  ig         I  G GROUND SMU2 B
  ib         I  B GROUND SMU4 B
  is         I  S GROUND SMU3 B
 ICCAP_VALUES
  MASTER_SETUP_TYPE "~dc_idvg~"
  LINVT_VALUE ""
  LISTVT_VALUE ""
  TYPE "-1"
  TEMP " 27.0000 "
  IS_TNOM " 1.00000 "
  MAIN.W "150.0n"
  MAIN.L "120.0n"
  MAIN.AD "100.5f"
  MAIN.AS "100.5f"
  MAIN.PD "1.340u"
  MAIN.PS "1.340u"
  MAIN.NF "1.000"
  MAIN.M "1"
  MAIN.NRD "0.000"
  MAIN.NRS "0.000"
  MAIN.LDRIFT1 "1E-06"
  MAIN.LDRIFT2 "1E-06"
  MAIN.SA "0.000"
  MAIN.SB "0.000"
  MAIN.SD "0.000"
  MAIN.SCA "0.000"
  MAIN.SCB "0.000"
  MAIN.SCC "0.000"
  MAIN.SC "0.000"
  MODULE "S554"
  PIN_D "18"
  PIN_G "3"
  PIN_S "4"
  PIN_B "17"
  PIN_E ""
  PIN_6 ""
  XY_ID ""
  FUNC "Additional"
  STI "SA ref"
  WPE "WPE ref"
  COMMENT ""
  DIS_MEAS ""
  TypeTCI "10"
END_HEADER

BEGIN_DB
 ICCAP_VAR vb         0              
 ICCAP_VAR vd         -0.05          
 ICCAP_VAR vs         -0             

 #vg                    id                    ig                    ib                    is                   
  0.5                   -1.2e-13              1.858e-11             -1.812e-11            2e-14                
  0.45                  -1e-13                2.8e-12               -1.398e-11            8e-14                
  0.4                   -2e-14                4.2e-13               -1.282e-11            2e-14                
  0.35                  0                     8e-14                 -1.202e-11            1.8e-13              
  0.3                   0                     -1.2e-13              -1.148e-11            1e-13                
  0.25                  -4e-14                -4e-14                -1.094e-11            1.6e-13              
  0.2                   0                     -2.2e-13              -1.04e-11             6e-14                
  0.15                  6e-14                 -8e-14                -1.01e-11             2.2e-13              
  0.1                   -2.2e-13              -2.2e-13              -9.62e-12             2e-13                
  0.05                  -5.2e-13              -2.6e-13              -9.36e-12             6.2e-13              
  0                     -2.02e-12             -2.2e-13              -8.86e-12             2.12e-12             
  -0.05                 -8.56e-12             -2.4e-13              -8.54e-12             8.76e-12             
  -0.1                  -3.768e-11            -2.8e-13              -8.26e-12             3.772e-11            
  -0.15                 -1.6226e-10           -3.2e-13              -7.86e-12             1.6238e-10           
  -0.2                  -6.9362e-10           -3.6e-13              -7.78e-12             6.9416e-10           
  -0.25                 -2.8942e-09           -3.2e-13              -7.3e-12              2.8966e-09           
  -0.3                  -1.13272e-08          -3.6e-13              -7.16e-12             1.13124e-08          
  -0.35                 -3.9114e-08           -3e-13                -6.8e-12              3.9134e-08           
  -0.4                  -1.13572e-07          -3.4e-13              -6.6e-12              1.13596e-07          
  -0.45                 -2.682e-07            -4.8e-13              -6.38e-12             2.687e-07            
  -0.5                  -5.2176e-07           -4.4e-13              -6.26e-12             5.2402e-07           
  -0.55                 -8.6814e-07           -5e-13                -6e-12                8.6728e-07           
  -0.6                  -1.2772e-06           -3.6e-13              -5.76e-12             1.2792e-06           
  -0.65                 -1.7316e-06           -6e-13                -5.78e-12             1.7346e-06           
  -0.7                  -2.2052e-06           -6e-13                -5.46e-12             2.2066e-06           
  -0.75                 -2.6822e-06           -7.8e-13              -5.36e-12             2.677e-06            
  -0.8                  -3.1486e-06           -1e-12                -5.22e-12             3.0812e-06           
  -0.85                 -3.544e-06            -1e-12                -5.14e-12             3.5794e-06           
  -0.9                  -3.9722e-06           -1.38e-12             -4.96e-12             3.9754e-06           
  -0.95                 -4.402e-06            -1.62e-12             -4.96e-12             4.3924e-06           
  -1                    -4.8066e-06           -1.7e-12              -4.64e-12             4.8204e-06           
  -1.05                 -5.2096e-06           -2.04e-12             -4.74e-12             5.2144e-06           
  -1.1                  -5.6008e-06           -2.38e-12             -4.46e-12             5.6004e-06           
  -1.15                 -5.9656e-06           -2.78e-12             -4.42e-12             5.9706e-06           
  -1.2                  -6.3016e-06           -3.18e-12             -4.5e-12              6.3242e-06           
  -1.25                 -6.6564e-06           -3.68e-12             -4.28e-12             6.6606e-06           
  -1.3                  -6.9792e-06           -4.24e-12             -4.14e-12             6.9852e-06           
  -1.35                 -7.2886e-06           -4.78e-12             -4.18e-12             7.2862e-06           
END_DB

BEGIN_DB
 ICCAP_VAR vb         0.2            
 ICCAP_VAR vd         -0.05          
 ICCAP_VAR vs         -0             

 #vg                    id                    ig                    ib                    is                   
  0.5                   -1.2e-13              3.8e-13               4e-14                 -4e-14               
  0.45                  1e-13                 -2e-14                1.2e-13               2e-14                
  0.4                   -8e-14                4e-14                 -6e-14                1.4e-13              
  0.35                  8e-14                 -1e-13                8e-14                 0                    
  0.3                   0                     -1.8e-13              -8e-14                1.2e-13              
  0.25                  -6e-14                -1.6e-13              2e-14                 0                    
  0.2                   -2e-14                -1e-13                -2e-14                1.2e-13              
  0.15                  6e-14                 -2.2e-13              -1.6e-13              4e-14                
  0.1                   2e-14                 -1.6e-13              -6e-14                1.2e-13              
  0.05                  -1.6e-13              -2.6e-13              -4e-14                1.8e-13              
  0                     -6.2e-13              -3.6e-13              -4e-14                8e-13                
  -0.05                 -2.96e-12             -2e-13                4e-14                 2.9e-12              
  -0.1                  -1.308e-11            -2e-13                6e-14                 1.302e-11            
  -0.15                 -5.79e-11             -3.2e-13              -1e-13                5.814e-11            
  -0.2                  -2.5642e-10           -2.2e-13              8e-14                 2.5618e-10           
  -0.25                 -1.11732e-09          -2.4e-13              -6e-14                1.1145e-09           
  -0.3                  -4.6384e-09           -3.4e-13              -4e-14                4.6444e-09           
  -0.35                 -1.765e-08            -3e-13                -4e-14                1.7662e-08           
  -0.4                  -5.7892e-08           -3.6e-13              8e-14                 5.8072e-08           
  -0.45                 -1.5574e-07           -3.2e-13              -8e-14                1.5606e-07           
  -0.5                  -3.4234e-07           -4.8e-13              8e-14                 3.4252e-07           
  -0.55                 -6.2642e-07           -5.2e-13              4e-14                 6.2572e-07           
  -0.6                  -9.91e-07             -7e-13                -4e-14                9.9196e-07           
  -0.65                 -1.4098e-06           -5.4e-13              6e-14                 1.417e-06            
  -0.7                  -1.867e-06            -6.6e-13              0                     1.8714e-06           
  -0.75                 -2.3336e-06           -9.2e-13              2e-14                 2.3378e-06           
  -0.8                  -2.7368e-06           -9.2e-13              -2e-14                2.7304e-06           
  -0.85                 -3.1864e-06           -1.04e-12             -1e-13                3.1946e-06           
  -0.9                  -3.632e-06            -1.22e-12             0                     3.6226e-06           
  -0.95                 -4.068e-06            -1.48e-12             -6e-14                4.0656e-06           
  -1                    -4.472e-06            -1.8e-12              0                     4.4884e-06           
  -1.05                 -4.8838e-06           -1.94e-12             -4e-14                4.883e-06            
  -1.1                  -5.272e-06            -2.36e-12             -6e-14                5.272e-06            
  -1.15                 -5.642e-06            -2.7e-12              4e-14                 5.647e-06            
  -1.2                  -5.9782e-06           -3.14e-12             -2.2e-13              5.992e-06            
  -1.25                 -6.3424e-06           -3.58e-12             2e-14                 6.3452e-06           
  -1.3                  -6.6574e-06           -4.14e-12             -2e-14                6.6694e-06           
  -1.35                 -6.9506e-06           -4.82e-12             -2e-14                6.946e-06            
END_DB

BEGIN_DB
 ICCAP_VAR vb         0.4            
 ICCAP_VAR vd         -0.05          
 ICCAP_VAR vs         -0             

 #vg                    id                    ig                    ib                    is                   
  0.5                   -8e-14                3.8e-13               6e-14                 0                    
  0.45                  -8e-14                8e-14                 2e-14                 -6e-14               
  0.4                   0                     1.6e-13               2.2e-13               0                    
  0.35                  1e-13                 6e-14                 6e-14                 6e-14                
  0.3                   0                     -6e-14                2e-14                 1.4e-13              
  0.25                  -4e-14                -1.8e-13              1e-13                 4e-14                
  0.2                   -2e-14                -2.6e-13              1e-13                 1e-13                
  0.15                  2.4e-13               -2.4e-13              2e-14                 2e-13                
  0.1                   0                     -2.2e-13              2e-14                 6e-14                
  0.05                  -2e-14                -3e-13                -6e-14                1.8e-13              
  0                     -1.2e-13              -2.8e-13              2e-14                 4.2e-13              
  -0.05                 -1.24e-12             -3.4e-13              -1.2e-13              1.24e-12             
  -0.1                  -5.2e-12              -2e-13                8e-14                 5.36e-12             
  -0.15                 -2.398e-11            -3e-13                -2e-14                2.404e-11            
  -0.2                  -1.0868e-10           -3e-13                -4e-14                1.0894e-10           
  -0.25                 -4.8574e-10           -3.6e-13              0                     4.859e-10            
  -0.3                  -2.1098e-09           -3e-13                0                     2.1116e-09           
  -0.35                 -8.6344e-09           -4.2e-13              -1.2e-13              8.607e-09            
  -0.4                  -3.099e-08            -3.2e-13              -4e-14                3.1182e-08           
  -0.45                 -9.3808e-08           -3.2e-13              2e-14                 9.3962e-08           
  -0.5                  -2.2988e-07           -5e-13                1e-13                 2.2942e-07           
  -0.55                 -4.6168e-07           -5.2e-13              -1e-13                4.6074e-07           
  -0.6                  -7.8264e-07           -4e-13                -2e-14                7.8266e-07           
  -0.65                 -1.1732e-06           -5e-13                -8e-14                1.1766e-06           
  -0.7                  -1.6028e-06           -6.6e-13              2e-14                 1.6072e-06           
  -0.75                 -2.0618e-06           -7.8e-13              -1e-13                2.064e-06            
  -0.8                  -2.4868e-06           -8.8e-13              -8e-14                2.52e-06             
  -0.85                 -2.9146e-06           -1.1e-12              1e-13                 2.9266e-06           
  -0.9                  -3.3572e-06           -1.1e-12              -1.2e-13              3.379e-06            
  -0.95                 -3.771e-06            -1.44e-12             -2e-14                3.7888e-06           
  -1                    -4.1916e-06           -1.74e-12             8e-14                 4.2068e-06           
  -1.05                 -4.6022e-06           -1.92e-12             4e-14                 4.5976e-06           
  -1.1                  -4.998e-06            -2.26e-12             -6e-14                4.9998e-06           
  -1.15                 -5.363e-06            -2.76e-12             -4e-14                5.3708e-06           
  -1.2                  -5.727e-06            -3e-12                -6e-14                5.7224e-06           
  -1.25                 -6.0502e-06           -3.62e-12             -4e-14                6.053e-06            
  -1.3                  -6.378e-06            -4.12e-12             -6e-14                6.3846e-06           
  -1.35                 -6.693e-06            -4.78e-12             6e-14                 6.6976e-06           
END_DB

BEGIN_DB
 ICCAP_VAR vb         0.6            
 ICCAP_VAR vd         -0.05          
 ICCAP_VAR vs         -0             

 #vg                    id                    ig                    ib                    is                   
  0.5                   -4e-14                3e-13                 -4e-14                -1e-13               
  0.45                  -6e-14                1.4e-13               0                     2e-14                
  0.4                   1e-13                 8e-14                 6e-14                 -2e-14               
  0.35                  -4e-14                -2e-14                0                     0                    
  0.3                   -2e-14                -2e-14                0                     4e-14                
  0.25                  6e-14                 -1.4e-13              1.4e-13               -4e-14               
  0.2                   2e-14                 -1.2e-13              -2e-14                1.8e-13              
  0.15                  8e-14                 -2e-13                1.2e-13               -4e-14               
  0.1                   2e-14                 -6e-14                8e-14                 0                    
  0.05                  4e-14                 -2e-13                0                     6e-14                
  0                     -4e-14                -3.6e-13              6e-14                 2.2e-13              
  -0.05                 -5.4e-13              -1.6e-13              2e-14                 5e-13                
  -0.1                  -2.3e-12              -2.6e-13              1.8e-13               2.42e-12             
  -0.15                 -1.112e-11            -3.6e-13              -8e-14                1.138e-11            
  -0.2                  -5.164e-11            -3.4e-13              0                     5.166e-11            
  -0.25                 -2.343e-10            -3.2e-13              0                     2.3652e-10           
  -0.3                  -1.04934e-09          -3e-13                1e-13                 1.04988e-09          
  -0.35                 -4.4876e-09           -2.4e-13              -1e-13                4.5016e-09           
  -0.4                  -1.7338e-08           -3.6e-13              -2e-14                1.7388e-08           
  -0.45                 -5.7482e-08           -2.6e-13              2e-14                 5.7402e-08           
  -0.5                  -1.56e-07             -4.8e-13              6e-14                 1.5626e-07           
  -0.55                 -3.4132e-07           -5e-13                0                     3.4006e-07           
  -0.6                  -6.2058e-07           -5.2e-13              0                     6.2332e-07           
  -0.65                 -9.7998e-07           -7e-13                -1e-13                9.8134e-07           
  -0.7                  -1.3922e-06           -6.2e-13              1.2e-13               1.39e-06             
  -0.75                 -1.8264e-06           -8.2e-13              -2e-14                1.829e-06            
  -0.8                  -2.2794e-06           -9.2e-13              -6e-14                2.2352e-06           
  -0.85                 -2.677e-06            -1.2e-12              0                     2.6816e-06           
  -0.9                  -3.1176e-06           -1.18e-12             -2e-14                3.1208e-06           
  -0.95                 -3.5368e-06           -1.44e-12             -4e-14                3.5292e-06           
  -1                    -3.9444e-06           -1.78e-12             -1.4e-13              3.9784e-06           
  -1.05                 -4.3508e-06           -2e-12                -4e-14                4.3558e-06           
  -1.1                  -4.7434e-06           -2.3e-12              -8e-14                4.7588e-06           
  -1.15                 -5.108e-06            -2.72e-12             -1.8e-13              5.1094e-06           
  -1.2                  -5.4708e-06           -3.06e-12             -1.6e-13              5.4784e-06           
  -1.25                 -5.8192e-06           -3.6e-12              6e-14                 5.8394e-06           
  -1.3                  -6.1726e-06           -4.12e-12             -8e-14                6.1776e-06           
  -1.35                 -6.5036e-06           -4.76e-12             8e-14                 6.4792e-06           
END_DB

BEGIN_DB
 ICCAP_VAR vb         0.8            
 ICCAP_VAR vd         -0.05          
 ICCAP_VAR vs         -0             

 #vg                    id                    ig                    ib                    is                   
  0.5                   -1.2e-13              4.4e-13               2e-14                 -4e-14               
  0.45                  4e-14                 2.4e-13               2e-13                 -8e-14               
  0.4                   0                     6e-14                 4e-14                 2e-14                
  0.35                  8e-14                 -1e-13                1.4e-13               0                    
  0.3                   1.6e-13               -8e-14                -4e-14                2e-13                
