! VERSION = 6.00
BEGIN_HEADER
 ICCAP_INPUTS
  vd         V  D GROUND SMU1 0.1 LIN        1    -0         -1.35      28   -0.05     
  vg         V  G GROUND SMU2 0.001 LIN        2    -0.426     -1.35      5    -0.231    
  vb         V  B GROUND SMU4 0.1 CON        -0
  vs         V  S GROUND SMU3 0.1 CON        -0
 ICCAP_OUTPUTS
  id         I  D GROUND SMU1 B
  ig         I  G GROUND SMU2 B
  ib         I  B GROUND SMU4 B
  is         I  S GROUND SMU3 B
 ICCAP_VALUES
  MASTER_SETUP_TYPE "~dc_idvd~"
  LINVT_VALUE "|idvg|100.0n|100.0m|1.000m|5|1.350|"
  LISTVT_VALUE ""
  TYPE "-1"
  TEMP " 27.0000 "
  IS_TNOM " 1.00000 "
  MAIN.W "600.0n"
  MAIN.L "10.00u"
  MAIN.AD "204.0f"
  MAIN.AS "204.0f"
  MAIN.PD "1.880u"
  MAIN.PS "1.880u"
  MAIN.NF "1.000"
  MAIN.M "1"
  MAIN.NRD "0.000"
  MAIN.NRS "0.000"
  MAIN.LDRIFT1 "1E-06"
  MAIN.LDRIFT2 "1E-06"
  MAIN.SA "0.000"
  MAIN.SB "0.000"
  MAIN.SD "0.000"
  MAIN.SCA "0.000"
  MAIN.SCB "0.000"
  MAIN.SCC "0.000"
  MAIN.SC "0.000"
  MODULE "S552"
  PIN_D "20"
  PIN_G "1"
  PIN_S "2"
  PIN_B "19"
  PIN_E ""
  PIN_6 ""
  XY_ID ""
  FUNC "W Scale"
  STI "SA ref"
  WPE "WPE ref"
  COMMENT ""
  DIS_MEAS ""
  TypeTCI "10"
END_HEADER

BEGIN_DB
 ICCAP_VAR vg         -0.426         
 ICCAP_VAR vb         -0             
 ICCAP_VAR vs         -0             

 #vd                    id                    ig                    ib                    is                   
  -0                    4.804e-11             -5.2e-12              -3.1e-12              -5.03e-11            
  -0.05                 -2.5364e-08           -3.9e-12              -2.9e-12              2.5386e-08           
  -0.1                  -3.6896e-08           -3.24e-12             -2.82e-12             3.6926e-08           
  -0.15                 -4.051e-08            -3.08e-12             -2.82e-12             4.0546e-08           
  -0.2                  -4.1364e-08           -3e-12                -2.88e-12             4.1388e-08           
  -0.25                 -4.1586e-08           -2.96e-12             -2.7e-12              4.1622e-08           
  -0.3                  -4.1704e-08           -3e-12                -2.66e-12             4.173e-08            
  -0.35                 -4.1788e-08           -2.98e-12             -2.66e-12             4.1814e-08           
  -0.4                  -4.1874e-08           -3e-12                -2.82e-12             4.1904e-08           
  -0.45                 -4.1938e-08           -2.96e-12             -2.78e-12             4.1966e-08           
  -0.5                  -4.2004e-08           -2.84e-12             -2.64e-12             4.2014e-08           
  -0.55                 -4.2046e-08           -2.94e-12             -2.56e-12             4.2072e-08           
  -0.6                  -4.2106e-08           -3e-12                -2.62e-12             4.2124e-08           
  -0.65                 -4.214e-08            -2.9e-12              -2.54e-12             4.2178e-08           
  -0.7                  -4.2184e-08           -3.06e-12             -2.52e-12             4.2212e-08           
  -0.75                 -4.2226e-08           -2.9e-12              -2.38e-12             4.2262e-08           
  -0.8                  -4.227e-08            -2.96e-12             -2.46e-12             4.2312e-08           
  -0.85                 -4.2314e-08           -2.88e-12             -2.5e-12              4.2342e-08           
  -0.9                  -4.2332e-08           -2.82e-12             -2.32e-12             4.236e-08            
  -0.95                 -4.236e-08            -2.8e-12              -2.44e-12             4.239e-08            
  -1                    -4.2394e-08           -2.8e-12              -2.32e-12             4.2424e-08           
  -1.05                 -4.2424e-08           -2.88e-12             -2.26e-12             4.2456e-08           
  -1.1                  -4.2438e-08           -2.82e-12             -2.42e-12             4.2466e-08           
  -1.15                 -4.2472e-08           -2.78e-12             -2.44e-12             4.2494e-08           
  -1.2                  -4.2486e-08           -2.78e-12             -2.32e-12             4.251e-08            
  -1.25                 -4.2512e-08           -2.8e-12              -2.28e-12             4.2542e-08           
  -1.3                  -4.2526e-08           -2.78e-12             -2.26e-12             4.2568e-08           
  -1.35                 -4.2556e-08           -2.64e-12             -2.28e-12             4.2586e-08           
END_DB

BEGIN_DB
 ICCAP_VAR vg         -0.657         
 ICCAP_VAR vb         -0             
 ICCAP_VAR vs         -0             

 #vd                    id                    ig                    ib                    is                   
  -0                    1.9236e-10            -4.036e-11            -2.18e-12             -1.5086e-10          
  -0.05                 -9.9832e-08           -3.396e-11            -2.08e-12             9.9898e-08           
  -0.1                  -1.7952e-07           -2.904e-11            -2.16e-12             1.7974e-07           
  -0.15                 -2.3928e-07           -2.548e-11            -2.02e-12             2.3948e-07           
  -0.2                  -2.7976e-07           -2.316e-11            -2.04e-12             2.8006e-07           
  -0.25                 -3.0296e-07           -2.162e-11            -1.94e-12             3.032e-07            
  -0.3                  -3.131e-07            -2.114e-11            -2.02e-12             3.1332e-07           
  -0.35                 -3.1652e-07           -2.09e-11             -2.14e-12             3.1674e-07           
  -0.4                  -3.1782e-07           -2.082e-11            -2.08e-12             3.1804e-07           
  -0.45                 -3.1856e-07           -2.07e-11             -1.96e-12             3.1874e-07           
  -0.5                  -3.1908e-07           -2.072e-11            -1.88e-12             3.193e-07            
  -0.55                 -3.1952e-07           -2.066e-11            -1.88e-12             3.198e-07            
  -0.6                  -3.1998e-07           -2.062e-11            -2e-12                3.202e-07            
  -0.65                 -3.204e-07            -2.058e-11            -1.96e-12             3.2062e-07           
  -0.7                  -3.2074e-07           -2.058e-11            -1.96e-12             3.2096e-07           
  -0.75                 -3.211e-07            -2.058e-11            -2e-12                3.2128e-07           
  -0.8                  -3.2138e-07           -2.044e-11            -2.04e-12             3.2158e-07           
  -0.85                 -3.2162e-07           -2.054e-11            -1.86e-12             3.2188e-07           
  -0.9                  -3.2194e-07           -2.046e-11            -1.76e-12             3.221e-07            
  -0.95                 -3.221e-07            -2.04e-11             -1.84e-12             3.2234e-07           
  -1                    -3.2232e-07           -2.05e-11             -1.84e-12             3.2256e-07           
  -1.05                 -3.2254e-07           -2.048e-11            -1.86e-12             3.2276e-07           
  -1.1                  -3.2276e-07           -2.036e-11            -1.86e-12             3.2296e-07           
  -1.15                 -3.2294e-07           -2.032e-11            -1.76e-12             3.2314e-07           
  -1.2                  -3.2312e-07           -2.036e-11            -1.84e-12             3.2332e-07           
  -1.25                 -3.2334e-07           -2.028e-11            -1.88e-12             3.236e-07            
  -1.3                  -3.2352e-07           -2.02e-11             -1.72e-12             3.2372e-07           
  -1.35                 -3.2366e-07           -2.028e-11            -1.74e-12             3.239e-07            
END_DB

BEGIN_DB
 ICCAP_VAR vg         -0.888         
 ICCAP_VAR vb         -0             
 ICCAP_VAR vs         -0             

 #vd                    id                    ig                    ib                    is                   
  -0                    3.4822e-10            -1.5672e-10           -1.74e-12             -2.0072e-10          
  -0.05                 -1.7008e-07           -1.3822e-10           -1.64e-12             1.704e-07            
  -0.1                  -3.2248e-07           -1.226e-10            -1.74e-12             3.2278e-07           
  -0.15                 -4.5636e-07           -1.095e-10            -1.74e-12             4.5672e-07           
  -0.2                  -5.7126e-07           -9.892e-11            -1.62e-12             5.7164e-07           
  -0.25                 -6.6698e-07           -9.054e-11            -1.7e-12              6.6734e-07           
  -0.3                  -7.4322e-07           -8.396e-11            -1.78e-12             7.4362e-07           
  -0.35                 -8.0006e-07           -7.91e-11             -1.6e-12              8.0048e-07           
  -0.4                  -8.3826e-07           -7.608e-11            -1.6e-12              8.3854e-07           
  -0.45                 -8.5964e-07           -7.43e-11             -1.56e-12             8.5978e-07           
  -0.5                  -8.6936e-07           -7.346e-11            -1.6e-12              8.6978e-07           
  -0.55                 -8.7338e-07           -7.316e-11            -1.58e-12             8.7366e-07           
  -0.6                  -8.7526e-07           -7.3e-11              -1.56e-12             8.7562e-07           
  -0.65                 -8.765e-07            -7.31e-11             -1.44e-12             8.7686e-07           
  -0.7                  -8.774e-07            -7.284e-11            -1.62e-12             8.7764e-07           
  -0.75                 -8.782e-07            -7.282e-11            -1.72e-12             8.7862e-07           
  -0.8                  -8.791e-07            -7.26e-11             -1.7e-12              8.7956e-07           
  -0.85                 -8.7992e-07           -7.26e-11             -1.52e-12             8.8034e-07           
  -0.9                  -8.8054e-07           -7.25e-11             -1.52e-12             8.8092e-07           
  -0.95                 -8.8136e-07           -7.246e-11            -1.62e-12             8.8174e-07           
  -1                    -8.8188e-07           -7.25e-11             -1.56e-12             8.8234e-07           
  -1.05                 -8.8258e-07           -7.242e-11            -1.54e-12             8.8306e-07           
  -1.1                  -8.8318e-07           -7.218e-11            -1.46e-12             8.8354e-07           
  -1.15                 -8.8366e-07           -7.232e-11            -1.54e-12             8.8398e-07           
  -1.2                  -8.8414e-07           -7.232e-11            -1.56e-12             8.8448e-07           
  -1.25                 -8.8456e-07           -7.21e-11             -1.58e-12             8.8486e-07           
  -1.3                  -8.85e-07             -7.214e-11            -1.48e-12             8.854e-07            
  -1.35                 -8.854e-07            -7.208e-11            -1.42e-12             8.8572e-07           
END_DB

BEGIN_DB
 ICCAP_VAR vg         -1.119         
 ICCAP_VAR vb         -0             
 ICCAP_VAR vs         -0             

 #vd                    id                    ig                    ib                    is                   
  -0                    5.503e-10             -4.287e-10            -1.38e-12             -1.3544e-10          
  -0.05                 -2.2726e-07           -3.8956e-10           -1.38e-12             2.2784e-07           
  -0.1                  -4.399e-07            -3.5412e-10           -1.4e-12              4.4056e-07           
  -0.15                 -6.3694e-07           -3.2408e-10           -1.38e-12             6.3762e-07           
  -0.2                  -8.1778e-07           -2.9744e-10           -1.3e-12              8.1836e-07           
  -0.25                 -9.8184e-07           -2.743e-10            -1.34e-12             9.825e-07            
  -0.3                  -1.12874e-06          -2.5416e-10           -1.46e-12             1.12946e-06          
  -0.35                 -1.2564e-06           -2.3728e-10           -1.36e-12             1.2602e-06           
  -0.4                  -1.3672e-06           -2.2326e-10           -1.42e-12             1.371e-06            
  -0.45                 -1.4594e-06           -2.1204e-10           -1.42e-12             1.4634e-06           
  -0.5                  -1.5332e-06           -2.0342e-10           -1.36e-12             1.537e-06            
  -0.55                 -1.588e-06            -1.97e-10             -1.24e-12             1.592e-06            
  -0.6                  -1.6246e-06           -1.93e-10             -1.26e-12             1.6288e-06           
  -0.65                 -1.6456e-06           -1.9052e-10           -1.3e-12              1.6498e-06           
  -0.7                  -1.656e-06            -1.872e-10            -1.26e-12             1.6598e-06           
  -0.75                 -1.6608e-06           -1.8866e-10           -1.4e-12              1.6646e-06           
  -0.8                  -1.6632e-06           -1.883e-10            -1.26e-12             1.6674e-06           
  -0.85                 -1.6654e-06           -1.8822e-10           -1.12e-12             1.6694e-06           
  -0.9                  -1.667e-06            -1.8802e-10           -1.24e-12             1.671e-06            
  -0.95                 -1.6682e-06           -1.8776e-10           -1.4e-12              1.672e-06            
  -1                    -1.6696e-06           -1.8782e-10           -1.24e-12             1.6734e-06           
  -1.05                 -1.6706e-06           -1.8764e-10           -1.3e-12              1.6746e-06           
  -1.1                  -1.6716e-06           -1.8746e-10           -1.3e-12              1.6756e-06           
  -1.15                 -1.6726e-06           -1.874e-10            -1.24e-12             1.6764e-06           
  -1.2                  -1.6734e-06           -1.873e-10            -1.24e-12             1.6774e-06           
  -1.25                 -1.6746e-06           -1.8724e-10           -1.24e-12             1.6784e-06           
  -1.3                  -1.6752e-06           -1.8706e-10           -1.28e-12             1.679e-06            
  -1.35                 -1.676e-06            -1.8708e-10           -1.32e-12             1.68e-06             
END_DB

BEGIN_DB
 ICCAP_VAR vg         -1.35          
 ICCAP_VAR vb         -0             
 ICCAP_VAR vs         -0             

 #vd                    id                    ig                    ib                    is                   
  -0                    9.0712e-10            -9.4732e-10           5.44e-12              2.748e-11            
  -0.05                 -2.7198e-07           -8.7732e-10           3.5e-12               2.7304e-07           
  -0.1                  -5.3224e-07           -8.1572e-10           2.38e-12              5.333e-07            
  -0.15                 -7.7944e-07           -7.5672e-10           1.56e-12              7.8064e-07           
  -0.2                  -1.0133e-06           -7.0406e-10           1.06e-12              1.0144e-06           
  -0.25                 -1.2318e-06           -6.5222e-10           6.4e-13               1.2364e-06           
  -0.3                  -1.4374e-06           -6.0952e-10           3.8e-13               1.4416e-06           
  -0.35                 -1.6274e-06           -5.7136e-10           3.4e-13               1.6318e-06           
  -0.4                  -1.8024e-06           -5.383e-10            1e-13                 1.8068e-06           
  -0.45                 -1.9618e-06           -5.0906e-10           -6e-14                1.966e-06            
  -0.5                  -2.104e-06            -4.8378e-10           -8e-14                2.1084e-06           
  -0.55                 -2.2298e-06           -4.6222e-10           -1e-13                2.234e-06            
  -0.6                  -2.3374e-06           -4.4466e-10           -8e-14                2.3418e-06           
  -0.65                 -2.4278e-06           -4.2998e-10           -1.8e-13              2.4322e-06           
  -0.7                  -2.5e-06              -4.1824e-10           -1.4e-13              2.5042e-06           
  -0.75                 -2.5534e-06           -4.1004e-10           -1.8e-13              2.5578e-06           
  -0.8                  -2.59e-06             -4.0422e-10           -2.2e-13              2.5942e-06           
  -0.85                 -2.611e-06            -4.0094e-10           -2e-13                2.616e-06            
  -0.9                  -2.622e-06            -3.9934e-10           -8e-14                2.6266e-06           
  -0.95                 -2.6274e-06           -3.9856e-10           -2.8e-13              2.6316e-06           
  -1                    -2.6312e-06           -3.9822e-10           -2.4e-13              2.6354e-06           
  -1.05                 -2.6334e-06           -3.9702e-10           -2.6e-13              2.6374e-06           
  -1.1                  -2.6354e-06           -3.974e-10            -2.4e-13              2.6396e-06           
  -1.15                 -2.6374e-06           -3.9704e-10           -2.6e-13              2.6412e-06           
  -1.2                  -2.6388e-06           -3.9698e-10           -8e-14                2.643e-06            
  -1.25                 -2.6402e-06           -3.9668e-10           -1.4e-13              2.6442e-06           
  -1.3                  -2.6422e-06           -3.9642e-10           -1.2e-13              2.6462e-06           
  -1.35                 -2.6432e-06           -3.961e-10            -1.4e-13              2.6476e-06           
END_DB

