! VERSION = 6.00
BEGIN_HEADER
 ICCAP_INPUTS
  vg         V  G GROUND SMU2 0.001 LIN        1    0.5        -1.35      38   -0.05     
  vb         V  B GROUND SMU4 0.1 LIN        2    0          1.2        7    0.2       
  vd         V  D GROUND SMU1 0.1 LIST       3 3 -0.05 -0.6 -1.2
  vs         V  S GROUND SMU3 0.1 CON        -0
 ICCAP_OUTPUTS
  id         I  D GROUND SMU1 B
  ig         I  G GROUND SMU2 B
  ib         I  B GROUND SMU4 B
  is         I  S GROUND SMU3 B
 ICCAP_VALUES
  MASTER_SETUP_TYPE "~dc_idvg~"
  LINVT_VALUE ""
  LISTVT_VALUE ""
  TYPE "-1"
  TEMP " 27.0000 "
  IS_TNOM " 1.00000 "
  MAIN.W "300.0n"
  MAIN.L "130.0n"
  MAIN.AD "102.0f"
  MAIN.AS "102.0f"
  MAIN.PD "1.280u"
  MAIN.PS "1.280u"
  MAIN.NF "1.000"
  MAIN.M "1"
  MAIN.NRD "0.000"
  MAIN.NRS "0.000"
  MAIN.LDRIFT1 "1E-06"
  MAIN.LDRIFT2 "1E-06"
  MAIN.SA "0.000"
  MAIN.SB "0.000"
  MAIN.SD "0.000"
  MAIN.SCA "0.000"
  MAIN.SCB "0.000"
  MAIN.SCC "0.000"
  MAIN.SC "0.000"
  MODULE "S552"
  PIN_D "18"
  PIN_G "3"
  PIN_S "4"
  PIN_B "17"
  PIN_E ""
  PIN_6 ""
  XY_ID ""
  FUNC "LW Scale"
  STI "SA ref"
  WPE "WPE ref"
  COMMENT ""
  DIS_MEAS ""
  TypeTCI "10"
END_HEADER

BEGIN_DB
 ICCAP_VAR vb         0              
 ICCAP_VAR vd         -0.05          
 ICCAP_VAR vs         -0             

 #vg                    id                    ig                    ib                    is                   
  0.5                   -4e-14                1.9e-11               -5.7e-12              -1e-13               
  0.45                  -8e-14                3.02e-12              -1.74e-12             0                    
  0.4                   0                     4.4e-13               -1.08e-12             -2e-14               
  0.35                  -2e-14                1e-13                 -1.08e-12             2e-14                
  0.3                   -8e-14                -1e-13                -8.2e-13              -6e-14               
  0.25                  6e-14                 -1.4e-13              -1e-12                1.8e-13              
  0.2                   -1.8e-13              -1e-13                -8.8e-13              1.4e-13              
  0.15                  -2.2e-13              -3.2e-13              -9.4e-13              1.2e-13              
  0.1                   -2e-14                -2e-13                -8.6e-13              1e-13                
  0.05                  -5.2e-13              -2.4e-13              -9.4e-13              5.6e-13              
  0                     -2.22e-12             -2.2e-13              -1e-12                2.08e-12             
  -0.05                 -9.32e-12             -2.4e-13              -9e-13                9.36e-12             
  -0.1                  -4.11e-11             -3.8e-13              -9e-13                4.102e-11            
  -0.15                 -1.8122e-10           -2.2e-13              -8e-13                1.8124e-10           
  -0.2                  -7.9424e-10           -4.2e-13              -9.2e-13              7.9354e-10           
  -0.25                 -3.4098e-09           -2.6e-13              -9.8e-13              3.4318e-09           
  -0.3                  -1.4182e-08           -4.4e-13              -7.6e-13              1.4236e-08           
  -0.35                 -5.3068e-08           -3.8e-13              -8.2e-13              5.304e-08            
  -0.4                  -1.6414e-07           -4e-13                -8.4e-13              1.6458e-07           
  -0.45                 -4.0202e-07           -5.4e-13              -8e-13                4.0192e-07           
  -0.5                  -7.8912e-07           -4.6e-13              -8.8e-13              7.8926e-07           
  -0.55                 -1.2986e-06           -5.4e-13              -9.6e-13              1.304e-06            
  -0.6                  -1.895e-06            -6.4e-13              -9e-13                1.8988e-06           
  -0.65                 -2.5104e-06           -6.4e-13              -7.6e-13              2.511e-06            
  -0.7                  -3.152e-06            -8.8e-13              -8.4e-13              3.156e-06            
  -0.75                 -3.784e-06            -1.04e-12             -8.2e-13              3.792e-06            
  -0.8                  -4.4046e-06           -1.22e-12             -7.4e-13              4.3948e-06           
  -0.85                 -4.9784e-06           -1.54e-12             -8.2e-13              4.9826e-06           
  -0.9                  -5.5396e-06           -1.7e-12              -6.4e-13              5.5394e-06           
  -0.95                 -6.0846e-06           -1.98e-12             -7.8e-13              6.0962e-06           
  -1                    -6.604e-06            -2.4e-12              -8.8e-13              6.6038e-06           
  -1.05                 -7.0884e-06           -2.9e-12              -7.8e-13              7.0762e-06           
  -1.1                  -7.5524e-06           -3.62e-12             -7.8e-13              7.539e-06            
  -1.15                 -7.9802e-06           -4.38e-12             -7.6e-13              7.9866e-06           
  -1.2                  -8.402e-06            -5.18e-12             -7.4e-13              8.4052e-06           
  -1.25                 -8.7844e-06           -6.2e-12              -8.2e-13              8.7794e-06           
  -1.3                  -9.1384e-06           -7.24e-12             -8.8e-13              9.144e-06            
  -1.35                 -9.4844e-06           -8.42e-12             -7e-13                9.486e-06            
END_DB

BEGIN_DB
 ICCAP_VAR vb         0.2            
 ICCAP_VAR vd         -0.05          
 ICCAP_VAR vs         -0             

 #vg                    id                    ig                    ib                    is                   
  0.5                   -6e-14                4.6e-13               -2e-14                -4e-14               
  0.45                  -1e-13                2e-13                 0                     -4e-14               
  0.4                   -6e-14                2e-14                 -6e-14                -2e-14               
  0.35                  1e-13                 -2e-14                1.4e-13               -4e-14               
  0.3                   -8e-14                -4e-14                2e-14                 4e-14                
  0.25                  -2e-14                -1.2e-13              0                     0                    
  0.2                   2e-14                 -1.2e-13              1.2e-13               6e-14                
  0.15                  -2e-14                -1e-13                -4e-14                1e-13                
  0.1                   -1.4e-13              -1.4e-13              8e-14                 -2e-14               
  0.05                  -1.4e-13              -2.8e-13              4e-14                 1e-13                
  0                     -5.6e-13              -2.2e-13              2e-14                 6.8e-13              
  -0.05                 -2.72e-12             -3.2e-13              0                     2.7e-12              
  -0.1                  -1.242e-11            -2e-13                4e-14                 1.246e-11            
  -0.15                 -5.638e-11            -4e-13                -4e-14                5.672e-11            
  -0.2                  -2.5658e-10           -4.4e-13              2e-14                 2.5668e-10           
  -0.25                 -1.1568e-09           -3e-13                0                     1.159e-09            
  -0.3                  -5.1148e-09           -3e-13                -6e-14                5.121e-09            
  -0.35                 -2.1152e-08           -3.2e-13              4e-14                 2.1184e-08           
  -0.4                  -7.6414e-08           -3e-13                6e-14                 7.6472e-08           
  -0.45                 -2.2168e-07           -4.6e-13              -2e-14                2.2188e-07           
  -0.5                  -5.0526e-07           -4.4e-13              -2e-14                5.0386e-07           
  -0.55                 -9.3302e-07           -5.4e-13              1.2e-13               9.324e-07            
  -0.6                  -1.4698e-06           -5.4e-13              -8e-14                1.472e-06            
  -0.65                 -2.0546e-06           -5.8e-13              1.2e-13               2.061e-06            
  -0.7                  -2.682e-06            -8.4e-13              -1e-13                2.6856e-06           
  -0.75                 -3.3078e-06           -9.4e-13              2e-14                 3.3128e-06           
  -0.8                  -3.915e-06            -1.26e-12             -6e-14                3.9106e-06           
  -0.85                 -4.4976e-06           -1.36e-12             4e-14                 4.5006e-06           
  -0.9                  -5.0776e-06           -1.66e-12             0                     5.0854e-06           
  -0.95                 -5.6252e-06           -1.96e-12             -4e-14                5.6334e-06           
  -1                    -6.1434e-06           -2.42e-12             -6e-14                6.142e-06            
  -1.05                 -6.6412e-06           -2.86e-12             -1e-13                6.636e-06            
  -1.1                  -7.0906e-06           -3.5e-12              -2e-14                7.098e-06            
  -1.15                 -7.5414e-06           -4.2e-12              -2e-14                7.5386e-06           
  -1.2                  -7.9654e-06           -5.14e-12             0                     7.9634e-06           
  -1.25                 -8.3506e-06           -6.2e-12              0                     8.3532e-06           
  -1.3                  -8.7206e-06           -7.24e-12             -4e-14                8.7284e-06           
  -1.35                 -9.0812e-06           -8.5e-12              -6e-14                9.086e-06            
END_DB

BEGIN_DB
 ICCAP_VAR vb         0.4            
 ICCAP_VAR vd         -0.05          
 ICCAP_VAR vs         -0             

 #vg                    id                    ig                    ib                    is                   
  0.5                   -1e-13                5e-13                 1.4e-13               4e-14                
  0.45                  4e-14                 3e-13                 2.2e-13               -4e-14               
  0.4                   -4e-14                2e-14                 4e-14                 -6e-14               
  0.35                  0                     4e-14                 1.4e-13               -8e-14               
  0.3                   4e-14                 -1e-13                0                     -4e-14               
  0.25                  1e-13                 -1e-13                -8e-14                1.2e-13              
  0.2                   4e-14                 -1.6e-13              2e-14                 -2e-14               
  0.15                  1e-13                 -1.6e-13              -1.4e-13              6e-14                
  0.1                   8e-14                 -1.8e-13              -4e-14                4e-14                
  0.05                  2e-14                 -3.4e-13              -1e-13                2e-13                
  0                     -1e-13                -3.2e-13              -4e-14                2.6e-13              
  -0.05                 -8.6e-13              -3.2e-13              2e-14                 1e-12                
  -0.1                  -4.32e-12             -2.8e-13              -8e-14                4.36e-12             
  -0.15                 -2.028e-11            -2.2e-13              0                     2.026e-11            
  -0.2                  -9.418e-11            -3.6e-13              -6e-14                9.436e-11            
  -0.25                 -4.3894e-10           -2.8e-13              0                     4.3862e-10           
  -0.3                  -2.0134e-09           -1.8e-13              -8e-14                2.0128e-09           
  -0.35                 -8.8714e-09           -3.8e-13              2e-14                 8.853e-09            
  -0.4                  -3.566e-08            -2.4e-13              -2e-14                3.5674e-08           
  -0.45                 -1.1946e-07           -4.2e-13              0                     1.1984e-07           
  -0.5                  -3.1576e-07           -3.8e-13              -8e-14                3.1536e-07           
  -0.55                 -6.5652e-07           -5.6e-13              2e-14                 6.5696e-07           
  -0.6                  -1.12992e-06          -5.4e-13              0                     1.12982e-06          
  -0.65                 -1.6906e-06           -5.8e-13              -2e-14                1.694e-06            
  -0.7                  -2.295e-06            -7.6e-13              -1e-13                2.3008e-06           
  -0.75                 -2.9126e-06           -8.8e-13              0                     2.9174e-06           
  -0.8                  -3.5184e-06           -1.22e-12             0                     3.5196e-06           
  -0.85                 -4.1232e-06           -1.24e-12             -6e-14                4.1308e-06           
  -0.9                  -4.6814e-06           -1.62e-12             0                     4.6848e-06           
  -0.95                 -5.2326e-06           -1.94e-12             -1e-13                5.2272e-06           
  -1                    -5.7492e-06           -2.26e-12             2e-13                 5.7522e-06           
  -1.05                 -6.2526e-06           -2.94e-12             -6e-14                6.257e-06            
  -1.1                  -6.7232e-06           -3.42e-12             -2e-14                6.7248e-06           
  -1.15                 -7.1868e-06           -4.1e-12              2e-14                 7.184e-06            
  -1.2                  -7.6024e-06           -5.18e-12             0                     7.5936e-06           
  -1.25                 -7.981e-06            -6.06e-12             -2e-14                7.986e-06            
  -1.3                  -8.3664e-06           -7.18e-12             4e-14                 8.3746e-06           
  -1.35                 -8.7288e-06           -8.44e-12             0                     8.7356e-06           
END_DB

BEGIN_DB
 ICCAP_VAR vb         0.6            
 ICCAP_VAR vd         -0.05          
 ICCAP_VAR vs         -0             

 #vg                    id                    ig                    ib                    is                   
  0.5                   -4e-14                4.6e-13               1.8e-13               -1.8e-13             
  0.45                  2e-14                 1.8e-13               0                     -8e-14               
  0.4                   2e-14                 1.4e-13               8e-14                 -1.2e-13             
  0.35                  2e-14                 0                     4e-14                 -1.2e-13             
  0.3                   1.2e-13               0                     6e-14                 4e-14                
  0.25                  -8e-14                0                     1.4e-13               -2e-14               
  0.2                   1.8e-13               -1.8e-13              6e-14                 6e-14                
  0.15                  -2e-14                -2.4e-13              0                     6e-14                
  0.1                   1.6e-13               -2.8e-13              6e-14                 -8e-14               
  0.05                  1.2e-13               -2.4e-13              -1.4e-13              2e-13                
  0                     -6e-14                -2.2e-13              1.4e-13               0                    
  -0.05                 -1.6e-13              -4.2e-13              -1e-13                6e-13                
  -0.1                  -1.7e-12              -2.8e-13              2e-14                 1.72e-12             
  -0.15                 -8.06e-12             -2.8e-13              -4e-14                8.38e-12             
  -0.2                  -3.89e-11             -4.2e-13              4e-14                 3.896e-11            
  -0.25                 -1.8476e-10           -3.8e-13              -2e-14                1.8442e-10           
  -0.3                  -8.7076e-10           -3.8e-13              -1.2e-13              8.7022e-10           
  -0.35                 -3.999e-09            -3.4e-13              1.4e-13               3.9972e-09           
  -0.4                  -1.7242e-08           -3.6e-13              -1e-13                1.7262e-08           
  -0.45                 -6.4742e-08           -3.8e-13              2e-14                 6.4742e-08           
  -0.5                  -1.9524e-07           -5.8e-13              -6e-14                1.9532e-07           
  -0.55                 -4.58e-07             -6.2e-13              4e-14                 4.575e-07            
  -0.6                  -8.631e-07            -5.4e-13              6e-14                 8.6374e-07           
  -0.65                 -1.3778e-06           -6e-13                -1.2e-13              1.381e-06            
  -0.7                  -1.9578e-06           -8e-13                2e-14                 1.9618e-06           
  -0.75                 -2.5628e-06           -9.8e-13              -1e-13                2.5668e-06           
  -0.8                  -3.1728e-06           -1.1e-12              -6e-14                3.167e-06            
  -0.85                 -3.7474e-06           -1.3e-12              -2e-14                3.7472e-06           
  -0.9                  -4.315e-06            -1.7e-12              -8e-14                4.3156e-06           
  -0.95                 -4.8744e-06           -1.88e-12             -6e-14                4.888e-06            
  -1                    -5.4106e-06           -2.32e-12             1.4e-13               5.4188e-06           
  -1.05                 -5.921e-06            -2.7e-12              2e-14                 5.9242e-06           
  -1.1                  -6.384e-06            -3.46e-12             2e-14                 6.3888e-06           
  -1.15                 -6.841e-06            -4.14e-12             0                     6.8448e-06           
  -1.2                  -7.279e-06            -5.02e-12             6e-14                 7.2788e-06           
  -1.25                 -7.6762e-06           -6.02e-12             0                     7.684e-06            
  -1.3                  -8.0682e-06           -7.2e-12              -2e-14                8.0528e-06           
  -1.35                 -8.4084e-06           -8.42e-12             0                     8.404e-06            
END_DB

BEGIN_DB
 ICCAP_VAR vb         0.8            
 ICCAP_VAR vd         -0.05          
 ICCAP_VAR vs         -0             

 #vg                    id                    ig                    ib                    is                   
  0.5                   4e-14                 4.6e-13               8e-14                 -1.6e-13             
  0.45                  4e-14                 1.4e-13               -2e-14                2e-13                
  0.4                   -8e-14                4e-14                 8e-14                 -1.2e-13             
  0.35                  1e-13                 -4e-14                2e-14                 2e-13                
  0.3                   0                     -4e-14                0                     8e-14                
