! VERSION = 6.00
BEGIN_HEADER
 ICCAP_INPUTS
  vd         V  D GROUND SMU1 0.1 LIN        1    -0         -1.35      28   -0.05     
  vg         V  G GROUND SMU2 0.001 LIST       2 3 -0.203 -0.403 -0.603
  vb         V  B GROUND SMU4 0.1 CON        -0
  vs         V  S GROUND SMU3 0.1 CON        -0
 ICCAP_OUTPUTS
  id         I  D GROUND SMU1 B
  ig         I  G GROUND SMU2 B
  ib         I  B GROUND SMU4 B
  is         I  S GROUND SMU3 B
 ICCAP_VALUES
  MASTER_SETUP_TYPE "~dc_idvd~"
  LINVT_VALUE ""
  LISTVT_VALUE "|idvg|100.0n|-200.0m|1.000m|3|200.0m|200.0m|"
  TYPE "-1"
  TEMP " 27.0000 "
  IS_TNOM " 1.00000 "
  MAIN.W "300.0n"
  MAIN.L "150.0n"
  MAIN.AD "102.0f"
  MAIN.AS "102.0f"
  MAIN.PD "1.280u"
  MAIN.PS "1.280u"
  MAIN.NF "1.000"
  MAIN.M "1"
  MAIN.NRD "0.000"
  MAIN.NRS "0.000"
  MAIN.LDRIFT1 "1E-06"
  MAIN.LDRIFT2 "1E-06"
  MAIN.SA "0.000"
  MAIN.SB "0.000"
  MAIN.SD "0.000"
  MAIN.SCA "0.000"
  MAIN.SCB "0.000"
  MAIN.SCC "0.000"
  MAIN.SC "0.000"
  MODULE "S552"
  PIN_D "14"
  PIN_G "7"
  PIN_S "8"
  PIN_B "13"
  PIN_E ""
  PIN_6 ""
  XY_ID ""
  FUNC "LW Scale"
  STI "SA ref"
  WPE "WPE ref"
  COMMENT ""
  DIS_MEAS ""
  TypeTCI "10"
END_HEADER

BEGIN_DB
 ICCAP_VAR vg         -0.203         
 ICCAP_VAR vb         -0             
 ICCAP_VAR vs         -0             

 #vd                    id                    ig                    ib                    is                   
  -0                    8.8e-13               -2.18e-12             -1.06e-12             7.6e-13              
  -0.05                 -5.2986e-10           -2.18e-12             -1.12e-12             5.3202e-10           
  -0.1                  -6.3044e-10           -2.12e-12             -1.22e-12             6.3168e-10           
  -0.15                 -6.6376e-10           -2.24e-12             -1.1e-12              6.6582e-10           
  -0.2                  -6.861e-10            -2.12e-12             -1.1e-12              6.878e-10            
  -0.25                 -7.0518e-10           -2.08e-12             -1.14e-12             7.0678e-10           
  -0.3                  -7.2478e-10           -1.86e-12             -1.12e-12             7.2854e-10           
  -0.35                 -7.3758e-10           -2.22e-12             -1.04e-12             7.4038e-10           
  -0.4                  -7.5794e-10           -2.12e-12             -1.08e-12             7.593e-10            
  -0.45                 -7.7768e-10           -2.24e-12             -1.04e-12             7.7982e-10           
  -0.5                  -7.9358e-10           -2.3e-12              -1.1e-12              7.9464e-10           
  -0.55                 -8.1012e-10           -2.08e-12             -1e-12                8.11e-10             
  -0.6                  -8.3066e-10           -2.14e-12             -1.12e-12             8.3468e-10           
  -0.65                 -8.5168e-10           -2.12e-12             -1.06e-12             8.5352e-10           
  -0.7                  -8.7318e-10           -1.98e-12             -1.1e-12              8.7546e-10           
  -0.75                 -8.9394e-10           -2.08e-12             -1.1e-12              8.9584e-10           
  -0.8                  -9.1486e-10           -2.4e-12              -1.02e-12             9.1422e-10           
  -0.85                 -9.461e-10            -2.1e-12              -1.08e-12             9.4744e-10           
  -0.9                  -9.6364e-10           -2.18e-12             -1.1e-12              9.6888e-10           
  -0.95                 -9.849e-10            -2.16e-12             -1.04e-12             9.9028e-10           
  -1                    -1.011e-09            -2.04e-12             -1.2e-12              1.01316e-09          
  -1.05                 -1.033e-09            -2.2e-12              -1.06e-12             1.03564e-09          
  -1.1                  -1.0542e-09           -2.06e-12             -1.16e-12             1.05822e-09          
  -1.15                 -1.0802e-09           -1.92e-12             -9.6e-13              1.08268e-09          
  -1.2                  -1.1038e-09           -1.92e-12             -1e-12                1.10144e-09          
  -1.25                 -1.1216e-09           -1.74e-12             -1.06e-12             1.12396e-09          
  -1.3                  -1.1492e-09           -2.04e-12             -9.8e-13              1.1382e-09           
  -1.35                 -1.1652e-09           -1.88e-12             -9e-13                1.168e-09            
END_DB

BEGIN_DB
 ICCAP_VAR vg         -0.403         
 ICCAP_VAR vb         -0             
 ICCAP_VAR vs         -0             

 #vd                    id                    ig                    ib                    is                   
  -0                    3.325e-10             -1.24e-11             -1e-12                -3.208e-10           
  -0.05                 -1.2968e-07           -1.234e-11            -9.4e-13              1.2998e-07           
  -0.1                  -1.6886e-07           -1.23e-11             -9.2e-13              1.6908e-07           
  -0.15                 -1.833e-07            -1.254e-11            -9e-13                1.8306e-07           
  -0.2                  -1.9168e-07           -1.23e-11             -9.4e-13              1.918e-07            
  -0.25                 -1.9818e-07           -1.21e-11             -9.6e-13              1.984e-07            
  -0.3                  -2.0402e-07           -1.222e-11            -1.02e-12             2.0404e-07           
  -0.35                 -2.093e-07            -1.258e-11            -9.6e-13              2.092e-07            
  -0.4                  -2.1428e-07           -1.25e-11             -1e-12                2.1444e-07           
  -0.45                 -2.191e-07            -1.248e-11            -1.04e-12             2.1934e-07           
  -0.5                  -2.2434e-07           -1.224e-11            -9.8e-13              2.2484e-07           
  -0.55                 -2.294e-07            -1.236e-11            -9.4e-13              2.2964e-07           
  -0.6                  -2.3438e-07           -1.242e-11            -1e-12                2.3448e-07           
  -0.65                 -2.3982e-07           -1.206e-11            -9.8e-13              2.3976e-07           
  -0.7                  -2.4464e-07           -1.214e-11            -1.04e-12             2.4468e-07           
  -0.75                 -2.4904e-07           -1.218e-11            -1.04e-12             2.4894e-07           
  -0.8                  -2.5326e-07           -1.222e-11            -1.04e-12             2.5362e-07           
  -0.85                 -2.5832e-07           -1.216e-11            -9.2e-13              2.586e-07            
  -0.9                  -2.637e-07            -1.228e-11            -9.6e-13              2.6372e-07           
  -0.95                 -2.6792e-07           -1.21e-11             -9.8e-13              2.6836e-07           
  -1                    -2.7336e-07           -1.226e-11            -9.6e-13              2.736e-07            
  -1.05                 -2.7816e-07           -1.228e-11            -1e-12                2.7822e-07           
  -1.1                  -2.8308e-07           -1.2e-11              -1.02e-12             2.833e-07            
  -1.15                 -2.884e-07            -1.222e-11            -1.04e-12             2.8924e-07           
  -1.2                  -2.9398e-07           -1.224e-11            -9.4e-13              2.9432e-07           
  -1.25                 -2.9876e-07           -1.226e-11            -8.8e-13              2.9932e-07           
  -1.3                  -3.044e-07            -1.216e-11            -7.8e-13              3.0448e-07           
  -1.35                 -3.0922e-07           -1.194e-11            -3.6e-13              3.0978e-07           
END_DB

BEGIN_DB
 ICCAP_VAR vg         -0.603         
 ICCAP_VAR vb         -0             
 ICCAP_VAR vs         -0             

 #vd                    id                    ig                    ib                    is                   
  -0                    2.3336e-09            -2.758e-11            -9e-13                -2.1626e-09          
  -0.05                 -1.597e-06            -2.754e-11            -9.8e-13              1.6002e-06           
  -0.1                  -2.6344e-06           -2.714e-11            -1.02e-12             2.6382e-06           
  -0.15                 -3.2554e-06           -2.738e-11            -8.6e-13              3.2578e-06           
  -0.2                  -3.617e-06            -2.73e-11             -8.4e-13              3.62e-06             
  -0.25                 -3.8366e-06           -2.726e-11            -9e-13                3.8446e-06           
  -0.3                  -3.995e-06            -2.732e-11            -9.2e-13              3.9978e-06           
  -0.35                 -4.1148e-06           -2.72e-11             -8.2e-13              4.1186e-06           
  -0.4                  -4.2174e-06           -2.722e-11            -9.6e-13              4.2216e-06           
  -0.45                 -4.3098e-06           -2.722e-11            -1e-12                4.3104e-06           
  -0.5                  -4.3906e-06           -2.712e-11            -9e-13                4.3948e-06           
  -0.55                 -4.4704e-06           -2.718e-11            -1e-12                4.4732e-06           
  -0.6                  -4.545e-06            -2.716e-11            -9.6e-13              4.5496e-06           
  -0.65                 -4.6184e-06           -2.724e-11            -8.6e-13              4.621e-06            
  -0.7                  -4.6856e-06           -2.714e-11            -9e-13                4.6916e-06           
  -0.75                 -4.7564e-06           -2.716e-11            -1.06e-12             4.7604e-06           
  -0.8                  -4.8244e-06           -2.726e-11            -9.6e-13              4.8264e-06           
  -0.85                 -4.888e-06            -2.736e-11            -8.4e-13              4.891e-06            
  -0.9                  -4.9502e-06           -2.722e-11            -9.4e-13              4.9546e-06           
  -0.95                 -5.0166e-06           -2.692e-11            -9.8e-13              5.0192e-06           
  -1                    -5.0772e-06           -2.72e-11             -9.6e-13              5.081e-06            
  -1.05                 -5.139e-06            -2.738e-11            -9.8e-13              5.143e-06            
  -1.1                  -5.1974e-06           -2.718e-11            -9.4e-13              5.2034e-06           
  -1.15                 -5.2596e-06           -2.712e-11            -9.2e-13              5.264e-06            
  -1.2                  -5.3208e-06           -2.718e-11            -8e-13                5.324e-06            
  -1.25                 -5.3792e-06           -2.71e-11             -5.8e-13              5.3834e-06           
  -1.3                  -5.4386e-06           -2.69e-11             -2.4e-13              5.4426e-06           
  -1.35                 -5.4972e-06           -2.706e-11            6e-13                 5.499e-06            
END_DB

