! VERSION = 6.00
BEGIN_HEADER
 ICCAP_INPUTS
  vd         V  D GROUND SMU1 0.1 LIN        1    -0         -1.35      28   -0.05     
  vg         V  G GROUND SMU2 0.001 LIN        2    -0.574     -1.35      5    -0.194    
  vb         V  B GROUND SMU4 0.1 CON        1.2
  vs         V  S GROUND SMU3 0.1 CON        -0
 ICCAP_OUTPUTS
  id         I  D GROUND SMU1 B
  ig         I  G GROUND SMU2 B
  ib         I  B GROUND SMU4 B
  is         I  S GROUND SMU3 B
 ICCAP_VALUES
  MASTER_SETUP_TYPE "~dc_idvd~"
  LINVT_VALUE "|idvg|100.0n|100.0m|1.000m|5|1.350|"
  LISTVT_VALUE ""
  TYPE "-1"
  TEMP " 125.000 "
  IS_TNOM " 0.00000 "
  MAIN.W "10.00u"
  MAIN.L "10.00u"
  MAIN.AD "3.400p"
  MAIN.AS "3.400p"
  MAIN.PD "20.68u"
  MAIN.PS "20.68u"
  MAIN.NF "1.000"
  MAIN.M "1"
  MAIN.NRD "0.000"
  MAIN.NRS "0.000"
  MAIN.LDRIFT1 "1E-06"
  MAIN.LDRIFT2 "1E-06"
  MAIN.SA "0.000"
  MAIN.SB "0.000"
  MAIN.SD "0.000"
  MAIN.SCA "0.000"
  MAIN.SCB "0.000"
  MAIN.SCC "0.000"
  MAIN.SC "0.000"
  MODULE "S549"
  PIN_D "12"
  PIN_G "9"
  PIN_S "10"
  PIN_B "11"
  PIN_E ""
  PIN_6 ""
  XY_ID ""
  FUNC "Large"
  STI "SA ref"
  WPE "WPE ref"
  COMMENT ""
  DIS_MEAS ""
  TypeTCI "10"
END_HEADER

BEGIN_DB
 ICCAP_VAR vg         -0.574         
 ICCAP_VAR vb         1.2            
 ICCAP_VAR vs         -0             

 #vd                    id                    ig                    ib                    is                   
  -0                    5.4374e-10            -2.5964e-10           6.17e-11              -3.4766e-10          
  -0.05                 -2.7776e-07           -2.0422e-10           5.476e-11             2.7806e-07           
  -0.1                  -4.3052e-07           -1.7104e-10           5.218e-11             4.3084e-07           
  -0.15                 -4.97e-07             -1.5518e-10           4.96e-11              4.973e-07            
  -0.2                  -5.1954e-07           -1.4932e-10           4.686e-11             5.1982e-07           
  -0.25                 -5.2624e-07           -1.4748e-10           4.504e-11             5.2654e-07           
  -0.3                  -5.2842e-07           -1.467e-10            4.332e-11             5.2872e-07           
  -0.35                 -5.2946e-07           -1.4628e-10           4.116e-11             5.2974e-07           
  -0.4                  -5.3012e-07           -1.462e-10            4.014e-11             5.304e-07            
  -0.45                 -5.3066e-07           -1.4596e-10           3.902e-11             5.3094e-07           
  -0.5                  -5.3116e-07           -1.4564e-10           3.762e-11             5.3138e-07           
  -0.55                 -5.3154e-07           -1.4552e-10           3.65e-11              5.318e-07            
  -0.6                  -5.3192e-07           -1.454e-10            3.602e-11             5.3218e-07           
  -0.65                 -5.3226e-07           -1.4528e-10           3.482e-11             5.3254e-07           
  -0.7                  -5.3256e-07           -1.4532e-10           3.388e-11             5.3282e-07           
  -0.75                 -5.3288e-07           -1.4514e-10           3.288e-11             5.3312e-07           
  -0.8                  -5.3314e-07           -1.4474e-10           3.266e-11             5.3342e-07           
  -0.85                 -5.334e-07            -1.4466e-10           3.196e-11             5.3366e-07           
  -0.9                  -5.3364e-07           -1.4434e-10           3.112e-11             5.3394e-07           
  -0.95                 -5.3388e-07           -1.4422e-10           3.138e-11             5.3414e-07           
  -1                    -5.3406e-07           -1.439e-10            3.076e-11             5.3436e-07           
  -1.05                 -5.343e-07            -1.435e-10            2.944e-11             5.3452e-07           
  -1.1                  -5.3448e-07           -1.4302e-10           2.942e-11             5.3476e-07           
  -1.15                 -5.3468e-07           -1.426e-10            2.948e-11             5.3496e-07           
  -1.2                  -5.3486e-07           -1.4202e-10           2.966e-11             5.3508e-07           
  -1.25                 -5.3502e-07           -1.4134e-10           2.984e-11             5.3528e-07           
  -1.3                  -5.3518e-07           -1.4066e-10           3.05e-11              5.3542e-07           
  -1.35                 -5.353e-07            -1.3976e-10           3.272e-11             5.3554e-07           
END_DB

BEGIN_DB
 ICCAP_VAR vg         -0.768         
 ICCAP_VAR vb         1.2            
 ICCAP_VAR vs         -0             

 #vd                    id                    ig                    ib                    is                   
  -0                    1.705e-09             -1.1476e-09           2.178e-11             -5.9788e-10          
  -0.05                 -8.2752e-07           -9.8308e-10           2.142e-11             8.2866e-07           
  -0.1                  -1.4848e-06           -8.5342e-10           2.11e-11              1.4888e-06           
  -0.15                 -1.9764e-06           -7.5622e-10           2.118e-11             1.9804e-06           
  -0.2                  -2.3116e-06           -6.8888e-10           2.072e-11             2.3156e-06           
  -0.25                 -2.5106e-06           -6.4756e-10           2.08e-11              2.5146e-06           
  -0.3                  -2.6074e-06           -6.2698e-10           2.052e-11             2.6112e-06           
  -0.35                 -2.6454e-06           -6.184e-10            2.062e-11             2.6492e-06           
  -0.4                  -2.6594e-06           -6.154e-10            2.052e-11             2.663e-06            
  -0.45                 -2.6652e-06           -6.1382e-10           1.96e-11              2.669e-06            
  -0.5                  -2.6688e-06           -6.1272e-10           2.034e-11             2.6726e-06           
  -0.55                 -2.6716e-06           -6.1192e-10           2.022e-11             2.6752e-06           
  -0.6                  -2.6738e-06           -6.1158e-10           1.928e-11             2.6774e-06           
  -0.65                 -2.6756e-06           -6.1104e-10           1.968e-11             2.6794e-06           
  -0.7                  -2.6774e-06           -6.107e-10            1.922e-11             2.6812e-06           
  -0.75                 -2.6792e-06           -6.1036e-10           1.942e-11             2.6828e-06           
  -0.8                  -2.6806e-06           -6.1006e-10           1.95e-11              2.6844e-06           
  -0.85                 -2.682e-06            -6.0958e-10           1.87e-11              2.6858e-06           
  -0.9                  -2.6834e-06           -6.0944e-10           1.91e-11              2.6872e-06           
  -0.95                 -2.6846e-06           -6.0914e-10           1.926e-11             2.6884e-06           
  -1                    -2.6858e-06           -6.0862e-10           1.892e-11             2.6896e-06           
  -1.05                 -2.687e-06            -6.0852e-10           1.882e-11             2.6906e-06           
  -1.1                  -2.6882e-06           -6.0806e-10           1.926e-11             2.6916e-06           
  -1.15                 -2.6888e-06           -6.0766e-10           1.914e-11             2.6926e-06           
  -1.2                  -2.6898e-06           -6.0704e-10           1.92e-11              2.6932e-06           
  -1.25                 -2.6906e-06           -6.065e-10            1.928e-11             2.6942e-06           
  -1.3                  -2.6914e-06           -6.0608e-10           1.91e-11              2.6952e-06           
  -1.35                 -2.6922e-06           -6.055e-10            2.028e-11             2.6958e-06           
END_DB

BEGIN_DB
 ICCAP_VAR vg         -0.962         
 ICCAP_VAR vb         1.2            
 ICCAP_VAR vs         -0             

 #vd                    id                    ig                    ib                    is                   
  -0                    3.1978e-09            -3.2134e-09           1.808e-11             -2.9758e-10          
  -0.05                 -1.381e-06            -2.8618e-09           1.642e-11             1.3868e-06           
  -0.1                  -2.6028e-06           -2.5614e-09           1.662e-11             2.6086e-06           
  -0.15                 -3.6586e-06           -2.3096e-09           1.626e-11             3.6642e-06           
  -0.2                  -4.5462e-06           -2.1034e-09           1.616e-11             4.552e-06            
  -0.25                 -5.2664e-06           -1.9376e-09           1.672e-11             5.272e-06            
  -0.3                  -5.821e-06            -1.8124e-09           1.644e-11             5.8262e-06           
  -0.35                 -6.2154e-06           -1.7226e-09           1.61e-11              6.2204e-06           
  -0.4                  -6.4666e-06           -1.6652e-09           1.588e-11             6.4714e-06           
  -0.45                 -6.6018e-06           -1.6344e-09           1.632e-11             6.6074e-06           
  -0.5                  -6.663e-06            -1.62e-09             1.622e-11             6.6682e-06           
  -0.55                 -6.6888e-06           -1.6134e-09           1.594e-11             6.6942e-06           
  -0.6                  -6.7012e-06           -1.6106e-09           1.556e-11             6.7058e-06           
  -0.65                 -6.7086e-06           -1.6082e-09           1.618e-11             6.7132e-06           
  -0.7                  -6.7142e-06           -1.607e-09            1.608e-11             6.719e-06            
  -0.75                 -6.7192e-06           -1.6056e-09           1.558e-11             6.724e-06            
  -0.8                  -6.7238e-06           -1.605e-09            1.596e-11             6.7288e-06           
  -0.85                 -6.728e-06            -1.6032e-09           1.594e-11             6.7328e-06           
  -0.9                  -6.7318e-06           -1.6032e-09           1.522e-11             6.7368e-06           
  -0.95                 -6.7352e-06           -1.6022e-09           1.566e-11             6.7398e-06           
  -1                    -6.7384e-06           -1.6018e-09           1.546e-11             6.7434e-06           
  -1.05                 -6.7414e-06           -1.601e-09            1.58e-11              6.7462e-06           
  -1.1                  -6.7444e-06           -1.6e-09              1.59e-11              6.749e-06            
  -1.15                 -6.7472e-06           -1.599e-09            1.54e-11              6.7518e-06           
  -1.2                  -6.7496e-06           -1.5982e-09           1.538e-11             6.7542e-06           
  -1.25                 -6.752e-06            -1.598e-09            1.544e-11             6.7566e-06           
  -1.3                  -6.754e-06            -1.5972e-09           1.546e-11             6.7588e-06           
  -1.35                 -6.756e-06            -1.5956e-09           1.596e-11             6.7604e-06           
END_DB

BEGIN_DB
 ICCAP_VAR vg         -1.156         
 ICCAP_VAR vb         1.2            
 ICCAP_VAR vs         -0             

 #vd                    id                    ig                    ib                    is                   
  -0                    4.9448e-09            -7.1334e-09           2.776e-11             9.4552e-10           
  -0.05                 -1.8754e-06           -6.5034e-09           2.344e-11             1.885e-06            
  -0.1                  -3.6104e-06           -5.9384e-09           2.06e-11              3.6196e-06           
  -0.15                 -5.1942e-06           -5.4462e-09           1.972e-11             5.2028e-06           
  -0.2                  -6.6228e-06           -5.017e-09            1.874e-11             6.6314e-06           
  -0.25                 -7.8942e-06           -4.6444e-09           1.782e-11             7.9026e-06           
  -0.3                  -9.0046e-06           -4.3294e-09           1.734e-11             9.0124e-06           
  -0.35                 -9.9494e-06           -4.0682e-09           1.72e-11              9.9578e-06           
  -0.4                  -1.07318e-05          -3.8564e-09           1.646e-11             1.074e-05            
  -0.45                 -1.1348e-05           -3.6906e-09           1.644e-11             1.13578e-05          
  -0.5                  -1.1806e-05           -3.569e-09            1.58e-11              1.1818e-05           
  -0.55                 -1.2116e-05           -3.4864e-09           1.634e-11             1.2128e-05           
  -0.6                  -1.2298e-05           -3.4376e-09           1.632e-11             1.231e-05            
  -0.65                 -1.2392e-05           -3.4134e-09           1.632e-11             1.2402e-05           
  -0.7                  -1.2434e-05           -3.402e-09            1.642e-11             1.2446e-05           
  -0.75                 -1.2456e-05           -3.3948e-09           1.636e-11             1.2468e-05           
  -0.8                  -1.247e-05            -3.3906e-09           1.638e-11             1.248e-05            
  -0.85                 -1.248e-05            -3.3888e-09           1.656e-11             1.249e-05            
  -0.9                  -1.2488e-05           -3.386e-09            1.61e-11              1.2498e-05           
  -0.95                 -1.2496e-05           -3.3828e-09           1.628e-11             1.2506e-05           
  -1                    -1.2502e-05           -3.3808e-09           1.644e-11             1.2512e-05           
  -1.05                 -1.2508e-05           -3.38e-09             1.592e-11             1.252e-05            
  -1.1                  -1.2516e-05           -3.379e-09            1.61e-11              1.2526e-05           
  -1.15                 -1.252e-05            -3.3768e-09           1.59e-11              1.2532e-05           
  -1.2                  -1.2526e-05           -3.376e-09            1.608e-11             1.2536e-05           
  -1.25                 -1.253e-05            -3.3752e-09           1.624e-11             1.254e-05            
  -1.3                  -1.2534e-05           -3.3736e-09           1.6e-11               1.2544e-05           
  -1.35                 -1.2538e-05           -3.3716e-09           1.588e-11             1.2548e-05           
END_DB

BEGIN_DB
 ICCAP_VAR vg         -1.35          
 ICCAP_VAR vb         1.2            
 ICCAP_VAR vs         -0             

 #vd                    id                    ig                    ib                    is                   
  -0                    1.013e-08             -1.3832e-08           2.106e-10             2.6882e-09           
  -0.05                 -2.3014e-06           -1.2772e-08           1.613e-10             2.317e-06            
  -0.1                  -4.4828e-06           -1.182e-08            1.2804e-10            4.4978e-06           
  -0.15                 -6.5298e-06           -1.0962e-08           1.0448e-10            6.5444e-06           
  -0.2                  -8.4386e-06           -1.0198e-08           8.85e-11              8.4524e-06           
  -0.25                 -1.02066e-05          -9.524e-09            7.686e-11             1.02202e-05          
  -0.3                  -1.1828e-05           -8.9208e-09           6.876e-11             1.1844e-05           
  -0.35                 -1.3298e-05           -8.3926e-09           6.27e-11              1.3314e-05           
  -0.4                  -1.4618e-05           -7.9346e-09           5.876e-11             1.4634e-05           
  -0.45                 -1.578e-05            -7.538e-09            5.568e-11             1.5796e-05           
  -0.5                  -1.6784e-05           -7.2064e-09           5.292e-11             1.68e-05             
  -0.55                 -1.7628e-05           -6.9318e-09           5.172e-11             1.7644e-05           
  -0.6                  -1.831e-05            -6.7156e-09           5.004e-11             1.8326e-05           
  -0.65                 -1.8834e-05           -6.5464e-09           4.83e-11              1.885e-05            
  -0.7                  -1.9206e-05           -6.4322e-09           4.816e-11             1.9222e-05           
  -0.75                 -1.9444e-05           -6.3556e-09           4.828e-11             1.946e-05            
  -0.8                  -1.9578e-05           -6.3146e-09           4.73e-11              1.9592e-05           
  -0.85                 -1.9646e-05           -6.2912e-09           4.718e-11             1.9662e-05           
  -0.9                  -1.9682e-05           -6.28e-09             4.74e-11              1.9696e-05           
  -0.95                 -1.9702e-05           -6.2726e-09           4.736e-11             1.9716e-05           
  -1                    -1.9718e-05           -6.2686e-09           4.714e-11             1.9732e-05           
  -1.05                 -1.973e-05            -6.268e-09            4.714e-11             1.9746e-05           
  -1.1                  -1.9742e-05           -6.262e-09            4.698e-11             1.9756e-05           
  -1.15                 -1.9752e-05           -6.2604e-09           4.726e-11             1.9766e-05           
  -1.2                  -1.976e-05            -6.2568e-09           4.744e-11             1.9774e-05           
  -1.25                 -1.977e-05            -6.2534e-09           4.734e-11             1.9782e-05           
  -1.3                  -1.9776e-05           -6.252e-09            4.706e-11             1.979e-05            
  -1.35                 -1.9784e-05           -6.2492e-09           4.722e-11             1.9798e-05           
END_DB

