! VERSION = 6.00
BEGIN_HEADER
 ICCAP_INPUTS
  vg         V  G GROUND SMU2 0.001 LIN        1    0.5        -1.35      38   -0.05     
  vb         V  B GROUND SMU4 0.1 LIN        2    0          1.2        7    0.2       
  vd         V  D GROUND SMU1 0.1 LIST       3 3 -0.05 -0.6 -1.2
  vs         V  S GROUND SMU3 0.1 CON        -0
 ICCAP_OUTPUTS
  id         I  D GROUND SMU1 B
  ig         I  G GROUND SMU2 B
  ib         I  B GROUND SMU4 B
  is         I  S GROUND SMU3 B
 ICCAP_VALUES
  MASTER_SETUP_TYPE "~dc_idvg~"
  LINVT_VALUE ""
  LISTVT_VALUE ""
  TYPE "-1"
  TEMP " 125.000 "
  IS_TNOM " 0.00000 "
  MAIN.W "150.0n"
  MAIN.L "180.0n"
  MAIN.AD "100.5f"
  MAIN.AS "100.5f"
  MAIN.PD "1.340u"
  MAIN.PS "1.340u"
  MAIN.NF "1.000"
  MAIN.M "1"
  MAIN.NRD "0.000"
  MAIN.NRS "0.000"
  MAIN.LDRIFT1 "1E-06"
  MAIN.LDRIFT2 "1E-06"
  MAIN.SA "0.000"
  MAIN.SB "0.000"
  MAIN.SD "0.000"
  MAIN.SCA "0.000"
  MAIN.SCB "0.000"
  MAIN.SCC "0.000"
  MAIN.SC "0.000"
  MODULE "S555"
  PIN_D "20"
  PIN_G "1"
  PIN_S "2"
  PIN_B "19"
  PIN_E ""
  PIN_6 ""
  XY_ID ""
  FUNC "LW Scale"
  STI "SA ref"
  WPE "WPE ref"
  COMMENT ""
  DIS_MEAS ""
  TypeTCI "10"
END_HEADER

BEGIN_DB
 ICCAP_VAR vb         0              
 ICCAP_VAR vd         -0.05          
 ICCAP_VAR vs         -0             

 #vg                    id                    ig                    ib                    is                   
  0.5                   -4e-14                2.022e-08             -2.0194e-08           8e-14                
  0.45                  5.76e-12              4.7294e-09            -4.7426e-09           0                    
  0.4                   2.4e-13               1.1068e-09            -1.1258e-09           1.4e-13              
  0.35                  -4e-14                2.5964e-10            -2.7468e-10           2.8e-13              
  0.3                   -3.4e-13              6.076e-11             -7.6e-11              2.6e-13              
  0.25                  -7.4e-13              1.412e-11             -2.806e-11            7.4e-13              
  0.2                   -1.72e-12             3.1e-12               -1.68e-11             1.82e-12             
  0.15                  -4.98e-12             4.2e-13               -1.338e-11            5.1e-12              
  0.1                   -1.478e-11            -2e-13                -1.226e-11            1.48e-11             
  0.05                  -4.39e-11             -5e-13                -1.216e-11            4.4e-11              
  0                     -1.3236e-10           -4.4e-13              -1.14e-11             1.3224e-10           
  -0.05                 -4.026e-10            -6e-13                -1.164e-11            4.0188e-10           
  -0.1                  -1.2226e-09           -2.8e-13              -1.112e-11            1.2234e-09           
  -0.15                 -3.6868e-09           -5.4e-13              -1.082e-11            3.684e-09            
  -0.2                  -1.07576e-08          -6e-13                -1.018e-11            1.0762e-08           
  -0.25                 -2.9334e-08           -4.6e-13              -1.024e-11            2.9374e-08           
  -0.3                  -7.1412e-08           -6.6e-13              -9.68e-12             7.1476e-08           
  -0.35                 -1.5012e-07           -5.4e-13              -1e-11                1.502e-07            
  -0.4                  -2.7178e-07           -8.2e-13              -9.46e-12             2.7188e-07           
  -0.45                 -4.2832e-07           -7.6e-13              -9.52e-12             4.261e-07            
  -0.5                  -6.1908e-07           -8.8e-13              -9.06e-12             6.133e-07            
  -0.55                 -8.1802e-07           -9.6e-13              -9.32e-12             8.1312e-07           
  -0.6                  -1.02368e-06          -1.12e-12             -8.94e-12             1.02394e-06          
  -0.65                 -1.239e-06            -1.08e-12             -8.04e-12             1.2474e-06           
  -0.7                  -1.4578e-06           -1.4e-12              -8.52e-12             1.4614e-06           
  -0.75                 -1.67e-06             -1.64e-12             -8.36e-12             1.6732e-06           
  -0.8                  -1.8726e-06           -2e-12                -8.48e-12             1.878e-06            
  -0.85                 -2.0776e-06           -2.28e-12             -8.32e-12             2.0834e-06           
  -0.9                  -2.2748e-06           -2.78e-12             -7.82e-12             2.2784e-06           
  -0.95                 -2.4618e-06           -3.34e-12             -7.46e-12             2.4654e-06           
  -1                    -2.6454e-06           -3.86e-12             -7.6e-12              2.6446e-06           
  -1.05                 -2.8106e-06           -4.54e-12             -7.92e-12             2.8156e-06           
  -1.1                  -2.9692e-06           -5.44e-12             -7.38e-12             2.9754e-06           
  -1.15                 -3.1326e-06           -6.3e-12              -7.5e-12              3.1356e-06           
  -1.2                  -3.2934e-06           -7.58e-12             -7.68e-12             3.2946e-06           
  -1.25                 -3.4338e-06           -9.04e-12             -6.68e-12             3.4368e-06           
  -1.3                  -3.5766e-06           -1.058e-11            -7.28e-12             3.5852e-06           
  -1.35                 -3.7126e-06           -1.262e-11            -6.8e-12              3.7132e-06           
END_DB

BEGIN_DB
 ICCAP_VAR vb         0.2            
 ICCAP_VAR vd         -0.05          
 ICCAP_VAR vs         -0             

 #vg                    id                    ig                    ib                    is                   
  0.5                   6e-14                 6.17e-11              -5.75e-11             0                    
  0.45                  -2e-14                1.464e-11             -1.25e-11             -2e-14               
  0.4                   -1.4e-13              3.44e-12              -2.1e-12              -1.4e-13             
  0.35                  0                     6.4e-13               5.6e-13               1.8e-13              
  0.3                   -1.4e-13              -8e-14                7.4e-13               0                    
  0.25                  -3.2e-13              -3.2e-13              7.2e-13               8e-14                
  0.2                   -5.6e-13              -4.4e-13              -8e-14                5.8e-13              
  0.15                  -1.72e-12             -3.8e-13              -5.8e-13              1.52e-12             
  0.1                   -4.84e-12             -4.2e-13              -8e-14                4.86e-12             
  0.05                  -1.508e-11            -5.6e-13              -9e-13                1.496e-11            
  0                     -4.726e-11            -5.4e-13              -5.4e-13              4.734e-11            
  -0.05                 -1.4944e-10           -5.6e-13              -6.4e-13              1.492e-10            
  -0.1                  -4.7256e-10           -6.2e-13              -9.8e-13              4.7242e-10           
  -0.15                 -1.4898e-09           -4e-13                -1.08e-12             1.4884e-09           
  -0.2                  -4.5978e-09           -5.8e-13              -1.3e-12              4.5952e-09           
  -0.25                 -1.3596e-08           -6.2e-13              -1.26e-12             1.359e-08            
  -0.3                  -3.6858e-08           -6.6e-13              -1.42e-12             3.6908e-08           
  -0.35                 -8.7564e-08           -7.2e-13              -1.36e-12             8.755e-08            
  -0.4                  -1.7764e-07           -7.8e-13              -1.36e-12             1.7778e-07           
  -0.45                 -3.0924e-07           -9e-13                -1.34e-12             3.0742e-07           
  -0.5                  -4.7038e-07           -7.8e-13              -1.68e-12             4.701e-07            
  -0.55                 -6.5496e-07           -1e-12                -1.78e-12             6.5492e-07           
  -0.6                  -8.538e-07            -1.08e-12             -1.4e-12              8.5698e-07           
  -0.65                 -1.06872e-06          -1.18e-12             -1.76e-12             1.06908e-06          
  -0.7                  -1.2744e-06           -1.16e-12             -1.42e-12             1.2828e-06           
  -0.75                 -1.49e-06             -1.54e-12             -1.44e-12             1.4892e-06           
  -0.8                  -1.6958e-06           -1.9e-12              -1.78e-12             1.698e-06            
  -0.85                 -1.8958e-06           -2.22e-12             -1.56e-12             1.8988e-06           
  -0.9                  -2.09e-06             -2.68e-12             -1.6e-12              2.0934e-06           
  -0.95                 -2.283e-06            -3.16e-12             -1.72e-12             2.2856e-06           
  -1                    -2.4632e-06           -3.78e-12             -1.34e-12             2.4666e-06           
  -1.05                 -2.6374e-06           -4.52e-12             -1.72e-12             2.642e-06            
  -1.1                  -2.8014e-06           -5.36e-12             -2.08e-12             2.8104e-06           
  -1.15                 -2.9594e-06           -6.46e-12             -1.94e-12             2.9678e-06           
  -1.2                  -3.1164e-06           -7.6e-12              -1.42e-12             3.118e-06            
  -1.25                 -3.2696e-06           -8.88e-12             -1.88e-12             3.2582e-06           
  -1.3                  -3.4066e-06           -1.052e-11            -1.76e-12             3.4096e-06           
  -1.35                 -3.5432e-06           -1.25e-11             -1.52e-12             3.55e-06             
END_DB

BEGIN_DB
 ICCAP_VAR vb         0.4            
 ICCAP_VAR vd         -0.05          
 ICCAP_VAR vs         -0             

 #vg                    id                    ig                    ib                    is                   
  0.5                   0                     7e-13                 8.82e-12              -4e-14               
  0.45                  4e-14                 1.6e-13               6.64e-12              4e-14                
  0.4                   -1.6e-13              4e-14                 5.82e-12              -1e-13               
  0.35                  -2.4e-13              -1.4e-13              5.64e-12              -4e-14               
  0.3                   2e-14                 -2.6e-13              4.92e-12              1.6e-13              
  0.25                  -1.2e-13              -2.6e-13              4.58e-12              8e-14                
  0.2                   -2.8e-13              -3.8e-13              3.36e-12              1.6e-13              
  0.15                  -7.2e-13              -4e-13                3.84e-12              6.2e-13              
  0.1                   -2.04e-12             -4.2e-13              3.42e-12              1.78e-12             
  0.05                  -6.1e-12              -5.4e-13              3.22e-12              6.06e-12             
  0                     -1.98e-11             -5.4e-13              3.36e-12              1.968e-11            
  -0.05                 -6.396e-11            -5e-13                2.98e-12              6.368e-11            
  -0.1                  -2.0746e-10           -5.2e-13              2.48e-12              2.0744e-10           
  -0.15                 -6.7242e-10           -6.6e-13              2.44e-12              6.7238e-10           
  -0.2                  -2.1518e-09           -4.6e-13              2.52e-12              2.1506e-09           
  -0.25                 -6.7024e-09           -4.6e-13              1.86e-12              6.707e-09            
  -0.3                  -1.9682e-08           -5.6e-13              2.06e-12              1.9688e-08           
  -0.35                 -5.1662e-08           -7.4e-13              1.52e-12              5.1616e-08           
  -0.4                  -1.1628e-07           -7.6e-13              1.8e-12               1.1632e-07           
  -0.45                 -2.2188e-07           -8.2e-13              1.78e-12              2.219e-07            
  -0.5                  -3.6698e-07           -8.4e-13              1.64e-12              3.6576e-07           
  -0.55                 -5.354e-07            -9.2e-13              1.24e-12              5.3246e-07           
  -0.6                  -7.2776e-07           -1.08e-12             1.46e-12              7.197e-07            
  -0.65                 -9.2666e-07           -1.22e-12             1.9e-12               9.2664e-07           
  -0.7                  -1.13208e-06          -1.54e-12             9.6e-13               1.13606e-06          
  -0.75                 -1.3402e-06           -1.5e-12              1.44e-12              1.3438e-06           
  -0.8                  -1.5424e-06           -1.86e-12             8.4e-13               1.548e-06            
  -0.85                 -1.7438e-06           -2.16e-12             1.06e-12              1.751e-06            
  -0.9                  -1.9378e-06           -2.68e-12             9.4e-13               1.944e-06            
  -0.95                 -2.1294e-06           -3.04e-12             1.06e-12              2.1282e-06           
  -1                    -2.3146e-06           -3.8e-12              9e-13                 2.3134e-06           
  -1.05                 -2.4896e-06           -4.5e-12              1.22e-12              2.4926e-06           
  -1.1                  -2.6554e-06           -5.28e-12             1.18e-12              2.6636e-06           
  -1.15                 -2.8214e-06           -6.36e-12             6.2e-13               2.827e-06            
  -1.2                  -2.977e-06            -7.4e-12              9.6e-13               2.9776e-06           
  -1.25                 -3.1184e-06           -8.88e-12             6.4e-13               3.1138e-06           
  -1.3                  -3.2668e-06           -1.062e-11            1.24e-12              3.2656e-06           
  -1.35                 -3.401e-06            -1.264e-11            9e-13                 3.4048e-06           
END_DB

BEGIN_DB
 ICCAP_VAR vb         0.6            
 ICCAP_VAR vd         -0.05          
 ICCAP_VAR vs         -0             

 #vg                    id                    ig                    ib                    is                   
  0.5                   -4e-14                4e-13                 1.08e-11              0                    
  0.45                  0                     2e-14                 8.92e-12              2e-14                
  0.4                   -1.4e-13              -1.2e-13              8.24e-12              0                    
  0.35                  -4e-14                -1.2e-13              7.34e-12              4e-14                
  0.3                   -2e-13                -3.2e-13              6.96e-12              -2e-14               
  0.25                  -2.6e-13              -2.8e-13              6.32e-12              1e-13                
  0.2                   0                     -3.8e-13              6.24e-12              1.2e-13              
  0.15                  -4.4e-13              -4.6e-13              5.76e-12              2.8e-13              
  0.1                   -9.6e-13              -4.2e-13              5.76e-12              8.4e-13              
  0.05                  -2.82e-12             -4.2e-13              5.62e-12              2.68e-12             
  0                     -9.1e-12              -5.2e-13              4.72e-12              9e-12                
  -0.05                 -2.988e-11            -5.8e-13              4.6e-12               2.97e-11             
  -0.1                  -9.886e-11            -4.8e-13              4.42e-12              9.868e-11            
  -0.15                 -3.2666e-10           -6.6e-13              4.2e-12               3.2704e-10           
  -0.2                  -1.07296e-09          -6.8e-13              4.32e-12              1.07322e-09          
  -0.25                 -3.4726e-09           -5.4e-13              4.2e-12               3.4704e-09           
  -0.3                  -1.07628e-08          -7e-13                4.02e-12              1.07556e-08          
  -0.35                 -3.057e-08            -5.6e-13              3.36e-12              3.0598e-08           
  -0.4                  -7.5814e-08           -7.8e-13              3.56e-12              7.5862e-08           
  -0.45                 -1.5852e-07           -8.4e-13              3.48e-12              1.5862e-07           
  -0.5                  -2.7876e-07           -7.4e-13              3.48e-12              2.7568e-07           
  -0.55                 -4.3502e-07           -1.04e-12             3.5e-12               4.3536e-07           
  -0.6                  -6.1642e-07           -1.04e-12             3.22e-12              6.1638e-07           
  -0.65                 -8.0722e-07           -1.2e-12              3.16e-12              8.0136e-07           
  -0.7                  -1.00226e-06          -1.44e-12             2.94e-12              1.00418e-06          
  -0.75                 -1.211e-06            -1.5e-12              3.2e-12               1.2082e-06           
  -0.8                  -1.4108e-06           -1.8e-12              3.02e-12              1.417e-06            
  -0.85                 -1.6122e-06           -2.18e-12             2.7e-12               1.6162e-06           
  -0.9                  -1.8144e-06           -2.68e-12             2.66e-12              1.816e-06            
  -0.95                 -1.999e-06            -3.12e-12             2.22e-12              2.009e-06            
  -1                    -2.1824e-06           -3.76e-12             3.02e-12              2.1858e-06           
  -1.05                 -2.3592e-06           -4.4e-12              2.48e-12              2.3604e-06           
  -1.1                  -2.5296e-06           -5.26e-12             2.82e-12              2.5276e-06           
  -1.15                 -2.6852e-06           -6.26e-12             2.9e-12               2.691e-06            
  -1.2                  -2.832e-06            -7.42e-12             2.44e-12              2.8432e-06           
  -1.25                 -2.9904e-06           -8.72e-12             2.76e-12              2.9894e-06           
  -1.3                  -3.1284e-06           -1.044e-11            2.4e-12               3.1272e-06           
  -1.35                 -3.2732e-06           -1.228e-11            2.64e-12              3.2756e-06           
END_DB

BEGIN_DB
 ICCAP_VAR vb         0.8            
 ICCAP_VAR vd         -0.05          
 ICCAP_VAR vs         -0             

 #vg                    id                    ig                    ib                    is                   
  0.5                   -2e-14                3.2e-13               1.186e-11             -2e-14               
  0.45                  -1.4e-13              1e-13                 1.09e-11              -6e-14               
  0.4                   -6e-14                0                     1.008e-11             2e-14                
  0.35                  -1e-13                -1.2e-13              9.12e-12              4e-14                
  0.3                   -6e-14                -2.4e-13              8.62e-12              6e-14                
