! VERSION = 6.00
BEGIN_HEADER
 ICCAP_INPUTS
  vg         V  G GROUND SMU2 0.001 LIN        1    0.5        -1.35      38   -0.05     
  vb         V  B GROUND SMU4 0.1 LIN        2    0          1.2        7    0.2       
  vd         V  D GROUND SMU1 0.1 LIST       3 3 -0.05 -0.6 -1.2
  vs         V  S GROUND SMU3 0.1 CON        -0
 ICCAP_OUTPUTS
  id         I  D GROUND SMU1 B
  ig         I  G GROUND SMU2 B
  ib         I  B GROUND SMU4 B
  is         I  S GROUND SMU3 B
 ICCAP_VALUES
  MASTER_SETUP_TYPE "~dc_idvg~"
  LINVT_VALUE ""
  LISTVT_VALUE ""
  TYPE "-1"
  TEMP " 27.0000 "
  IS_TNOM " 1.00000 "
  MAIN.W "150.0n"
  MAIN.L "150.0n"
  MAIN.AD "100.5f"
  MAIN.AS "100.5f"
  MAIN.PD "1.340u"
  MAIN.PS "1.340u"
  MAIN.NF "1.000"
  MAIN.M "1"
  MAIN.NRD "0.000"
  MAIN.NRS "0.000"
  MAIN.LDRIFT1 "1E-06"
  MAIN.LDRIFT2 "1E-06"
  MAIN.SA "0.000"
  MAIN.SB "0.000"
  MAIN.SD "0.000"
  MAIN.SCA "0.000"
  MAIN.SCB "0.000"
  MAIN.SCC "0.000"
  MAIN.SC "0.000"
  MODULE "S554"
  PIN_D "12"
  PIN_G "9"
  PIN_S "10"
  PIN_B "11"
  PIN_E ""
  PIN_6 ""
  XY_ID ""
  FUNC "LW Scale"
  STI "SA ref"
  WPE "WPE ref"
  COMMENT ""
  DIS_MEAS ""
  TypeTCI "10"
END_HEADER

BEGIN_DB
 ICCAP_VAR vb         0              
 ICCAP_VAR vd         -0.05          
 ICCAP_VAR vs         -0             

 #vg                    id                    ig                    ib                    is                   
  0.5                   -1.2e-13              1.85e-11              -5.34e-12             -8e-14               
  0.45                  -1.2e-13              2.8e-12               -1.58e-12             -2e-14               
  0.4                   0                     4.2e-13               -9.4e-13              1e-13                
  0.35                  0                     -6e-14                -9e-13                2e-14                
  0.3                   -1e-13                -4e-14                -8.6e-13              1e-13                
  0.25                  -1.2e-13              -2.4e-13              -7.2e-13              -2e-14               
  0.2                   -1.6e-13              -2.8e-13              -8.2e-13              1.6e-13              
  0.15                  2e-14                 -1.2e-13              -6.8e-13              -6e-14               
  0.1                   -3e-13                -3.2e-13              -7.4e-13              2.4e-13              
  0.05                  -5.4e-13              -3.2e-13              -8e-13                4.4e-13              
  0                     -2.12e-12             -1e-13                -6e-13                1.9e-12              
  -0.05                 -9.24e-12             -3.8e-13              -7.4e-13              9.2e-12              
  -0.1                  -4.246e-11            -3.6e-13              -7.4e-13              4.242e-11            
  -0.15                 -1.9408e-10           -3.6e-13              -7.8e-13              1.9424e-10           
  -0.2                  -8.8182e-10           -3.6e-13              -6.4e-13              8.8308e-10           
  -0.25                 -3.9496e-09           -3.2e-13              -7.2e-13              3.9352e-09           
  -0.3                  -1.6414e-08           -4.2e-13              -7.4e-13              1.653e-08            
  -0.35                 -5.9178e-08           -4.4e-13              -7.4e-13              5.9058e-08           
  -0.4                  -1.6718e-07           -5e-13                -7.2e-13              1.6718e-07           
  -0.45                 -3.6348e-07           -5.4e-13              -7.6e-13              3.636e-07            
  -0.5                  -6.419e-07            -5.4e-13              -7.2e-13              6.4238e-07           
  -0.55                 -9.7574e-07           -6.6e-13              -6.6e-13              9.7574e-07           
  -0.6                  -1.3358e-06           -6.6e-13              -7e-13                1.3426e-06           
  -0.65                 -1.7168e-06           -6.8e-13              -7.4e-13              1.7202e-06           
  -0.7                  -2.0954e-06           -9e-13                -6.8e-13              2.0996e-06           
  -0.75                 -2.4704e-06           -1.04e-12             -7e-13                2.474e-06            
  -0.8                  -2.8346e-06           -1.24e-12             -6.6e-13              2.827e-06            
  -0.85                 -3.1716e-06           -1.44e-12             -6.2e-13              3.1758e-06           
  -0.9                  -3.51e-06             -1.64e-12             -7e-13                3.5132e-06           
  -0.95                 -3.8238e-06           -1.98e-12             -7.4e-13              3.8268e-06           
  -1                    -4.1344e-06           -2.32e-12             -5.4e-13              4.1388e-06           
  -1.05                 -4.4282e-06           -2.7e-12              -8.2e-13              4.43e-06             
  -1.1                  -4.686e-06            -3.2e-12              -6.6e-13              4.69e-06             
  -1.15                 -4.9416e-06           -3.66e-12             -6.8e-13              4.9518e-06           
  -1.2                  -5.191e-06            -4.36e-12             -7.2e-13              5.2004e-06           
  -1.25                 -5.4364e-06           -4.8e-12              -6e-13                5.4368e-06           
  -1.3                  -5.654e-06            -5.7e-12              -6.6e-13              5.6594e-06           
  -1.35                 -5.8678e-06           -6.48e-12             -6e-13                5.865e-06            
END_DB

BEGIN_DB
 ICCAP_VAR vb         0.2            
 ICCAP_VAR vd         -0.05          
 ICCAP_VAR vs         -0             

 #vg                    id                    ig                    ib                    is                   
  0.5                   -8e-14                3.4e-13               -1e-13                8e-14                
  0.45                  -2e-14                2e-14                 2e-14                 1.2e-13              
  0.4                   -6e-14                1.4e-13               0                     -8e-14               
  0.35                  -6e-14                -2e-14                1.2e-13               6e-14                
  0.3                   0                     -6e-14                -1.4e-13              0                    
  0.25                  -4e-14                -1.8e-13              0                     1.8e-13              
  0.2                   -4e-14                -1.8e-13              0                     0                    
  0.15                  2e-14                 -2.4e-13              -4e-14                1.8e-13              
  0.1                   -1e-13                -3.2e-13              -4e-14                1.6e-13              
  0.05                  -1e-13                -2.4e-13              -2e-14                1e-13                
  0                     -6.4e-13              -3.8e-13              -8e-14                7.8e-13              
  -0.05                 -3.08e-12             -3.2e-13              -8e-14                2.96e-12             
  -0.1                  -1.408e-11            -2.8e-13              4e-14                 1.41e-11             
  -0.15                 -6.658e-11            -3.6e-13              -6e-14                6.674e-11            
  -0.2                  -3.1478e-10           -2e-13                2e-14                 3.1478e-10           
  -0.25                 -1.4678e-09           -3.4e-13              -2e-14                1.473e-09            
  -0.3                  -6.6326e-09           -5.2e-13              -8e-14                6.633e-09            
  -0.35                 -2.7062e-08           -2.8e-13              0                     2.7074e-08           
  -0.4                  -9.0338e-08           -3.8e-13              0                     9.0338e-08           
  -0.45                 -2.31e-07             -5e-13                0                     2.3102e-07           
  -0.5                  -4.6022e-07           -6.4e-13              -4e-14                4.6044e-07           
  -0.55                 -7.5934e-07           -6e-13                -8e-14                7.599e-07            
  -0.6                  -1.10198e-06          -7e-13                -4e-14                1.10262e-06          
  -0.65                 -1.4646e-06           -6.4e-13              -1e-13                1.469e-06            
  -0.7                  -1.8366e-06           -8e-13                -2e-14                1.8412e-06           
  -0.75                 -2.2068e-06           -1.08e-12             0                     2.2108e-06           
  -0.8                  -2.57e-06             -1.12e-12             -1e-13                2.5736e-06           
  -0.85                 -2.922e-06            -1.36e-12             -4e-14                2.9266e-06           
  -0.9                  -3.2388e-06           -1.76e-12             -4e-14                3.2432e-06           
  -0.95                 -3.5644e-06           -1.9e-12              -2e-14                3.5646e-06           
  -1                    -3.8672e-06           -2.22e-12             4e-14                 3.861e-06            
  -1.05                 -4.1522e-06           -2.72e-12             -2e-14                4.159e-06            
  -1.1                  -4.432e-06            -3.14e-12             0                     4.4312e-06           
  -1.15                 -4.6958e-06           -3.6e-12              0                     4.7076e-06           
  -1.2                  -4.95e-06             -4.16e-12             4e-14                 4.959e-06            
  -1.25                 -5.1876e-06           -5e-12                0                     5.1844e-06           
  -1.3                  -5.4168e-06           -5.48e-12             -4e-14                5.4256e-06           
  -1.35                 -5.6352e-06           -6.54e-12             1.2e-13               5.6336e-06           
END_DB

BEGIN_DB
 ICCAP_VAR vb         0.4            
 ICCAP_VAR vd         -0.05          
 ICCAP_VAR vs         -0             

 #vg                    id                    ig                    ib                    is                   
  0.5                   -6e-14                3.2e-13               -2e-14                1.8e-13              
  0.45                  6e-14                 2.6e-13               2e-14                 -6e-14               
  0.4                   -1.2e-13              6e-14                 -6e-14                2e-14                
  0.35                  -4e-14                -8e-14                2e-14                 -8e-14               
  0.3                   -1e-13                -1.2e-13              -4e-14                -2e-14               
  0.25                  -2e-14                -1.2e-13              4e-14                 4e-14                
  0.2                   0                     -1e-13                2e-14                 4e-14                
  0.15                  -2e-14                -1.8e-13              0                     1e-13                
  0.1                   -6e-14                -2e-13                1e-13                 4e-14                
  0.05                  -4e-14                -3.8e-13              0                     2.2e-13              
  0                     -3.8e-13              -2.8e-13              0                     3.4e-13              
  -0.05                 -1.04e-12             -3.6e-13              -2e-14                1.1e-12              
  -0.1                  -5.52e-12             -4e-13                0                     5.54e-12             
  -0.15                 -2.622e-11            -3.6e-13              -6e-14                2.642e-11            
  -0.2                  -1.2774e-10           -4e-13                -4e-14                1.275e-10            
  -0.25                 -6.1598e-10           -4.6e-13              -2e-14                6.1512e-10           
  -0.3                  -2.9002e-09           -3.4e-13              0                     2.8964e-09           
  -0.35                 -1.2808e-08           -2.6e-13              -4e-14                1.283e-08            
  -0.4                  -4.874e-08            -4e-13                -4e-14                4.8598e-08           
  -0.45                 -1.4448e-07           -5.6e-13              4e-14                 1.4464e-07           
  -0.5                  -3.269e-07            -5e-13                -2e-14                3.2718e-07           
  -0.55                 -5.895e-07            -6.6e-13              -6e-14                5.9026e-07           
  -0.6                  -9.0836e-07           -8e-13                -1e-13                9.084e-07            
  -0.65                 -1.2568e-06           -5.4e-13              0                     1.2604e-06           
  -0.7                  -1.6202e-06           -1e-12                -1.2e-13              1.6242e-06           
  -0.75                 -1.9852e-06           -9.4e-13              -4e-14                1.9888e-06           
  -0.8                  -2.346e-06            -1.26e-12             0                     2.3492e-06           
  -0.85                 -2.6976e-06           -1.34e-12             -4e-14                2.7016e-06           
  -0.9                  -3.0352e-06           -1.6e-12              0                     3.0364e-06           
  -0.95                 -3.3564e-06           -2e-12                -1e-13                3.3678e-06           
  -1                    -3.6728e-06           -2.14e-12             0                     3.6776e-06           
  -1.05                 -3.9606e-06           -2.7e-12              -8e-14                3.9696e-06           
  -1.1                  -4.224e-06            -2.98e-12             4e-14                 4.2326e-06           
  -1.15                 -4.4926e-06           -3.62e-12             0                     4.4998e-06           
  -1.2                  -4.753e-06            -4.08e-12             -1e-13                4.7606e-06           
  -1.25                 -4.9794e-06           -4.84e-12             6e-14                 4.9824e-06           
  -1.3                  -5.208e-06            -5.5e-12              0                     5.2084e-06           
  -1.35                 -5.4274e-06           -6.34e-12             -2e-14                5.4232e-06           
END_DB

BEGIN_DB
 ICCAP_VAR vb         0.6            
 ICCAP_VAR vd         -0.05          
 ICCAP_VAR vs         -0             

 #vg                    id                    ig                    ib                    is                   
  0.5                   -2e-14                3.8e-13               1e-13                 -4e-14               
  0.45                  0                     1e-13                 -4e-14                2.2e-13              
  0.4                   -1.8e-13              2e-14                 -8e-14                1.6e-13              
  0.35                  0                     0                     8e-14                 4e-14                
  0.3                   -2e-14                -2e-14                -4e-14                1.2e-13              
  0.25                  -1e-13                -2e-14                -2e-14                2e-14                
  0.2                   2e-14                 -8e-14                -2e-14                4e-14                
  0.15                  -1.6e-13              -1.8e-13              -4e-14                -2e-14               
  0.1                   0                     -1.8e-13              -1.2e-13              8e-14                
  0.05                  -8e-14                -2.6e-13              2e-14                 -6e-14               
  0                     -4e-14                -3e-13                -8e-14                8e-14                
  -0.05                 -5e-13                -3.6e-13              6e-14                 6e-13                
  -0.1                  -2.38e-12             -2.4e-13              2e-14                 2.28e-12             
  -0.15                 -1.174e-11            -3.8e-13              6e-14                 1.186e-11            
  -0.2                  -5.766e-11            -3.6e-13              2e-14                 5.758e-11            
  -0.25                 -2.8406e-10           -4e-13                4e-14                 2.8396e-10           
  -0.3                  -1.376e-09            -4e-13                -6e-14                1.377e-09            
  -0.35                 -6.4086e-09           -2.8e-13              -4e-14                6.3994e-09           
  -0.4                  -2.6726e-08           -5.6e-13              -8e-14                2.6728e-08           
  -0.45                 -9.005e-08            -5.6e-13              6e-14                 9.0056e-08           
  -0.5                  -2.3044e-07           -5.2e-13              -4e-14                2.3062e-07           
  -0.55                 -4.5662e-07           -5.8e-13              2e-14                 4.564e-07            
  -0.6                  -7.493e-07            -7.8e-13              -4e-14                7.4932e-07           
  -0.65                 -1.08298e-06          -8e-13                4e-14                 1.0831e-06           
  -0.7                  -1.4354e-06           -6.8e-13              -1e-13                1.439e-06            
  -0.75                 -1.7948e-06           -1.06e-12             0                     1.7988e-06           
  -0.8                  -2.1522e-06           -1.12e-12             -1.4e-13              2.156e-06            
  -0.85                 -2.5028e-06           -1.32e-12             0                     2.507e-06            
  -0.9                  -2.8432e-06           -1.58e-12             -2e-14                2.8492e-06           
  -0.95                 -3.171e-06            -1.92e-12             -4e-14                3.1712e-06           
  -1                    -3.4798e-06           -2.26e-12             -2e-14                3.4806e-06           
  -1.05                 -3.7564e-06           -2.68e-12             -8e-14                3.7516e-06           
  -1.1                  -4.0322e-06           -3.02e-12             -4e-14                4.0376e-06           
  -1.15                 -4.3022e-06           -3.68e-12             2e-14                 4.3052e-06           
  -1.2                  -4.5594e-06           -4.1e-12              -2e-14                4.5696e-06           
  -1.25                 -4.8084e-06           -4.92e-12             2e-14                 4.8118e-06           
  -1.3                  -5.0404e-06           -5.52e-12             -8e-14                5.0354e-06           
  -1.35                 -5.2548e-06           -6.32e-12             8e-14                 5.2654e-06           
END_DB

BEGIN_DB
 ICCAP_VAR vb         0.8            
 ICCAP_VAR vd         -0.05          
 ICCAP_VAR vs         -0             

 #vg                    id                    ig                    ib                    is                   
  0.5                   6e-14                 3.8e-13               0                     1.4e-13              
  0.45                  -8e-14                1.4e-13               1.6e-13               2e-14                
  0.4                   -2e-14                0                     0                     1.4e-13              
  0.35                  4e-14                 0                     6e-14                 1.4e-13              
  0.3                   -4e-14                -4e-14                0                     0                    
