! VERSION = 6.00
BEGIN_HEADER
 ICCAP_INPUTS
  vd         V  D GROUND SMU1 0.1 LIN        1    -0         -1.35      28   -0.05     
  vg         V  G GROUND SMU2 0.001 LIN        2    -0.626     -1.35      5    -0.181    
  vb         V  B GROUND SMU4 0.1 CON        1.2
  vs         V  S GROUND SMU3 0.1 CON        -0
 ICCAP_OUTPUTS
  id         I  D GROUND SMU1 B
  ig         I  G GROUND SMU2 B
  ib         I  B GROUND SMU4 B
  is         I  S GROUND SMU3 B
 ICCAP_VALUES
  MASTER_SETUP_TYPE "~dc_idvd~"
  LINVT_VALUE "|idvg|100.0n|100.0m|1.000m|5|1.350|"
  LISTVT_VALUE ""
  TYPE "-1"
  TEMP " 27.0000 "
  IS_TNOM " 1.00000 "
  MAIN.W "180.0n"
  MAIN.L "150.0n"
  MAIN.AD "102.6f"
  MAIN.AS "102.6f"
  MAIN.PD "1.340u"
  MAIN.PS "1.340u"
  MAIN.NF "1.000"
  MAIN.M "1"
  MAIN.NRD "0.000"
  MAIN.NRS "0.000"
  MAIN.LDRIFT1 "1E-06"
  MAIN.LDRIFT2 "1E-06"
  MAIN.SA "0.000"
  MAIN.SB "0.000"
  MAIN.SD "0.000"
  MAIN.SCA "0.000"
  MAIN.SCB "0.000"
  MAIN.SCC "0.000"
  MAIN.SC "0.000"
  MODULE "S553"
  PIN_D "12"
  PIN_G "9"
  PIN_S "10"
  PIN_B "11"
  PIN_E ""
  PIN_6 ""
  XY_ID ""
  FUNC "LW Scale"
  STI "SA ref"
  WPE "WPE ref"
  COMMENT ""
  DIS_MEAS ""
  TypeTCI "10"
END_HEADER

BEGIN_DB
 ICCAP_VAR vg         -0.626         
 ICCAP_VAR vb         1.2            
 ICCAP_VAR vs         -0             

 #vd                    id                    ig                    ib                    is                   
  -0                    6.5874e-10            -9.2e-13              3.4e-13               -8.002e-10           
  -0.05                 -3.659e-07            -7.4e-13              5e-13                 3.663e-07            
  -0.1                  -5.5172e-07           -5.4e-13              2.6e-13               5.4846e-07           
  -0.15                 -6.4476e-07           -4.6e-13              3.8e-13               6.4724e-07           
  -0.2                  -6.975e-07            -3.8e-13              3.4e-13               6.9908e-07           
  -0.25                 -7.4286e-07           -3.4e-13              2.8e-13               7.4098e-07           
  -0.3                  -7.771e-07            -2.2e-13              3.2e-13               7.7716e-07           
  -0.35                 -8.073e-07            -2.4e-13              2.6e-13               8.0734e-07           
  -0.4                  -8.3558e-07           -2.2e-13              1.8e-13               8.323e-07            
  -0.45                 -8.545e-07            -2.4e-13              1.8e-13               8.6232e-07           
  -0.5                  -8.8768e-07           -2e-13                2.6e-13               8.8462e-07           
  -0.55                 -9.0924e-07           -1.6e-13              2.6e-13               9.104e-07            
  -0.6                  -9.2988e-07           -1e-13                1e-13                 9.2838e-07           
  -0.65                 -9.6378e-07           -1.2e-13              1.6e-13               9.6412e-07           
  -0.7                  -9.8888e-07           -1e-13                2.8e-13               9.8756e-07           
  -0.75                 -1.01482e-06          -6e-14                2.8e-13               1.00764e-06          
  -0.8                  -1.04024e-06          -1.6e-13              1.4e-13               1.03858e-06          
  -0.85                 -1.0633e-06           -2e-13                1.6e-13               1.06306e-06          
  -0.9                  -1.08468e-06          -8e-14                1.2e-13               1.0785e-06           
  -0.95                 -1.10396e-06          -4e-14                2.2e-13               1.10248e-06          
  -1                    -1.1338e-06           -1e-13                2.8e-13               1.14102e-06          
  -1.05                 -1.1514e-06           0                     3e-13                 1.1672e-06           
  -1.1                  -1.1894e-06           -4e-14                1.2e-13               1.1948e-06           
  -1.15                 -1.2068e-06           -4e-14                6e-14                 1.2118e-06           
  -1.2                  -1.2424e-06           -2e-14                1.4e-13               1.2452e-06           
  -1.25                 -1.2618e-06           8e-14                 3.2e-13               1.2678e-06           
  -1.3                  -1.295e-06            -8e-14                5.4e-13               1.2982e-06           
  -1.35                 -1.3076e-06           0                     8.2e-13               1.314e-06            
END_DB

BEGIN_DB
 ICCAP_VAR vg         -0.807         
 ICCAP_VAR vb         1.2            
 ICCAP_VAR vs         -0             

 #vd                    id                    ig                    ib                    is                   
  -0                    2.2088e-09            -1.8e-12              4e-14                 -1.9702e-09          
  -0.05                 -1.4448e-06           -1.7e-12              6e-14                 1.4494e-06           
  -0.1                  -2.5488e-06           -1.34e-12             1.2e-13               2.5506e-06           
  -0.15                 -3.3492e-06           -1.12e-12             4e-14                 3.3518e-06           
  -0.2                  -3.904e-06            -8.6e-13              1e-13                 3.907e-06            
  -0.25                 -4.2928e-06           -7.6e-13              2e-13                 4.2978e-06           
  -0.3                  -4.5728e-06           -6.6e-13              2e-13                 4.5686e-06           
  -0.35                 -4.7742e-06           -6.4e-13              2e-14                 4.787e-06            
  -0.4                  -4.953e-06            -5.2e-13              2e-14                 4.961e-06            
  -0.45                 -5.104e-06            -4e-13                1.2e-13               5.1102e-06           
  -0.5                  -5.2384e-06           -3.6e-13              1.4e-13               5.2426e-06           
  -0.55                 -5.361e-06            -4e-13                2e-13                 5.3634e-06           
  -0.6                  -5.4804e-06           -2.8e-13              8e-14                 5.4806e-06           
  -0.65                 -5.5938e-06           -2.4e-13              2e-14                 5.5984e-06           
  -0.7                  -5.6974e-06           -4.6e-13              1.2e-13               5.7092e-06           
  -0.75                 -5.8024e-06           -3.6e-13              2e-13                 5.8196e-06           
  -0.8                  -5.9102e-06           -3e-13                8e-14                 5.9196e-06           
  -0.85                 -6.0238e-06           -2.8e-13              -2e-14                6.0172e-06           
  -0.9                  -6.1136e-06           -4.4e-13              1.2e-13               6.1266e-06           
  -0.95                 -6.219e-06            -2.8e-13              6e-14                 6.224e-06            
  -1                    -6.3192e-06           -2.4e-13              1.4e-13               6.3198e-06           
  -1.05                 -6.4174e-06           -3.2e-13              4e-14                 6.4012e-06           
  -1.1                  -6.516e-06            -3e-13                2e-14                 6.5368e-06           
  -1.15                 -6.643e-06            -2.6e-13              1e-13                 6.6122e-06           
  -1.2                  -6.7016e-06           -3.6e-13              2e-14                 6.7152e-06           
  -1.25                 -6.7982e-06           -3e-13                1.8e-13               6.8138e-06           
  -1.3                  -6.8992e-06           -1.6e-13              4e-13                 6.9066e-06           
  -1.35                 -7.0012e-06           -1.6e-13              7e-13                 7.0024e-06           
END_DB

BEGIN_DB
 ICCAP_VAR vg         -0.988         
 ICCAP_VAR vb         1.2            
 ICCAP_VAR vs         -0             

 #vd                    id                    ig                    ib                    is                   
  -0                    3.1678e-09            -3.16e-12             -6e-14                -3.0086e-09          
  -0.05                 -2.6528e-06           -2.88e-12             4e-14                 2.6698e-06           
  -0.1                  -4.9702e-06           -2.62e-12             8e-14                 4.96e-06             
  -0.15                 -6.8698e-06           -2.36e-12             4e-14                 6.8716e-06           
  -0.2                  -8.4464e-06           -2.26e-12             -1e-13                8.4444e-06           
  -0.25                 -9.7016e-06           -1.8e-12              -4e-14                9.7028e-06           
  -0.3                  -1.06824e-05          -1.58e-12             4e-14                 1.0673e-05           
  -0.35                 -1.143e-05            -1.36e-12             0                     1.14426e-05          
  -0.4                  -1.2032e-05           -1.16e-12             0                     1.2034e-05           
  -0.45                 -1.2574e-05           -1.06e-12             1.6e-13               1.2592e-05           
  -0.5                  -1.2962e-05           -9.4e-13              4e-14                 1.3e-05              
  -0.55                 -1.3304e-05           -8e-13                8e-14                 1.3316e-05           
  -0.6                  -1.3596e-05           -7e-13                -2e-14                1.3626e-05           
  -0.65                 -1.3888e-05           -6.4e-13              4e-14                 1.3892e-05           
  -0.7                  -1.4144e-05           -6.6e-13              8e-14                 1.4134e-05           
  -0.75                 -1.4364e-05           -6.4e-13              4e-14                 1.4384e-05           
  -0.8                  -1.46e-05             -8e-13                2e-14                 1.4634e-05           
  -0.85                 -1.4836e-05           -6.8e-13              1.4e-13               1.483e-05            
  -0.9                  -1.5004e-05           -5.6e-13              6e-14                 1.503e-05            
  -0.95                 -1.521e-05            -6.2e-13              2e-14                 1.5234e-05           
  -1                    -1.543e-05            -6.2e-13              -6e-14                1.5462e-05           
  -1.05                 -1.5624e-05           -6.6e-13              6e-14                 1.5626e-05           
  -1.1                  -1.5806e-05           -6.2e-13              1e-13                 1.5824e-05           
  -1.15                 -1.6004e-05           -7.2e-13              8e-14                 1.6018e-05           
  -1.2                  -1.6186e-05           -5.8e-13              0                     1.623e-05            
  -1.25                 -1.638e-05            -6.2e-13              0                     1.6412e-05           
  -1.3                  -1.6588e-05           -5.8e-13              2e-13                 1.6594e-05           
  -1.35                 -1.6764e-05           -6e-13                5.8e-13               1.6772e-05           
END_DB

BEGIN_DB
 ICCAP_VAR vg         -1.169         
 ICCAP_VAR vb         1.2            
 ICCAP_VAR vs         -0             

 #vd                    id                    ig                    ib                    is                   
  -0                    3.4222e-09            -5.38e-12             -6e-14                -3.7906e-09          
  -0.05                 -3.78e-06             -4.86e-12             0                     3.783e-06            
  -0.1                  -7.229e-06            -4.4e-12              0                     7.233e-06            
  -0.15                 -1.03096e-05          -4.1e-12              4e-14                 1.03106e-05          
  -0.2                  -1.291e-05            -3.82e-12             2e-14                 1.293e-05            
  -0.25                 -1.5212e-05           -3.3e-12              6e-14                 1.5232e-05           
  -0.3                  -1.7156e-05           -3.04e-12             0                     1.7256e-05           
  -0.35                 -1.883e-05            -2.8e-12              -2e-14                1.8892e-05           
  -0.4                  -2.0228e-05           -2.56e-12             2.4e-13               2.025e-05            
  -0.45                 -2.1348e-05           -2.4e-12              2e-14                 2.1374e-05           
  -0.5                  -2.2266e-05           -2.14e-12             0                     2.2286e-05           
  -0.55                 -2.3038e-05           -1.92e-12             -2e-14                2.2938e-05           
  -0.6                  -2.3568e-05           -1.72e-12             6e-14                 2.362e-05            
  -0.65                 -2.4234e-05           -1.66e-12             6e-14                 2.4282e-05           
  -0.7                  -2.476e-05            -1.62e-12             2e-14                 2.4774e-05           
  -0.75                 -2.5196e-05           -1.48e-12             -2e-14                2.5214e-05           
  -0.8                  -2.5598e-05           -1.48e-12             8e-14                 2.562e-05            
  -0.85                 -2.5968e-05           -1.42e-12             8e-14                 2.5986e-05           
  -0.9                  -2.6322e-05           -1.3e-12              -4e-14                2.634e-05            
  -0.95                 -2.6654e-05           -1.34e-12             2e-14                 2.6676e-05           
  -1                    -2.6976e-05           -1.24e-12             1.2e-13               2.699e-05            
  -1.05                 -2.7248e-05           -1.22e-12             2.2e-13               2.7268e-05           
  -1.1                  -2.7552e-05           -1.26e-12             -4e-14                2.757e-05            
  -1.15                 -2.789e-05            -1.2e-12              -6e-14                2.7774e-05           
  -1.2                  -2.8136e-05           -1.16e-12             1.6e-13               2.82e-05             
  -1.25                 -2.847e-05            -1.26e-12             1.4e-13               2.849e-05            
  -1.3                  -2.8754e-05           -1.26e-12             1e-13                 2.873e-05            
  -1.35                 -2.8934e-05           -1.22e-12             1.6e-13               2.8954e-05           
END_DB

BEGIN_DB
 ICCAP_VAR vg         -1.35          
 ICCAP_VAR vb         1.2            
 ICCAP_VAR vs         -0             

 #vd                    id                    ig                    ib                    is                   
  -0                    3.3816e-09            -8.92e-12             -2e-14                -4.5108e-09          
  -0.05                 -4.7082e-06           -7.92e-12             4e-14                 4.712e-06            
  -0.1                  -9.1134e-06           -7.5e-12              4e-14                 9.0902e-06           
  -0.15                 -1.3172e-05           -7e-12                -2e-14                1.319e-05            
  -0.2                  -1.6882e-05           -6.36e-12             1.4e-13               1.6902e-05           
  -0.25                 -2.0204e-05           -5.98e-12             4e-14                 2.0222e-05           
  -0.3                  -2.316e-05            -5.56e-12             -6e-14                2.3176e-05           
  -0.35                 -2.5676e-05           -5.14e-12             -8e-14                2.5768e-05           
  -0.4                  -2.8004e-05           -4.84e-12             4e-14                 2.8026e-05           
  -0.45                 -2.994e-05            -4.6e-12              1e-13                 2.9962e-05           
  -0.5                  -3.1578e-05           -4.2e-12              2e-14                 3.1554e-05           
  -0.55                 -3.2982e-05           -3.96e-12             1e-13                 3.3008e-05           
  -0.6                  -3.4226e-05           -3.8e-12              2e-14                 3.4242e-05           
  -0.65                 -3.526e-05            -3.58e-12             6e-14                 3.5284e-05           
  -0.7                  -3.6156e-05           -3.36e-12             -6e-14                3.6178e-05           
  -0.75                 -3.694e-05            -3.04e-12             6e-14                 3.6956e-05           
  -0.8                  -3.7574e-05           -2.9e-12              1.4e-13               3.7626e-05           
  -0.85                 -3.8246e-05           -2.82e-12             0                     3.8068e-05           
  -0.9                  -3.8672e-05           -2.66e-12             0                     3.8638e-05           
  -0.95                 -3.9138e-05           -2.64e-12             0                     3.9202e-05           
  -1                    -3.9666e-05           -2.62e-12             0                     3.9832e-05           
  -1.05                 -4.0162e-05           -2.6e-12              4e-14                 4.0138e-05           
  -1.1                  -4.056e-05            -2.26e-12             4e-14                 4.0578e-05           
  -1.15                 -4.098e-05            -2.44e-12             4e-14                 4.0998e-05           
  -1.2                  -4.138e-05            -2.4e-12              2e-14                 4.15e-05             
  -1.25                 -4.1772e-05           -2.44e-12             0                     4.174e-05            
  -1.3                  -4.2098e-05           -2.38e-12             2e-14                 4.2206e-05           
  -1.35                 -4.2626e-05           -2.54e-12             8e-14                 4.264e-05            
END_DB

