! VERSION = 6.00
BEGIN_HEADER
 ICCAP_INPUTS
  vd         V  D GROUND SMU1 0.1 LIN        1    -0         -1.35      28   -0.05     
  vg         V  G GROUND SMU2 0.001 LIST       2 3 -0.139 -0.339 -0.539
  vb         V  B GROUND SMU4 0.1 CON        -0
  vs         V  S GROUND SMU3 0.1 CON        -0
 ICCAP_OUTPUTS
  id         I  D GROUND SMU1 B
  ig         I  G GROUND SMU2 B
  ib         I  B GROUND SMU4 B
  is         I  S GROUND SMU3 B
 ICCAP_VALUES
  MASTER_SETUP_TYPE "~dc_idvd~"
  LINVT_VALUE ""
  LISTVT_VALUE "|idvg|100.0n|-200.0m|1.000m|3|200.0m|200.0m|"
  TYPE "-1"
  TEMP " 27.0000 "
  IS_TNOM " 1.00000 "
  MAIN.W "600.0n"
  MAIN.L "1.200u"
  MAIN.AD "204.0f"
  MAIN.AS "204.0f"
  MAIN.PD "1.880u"
  MAIN.PS "1.880u"
  MAIN.NF "1.000"
  MAIN.M "1"
  MAIN.NRD "0.000"
  MAIN.NRS "0.000"
  MAIN.LDRIFT1 "1E-06"
  MAIN.LDRIFT2 "1E-06"
  MAIN.SA "0.000"
  MAIN.SB "0.000"
  MAIN.SD "0.000"
  MAIN.SCA "0.000"
  MAIN.SCB "0.000"
  MAIN.SCC "0.000"
  MAIN.SC "0.000"
  MODULE "S551"
  PIN_D "12"
  PIN_G "9"
  PIN_S "10"
  PIN_B "11"
  PIN_E ""
  PIN_6 ""
  XY_ID ""
  FUNC "LW Scale"
  STI "SA ref"
  WPE "WPE ref"
  COMMENT ""
  DIS_MEAS ""
  TypeTCI "10"
END_HEADER

BEGIN_DB
 ICCAP_VAR vg         -0.139         
 ICCAP_VAR vb         -0             
 ICCAP_VAR vs         -0             

 #vd                    id                    ig                    ib                    is                   
  -0                    3.8e-13               8e-14                 -1.12e-12             -4.4e-13             
  -0.05                 -1.2392e-10           2.4e-13               -1.04e-12             1.237e-10            
  -0.1                  -1.4476e-10           3e-13                 -1.12e-12             1.4454e-10           
  -0.15                 -1.4996e-10           1.4e-13               -1.16e-12             1.4954e-10           
  -0.2                  -1.5234e-10           2.2e-13               -1.1e-12              1.5176e-10           
  -0.25                 -1.5398e-10           2e-13                 -1.08e-12             1.5386e-10           
  -0.3                  -1.5572e-10           1.8e-13               -1.08e-12             1.554e-10            
  -0.35                 -1.575e-10            1.8e-13               -1.06e-12             1.5706e-10           
  -0.4                  -1.5894e-10           1e-13                 -1.08e-12             1.5864e-10           
  -0.45                 -1.6044e-10           8e-14                 -1.1e-12              1.6008e-10           
  -0.5                  -1.6172e-10           8e-14                 -1.2e-12              1.6134e-10           
  -0.55                 -1.6298e-10           1.8e-13               -1.04e-12             1.6232e-10           
  -0.6                  -1.6402e-10           1e-13                 -1.08e-12             1.6338e-10           
  -0.65                 -1.6526e-10           1.2e-13               -1e-12                1.6482e-10           
  -0.7                  -1.6606e-10           1.8e-13               -1e-12                1.6604e-10           
  -0.75                 -1.6738e-10           1.6e-13               -1.04e-12             1.6702e-10           
  -0.8                  -1.6854e-10           1.8e-13               -1.1e-12              1.6794e-10           
  -0.85                 -1.691e-10            3.6e-13               -9e-13                1.6848e-10           
  -0.9                  -1.6978e-10           1.2e-13               -1.04e-12             1.6934e-10           
  -0.95                 -1.7072e-10           3.8e-13               -9.6e-13              1.7012e-10           
  -1                    -1.7186e-10           3.8e-13               -1.14e-12             1.7088e-10           
  -1.05                 -1.7242e-10           4.2e-13               -9.2e-13              1.7154e-10           
  -1.1                  -1.7298e-10           3.6e-13               -9.4e-13              1.7222e-10           
  -1.15                 -1.7378e-10           3.6e-13               -9.6e-13              1.7278e-10           
  -1.2                  -1.7454e-10           5.4e-13               -9.2e-13              1.7324e-10           
  -1.25                 -1.7502e-10           3.8e-13               -1.06e-12             1.7406e-10           
  -1.3                  -1.7574e-10           6e-13                 -9e-13                1.7434e-10           
  -1.35                 -1.76e-10             5.4e-13               -9e-13                1.7516e-10           
END_DB

BEGIN_DB
 ICCAP_VAR vg         -0.339         
 ICCAP_VAR vb         -0             
 ICCAP_VAR vs         -0             

 #vd                    id                    ig                    ib                    is                   
  -0                    1.0928e-10            -1.8e-13              -9e-13                -1.1158e-10          
  -0.05                 -3.8374e-08           -1.2e-13              -1e-12                3.8408e-08           
  -0.1                  -4.7914e-08           -1.8e-13              -1.06e-12             4.7926e-08           
  -0.15                 -5.0464e-08           -1.8e-13              -1.04e-12             5.0492e-08           
  -0.2                  -5.1674e-08           -2e-13                -1.02e-12             5.1724e-08           
  -0.25                 -5.2564e-08           -1e-13                -9.6e-13              5.2666e-08           
  -0.3                  -5.3292e-08           -1.4e-13              -9e-13                5.3352e-08           
  -0.35                 -5.4034e-08           -1.6e-13              -1.02e-12             5.4154e-08           
  -0.4                  -5.4672e-08           -1.2e-13              -8.6e-13              5.466e-08            
  -0.45                 -5.5224e-08           -6e-14                -9.2e-13              5.5228e-08           
  -0.5                  -5.577e-08            -1.2e-13              -9.6e-13              5.5704e-08           
  -0.55                 -5.6274e-08           -6e-14                -1.06e-12             5.626e-08            
  -0.6                  -5.6706e-08           -8e-14                -1.06e-12             5.668e-08            
  -0.65                 -5.712e-08            -1.2e-13              -9.6e-13              5.7162e-08           
  -0.7                  -5.7526e-08           -1.4e-13              -9.4e-13              5.7538e-08           
  -0.75                 -5.7862e-08           0                     -9e-13                5.791e-08            
  -0.8                  -5.8236e-08           -2e-14                -8.4e-13              5.8222e-08           
  -0.85                 -5.851e-08            2e-14                 -7.8e-13              5.8508e-08           
  -0.9                  -5.8776e-08           2e-14                 -9.2e-13              5.8864e-08           
  -0.95                 -5.9198e-08           -6e-14                -9.2e-13              5.9236e-08           
  -1                    -5.9484e-08           2e-14                 -9.6e-13              5.9444e-08           
  -1.05                 -5.9772e-08           -1.4e-13              -8.8e-13              5.9758e-08           
  -1.1                  -5.993e-08            6e-14                 -8.6e-13              5.999e-08            
  -1.15                 -6.0186e-08           8e-14                 -9e-13                6.024e-08            
  -1.2                  -6.046e-08            0                     -8.8e-13              6.0466e-08           
  -1.25                 -6.064e-08            8e-14                 -8.6e-13              6.0696e-08           
  -1.3                  -6.0898e-08           0                     -7.4e-13              6.0914e-08           
  -1.35                 -6.1104e-08           2e-13                 -7e-13                6.1134e-08           
END_DB

BEGIN_DB
 ICCAP_VAR vg         -0.539         
 ICCAP_VAR vb         -0             
 ICCAP_VAR vs         -0             

 #vd                    id                    ig                    ib                    is                   
  -0                    7.569e-10             -2.02e-12             -9e-13                -7.8626e-10          
  -0.05                 -4.3296e-07           -1.78e-12             -9.6e-13              4.3308e-07           
  -0.1                  -7.0878e-07           -1.52e-12             -1.02e-12             7.0938e-07           
  -0.15                 -8.5172e-07           -1.32e-12             -1.1e-12              8.518e-07            
  -0.2                  -9.1116e-07           -1.22e-12             -8.2e-13              9.1194e-07           
  -0.25                 -9.3738e-07           -1.34e-12             -8.6e-13              9.3748e-07           
  -0.3                  -9.52e-07             -1.24e-12             -9.2e-13              9.5334e-07           
  -0.35                 -9.6382e-07           -1.08e-12             -8.4e-13              9.6546e-07           
  -0.4                  -9.7416e-07           -1.22e-12             -9.4e-13              9.7438e-07           
  -0.45                 -9.8148e-07           -1.28e-12             -8.8e-13              9.8194e-07           
  -0.5                  -9.889e-07            -1.12e-12             -9.4e-13              9.891e-07            
  -0.55                 -9.9634e-07           -1.1e-12              -8.6e-13              9.9572e-07           
  -0.6                  -1.00346e-06          -1.08e-12             -7.4e-13              1.00498e-06          
  -0.65                 -1.00948e-06          -1.16e-12             -8.6e-13              1.0085e-06           
  -0.7                  -1.01374e-06          -1.18e-12             -7.8e-13              1.01534e-06          
  -0.75                 -1.02056e-06          -1.02e-12             -9.4e-13              1.02046e-06          
  -0.8                  -1.02532e-06          -9.8e-13              -8e-13                1.0264e-06           
  -0.85                 -1.0305e-06           -1.18e-12             -7.4e-13              1.02888e-06          
  -0.9                  -1.03486e-06          -1.04e-12             -7.4e-13              1.03448e-06          
  -0.95                 -1.03854e-06          -1.14e-12             -8.6e-13              1.03794e-06          
  -1                    -1.04152e-06          -1.08e-12             -9e-13                1.04276e-06          
  -1.05                 -1.04524e-06          -1.04e-12             -7.8e-13              1.0452e-06           
  -1.1                  -1.04944e-06          -1.14e-12             -8.4e-13              1.04952e-06          
  -1.15                 -1.05328e-06          -1.1e-12              -8e-13                1.05498e-06          
  -1.2                  -1.05662e-06          -9.6e-13              -7.8e-13              1.0586e-06           
  -1.25                 -1.06142e-06          -1e-12                -7.2e-13              1.06188e-06          
  -1.3                  -1.06476e-06          -9.4e-13              -6.2e-13              1.0637e-06           
  -1.35                 -1.06544e-06          -8.4e-13              -4.6e-13              1.06578e-06          
END_DB

