! VERSION = 6.00
BEGIN_HEADER
 ICCAP_INPUTS
  vd         V  D GROUND SMU1 0.1 LIN        1    -0         -1.35      28   -0.05     
  vg         V  G GROUND SMU2 0.001 LIST       2 3 -0.194 -0.394 -0.594
  vb         V  B GROUND SMU4 0.1 CON        -0
  vs         V  S GROUND SMU3 0.1 CON        -0
 ICCAP_OUTPUTS
  id         I  D GROUND SMU1 B
  ig         I  G GROUND SMU2 B
  ib         I  B GROUND SMU4 B
  is         I  S GROUND SMU3 B
 ICCAP_VALUES
  MASTER_SETUP_TYPE "~dc_idvd~"
  LINVT_VALUE ""
  LISTVT_VALUE "|idvg|100.0n|-200.0m|1.000m|3|200.0m|200.0m|"
  TYPE "-1"
  TEMP " 27.0000 "
  IS_TNOM " 1.00000 "
  MAIN.W "150.0n"
  MAIN.L "130.0n"
  MAIN.AD "100.5f"
  MAIN.AS "100.5f"
  MAIN.PD "1.340u"
  MAIN.PS "1.340u"
  MAIN.NF "1.000"
  MAIN.M "1"
  MAIN.NRD "0.000"
  MAIN.NRS "0.000"
  MAIN.LDRIFT1 "1E-06"
  MAIN.LDRIFT2 "1E-06"
  MAIN.SA "0.000"
  MAIN.SB "0.000"
  MAIN.SD "0.000"
  MAIN.SCA "0.000"
  MAIN.SCB "0.000"
  MAIN.SCC "0.000"
  MAIN.SC "0.000"
  MODULE "S554"
  PIN_D "16"
  PIN_G "5"
  PIN_S "6"
  PIN_B "15"
  PIN_E ""
  PIN_6 ""
  XY_ID ""
  FUNC "Small"
  STI "SA ref"
  WPE "WPE ref"
  COMMENT ""
  DIS_MEAS ""
  TypeTCI "10"
END_HEADER

BEGIN_DB
 ICCAP_VAR vg         -0.194         
 ICCAP_VAR vb         -0             
 ICCAP_VAR vs         -0             

 #vd                    id                    ig                    ib                    is                   
  -0                    7e-13                 2.6e-13               -1.12e-12             -8.8e-13             
  -0.05                 -2.3816e-10           1.2e-13               -1e-12                2.3846e-10           
  -0.1                  -2.887e-10            2.2e-13               -1.16e-12             2.891e-10            
  -0.15                 -3.1174e-10           2e-14                 -1.06e-12             3.1072e-10           
  -0.2                  -3.2778e-10           2.2e-13               -1.12e-12             3.2832e-10           
  -0.25                 -3.4442e-10           1.4e-13               -1.12e-12             3.4426e-10           
  -0.3                  -3.6082e-10           1.2e-13               -1.14e-12             3.6188e-10           
  -0.35                 -3.7828e-10           1.8e-13               -1.08e-12             3.782e-10            
  -0.4                  -3.966e-10            1.8e-13               -1.02e-12             3.9538e-10           
  -0.45                 -4.1396e-10           2.6e-13               -1.1e-12              4.1288e-10           
  -0.5                  -4.3134e-10           1.2e-13               -1.1e-12              4.3028e-10           
  -0.55                 -4.433e-10            8e-14                 -1.16e-12             4.4364e-10           
  -0.6                  -4.6226e-10           2.4e-13               -1.06e-12             4.684e-10            
  -0.65                 -4.8746e-10           1e-13                 -1.06e-12             4.869e-10            
  -0.7                  -5.0722e-10           1.4e-13               -1.08e-12             5.063e-10            
  -0.75                 -5.2772e-10           2.4e-13               -1.02e-12             5.2624e-10           
  -0.8                  -5.4762e-10           1.4e-13               -1.08e-12             5.4826e-10           
  -0.85                 -5.6954e-10           2.6e-13               -9.2e-13              5.6952e-10           
  -0.9                  -5.9194e-10           2.6e-13               -1.02e-12             5.9156e-10           
  -0.95                 -6.1512e-10           1.6e-13               -1.04e-12             6.1618e-10           
  -1                    -6.4052e-10           1.8e-13               -1e-12                6.3866e-10           
  -1.05                 -6.6362e-10           3e-13                 -9.4e-13              6.6386e-10           
  -1.1                  -6.8968e-10           3.4e-13               -9.2e-13              6.8948e-10           
  -1.15                 -7.1666e-10           2.2e-13               -1e-12                7.1606e-10           
  -1.2                  -7.4588e-10           2.8e-13               -9.6e-13              7.459e-10            
  -1.25                 -7.7454e-10           1.4e-13               -1.08e-12             7.7326e-10           
  -1.3                  -8.05e-10             2.6e-13               -1e-12                8.0344e-10           
  -1.35                 -8.3466e-10           2.8e-13               -8.8e-13              8.3526e-10           
END_DB

BEGIN_DB
 ICCAP_VAR vg         -0.394         
 ICCAP_VAR vb         -0             
 ICCAP_VAR vs         -0             

 #vd                    id                    ig                    ib                    is                   
  -0                    1.8012e-10            0                     -1e-12                -1.7778e-10          
  -0.05                 -6.3308e-08           -1.6e-13              -1.04e-12             6.343e-08            
  -0.1                  -8.1052e-08           -2e-14                -1.04e-12             8.1082e-08           
  -0.15                 -8.8358e-08           -2e-14                -9.6e-13              8.8464e-08           
  -0.2                  -9.3686e-08           2e-14                 -9.8e-13              9.3718e-08           
  -0.25                 -9.8496e-08           -4e-14                -1.08e-12             9.8676e-08           
  -0.3                  -1.0298e-07           -1.4e-13              -8.8e-13              1.03172e-07          
  -0.35                 -1.07768e-07          8e-14                 -8.8e-13              1.07676e-07          
  -0.4                  -1.1216e-07           6e-14                 -8.6e-13              1.12396e-07          
  -0.45                 -1.1674e-07           -1.2e-13              -1.1e-12              1.169e-07            
  -0.5                  -1.2128e-07           -6e-14                -1.04e-12             1.2152e-07           
  -0.55                 -1.261e-07            -1.6e-13              -8.4e-13              1.2604e-07           
  -0.6                  -1.3058e-07           -6e-14                -8.8e-13              1.3062e-07           
  -0.65                 -1.3524e-07           -4e-14                -8.8e-13              1.3548e-07           
  -0.7                  -1.3996e-07           -4e-14                -9.6e-13              1.4044e-07           
  -0.75                 -1.45e-07             2e-14                 -1.04e-12             1.4524e-07           
  -0.8                  -1.5e-07              1e-13                 -8.8e-13              1.499e-07            
  -0.85                 -1.5514e-07           4e-14                 -9e-13                1.5528e-07           
  -0.9                  -1.602e-07            4e-14                 -9e-13                1.6048e-07           
  -0.95                 -1.6578e-07           0                     -8.2e-13              1.6572e-07           
  -1                    -1.7142e-07           1.8e-13               -8.6e-13              1.7136e-07           
  -1.05                 -1.7692e-07           1.4e-13               -8e-13                1.769e-07            
  -1.1                  -1.8214e-07           4e-14                 -8.2e-13              1.8254e-07           
  -1.15                 -1.8824e-07           4e-14                 -8.8e-13              1.8834e-07           
  -1.2                  -1.9402e-07           6e-14                 -8.8e-13              1.9422e-07           
  -1.25                 -2.0036e-07           1.8e-13               -7.4e-13              2.0062e-07           
  -1.3                  -2.0654e-07           1.4e-13               -6e-13                2.067e-07            
  -1.35                 -2.1314e-07           1.2e-13               -3.6e-13              2.1392e-07           
END_DB

BEGIN_DB
 ICCAP_VAR vg         -0.594         
 ICCAP_VAR vb         -0             
 ICCAP_VAR vs         -0             

 #vd                    id                    ig                    ib                    is                   
  -0                    1.834e-09             -2.6e-13              -9.4e-13              -1.6172e-09          
  -0.05                 -1.12892e-06          -1.2e-13              -9.2e-13              1.1312e-06           
  -0.1                  -1.8318e-06           -1.6e-13              -9.2e-13              1.835e-06            
  -0.15                 -2.242e-06            -1.2e-13              -8e-13                2.2456e-06           
  -0.2                  -2.486e-06            -1.6e-13              -8e-13                2.489e-06            
  -0.25                 -2.6508e-06           -8e-14                -8.4e-13              2.654e-06            
  -0.3                  -2.7716e-06           -1.4e-13              -9.2e-13              2.7744e-06           
  -0.35                 -2.8712e-06           -3e-13                -9.8e-13              2.8734e-06           
  -0.4                  -2.9632e-06           -1.8e-13              -9.2e-13              2.9636e-06           
  -0.45                 -3.0496e-06           -1e-13                -8.2e-13              3.049e-06            
  -0.5                  -3.1264e-06           -1e-13                -8.6e-13              3.1332e-06           
  -0.55                 -3.21e-06             -1.6e-13              -9.2e-13              3.2142e-06           
  -0.6                  -3.2828e-06           -1.8e-13              -8.2e-13              3.2856e-06           
  -0.65                 -3.3588e-06           -2.6e-13              -8.4e-13              3.3676e-06           
  -0.7                  -3.4522e-06           -2e-13                -9e-13                3.4546e-06           
  -0.75                 -3.5256e-06           -6e-14                -8.8e-13              3.5292e-06           
  -0.8                  -3.5988e-06           0                     -8.6e-13              3.6032e-06           
  -0.85                 -3.6708e-06           -4e-14                -8.4e-13              3.6728e-06           
  -0.9                  -3.7432e-06           -1.4e-13              -8.2e-13              3.747e-06            
  -0.95                 -3.817e-06            0                     -9.2e-13              3.8156e-06           
  -1                    -3.8838e-06           -8e-14                -8.8e-13              3.8922e-06           
  -1.05                 -3.9588e-06           -8e-14                -8e-13                3.9616e-06           
  -1.1                  -4.03e-06             -4e-14                -7.6e-13              4.033e-06            
  -1.15                 -4.104e-06            0                     -7e-13                4.1058e-06           
  -1.2                  -4.1744e-06           2e-14                 -6.2e-13              4.179e-06            
  -1.25                 -4.2484e-06           -4e-14                -2.4e-13              4.2518e-06           
  -1.3                  -4.3224e-06           2e-14                 3.2e-13               4.3224e-06           
  -1.35                 -4.3974e-06           0                     1.46e-12              4.3968e-06           
END_DB

