! VERSION = 6.00
BEGIN_HEADER
 ICCAP_INPUTS
  vd         V  D GROUND SMU1 0.1 LIN        1    -0         -1.35      28   -0.05     
  vg         V  G GROUND SMU2 0.001 LIST       2 3 -0.159 -0.359 -0.559
  vb         V  B GROUND SMU4 0.1 CON        -0
  vs         V  S GROUND SMU3 0.1 CON        -0
 ICCAP_OUTPUTS
  id         I  D GROUND SMU1 B
  ig         I  G GROUND SMU2 B
  ib         I  B GROUND SMU4 B
  is         I  S GROUND SMU3 B
 ICCAP_VALUES
  MASTER_SETUP_TYPE "~dc_idvd~"
  LINVT_VALUE ""
  LISTVT_VALUE "|idvg|100.0n|-200.0m|1.000m|3|200.0m|200.0m|"
  TYPE "-1"
  TEMP " 70.0000 "
  IS_TNOM " 0.00000 "
  MAIN.W "300.0n"
  MAIN.L "130.0n"
  MAIN.AD "102.0f"
  MAIN.AS "102.0f"
  MAIN.PD "1.280u"
  MAIN.PS "1.280u"
  MAIN.NF "1.000"
  MAIN.M "1"
  MAIN.NRD "0.000"
  MAIN.NRS "0.000"
  MAIN.LDRIFT1 "1E-06"
  MAIN.LDRIFT2 "1E-06"
  MAIN.SA "0.000"
  MAIN.SB "0.000"
  MAIN.SD "0.000"
  MAIN.SCA "0.000"
  MAIN.SCB "0.000"
  MAIN.SCC "0.000"
  MAIN.SC "0.000"
  MODULE "S552"
  PIN_D "18"
  PIN_G "3"
  PIN_S "4"
  PIN_B "17"
  PIN_E ""
  PIN_6 ""
  XY_ID ""
  FUNC "LW Scale"
  STI "SA ref"
  WPE "WPE ref"
  COMMENT ""
  DIS_MEAS ""
  TypeTCI "10"
END_HEADER

BEGIN_DB
 ICCAP_VAR vg         -0.159         
 ICCAP_VAR vb         -0             
 ICCAP_VAR vs         -0             

 #vd                    id                    ig                    ib                    is                   
  -0                    1.16e-12              3e-13                 -6.5e-12              -2.2e-12             
  -0.05                 -1.169e-09            -4e-14                -5.86e-12             1.1704e-09           
  -0.1                  -1.4734e-09           2.2e-13               -5.54e-12             1.4702e-09           
  -0.15                 -1.586e-09            0                     -5.2e-12              1.5804e-09           
  -0.2                  -1.6678e-09           1e-13                 -4.84e-12             1.665e-09            
  -0.25                 -1.7444e-09           2e-14                 -4.52e-12             1.744e-09            
  -0.3                  -1.824e-09            1.4e-13               -3.98e-12             1.8224e-09           
  -0.35                 -1.904e-09            1.8e-13               -3.74e-12             1.9086e-09           
  -0.4                  -1.975e-09            -2e-14                -3.42e-12             1.9712e-09           
  -0.45                 -2.0516e-09           2e-14                 -3.08e-12             2.0454e-09           
  -0.5                  -2.1282e-09           2e-13                 -2.62e-12             2.1318e-09           
  -0.55                 -2.2062e-09           1.6e-13               -2.44e-12             2.2062e-09           
  -0.6                  -2.2842e-09           1.4e-13               -2.24e-12             2.2822e-09           
  -0.65                 -2.3638e-09           1.4e-13               -1.86e-12             2.3618e-09           
  -0.7                  -2.4416e-09           1.2e-13               -1.66e-12             2.44e-09             
  -0.75                 -2.5216e-09           1.6e-13               -1.3e-12              2.5244e-09           
  -0.8                  -2.6178e-09           1.4e-13               -1.06e-12             2.6164e-09           
  -0.85                 -2.6968e-09           1.6e-13               -9.2e-13              2.7004e-09           
  -0.9                  -2.7946e-09           1.8e-13               -5.6e-13              2.7876e-09           
  -0.95                 -2.8772e-09           1.8e-13               -4.2e-13              2.8672e-09           
  -1                    -2.9798e-09           2e-13                 -1.6e-13              2.9752e-09           
  -1.05                 -3.071e-09            6e-14                 -6e-14                3.065e-09            
  -1.1                  -3.167e-09            1.4e-13               2.4e-13               3.1566e-09           
  -1.15                 -3.2478e-09           1.4e-13               3.6e-13               3.2544e-09           
  -1.2                  -3.3408e-09           1.6e-13               6.2e-13               3.3494e-09           
  -1.25                 -3.4356e-09           1.2e-13               9.2e-13               3.4306e-09           
  -1.3                  -3.5302e-09           2e-13                 1.46e-12              3.5202e-09           
  -1.35                 -3.6226e-09           3.2e-13               1.98e-12              3.6188e-09           
END_DB

BEGIN_DB
 ICCAP_VAR vg         -0.359         
 ICCAP_VAR vb         -0             
 ICCAP_VAR vs         -0             

 #vd                    id                    ig                    ib                    is                   
  -0                    2.1572e-10            -2.4e-13              -3.86e-12             -2.1256e-10          
  -0.05                 -1.3064e-07           -4e-14                -3.48e-12             1.3068e-07           
  -0.1                  -1.7516e-07           -6e-14                -3.32e-12             1.7472e-07           
  -0.15                 -1.9346e-07           -1e-13                -3.12e-12             1.9394e-07           
  -0.2                  -2.0496e-07           0                     -2.8e-12              2.0546e-07           
  -0.25                 -2.152e-07            -4e-14                -2.7e-12              2.1592e-07           
  -0.3                  -2.2612e-07           -4e-14                -2.3e-12              2.2634e-07           
  -0.35                 -2.3466e-07           -2e-14                -2.02e-12             2.3484e-07           
  -0.4                  -2.4254e-07           -1.4e-13              -1.8e-12              2.4278e-07           
  -0.45                 -2.5116e-07           2e-14                 -1.58e-12             2.512e-07            
  -0.5                  -2.5918e-07           -1e-13                -1.36e-12             2.5906e-07           
  -0.55                 -2.665e-07            -4e-14                -1.1e-12              2.667e-07            
  -0.6                  -2.7468e-07           0                     -8.2e-13              2.7432e-07           
  -0.65                 -2.8232e-07           2e-14                 -6.4e-13              2.826e-07            
  -0.7                  -2.9028e-07           -1.4e-13              -4e-13                2.9016e-07           
  -0.75                 -2.979e-07            -4e-14                -8e-14                2.9776e-07           
  -0.8                  -3.0556e-07           1e-13                 1.2e-13               3.0574e-07           
  -0.85                 -3.1348e-07           -4e-14                1.6e-13               3.1336e-07           
  -0.9                  -3.2134e-07           6e-14                 4.8e-13               3.2198e-07           
  -0.95                 -3.2906e-07           0                     5e-13                 3.2918e-07           
  -1                    -3.3658e-07           -6e-14                8e-13                 3.3706e-07           
  -1.05                 -3.449e-07            -4e-14                9.6e-13               3.4466e-07           
  -1.1                  -3.5304e-07           0                     1.16e-12              3.5308e-07           
  -1.15                 -3.6124e-07           -4e-14                1.46e-12              3.6002e-07           
  -1.2                  -3.6846e-07           1.2e-13               1.88e-12              3.6834e-07           
  -1.25                 -3.7644e-07           4e-14                 2.32e-12              3.7664e-07           
  -1.3                  -3.853e-07            -2e-14                2.94e-12              3.8438e-07           
  -1.35                 -3.9338e-07           1.6e-13               3.94e-12              3.9324e-07           
END_DB

BEGIN_DB
 ICCAP_VAR vg         -0.559         
 ICCAP_VAR vb         -0             
 ICCAP_VAR vs         -0             

 #vd                    id                    ig                    ib                    is                   
  -0                    1.5762e-09            -4.2e-13              -2.82e-12             -1.3158e-09          
  -0.05                 -1.5026e-06           -2.8e-13              -2.48e-12             1.5052e-06           
  -0.1                  -2.4634e-06           -2.4e-13              -2.26e-12             2.4666e-06           
  -0.15                 -3.037e-06            -2.4e-13              -2.06e-12             3.0416e-06           
  -0.2                  -3.3804e-06           -1.4e-13              -1.96e-12             3.383e-06            
  -0.25                 -3.601e-06            -2.2e-13              -1.78e-12             3.6174e-06           
  -0.3                  -3.7828e-06           -1.8e-13              -1.56e-12             3.793e-06            
  -0.35                 -3.9238e-06           -2.4e-13              -1.18e-12             3.9264e-06           
  -0.4                  -4.04e-06             -2.2e-13              -1.08e-12             4.0432e-06           
  -0.45                 -4.1482e-06           -1.8e-13              -7.6e-13              4.1506e-06           
  -0.5                  -4.2448e-06           -6e-14                -5.4e-13              4.2468e-06           
  -0.55                 -4.3368e-06           -2e-13                -4.4e-13              4.34e-06             
  -0.6                  -4.4276e-06           -2.6e-13              -1.8e-13              4.4334e-06           
  -0.65                 -4.5176e-06           -8e-14                1e-13                 4.5174e-06           
  -0.7                  -4.5956e-06           -1.2e-13              2.2e-13               4.6022e-06           
  -0.75                 -4.6858e-06           -2e-13                3.2e-13               4.6892e-06           
  -0.8                  -4.7662e-06           -1.4e-13              6.8e-13               4.7706e-06           
  -0.85                 -4.8414e-06           -1e-13                8e-13                 4.8458e-06           
  -0.9                  -4.9244e-06           -1.8e-13              1e-12                 4.9252e-06           
  -0.95                 -5.0016e-06           -1.6e-13              1.14e-12              5.0046e-06           
  -1                    -5.0802e-06           -1.6e-13              1.18e-12              5.0816e-06           
  -1.05                 -5.1548e-06           -2e-13                1.48e-12              5.1568e-06           
  -1.1                  -5.2302e-06           -2.6e-13              1.88e-12              5.2342e-06           
  -1.15                 -5.308e-06            -4e-14                2.1e-12               5.3096e-06           
  -1.2                  -5.3814e-06           -6e-14                2.68e-12              5.384e-06            
  -1.25                 -5.459e-06            -1e-13                3.62e-12              5.4602e-06           
  -1.3                  -5.533e-06            -4e-14                5.26e-12              5.5384e-06           
  -1.35                 -5.6088e-06           0                     8.18e-12              5.6106e-06           
END_DB

