! VERSION = 6.00
BEGIN_HEADER
 ICCAP_INPUTS
  vd         V  D GROUND SMU1 0.1 LIN        1    -0         -1.35      28   -0.05     
  vg         V  G GROUND SMU2 0.001 LIST       2 3 -0.372 -0.572 -0.772
  vb         V  B GROUND SMU4 0.1 CON        1.2
  vs         V  S GROUND SMU3 0.1 CON        -0
 ICCAP_OUTPUTS
  id         I  D GROUND SMU1 B
  ig         I  G GROUND SMU2 B
  ib         I  B GROUND SMU4 B
  is         I  S GROUND SMU3 B
 ICCAP_VALUES
  MASTER_SETUP_TYPE "~dc_idvd~"
  LINVT_VALUE ""
  LISTVT_VALUE "|idvg|100.0n|-200.0m|1.000m|3|200.0m|200.0m|"
  TYPE "-1"
  TEMP "-40.0000 "
  IS_TNOM " 0.00000 "
  MAIN.W "300.0n"
  MAIN.L "130.0n"
  MAIN.AD "102.0f"
  MAIN.AS "102.0f"
  MAIN.PD "1.280u"
  MAIN.PS "1.280u"
  MAIN.NF "1.000"
  MAIN.M "1"
  MAIN.NRD "0.000"
  MAIN.NRS "0.000"
  MAIN.LDRIFT1 "1E-06"
  MAIN.LDRIFT2 "1E-06"
  MAIN.SA "0.000"
  MAIN.SB "0.000"
  MAIN.SD "0.000"
  MAIN.SCA "0.000"
  MAIN.SCB "0.000"
  MAIN.SCC "0.000"
  MAIN.SC "0.000"
  MODULE "S552"
  PIN_D "18"
  PIN_G "3"
  PIN_S "4"
  PIN_B "17"
  PIN_E ""
  PIN_6 ""
  XY_ID ""
  FUNC "LW Scale"
  STI "SA ref"
  WPE "WPE ref"
  COMMENT ""
  DIS_MEAS ""
  TypeTCI "10"
END_HEADER

BEGIN_DB
 ICCAP_VAR vg         -0.372         
 ICCAP_VAR vb         1.2            
 ICCAP_VAR vs         -0             

 #vd                    id                    ig                    ib                    is                   
  -0                    2.4e-13               2.4e-13               1.6e-13               -4e-14               
  -0.05                 -6.412e-11            2e-14                 0                     6.442e-11            
  -0.1                  -7.884e-11            2e-14                 4e-14                 7.916e-11            
  -0.15                 -8.936e-11            0                     1e-13                 8.922e-11            
  -0.2                  -9.996e-11            4e-14                 -6e-14                1.0008e-10           
  -0.25                 -1.1172e-10           -2e-14                1.4e-13               1.1126e-10           
  -0.3                  -1.241e-10            4e-14                 8e-14                 1.2382e-10           
  -0.35                 -1.373e-10            1e-13                 -2e-14                1.371e-10            
  -0.4                  -1.5188e-10           2e-13                 2e-13                 1.5148e-10           
  -0.45                 -1.6738e-10           0                     -8e-14                1.6738e-10           
  -0.5                  -1.8456e-10           4e-14                 2e-13                 1.841e-10            
  -0.55                 -2.027e-10            1e-13                 -6e-14                2.0244e-10           
  -0.6                  -2.221e-10            6e-14                 0                     2.2158e-10           
  -0.65                 -2.4366e-10           1.4e-13               1.2e-13               2.426e-10            
  -0.7                  -2.665e-10            2e-14                 -2e-14                2.6588e-10           
  -0.75                 -2.9106e-10           8e-14                 6e-14                 2.9066e-10           
  -0.8                  -3.1656e-10           6e-14                 0                     3.1692e-10           
  -0.85                 -3.4554e-10           2e-14                 0                     3.4528e-10           
  -0.9                  -3.7592e-10           1e-13                 -2e-14                3.7538e-10           
  -0.95                 -4.0774e-10           6e-14                 -8e-14                4.0724e-10           
  -1                    -4.4258e-10           0                     -2e-14                4.4208e-10           
  -1.05                 -4.7942e-10           -2e-14                2e-14                 4.7888e-10           
  -1.1                  -5.177e-10            8e-14                 0                     5.1766e-10           
  -1.15                 -5.6158e-10           1.8e-13               0                     5.599e-10            
  -1.2                  -6.0494e-10           -2e-14                -1.2e-13              6.0446e-10           
  -1.25                 -6.541e-10            1.8e-13               -4e-14                6.5348e-10           
  -1.3                  -7.0372e-10           1.2e-13               0                     7.0352e-10           
  -1.35                 -7.5682e-10           2.4e-13               -4e-14                7.5656e-10           
END_DB

BEGIN_DB
 ICCAP_VAR vg         -0.572         
 ICCAP_VAR vb         1.2            
 ICCAP_VAR vs         -0             

 #vd                    id                    ig                    ib                    is                   
  -0                    1.9678e-10            -1.6e-13              0                     -1.988e-10           
  -0.05                 -9.7224e-08           -1.4e-13              0                     9.724e-08            
  -0.1                  -1.2852e-07           -2e-13                -8e-14                1.284e-07            
  -0.15                 -1.462e-07            -1e-13                -4e-14                1.4674e-07           
  -0.2                  -1.6132e-07           -2e-14                2e-14                 1.6136e-07           
  -0.25                 -1.7488e-07           -1.8e-13              -8e-14                1.75e-07             
  -0.3                  -1.886e-07            -1.6e-13              -2e-14                1.8912e-07           
  -0.35                 -2.0266e-07           -2.2e-13              1.4e-13               2.028e-07            
  -0.4                  -2.165e-07            -4e-14                6e-14                 2.1688e-07           
  -0.45                 -2.3064e-07           -1.2e-13              -6e-14                2.3098e-07           
  -0.5                  -2.452e-07            -6e-14                -6e-14                2.454e-07            
  -0.55                 -2.5994e-07           -1.4e-13              -1e-13                2.5998e-07           
  -0.6                  -2.7514e-07           0                     6e-14                 2.7542e-07           
  -0.65                 -2.9076e-07           -2e-14                2e-14                 2.9088e-07           
  -0.7                  -3.0686e-07           -2.8e-13              -6e-14                3.0698e-07           
  -0.75                 -3.2342e-07           -6e-14                4e-14                 3.2324e-07           
  -0.8                  -3.4004e-07           -8e-14                0                     3.3994e-07           
  -0.85                 -3.576e-07            -4e-14                -8e-14                3.5812e-07           
  -0.9                  -3.7606e-07           2e-14                 -8e-14                3.761e-07            
  -0.95                 -3.9418e-07           -2e-14                -6e-14                3.9454e-07           
  -1                    -4.141e-07            0                     2e-14                 4.143e-07            
  -1.05                 -4.341e-07            4e-14                 4e-14                 4.3466e-07           
  -1.1                  -4.5374e-07           2e-14                 4e-14                 4.5486e-07           
  -1.15                 -4.7556e-07           -2e-14                0                     4.7556e-07           
  -1.2                  -4.9722e-07           -6e-14                2e-14                 4.9746e-07           
  -1.25                 -5.1986e-07           -6e-14                1e-13                 5.2028e-07           
  -1.3                  -5.429e-07            -1e-13                1.6e-13               5.4318e-07           
  -1.35                 -5.6732e-07           -4e-14                3e-13                 5.6748e-07           
END_DB

BEGIN_DB
 ICCAP_VAR vg         -0.772         
 ICCAP_VAR vb         1.2            
 ICCAP_VAR vs         -0             

 #vd                    id                    ig                    ib                    is                   
  -0                    2.0444e-09            -6e-13                0                     -1.8202e-09          
  -0.05                 -1.9342e-06           -5.2e-13              -8e-14                1.9374e-06           
  -0.1                  -3.1962e-06           -3.4e-13              -2e-14                3.2006e-06           
  -0.15                 -3.982e-06            -2.4e-13              2e-14                 3.9864e-06           
  -0.2                  -4.4918e-06           -2.6e-13              4e-14                 4.495e-06            
  -0.25                 -4.8586e-06           -3.8e-13              -6e-14                4.8614e-06           
  -0.3                  -5.1534e-06           -4e-13                -8e-14                5.1582e-06           
  -0.35                 -5.4106e-06           -3.2e-13              -1.2e-13              5.4144e-06           
  -0.4                  -5.6422e-06           -1.6e-13              0                     5.646e-06            
  -0.45                 -5.8628e-06           -4e-13                -2e-14                5.8644e-06           
  -0.5                  -6.0688e-06           -3e-13                8e-14                 6.0712e-06           
  -0.55                 -6.268e-06            -2.4e-13              4e-14                 6.272e-06            
  -0.6                  -6.461e-06            -1.4e-13              -2e-14                6.4636e-06           
  -0.65                 -6.6484e-06           -1.2e-13              0                     6.6524e-06           
  -0.7                  -6.8338e-06           -3e-13                6e-14                 6.8376e-06           
  -0.75                 -7.0156e-06           -3e-13                -2e-14                7.0204e-06           
  -0.8                  -7.1956e-06           -3e-13                2e-14                 7.201e-06            
  -0.85                 -7.3752e-06           -3.4e-13              -8e-14                7.3812e-06           
  -0.9                  -7.556e-06            -3.2e-13              -1e-13                7.559e-06            
  -0.95                 -7.7354e-06           -3.6e-13              -8e-14                7.7378e-06           
  -1                    -7.9136e-06           -1.8e-13              -1.2e-13              7.9164e-06           
  -1.05                 -8.0912e-06           -3.4e-13              0                     8.095e-06            
  -1.1                  -8.2672e-06           -3e-13                -6e-14                8.246e-06            
  -1.15                 -8.4468e-06           -2.2e-13              0                     8.45e-06             
  -1.2                  -8.6268e-06           -2.4e-13              -2e-14                8.6278e-06           
  -1.25                 -8.8044e-06           -2e-13                -4e-14                8.8086e-06           
  -1.3                  -8.986e-06            -2.4e-13              3e-13                 8.993e-06            
  -1.35                 -9.1742e-06           -2.8e-13              7.6e-13               9.1772e-06           
END_DB

