! VERSION = 6.00
BEGIN_HEADER
 ICCAP_INPUTS
  vd         V  D GROUND SMU1 0.1 LIN        1    -0         -1.35      28   -0.05     
  vg         V  G GROUND SMU2 0.001 LIST       2 3 -0.379 -0.579 -0.779
  vb         V  B GROUND SMU4 0.1 CON        1.2
  vs         V  S GROUND SMU3 0.1 CON        -0
 ICCAP_OUTPUTS
  id         I  D GROUND SMU1 B
  ig         I  G GROUND SMU2 B
  ib         I  B GROUND SMU4 B
  is         I  S GROUND SMU3 B
 ICCAP_VALUES
  MASTER_SETUP_TYPE "~dc_idvd~"
  LINVT_VALUE ""
  LISTVT_VALUE "|idvg|100.0n|-200.0m|1.000m|3|200.0m|200.0m|"
  TYPE "-1"
  TEMP "-40.0000 "
  IS_TNOM " 0.00000 "
  MAIN.W "10.00u"
  MAIN.L "180.0n"
  MAIN.AD "3.400p"
  MAIN.AS "3.400p"
  MAIN.PD "20.68u"
  MAIN.PS "20.68u"
  MAIN.NF "1.000"
  MAIN.M "1"
  MAIN.NRD "0.000"
  MAIN.NRS "0.000"
  MAIN.LDRIFT1 "1E-06"
  MAIN.LDRIFT2 "1E-06"
  MAIN.SA "0.000"
  MAIN.SB "0.000"
  MAIN.SD "0.000"
  MAIN.SCA "0.000"
  MAIN.SCB "0.000"
  MAIN.SCC "0.000"
  MAIN.SC "0.000"
  MODULE "S548"
  PIN_D "12"
  PIN_G "9"
  PIN_S "10"
  PIN_B "11"
  PIN_E ""
  PIN_6 ""
  XY_ID ""
  FUNC "L Scale"
  STI "SA ref"
  WPE "WPE ref"
  COMMENT ""
  DIS_MEAS ""
  TypeTCI "10"
END_HEADER

BEGIN_DB
 ICCAP_VAR vg         -0.379         
 ICCAP_VAR vb         1.2            
 ICCAP_VAR vs         -0             

 #vd                    id                    ig                    ib                    is                   
  -0                    4.6e-12               -8.6e-13              2e-14                 -9.6e-12             
  -0.05                 -2.4946e-09           -8.4e-13              4e-14                 2.4948e-09           
  -0.1                  -2.9182e-09           -6.4e-13              8e-14                 2.922e-09            
  -0.15                 -3.1504e-09           -7.6e-13              1.2e-13               3.15e-09             
  -0.2                  -3.36e-09             -5e-13                1e-13                 3.3616e-09           
  -0.25                 -3.566e-09            -5.4e-13              0                     3.569e-09            
  -0.3                  -3.777e-09            -5.4e-13              1e-13                 3.7768e-09           
  -0.35                 -3.982e-09            -5e-13                8e-14                 3.989e-09            
  -0.4                  -4.1982e-09           -5.6e-13              8e-14                 4.2004e-09           
  -0.45                 -4.4156e-09           -5.2e-13              2e-14                 4.4166e-09           
  -0.5                  -4.6304e-09           -5.6e-13              4e-14                 4.6368e-09           
  -0.55                 -4.8492e-09           -4.2e-13              2e-14                 4.85e-09             
  -0.6                  -5.0736e-09           -3.2e-13              4e-14                 5.0746e-09           
  -0.65                 -5.3068e-09           -3.2e-13              -6e-14                5.3064e-09           
  -0.7                  -5.542e-09            -1.8e-13              1e-13                 5.5422e-09           
  -0.75                 -5.7818e-09           -6e-14                2e-14                 5.7808e-09           
  -0.8                  -6.0222e-09           1.8e-13               2e-14                 6.023e-09            
  -0.85                 -6.267e-09            3.4e-13               0                     6.2654e-09           
  -0.9                  -6.518e-09            5e-13                 2e-14                 6.5218e-09           
  -0.95                 -6.77e-09             1e-12                 0                     6.7648e-09           
  -1                    -7.0168e-09           1.26e-12              1e-13                 7.0296e-09           
  -1.05                 -7.2874e-09           1.76e-12              -4e-14                7.291e-09            
  -1.1                  -7.5652e-09           2.26e-12              -2e-14                7.5576e-09           
  -1.15                 -7.8354e-09           2.58e-12              -8e-14                7.836e-09            
  -1.2                  -8.1094e-09           3.34e-12              4e-14                 8.1112e-09           
  -1.25                 -8.3972e-09           3.76e-12              -2e-14                8.3962e-09           
  -1.3                  -8.69e-09             4.8e-12               2e-14                 8.6744e-09           
  -1.35                 -8.9806e-09           5.48e-12              6e-14                 8.9824e-09           
END_DB

BEGIN_DB
 ICCAP_VAR vg         -0.579         
 ICCAP_VAR vb         1.2            
 ICCAP_VAR vs         -0             

 #vd                    id                    ig                    ib                    is                   
  -0                    3.6988e-09            -4.98e-12             -6e-14                -5.3202e-09          
  -0.05                 -3.1514e-06           -4.14e-12             -1.6e-13              3.1526e-06           
  -0.1                  -4.0994e-06           -3.76e-12             -6e-14                4.1016e-06           
  -0.15                 -4.5156e-06           -3.42e-12             -8e-14                4.5194e-06           
  -0.2                  -4.8128e-06           -3.26e-12             -1.2e-13              4.8182e-06           
  -0.25                 -5.0702e-06           -3.06e-12             -4e-14                5.0758e-06           
  -0.3                  -5.3112e-06           -2.94e-12             0                     5.3136e-06           
  -0.35                 -5.534e-06            -2.98e-12             -6e-14                5.5392e-06           
  -0.4                  -5.7542e-06           -2.76e-12             -2e-14                5.7556e-06           
  -0.45                 -5.969e-06            -2.76e-12             0                     5.9722e-06           
  -0.5                  -6.1802e-06           -2.84e-12             -2e-14                6.183e-06            
  -0.55                 -6.3864e-06           -2.68e-12             6e-14                 6.3888e-06           
  -0.6                  -6.5906e-06           -2.52e-12             4e-14                 6.5946e-06           
  -0.65                 -6.7884e-06           -2.68e-12             -8e-14                6.7914e-06           
  -0.7                  -6.9822e-06           -2.84e-12             -8e-14                6.9892e-06           
  -0.75                 -7.182e-06            -2.58e-12             -4e-14                7.1832e-06           
  -0.8                  -7.3796e-06           -2.52e-12             0                     7.3802e-06           
  -0.85                 -7.572e-06            -2.42e-12             -6e-14                7.578e-06            
  -0.9                  -7.7718e-06           -2.24e-12             1.2e-13               7.7714e-06           
  -0.95                 -7.957e-06            -2.26e-12             -6e-14                7.9572e-06           
  -1                    -8.1452e-06           -1.88e-12             2e-14                 8.1498e-06           
  -1.05                 -8.3352e-06           -1.62e-12             4e-14                 8.3436e-06           
  -1.1                  -8.5334e-06           -1.46e-12             4e-14                 8.5486e-06           
  -1.15                 -8.7344e-06           -1.08e-12             1.2e-13               8.7282e-06           
  -1.2                  -8.913e-06            -8e-13                2.8e-13               8.9194e-06           
  -1.25                 -9.1064e-06           -4.8e-13              5.2e-13               9.116e-06            
  -1.3                  -9.3054e-06           -6e-14                1.36e-12              9.3064e-06           
  -1.35                 -9.4934e-06           5.2e-13               3.14e-12              9.504e-06            
END_DB

BEGIN_DB
 ICCAP_VAR vg         -0.779         
 ICCAP_VAR vb         1.2            
 ICCAP_VAR vs         -0             

 #vd                    id                    ig                    ib                    is                   
  -0                    7.5284e-08            -2.148e-11            -1.2e-13              -7.1346e-08          
  -0.05                 -4.0954e-05           -1.858e-11            -1e-13                4.0952e-05           
  -0.1                  -6.8998e-05           -1.662e-11            -8e-14                6.9032e-05           
  -0.15                 -8.6844e-05           -1.484e-11            0                     8.686e-05            
  -0.2                  -9.7842e-05           -1.364e-11            -6e-14                9.787e-05            
  -0.25                 -0.000105042          -1.278e-11            -2e-14                0.000105116          
  -0.3                  -0.00011026           -1.236e-11            0                     0.000110308          
  -0.35                 -0.000114436          -1.192e-11            -6e-14                0.000114456          
  -0.4                  -0.00011786           -1.15e-11             -2e-14                0.0001182            
  -0.45                 -0.00012108           -1.136e-11            -2e-14                0.00012146           
  -0.5                  -0.00012412           -1.128e-11            -6e-14                0.00012442           
  -0.55                 -0.00012694           -1.104e-11            -6e-14                0.00012728           
  -0.6                  -0.0001296            -1.088e-11            -1.4e-13              0.00012994           
  -0.65                 -0.0001322            -1.076e-11            -4e-14                0.00013256           
  -0.7                  -0.00013476           -1.064e-11            -6e-14                0.00013508           
  -0.75                 -0.0001372            -1.066e-11            -6e-14                0.00013752           
  -0.8                  -0.00013952           -1.064e-11            -2e-14                0.00013986           
  -0.85                 -0.00014188           -1.034e-11            -4e-14                0.00014222           
  -0.9                  -0.00014416           -1.036e-11            -1.2e-13              0.0001445            
  -0.95                 -0.00014642           -1.034e-11            -1e-13                0.00014676           
  -1                    -0.00014868           -1.008e-11            2e-14                 0.00014904           
  -1.05                 -0.0001509            -1.006e-11            0                     0.00015126           
  -1.1                  -0.00015306           -9.94e-12             -4e-14                0.00015344           
  -1.15                 -0.00015526           -9.74e-12             6e-14                 0.00015556           
  -1.2                  -0.00015732           -9.34e-12             2.4e-13               0.00015764           
  -1.25                 -0.0001594            -9.2e-12              5e-13                 0.00015976           
  -1.3                  -0.00016148           -8.88e-12             1.52e-12              0.00016176           
  -1.35                 -0.0001635            -8.58e-12             4.38e-12              0.0001639            
END_DB

