! VERSION = 6.00
BEGIN_HEADER
 ICCAP_INPUTS
  vg         V  G GROUND SMU2 0.001 LIN        1    0.5        -1.35      38   -0.05     
  vb         V  B GROUND SMU4 0.1 LIN        2    0          1.2        7    0.2       
  vd         V  D GROUND SMU1 0.1 LIST       3 3 -0.05 -0.6 -1.2
  vs         V  S GROUND SMU3 0.1 CON        -0
 ICCAP_OUTPUTS
  id         I  D GROUND SMU1 B
  ig         I  G GROUND SMU2 B
  ib         I  B GROUND SMU4 B
  is         I  S GROUND SMU3 B
 ICCAP_VALUES
  MASTER_SETUP_TYPE "~dc_idvg~"
  LINVT_VALUE ""
  LISTVT_VALUE ""
  TYPE "-1"
  TEMP "-40.0000 "
  IS_TNOM " 0.00000 "
  MAIN.W "150.0n"
  MAIN.L "130.0n"
  MAIN.AD "100.5f"
  MAIN.AS "100.5f"
  MAIN.PD "1.340u"
  MAIN.PS "1.340u"
  MAIN.NF "1.000"
  MAIN.M "1"
  MAIN.NRD "0.000"
  MAIN.NRS "0.000"
  MAIN.LDRIFT1 "1E-06"
  MAIN.LDRIFT2 "1E-06"
  MAIN.SA "0.000"
  MAIN.SB "0.000"
  MAIN.SD "0.000"
  MAIN.SCA "0.000"
  MAIN.SCB "0.000"
  MAIN.SCC "0.000"
  MAIN.SC "0.000"
  MODULE "S554"
  PIN_D "16"
  PIN_G "5"
  PIN_S "6"
  PIN_B "15"
  PIN_E ""
  PIN_6 ""
  XY_ID ""
  FUNC "Small"
  STI "SA ref"
  WPE "WPE ref"
  COMMENT ""
  DIS_MEAS ""
  TypeTCI "10"
END_HEADER

BEGIN_DB
 ICCAP_VAR vb         0              
 ICCAP_VAR vd         -0.05          
 ICCAP_VAR vs         -0             

 #vg                    id                    ig                    ib                    is                   
  0.5                   -2e-14                4.4e-13               -2e-14                -4e-14               
  0.45                  -1.2e-13              -8e-14                -8e-14                -2e-14               
  0.4                   -2.2e-13              1.6e-13               -8e-14                0                    
  0.35                  -8e-14                4.4e-13               -1.6e-13              2e-14                
  0.3                   4e-14                 2.2e-13               -2e-14                -2.2e-13             
  0.25                  -1e-13                -2.2e-13              -2e-14                -1.4e-13             
  0.2                   6e-14                 -3.8e-13              -1e-13                4e-14                
  0.15                  -6e-14                -3e-13                -2e-13                -1.2e-13             
  0.1                   -8e-14                1e-13                 -2.2e-13              1.6e-13              
  0.05                  2e-14                 -2.8e-13              -6e-14                -4e-14               
  0                     -1e-13                -5.6e-13              -8e-14                0                    
  -0.05                 -4e-14                -4e-13                -8e-14                1.8e-13              
  -0.1                  -1.8e-13              -4.6e-13              -1e-13                2.2e-13              
  -0.15                 -1.26e-12             -5.2e-13              -1.4e-13              1.44e-12             
  -0.2                  -8.3e-12              -3.2e-13              -1.4e-13              8.34e-12             
  -0.25                 -5.752e-11            -7.8e-13              -1.4e-13              5.764e-11            
  -0.3                  -3.9184e-10           -5.6e-13              -1.2e-13              3.926e-10            
  -0.35                 -2.571e-09            -4.4e-13              -6e-14                2.5562e-09           
  -0.4                  -1.4822e-08           -8e-14                -2e-13                1.4774e-08           
  -0.45                 -6.8596e-08           -8e-13                -8e-14                6.7872e-08           
  -0.5                  -2.2388e-07           -3.8e-13              -1.4e-13              2.2414e-07           
  -0.55                 -5.3004e-07           -7.4e-13              -2e-13                5.304e-07            
  -0.6                  -9.8096e-07           -7.4e-13              -8e-14                9.8136e-07           
  -0.65                 -1.5232e-06           -7.8e-13              -1.2e-13              1.5258e-06           
  -0.7                  -2.1092e-06           -1.18e-12             -2e-13                2.1146e-06           
  -0.75                 -2.706e-06            -9e-13                -6e-14                2.7092e-06           
  -0.8                  -3.2944e-06           -1.04e-12             -6e-14                3.298e-06            
  -0.85                 -3.8662e-06           -1.48e-12             -1.4e-13              3.8692e-06           
  -0.9                  -4.4108e-06           -1.44e-12             -4e-14                4.4132e-06           
  -0.95                 -4.9292e-06           -1.62e-12             -1.2e-13              4.9328e-06           
  -1                    -5.4218e-06           -1.64e-12             -1.6e-13              5.4248e-06           
  -1.05                 -5.8866e-06           -2.1e-12              0                     5.889e-06            
  -1.1                  -6.3262e-06           -2.62e-12             -1.4e-13              6.3246e-06           
  -1.15                 -6.7372e-06           -2.64e-12             -1e-13                6.7406e-06           
  -1.2                  -7.129e-06            -3.56e-12             -4e-14                7.1322e-06           
  -1.25                 -7.4966e-06           -3.86e-12             6e-14                 7.5e-06              
  -1.3                  -7.8258e-06           -4.06e-12             -1.6e-13              7.8208e-06           
  -1.35                 -8.1322e-06           -5.16e-12             0                     8.1348e-06           
END_DB

BEGIN_DB
 ICCAP_VAR vb         0.2            
 ICCAP_VAR vd         -0.05          
 ICCAP_VAR vs         -0             

 #vg                    id                    ig                    ib                    is                   
  0.5                   -1.4e-13              5.6e-13               -2e-14                4e-14                
  0.45                  -6e-14                3.6e-13               0                     -2.2e-13             
  0.4                   2e-14                 1.4e-13               6e-14                 1.8e-13              
  0.35                  4e-14                 -8e-14                -2e-14                1.2e-13              
  0.3                   4e-14                 -1.8e-13              -4e-14                3.4e-13              
  0.25                  2e-14                 -4.2e-13              4e-14                 -2e-14               
  0.2                   -1e-13                -6e-14                -4e-14                8e-14                
  0.15                  0                     -1e-13                -6e-14                2.4e-13              
  0.1                   -8e-14                -1.2e-13              -6e-14                1e-13                
  0.05                  -6e-14                4e-14                 2e-14                 8e-14                
  0                     0                     -3.4e-13              -6e-14                1e-13                
  -0.05                 -2e-14                -4.8e-13              -2e-14                4e-14                
  -0.1                  -1.4e-13              -8e-14                4e-14                 -6e-14               
  -0.15                 -3e-13                -3.6e-13              -4e-14                5e-13                
  -0.2                  -2.26e-12             8e-14                 4e-14                 2.06e-12             
  -0.25                 -1.596e-11            -4.4e-13              -8e-14                1.614e-11            
  -0.3                  -1.1432e-10           -5.2e-13              -4e-14                1.1436e-10           
  -0.35                 -7.9198e-10           -3.2e-13              0                     7.8898e-10           
  -0.4                  -5.1142e-09           -5e-13                6e-14                 5.0892e-09           
  -0.45                 -2.7728e-08           -6.8e-13              0                     2.7878e-08           
  -0.5                  -1.13264e-07          -6.2e-13              6e-14                 1.12754e-07          
  -0.55                 -3.2296e-07           -5.8e-13              0                     3.2354e-07           
  -0.6                  -6.8792e-07           -6e-13                -2e-14                6.8814e-07           
  -0.65                 -1.1744e-06           -4.2e-13              -8e-14                1.1782e-06           
  -0.7                  -1.7296e-06           -9.2e-13              0                     1.7326e-06           
  -0.75                 -2.3086e-06           -9.8e-13              2e-14                 2.3126e-06           
  -0.8                  -2.8918e-06           -1.06e-12             1e-13                 2.8952e-06           
  -0.85                 -3.4618e-06           -8.6e-13              -2e-14                3.4652e-06           
  -0.9                  -4.0106e-06           -1.26e-12             -1e-13                4.015e-06            
  -0.95                 -4.5326e-06           -1.2e-12              6e-14                 4.5364e-06           
  -1                    -5.0292e-06           -1.76e-12             0                     5.033e-06            
  -1.05                 -5.4998e-06           -2.06e-12             -1e-13                5.5032e-06           
  -1.1                  -5.9364e-06           -2.38e-12             6e-14                 5.9306e-06           
  -1.15                 -6.3618e-06           -2.78e-12             -2e-14                6.361e-06            
  -1.2                  -6.7436e-06           -3.38e-12             -1e-13                6.748e-06            
  -1.25                 -7.1184e-06           -3.86e-12             0                     7.0788e-06           
  -1.3                  -7.4286e-06           -4.42e-12             -8e-14                7.4326e-06           
  -1.35                 -7.7618e-06           -5.2e-12              0                     7.766e-06            
END_DB

BEGIN_DB
 ICCAP_VAR vb         0.4            
 ICCAP_VAR vd         -0.05          
 ICCAP_VAR vs         -0             

 #vg                    id                    ig                    ib                    is                   
  0.5                   -2e-14                3.8e-13               -2e-14                -4e-14               
  0.45                  -8e-14                4e-14                 -4e-14                2e-13                
  0.4                   2e-14                 -1.4e-13              -6e-14                -1e-13               
  0.35                  -1.8e-13              -2.8e-13              -4e-14                1.4e-13              
  0.3                   0                     1.6e-13               -1e-13                6e-14                
  0.25                  -2e-14                2.2e-13               6e-14                 1e-13                
  0.2                   -8e-14                -3.2e-13              -1.4e-13              4e-14                
  0.15                  -8e-14                -2.2e-13              6e-14                 1e-13                
  0.1                   -1e-13                1e-13                 -4e-14                6e-14                
  0.05                  4e-14                 -2.6e-13              -1.2e-13              4e-14                
  0                     2e-14                 4e-14                 0                     8e-14                
  -0.05                 6e-14                 -5e-13                2e-14                 6e-14                
  -0.1                  -4e-14                -2.2e-13              1.2e-13               2e-14                
  -0.15                 -1e-13                -6e-14                -4e-14                1.2e-13              
  -0.2                  -8e-13                -4.6e-13              2e-14                 6.8e-13              
  -0.25                 -5.46e-12             -2.6e-13              -2e-14                5.56e-12             
  -0.3                  -3.978e-11            -5.2e-13              -4e-14                3.998e-11            
  -0.35                 -2.853e-10            -4.2e-13              6e-14                 2.8554e-10           
  -0.4                  -1.9618e-09           -2.6e-13              8e-14                 1.974e-09            
  -0.45                 -1.192e-08            -6.4e-13              -2e-14                1.1976e-08           
  -0.5                  -5.7988e-08           -2.8e-13              -4e-14                5.7708e-08           
  -0.55                 -1.9576e-07           -6.8e-13              -6e-14                1.9636e-07           
  -0.6                  -4.8064e-07           -3.6e-13              0                     4.8042e-07           
  -0.65                 -9.0926e-07           -9.2e-13              -4e-14                9.0804e-07           
  -0.7                  -1.4256e-06           -7.2e-13              -4e-14                1.4298e-06           
  -0.75                 -1.989e-06            -6.6e-13              2e-14                 1.995e-06            
  -0.8                  -2.5646e-06           -7.4e-13              -8e-14                2.568e-06            
  -0.85                 -3.1324e-06           -1e-12                8e-14                 3.1358e-06           
  -0.9                  -3.6826e-06           -1.52e-12             -4e-14                3.6866e-06           
  -0.95                 -4.2088e-06           -1.4e-12              4e-14                 4.2128e-06           
  -1                    -4.7098e-06           -2.02e-12             -6e-14                4.7138e-06           
  -1.05                 -5.1854e-06           -2.18e-12             -1.4e-13              5.1892e-06           
  -1.1                  -5.6348e-06           -2.42e-12             4e-14                 5.6212e-06           
  -1.15                 -6.0138e-06           -2.78e-12             4e-14                 6.0092e-06           
  -1.2                  -6.3978e-06           -3.2e-12              -8e-14                6.3914e-06           
  -1.25                 -6.7716e-06           -3.6e-12              -8e-14                6.781e-06            
  -1.3                  -7.1444e-06           -4.38e-12             -6e-14                7.1452e-06           
  -1.35                 -7.4808e-06           -5.22e-12             -2e-14                7.4694e-06           
END_DB

BEGIN_DB
 ICCAP_VAR vb         0.6            
 ICCAP_VAR vd         -0.05          
 ICCAP_VAR vs         -0             

 #vg                    id                    ig                    ib                    is                   
  0.5                   0                     6.4e-13               8e-14                 -8e-14               
  0.45                  2e-14                 5.6e-13               -4e-14                -2e-14               
  0.4                   -2e-14                3.6e-13               2e-14                 -4e-14               
  0.35                  0                     -6e-14                0                     2e-14                
  0.3                   -1e-13                -1.6e-13              0                     -6e-14               
  0.25                  0                     -2.4e-13              -2e-14                -8e-14               
  0.2                   6e-14                 -1.4e-13              6e-14                 -2.2e-13             
  0.15                  4e-14                 -3.8e-13              2e-14                 6e-14                
  0.1                   -1e-13                -2e-14                -4e-14                2.2e-13              
  0.05                  6e-14                 -2.4e-13              -6e-14                1e-13                
  0                     2e-14                 -4.6e-13              0                     4e-14                
  -0.05                 -8e-14                -4e-13                -4e-14                1.2e-13              
  -0.1                  -6e-14                -1.4e-13              -6e-14                2.2e-13              
  -0.15                 0                     1e-13                 -1.8e-13              6e-14                
  -0.2                  -2.8e-13              -5.6e-13              -8e-14                3e-13                
  -0.25                 -2.16e-12             -5e-13                -4e-14                2.4e-12              
  -0.3                  -1.59e-11             -5.8e-13              -2e-14                1.586e-11            
  -0.35                 -1.1762e-10           -6e-14                -6e-14                1.1724e-10           
  -0.4                  -8.4192e-10           1e-13                 -1e-13                8.447e-10            
  -0.45                 -5.4876e-09           -1e-13                -8e-14                5.5312e-09           
  -0.5                  -2.9824e-08           -4.4e-13              8e-14                 2.9872e-08           
  -0.55                 -1.1936e-07           -6.2e-13              -1.2e-13              1.1806e-07           
  -0.6                  -3.3184e-07           -7.2e-13              0                     3.3198e-07           
  -0.65                 -6.9418e-07           -6.2e-13              -1e-13                6.9412e-07           
  -0.7                  -1.1692e-06           -5e-13                -4e-14                1.1722e-06           
  -0.75                 -1.707e-06            -8.8e-13              -1.4e-13              1.7104e-06           
  -0.8                  -2.2686e-06           -4.2e-13              0                     2.2726e-06           
  -0.85                 -2.832e-06            -1.22e-12             -1e-13                2.834e-06            
  -0.9                  -3.3804e-06           -1.62e-12             -1e-13                3.3844e-06           
  -0.95                 -3.9072e-06           -1.18e-12             6e-14                 3.9104e-06           
  -1                    -4.4104e-06           -1.54e-12             -2e-14                4.414e-06            
  -1.05                 -4.888e-06            -2.34e-12             -2e-14                4.892e-06            
  -1.1                  -5.3426e-06           -2.24e-12             0                     5.346e-06            
  -1.15                 -5.7728e-06           -2.68e-12             -2e-14                5.776e-06            
  -1.2                  -6.1786e-06           -3.06e-12             4e-14                 6.135e-06            
  -1.25                 -6.52e-06             -3.72e-12             -1e-13                6.523e-06            
  -1.3                  -6.8672e-06           -4.4e-12              0                     6.8886e-06           
  -1.35                 -7.2288e-06           -5.08e-12             -2e-14                7.2326e-06           
END_DB

BEGIN_DB
 ICCAP_VAR vb         0.8            
 ICCAP_VAR vd         -0.05          
 ICCAP_VAR vs         -0             

 #vg                    id                    ig                    ib                    is                   
  0.5                   -2e-14                2e-13                 0                     4e-14                
  0.45                  -4e-14                4e-13                 2e-14                 0                    
  0.4                   6e-14                 4e-14                 4e-14                 -8e-14               
  0.35                  -6e-14                -4.6e-13              -4e-14                2e-14                
  0.3                   6e-14                 2.6e-13               4e-14                 -2e-14               
