! VERSION = 6.00
BEGIN_HEADER
 ICCAP_INPUTS
  vg         V  G GROUND SMU2 0.001 LIN        1    0.5        -1.35      38   -0.05     
  vb         V  B GROUND SMU4 0.1 LIN        2    0          1.2        7    0.2       
  vd         V  D GROUND SMU1 0.1 LIST       3 3 -0.05 -0.6 -1.2
  vs         V  S GROUND SMU3 0.1 CON        -0
 ICCAP_OUTPUTS
  id         I  D GROUND SMU1 B
  ig         I  G GROUND SMU2 B
  ib         I  B GROUND SMU4 B
  is         I  S GROUND SMU3 B
 ICCAP_VALUES
  MASTER_SETUP_TYPE "~dc_idvg~"
  LINVT_VALUE ""
  LISTVT_VALUE ""
  TYPE "-1"
  TEMP " 125.000 "
  IS_TNOM " 0.00000 "
  MAIN.W "150.0n"
  MAIN.L "10.00u"
  MAIN.AD "100.5f"
  MAIN.AS "100.5f"
  MAIN.PD "1.340u"
  MAIN.PS "1.340u"
  MAIN.NF "1.000"
  MAIN.M "1"
  MAIN.NRD "0.000"
  MAIN.NRS "0.000"
  MAIN.LDRIFT1 "1E-06"
  MAIN.LDRIFT2 "1E-06"
  MAIN.SA "0.000"
  MAIN.SB "0.000"
  MAIN.SD "0.000"
  MAIN.SCA "0.000"
  MAIN.SCB "0.000"
  MAIN.SCC "0.000"
  MAIN.SC "0.000"
  MODULE "S555"
  PIN_D "16"
  PIN_G "5"
  PIN_S "6"
  PIN_B "15"
  PIN_E ""
  PIN_6 ""
  XY_ID ""
  FUNC "Narrow"
  STI "SA ref"
  WPE "WPE ref"
  COMMENT ""
  DIS_MEAS ""
  TypeTCI "10"
END_HEADER

BEGIN_DB
 ICCAP_VAR vb         0              
 ICCAP_VAR vd         -0.05          
 ICCAP_VAR vs         -0             

 #vg                    id                    ig                    ib                    is                   
  0.5                   -1.6e-13              2.0368e-08            -2.034e-08            4e-14                
  0.45                  5.82e-12              4.7598e-09            -4.7716e-09           -1.6e-13             
  0.4                   4.4e-13               1.1136e-09            -1.1298e-09           -2e-13               
  0.35                  2.2e-13               2.6134e-10            -2.7472e-10           0                    
  0.3                   0                     6.132e-11             -7.51e-11             1.2e-13              
  0.25                  1.2e-13               1.438e-11             -2.746e-11            1.4e-13              
  0.2                   -4e-13                3.3e-12               -1.52e-11             1.2e-13              
  0.15                  -2.6e-13              5.6e-13               -1.188e-11            2.6e-13              
  0.1                   -6.6e-13              -1.2e-13              -1.114e-11            5e-13                
  0.05                  -1.76e-12             -4.2e-13              -1.042e-11            1.92e-12             
  0                     -5.68e-12             -2.4e-13              -1.016e-11            5.88e-12             
  -0.05                 -1.86e-11             -3.2e-13              -9.86e-12             1.874e-11            
  -0.1                  -6.08e-11             -4.4e-13              -9.14e-12             6.102e-11            
  -0.15                 -1.9328e-10           -4e-13                -9.34e-12             1.936e-10            
  -0.2                  -5.655e-10            -6.4e-13              -8.9e-12              5.6564e-10           
  -0.25                 -1.4266e-09           -5.6e-13              -8.66e-12             1.4266e-09           
  -0.3                  -2.9738e-09           -8.6e-13              -8.34e-12             2.9734e-09           
  -0.35                 -5.1844e-09           -1.36e-12             -8.24e-12             5.1856e-09           
  -0.4                  -7.898e-09            -1.78e-12             -8.1e-12              7.8966e-09           
  -0.45                 -1.09026e-08          -2.6e-12              -7.72e-12             1.09012e-08          
  -0.5                  -1.4082e-08           -3.46e-12             -7.88e-12             1.41e-08             
  -0.55                 -1.7336e-08           -5.04e-12             -7.56e-12             1.7354e-08           
  -0.6                  -2.0612e-08           -7.24e-12             -7.46e-12             2.0636e-08           
  -0.65                 -2.3872e-08           -9.82e-12             -7.06e-12             2.3898e-08           
  -0.7                  -2.7092e-08           -1.312e-11            -7.14e-12             2.712e-08            
  -0.75                 -3.0248e-08           -1.738e-11            -6.86e-12             3.0282e-08           
  -0.8                  -3.3324e-08           -2.246e-11            -6.94e-12             3.3358e-08           
  -0.85                 -3.6328e-08           -2.896e-11            -7.12e-12             3.6368e-08           
  -0.9                  -3.925e-08            -3.656e-11            -6.62e-12             3.9298e-08           
  -0.95                 -4.209e-08            -4.548e-11            -5.72e-12             4.2148e-08           
  -1                    -4.4844e-08           -5.628e-11            -6.1e-12              4.4916e-08           
  -1.05                 -4.7486e-08           -6.852e-11            -6.72e-12             4.7556e-08           
  -1.1                  -5.0046e-08           -8.288e-11            -5.96e-12             5.0128e-08           
  -1.15                 -5.2494e-08           -9.928e-11            -5.4e-12              5.2608e-08           
  -1.2                  -5.4878e-08           -1.1784e-10           -5.68e-12             5.4998e-08           
  -1.25                 -5.7156e-08           -1.3938e-10           -5.64e-12             5.7308e-08           
  -1.3                  -5.9334e-08           -1.6364e-10           -5e-12                5.9508e-08           
  -1.35                 -6.1438e-08           -1.9136e-10           -3.52e-12             6.162e-08            
END_DB

BEGIN_DB
 ICCAP_VAR vb         0.2            
 ICCAP_VAR vd         -0.05          
 ICCAP_VAR vs         -0             

 #vg                    id                    ig                    ib                    is                   
  0.5                   -2e-13                6.206e-11             -5.612e-11            6e-14                
  0.45                  -2.4e-13              1.472e-11             -1.088e-11            2e-14                
  0.4                   -1.4e-13              3.54e-12              2e-14                 -8e-14               
  0.35                  -3.8e-13              9e-13                 2.06e-12              -2e-13               
  0.3                   -1.8e-13              2e-13                 2.12e-12              -2e-14               
  0.25                  -1.2e-13              -1e-13                1.98e-12              8e-14                
  0.2                   -1.8e-13              -8e-14                1.98e-12              -3e-13               
  0.15                  -3e-13                -3.6e-13              1.4e-12               2.2e-13              
  0.1                   -3.4e-13              -3.2e-13              1.46e-12              1e-13                
  0.05                  -6.2e-13              -3.6e-13              8e-13                 6.6e-13              
  0                     -2.32e-12             -3.6e-13              1.28e-12              2.18e-12             
  -0.05                 -7.1e-12              -4.2e-13              5.8e-13               7.12e-12             
  -0.1                  -2.362e-11            -5.6e-13              9e-13                 2.356e-11            
  -0.15                 -7.914e-11            -5.2e-13              7.4e-13               7.914e-11            
  -0.2                  -2.5248e-10           -5e-13                3.4e-13               2.5254e-10           
  -0.25                 -7.2708e-10           -6.6e-13              3e-13                 7.2668e-10           
  -0.3                  -1.754e-09            -7.8e-13              2.2e-13               1.755e-09            
  -0.35                 -3.4702e-09           -1.18e-12             1.4e-13               3.4698e-09           
  -0.4                  -5.7978e-09           -1.68e-12             -1.4e-13              5.795e-09            
  -0.45                 -8.537e-09            -2.36e-12             1.4e-13               8.537e-09            
  -0.5                  -1.1526e-08           -3.28e-12             2.6e-13               1.1546e-08           
  -0.55                 -1.465e-08            -4.86e-12             -6e-13                1.467e-08            
  -0.6                  -1.7832e-08           -6.96e-12             2.6e-13               1.7856e-08           
  -0.65                 -2.103e-08            -9.56e-12             -1.6e-13              2.1052e-08           
  -0.7                  -2.4198e-08           -1.29e-11             -4.2e-13              2.4232e-08           
  -0.75                 -2.7324e-08           -1.694e-11            -4.8e-13              2.7354e-08           
  -0.8                  -3.0384e-08           -2.222e-11            -4.4e-13              3.0424e-08           
  -0.85                 -3.338e-08            -2.854e-11            -1.2e-13              3.3418e-08           
  -0.9                  -3.629e-08            -3.606e-11            -5.6e-13              3.6336e-08           
  -0.95                 -3.9118e-08           -4.498e-11            -7.4e-13              3.9172e-08           
  -1                    -4.186e-08            -5.56e-11             -5.4e-13              4.193e-08            
  -1.05                 -4.4512e-08           -6.786e-11            -6.4e-13              4.4592e-08           
  -1.1                  -4.7078e-08           -8.202e-11            -5.8e-13              4.7164e-08           
  -1.15                 -4.9546e-08           -9.858e-11            -1.4e-13              4.9658e-08           
  -1.2                  -5.1932e-08           -1.1718e-10           -6e-14                5.207e-08            
  -1.25                 -5.423e-08            -1.3832e-10           -8.4e-13              5.438e-08            
  -1.3                  -5.6436e-08           -1.6296e-10           8e-14                 5.6604e-08           
  -1.35                 -5.8554e-08           -1.9042e-10           1.44e-12              5.8752e-08           
END_DB

BEGIN_DB
 ICCAP_VAR vb         0.4            
 ICCAP_VAR vd         -0.05          
 ICCAP_VAR vs         -0             

 #vg                    id                    ig                    ib                    is                   
  0.5                   -1e-13                7.2e-13               9.68e-12              -2.6e-13             
  0.45                  -1.2e-13              2e-13                 8.28e-12              6e-14                
  0.4                   -1e-13                2.6e-13               7.54e-12              -4e-14               
  0.35                  -3.2e-13              1.4e-13               6.78e-12              -1.2e-13             
  0.3                   -2.4e-13              -1e-13                6.06e-12              0                    
  0.25                  -2e-14                -6e-14                5.86e-12              -1e-13               
  0.2                   -2.2e-13              -1e-13                5.28e-12              -1.8e-13             
  0.15                  -2.6e-13              -1.8e-13              5.16e-12              -6e-14               
  0.1                   -1.6e-13              -2.6e-13              4.38e-12              -6e-14               
  0.05                  -3e-13                -4.2e-13              4.5e-12               3e-13                
  0                     -9.4e-13              -2.4e-13              4.24e-12              6.6e-13              
  -0.05                 -2.98e-12             -5.2e-13              4.04e-12              2.76e-12             
  -0.1                  -1.01e-11             -5e-13                3.7e-12               1.014e-11            
  -0.15                 -3.414e-11            -2.4e-13              3.18e-12              3.422e-11            
  -0.2                  -1.1554e-10           -6.4e-13              3.48e-12              1.157e-10            
  -0.25                 -3.6518e-10           -5.6e-13              3.24e-12              3.6488e-10           
  -0.3                  -1.00076e-09          -8.6e-13              2.84e-12              1.00122e-09          
  -0.35                 -2.2522e-09           -1.06e-12             2.78e-12              2.2518e-09           
  -0.4                  -4.17e-09             -1.56e-12             3.06e-12              4.17e-09             
  -0.45                 -6.6118e-09           -2.34e-12             2.64e-12              6.6128e-09           
  -0.5                  -9.4022e-09           -3.08e-12             2.28e-12              9.402e-09            
  -0.55                 -1.2372e-08           -4.56e-12             2.68e-12              1.2392e-08           
  -0.6                  -1.5452e-08           -6.62e-12             2.3e-12               1.5476e-08           
  -0.65                 -1.8572e-08           -9.18e-12             2.04e-12              1.8596e-08           
  -0.7                  -2.1692e-08           -1.246e-11            2.62e-12              2.1716e-08           
  -0.75                 -2.4764e-08           -1.662e-11            2.06e-12              2.4798e-08           
  -0.8                  -2.781e-08            -2.168e-11            2.2e-12               2.7844e-08           
  -0.85                 -3.0778e-08           -2.79e-11             2.32e-12              3.0818e-08           
  -0.9                  -3.3674e-08           -3.538e-11            2.06e-12              3.3724e-08           
  -0.95                 -3.6504e-08           -4.442e-11            2.06e-12              3.6566e-08           
  -1                    -3.9252e-08           -5.494e-11            1.92e-12              3.9324e-08           
  -1.05                 -4.1898e-08           -6.722e-11            1.76e-12              4.1974e-08           
  -1.1                  -4.4466e-08           -8.136e-11            1.92e-12              4.4556e-08           
  -1.15                 -4.6938e-08           -9.766e-11            1.62e-12              4.7064e-08           
  -1.2                  -4.933e-08            -1.1634e-10           1.74e-12              4.9444e-08           
  -1.25                 -5.162e-08            -1.377e-10            2e-12                 5.1774e-08           
  -1.3                  -5.3828e-08           -1.6174e-10           3.32e-12              5.4004e-08           
  -1.35                 -5.5968e-08           -1.8942e-10           3.42e-12              5.617e-08            
END_DB

BEGIN_DB
 ICCAP_VAR vb         0.6            
 ICCAP_VAR vd         -0.05          
 ICCAP_VAR vs         -0             

 #vg                    id                    ig                    ib                    is                   
  0.5                   -3e-13                4.2e-13               1.148e-11             -1.6e-13             
  0.45                  -3.4e-13              2.8e-13               1.034e-11             -1.2e-13             
  0.4                   0                     1.8e-13               9.26e-12              4e-14                
  0.35                  -4e-13                1.2e-13               8.04e-12              -2e-13               
  0.3                   -1.6e-13              4e-14                 7.92e-12              -1.4e-13             
  0.25                  -2.4e-13              -1.6e-13              7.92e-12              -1.8e-13             
  0.2                   -2e-14                -1.6e-13              6.66e-12              0                    
  0.15                  -1.6e-13              -2.6e-13              6.86e-12              -1.2e-13             
  0.1                   -2.2e-13              -2.4e-13              7e-12                 -6e-14               
  0.05                  -1.6e-13              -2.6e-13              6.08e-12              0                    
  0                     -5.6e-13              -4.4e-13              5.7e-12               2.2e-13              
  -0.05                 -1.32e-12             -4.8e-13              5.88e-12              1.26e-12             
  -0.1                  -4.64e-12             -4e-13                5.5e-12               4.36e-12             
  -0.15                 -1.58e-11             -5.4e-13              4.98e-12              1.576e-11            
  -0.2                  -5.458e-11            -5.4e-13              5.02e-12              5.456e-11            
  -0.25                 -1.8282e-10           -7e-13                5.08e-12              1.8268e-10           
  -0.3                  -5.5424e-10           -7.2e-13              4.46e-12              5.5464e-10           
  -0.35                 -1.4112e-09           -8.6e-13              4.92e-12              1.4118e-09           
  -0.4                  -2.9222e-09           -1.4e-12              4.26e-12              2.9218e-09           
  -0.45                 -5.0334e-09           -2.06e-12             3.92e-12              5.0326e-09           
  -0.5                  -7.5826e-09           -2.98e-12             4.26e-12              7.5828e-09           
  -0.55                 -1.03978e-08          -4.36e-12             4.06e-12              1.03994e-08          
  -0.6                  -1.3358e-08           -6.24e-12             4e-12                 1.3376e-08           
  -0.65                 -1.6388e-08           -8.96e-12             3.62e-12              1.6414e-08           
  -0.7                  -1.9444e-08           -1.198e-11            3.9e-12               1.9468e-08           
  -0.75                 -2.2476e-08           -1.624e-11            3.52e-12              2.2502e-08           
  -0.8                  -2.5484e-08           -2.118e-11            3.96e-12              2.5518e-08           
  -0.85                 -2.8442e-08           -2.744e-11            3.6e-12               2.8478e-08           
  -0.9                  -3.1324e-08           -3.484e-11            3.76e-12              3.1368e-08           
  -0.95                 -3.4132e-08           -4.372e-11            3.42e-12              3.4186e-08           
  -1                    -3.6858e-08           -5.414e-11            3.7e-12               3.6914e-08           
  -1.05                 -3.9508e-08           -6.648e-11            3.44e-12              3.9588e-08           
  -1.1                  -4.207e-08            -8.054e-11            2.9e-12               4.2176e-08           
  -1.15                 -4.457e-08            -9.684e-11            3.08e-12              4.4668e-08           
  -1.2                  -4.6958e-08           -1.1536e-10           3.36e-12              4.7094e-08           
  -1.25                 -4.9262e-08           -1.3648e-10           3.98e-12              4.9418e-08           
  -1.3                  -5.1484e-08           -1.6062e-10           4.3e-12               5.1648e-08           
  -1.35                 -5.361e-08            -1.8824e-10           4.8e-12               5.3818e-08           
END_DB

BEGIN_DB
 ICCAP_VAR vb         0.8            
 ICCAP_VAR vd         -0.05          
 ICCAP_VAR vs         -0             

 #vg                    id                    ig                    ib                    is                   
  0.5                   -3e-13                7.4e-13               1.298e-11             -2e-13               
  0.45                  -1.8e-13              2.2e-13               1.104e-11             1.4e-13              
  0.4                   -2.4e-13              1.4e-13               1.072e-11             -1.2e-13             
  0.35                  -3e-13                8e-14                 9.84e-12              -1e-13               
  0.3                   -2.6e-13              -1.2e-13              9.26e-12              -6e-14               
