! VERSION = 6.00
BEGIN_HEADER
 ICCAP_INPUTS
  vd         V  D GROUND SMU1 0.1 LIN        1    -0         -1.35      28   -0.05     
  vg         V  G GROUND SMU2 0.001 LIST       2 3 -0.146 -0.346 -0.546
  vb         V  B GROUND SMU4 0.1 CON        -0
  vs         V  S GROUND SMU3 0.1 CON        -0
 ICCAP_OUTPUTS
  id         I  D GROUND SMU1 B
  ig         I  G GROUND SMU2 B
  ib         I  B GROUND SMU4 B
  is         I  S GROUND SMU3 B
 ICCAP_VALUES
  MASTER_SETUP_TYPE "~dc_idvd~"
  LINVT_VALUE ""
  LISTVT_VALUE "|idvg|100.0n|-200.0m|1.000m|3|200.0m|200.0m|"
  TYPE "-1"
  TEMP "-40.0000 "
  IS_TNOM " 0.00000 "
  MAIN.W "150.0n"
  MAIN.L "10.00u"
  MAIN.AD "100.5f"
  MAIN.AS "100.5f"
  MAIN.PD "1.340u"
  MAIN.PS "1.340u"
  MAIN.NF "1.000"
  MAIN.M "1"
  MAIN.NRD "0.000"
  MAIN.NRS "0.000"
  MAIN.LDRIFT1 "1E-06"
  MAIN.LDRIFT2 "1E-06"
  MAIN.SA "0.000"
  MAIN.SB "0.000"
  MAIN.SD "0.000"
  MAIN.SCA "0.000"
  MAIN.SCB "0.000"
  MAIN.SCC "0.000"
  MAIN.SC "0.000"
  MODULE "S555"
  PIN_D "16"
  PIN_G "5"
  PIN_S "6"
  PIN_B "15"
  PIN_E ""
  PIN_6 ""
  XY_ID ""
  FUNC "Narrow"
  STI "SA ref"
  WPE "WPE ref"
  COMMENT ""
  DIS_MEAS ""
  TypeTCI "10"
END_HEADER

BEGIN_DB
 ICCAP_VAR vg         -0.146         
 ICCAP_VAR vb         -0             
 ICCAP_VAR vs         -0             

 #vd                    id                    ig                    ib                    is                   
  -0                    1.8e-13               1e-13                 -1.8e-13              0                    
  -0.05                 -6.8e-13              -4e-14                -8e-14                5.2e-13              
  -0.1                  -7.8e-13              8e-14                 -1.6e-13              5.6e-13              
  -0.15                 -7e-13                1.2e-13               -2.4e-13              7.2e-13              
  -0.2                  -8e-13                8e-14                 -1.6e-13              5.6e-13              
  -0.25                 -9.4e-13              -1.2e-13              -2.8e-13              6.8e-13              
  -0.3                  -9e-13                -1.8e-13              -2.6e-13              9.6e-13              
  -0.35                 -1e-12                8e-14                 -2e-13                7e-13                
  -0.4                  -9.8e-13              2e-13                 -1.8e-13              7.8e-13              
  -0.45                 -9.6e-13              1.8e-13               -2.4e-13              9.4e-13              
  -0.5                  -1.1e-12              2e-13                 -8e-14                6.6e-13              
  -0.55                 -1.04e-12             2.6e-13               -1.8e-13              1e-12                
  -0.6                  -1.2e-12              3.6e-13               -2.4e-13              8.6e-13              
  -0.65                 -1.16e-12             1.2e-13               -2e-13                6.8e-13              
  -0.7                  -1.12e-12             -4e-14                -2e-13                8.2e-13              
  -0.75                 -1.18e-12             3.6e-13               -2.2e-13              8.2e-13              
  -0.8                  -1.16e-12             3.2e-13               -1.6e-13              8e-13                
  -0.85                 -1.16e-12             2e-13                 -1.8e-13              8.6e-13              
  -0.9                  -1.18e-12             -1.6e-13              -1.6e-13              8.2e-13              
  -0.95                 -1.28e-12             1.6e-13               -6e-14                6.6e-13              
  -1                    -1.22e-12             2.4e-13               -1.8e-13              8.6e-13              
  -1.05                 -1.22e-12             2.6e-13               -1.8e-13              8.6e-13              
  -1.1                  -1.26e-12             1.2e-13               -1.2e-13              6.8e-13              
  -1.15                 -1.3e-12              -1.2e-13              -1.6e-13              8.2e-13              
  -1.2                  -1.32e-12             2e-13                 -1.4e-13              7e-13                
  -1.25                 -1.44e-12             2.8e-13               -2.2e-13              9.2e-13              
  -1.3                  -1.4e-12              2.2e-13               -1.4e-13              8.8e-13              
  -1.35                 -1.56e-12             3.8e-13               -1.4e-13              8.6e-13              
END_DB

BEGIN_DB
 ICCAP_VAR vg         -0.346         
 ICCAP_VAR vb         -0             
 ICCAP_VAR vs         -0             

 #vd                    id                    ig                    ib                    is                   
  -0                    4.24e-12              -4e-13                -2.4e-13              -3.62e-12            
  -0.05                 -1.2526e-09           -6e-14                -1.6e-13              1.254e-09            
  -0.1                  -1.4518e-09           -6.4e-13              -2.2e-13              1.4532e-09           
  -0.15                 -1.4928e-09           -2.8e-13              -1.6e-13              1.4944e-09           
  -0.2                  -1.5168e-09           0                     -2e-13                1.518e-09            
  -0.25                 -1.5352e-09           6e-14                 -2.8e-13              1.5362e-09           
  -0.3                  -1.5516e-09           -4e-13                -2e-13                1.5524e-09           
  -0.35                 -1.5656e-09           -4.4e-13              -1.6e-13              1.5664e-09           
  -0.4                  -1.5774e-09           2.2e-13               -1e-13                1.5794e-09           
  -0.45                 -1.589e-09            8e-14                 -1.4e-13              1.5896e-09           
  -0.5                  -1.5988e-09           -8e-14                -1e-13                1.5994e-09           
  -0.55                 -1.6076e-09           -3.6e-13              -1.2e-13              1.6084e-09           
  -0.6                  -1.615e-09            0                     -1.8e-13              1.6162e-09           
  -0.65                 -1.622e-09            2.6e-13               -1.6e-13              1.6224e-09           
  -0.7                  -1.629e-09            -1.2e-13              -3.2e-13              1.6298e-09           
  -0.75                 -1.6344e-09           -2.4e-13              -1.8e-13              1.6356e-09           
  -0.8                  -1.6402e-09           -2e-14                -8e-14                1.641e-09            
  -0.85                 -1.6458e-09           8e-14                 -2e-13                1.6478e-09           
  -0.9                  -1.6514e-09           -3.4e-13              -1.4e-13              1.651e-09            
  -0.95                 -1.6542e-09           0                     -8e-14                1.655e-09            
  -1                    -1.659e-09            2.4e-13               -2.8e-13              1.6584e-09           
  -1.05                 -1.6616e-09           -4e-14                -4e-14                1.6628e-09           
  -1.1                  -1.6656e-09           -1.4e-13              -2e-13                1.6666e-09           
  -1.15                 -1.6714e-09           -1.2e-13              -1.8e-13              1.6694e-09           
  -1.2                  -1.6722e-09           -1e-13                -2.4e-13              1.673e-09            
  -1.25                 -1.6748e-09           1.8e-13               -2e-13                1.6744e-09           
  -1.3                  -1.677e-09            2e-14                 -8e-14                1.6774e-09           
  -1.35                 -1.679e-09            -1.8e-13              -1.4e-13              1.6796e-09           
END_DB

BEGIN_DB
 ICCAP_VAR vg         -0.546         
 ICCAP_VAR vb         -0             
 ICCAP_VAR vs         -0             

 #vd                    id                    ig                    ib                    is                   
  -0                    3.098e-11             -3.28e-12             -2.2e-13              -2.712e-11           
  -0.05                 -2.083e-08            -2.18e-12             -1.6e-13              2.0854e-08           
  -0.1                  -3.387e-08            -2.06e-12             -1.4e-13              3.3898e-08           
  -0.15                 -3.997e-08            -1.92e-12             -1.6e-13              3.9998e-08           
  -0.2                  -4.1856e-08           -1.64e-12             -3.4e-13              4.1884e-08           
  -0.25                 -4.2508e-08           -1.96e-12             -2.2e-13              4.2522e-08           
  -0.3                  -4.2854e-08           -1.8e-12              -1.8e-13              4.2886e-08           
  -0.35                 -4.3126e-08           -1.8e-12              -6e-14                4.3154e-08           
  -0.4                  -4.3366e-08           -1.72e-12             -1.2e-13              4.339e-08            
  -0.45                 -4.3554e-08           -1.72e-12             -1.2e-13              4.3586e-08           
  -0.5                  -4.3734e-08           -1.86e-12             -2.4e-13              4.3744e-08           
  -0.55                 -4.3902e-08           -1.68e-12             -1.4e-13              4.3922e-08           
  -0.6                  -4.4036e-08           -1.4e-12              -3e-13                4.4052e-08           
  -0.65                 -4.4162e-08           -1.74e-12             -2.8e-13              4.4198e-08           
  -0.7                  -4.429e-08            -1.6e-12              -1e-13                4.4312e-08           
  -0.75                 -4.4394e-08           -1.6e-12              -1.2e-13              4.4426e-08           
  -0.8                  -4.4498e-08           -1.82e-12             -1.6e-13              4.4526e-08           
  -0.85                 -4.4584e-08           -1.72e-12             2e-14                 4.4608e-08           
  -0.9                  -4.4668e-08           -1.94e-12             -1.8e-13              4.4704e-08           
  -0.95                 -4.4756e-08           -1.58e-12             -1.6e-13              4.477e-08            
  -1                    -4.4838e-08           -1.18e-12             -2e-13                4.4852e-08           
  -1.05                 -4.489e-08            -1.48e-12             -1.4e-13              4.4928e-08           
  -1.1                  -4.4968e-08           -1.44e-12             -1e-13                4.5e-08              
  -1.15                 -4.5032e-08           -1.54e-12             -2e-13                4.5062e-08           
  -1.2                  -4.5102e-08           -1.62e-12             -1.4e-13              4.5112e-08           
  -1.25                 -4.5154e-08           -1.58e-12             0                     4.5172e-08           
  -1.3                  -4.5216e-08           -1.4e-12              -1.2e-13              4.5244e-08           
  -1.35                 -4.527e-08            -1.84e-12             -2.4e-13              4.5292e-08           
END_DB

