! VERSION = 6.00
BEGIN_HEADER
 ICCAP_INPUTS
  vd         V  D GROUND SMU1 0.1 LIN        1    -0         -1.35      28   -0.05     
  vg         V  G GROUND SMU2 0.001 LIST       2 3 -0.143 -0.343 -0.543
  vb         V  B GROUND SMU4 0.1 CON        -0
  vs         V  S GROUND SMU3 0.1 CON        -0
 ICCAP_OUTPUTS
  id         I  D GROUND SMU1 B
  ig         I  G GROUND SMU2 B
  ib         I  B GROUND SMU4 B
  is         I  S GROUND SMU3 B
 ICCAP_VALUES
  MASTER_SETUP_TYPE "~dc_idvd~"
  LINVT_VALUE ""
  LISTVT_VALUE "|idvg|100.0n|-200.0m|1.000m|3|200.0m|200.0m|"
  TYPE "-1"
  TEMP " 27.0000 "
  IS_TNOM " 1.00000 "
  MAIN.W "10.00u"
  MAIN.L "5.000u"
  MAIN.AD "3.400p"
  MAIN.AS "3.400p"
  MAIN.PD "20.68u"
  MAIN.PS "20.68u"
  MAIN.NF "1.000"
  MAIN.M "1"
  MAIN.NRD "0.000"
  MAIN.NRS "0.000"
  MAIN.LDRIFT1 "1E-06"
  MAIN.LDRIFT2 "1E-06"
  MAIN.SA "0.000"
  MAIN.SB "0.000"
  MAIN.SD "0.000"
  MAIN.SCA "0.000"
  MAIN.SCB "0.000"
  MAIN.SCC "0.000"
  MAIN.SC "0.000"
  MODULE "S549"
  PIN_D "14"
  PIN_G "7"
  PIN_S "8"
  PIN_B "13"
  PIN_E ""
  PIN_6 ""
  XY_ID ""
  FUNC "L Scale"
  STI "SA ref"
  WPE "WPE ref"
  COMMENT ""
  DIS_MEAS ""
  TypeTCI "10"
END_HEADER

BEGIN_DB
 ICCAP_VAR vg         -0.143         
 ICCAP_VAR vb         -0             
 ICCAP_VAR vs         -0             

 #vd                    id                    ig                    ib                    is                   
  -0                    7.2e-13               2e-14                 -1.12e-12             -1.34e-12            
  -0.05                 -5.257e-10            -8e-14                -1.22e-12             5.2594e-10           
  -0.1                  -6.0606e-10           -8e-14                -1.24e-12             6.0578e-10           
  -0.15                 -6.1998e-10           -2e-14                -1.2e-12              6.198e-10            
  -0.2                  -6.242e-10            0                     -1.22e-12             6.2424e-10           
  -0.25                 -6.267e-10            8e-14                 -1.14e-12             6.2658e-10           
  -0.3                  -6.2894e-10           2e-14                 -1.26e-12             6.2886e-10           
  -0.35                 -6.3094e-10           -2e-14                -1.22e-12             6.308e-10            
  -0.4                  -6.3266e-10           2.8e-13               -1.22e-12             6.3244e-10           
  -0.45                 -6.3446e-10           2.8e-13               -1.2e-12              6.3404e-10           
  -0.5                  -6.3624e-10           1.4e-13               -1.1e-12              6.3548e-10           
  -0.55                 -6.379e-10            7.4e-13               -1.16e-12             6.3666e-10           
  -0.6                  -6.3932e-10           9.8e-13               -1.28e-12             6.3814e-10           
  -0.65                 -6.4066e-10           1.12e-12              -1.22e-12             6.394e-10            
  -0.7                  -6.4212e-10           1.52e-12              -1.16e-12             6.4034e-10           
  -0.75                 -6.4332e-10           1.82e-12              -1.24e-12             6.4128e-10           
  -0.8                  -6.4494e-10           2.22e-12              -1.06e-12             6.4232e-10           
  -0.85                 -6.4636e-10           2.84e-12              -1.14e-12             6.43e-10             
  -0.9                  -6.4794e-10           3.84e-12              -1.16e-12             6.4388e-10           
  -0.95                 -6.4958e-10           4.46e-12              -1.08e-12             6.4458e-10           
  -1                    -6.5118e-10           5.22e-12              -1.06e-12             6.4552e-10           
  -1.05                 -6.53e-10             6.36e-12              -8.8e-13              6.4616e-10           
  -1.1                  -6.5494e-10           7.76e-12              -7.4e-13              6.4652e-10           
  -1.15                 -6.5684e-10           8.78e-12              -6e-13                6.4732e-10           
  -1.2                  -6.5938e-10           1.05e-11              -4.6e-13              6.4758e-10           
  -1.25                 -6.6182e-10           1.232e-11             -3e-13                6.4834e-10           
  -1.3                  -6.6474e-10           1.402e-11             2e-14                 6.4896e-10           
  -1.35                 -6.6818e-10           1.664e-11             6.6e-13               6.493e-10            
END_DB

BEGIN_DB
 ICCAP_VAR vg         -0.343         
 ICCAP_VAR vb         -0             
 ICCAP_VAR vs         -0             

 #vd                    id                    ig                    ib                    is                   
  -0                    3.75e-10              -1.286e-11            -1e-12                -3.7058e-10          
  -0.05                 -1.6466e-07           -9e-12                -1.12e-12             1.6486e-07           
  -0.1                  -2.0452e-07           -7.92e-12             -1.12e-12             2.0474e-07           
  -0.15                 -2.1274e-07           -7.56e-12             -1.1e-12              2.1294e-07           
  -0.2                  -2.1516e-07           -7.62e-12             -1.08e-12             2.1532e-07           
  -0.25                 -2.1654e-07           -7.4e-12              -1.1e-12              2.1672e-07           
  -0.3                  -2.1758e-07           -7.46e-12             -1.02e-12             2.1776e-07           
  -0.35                 -2.1844e-07           -7.48e-12             -1.16e-12             2.1866e-07           
  -0.4                  -2.1924e-07           -7.38e-12             -1.1e-12              2.1944e-07           
  -0.45                 -2.1996e-07           -7.26e-12             -1.16e-12             2.2016e-07           
  -0.5                  -2.2058e-07           -7.22e-12             -1.06e-12             2.208e-07            
  -0.55                 -2.2118e-07           -7.14e-12             -1.04e-12             2.2134e-07           
  -0.6                  -2.217e-07            -6.68e-12             -1.02e-12             2.2192e-07           
  -0.65                 -2.2218e-07           -6.62e-12             -1.08e-12             2.2238e-07           
  -0.7                  -2.2262e-07           -6.58e-12             -1.08e-12             2.2282e-07           
  -0.75                 -2.2304e-07           -6.5e-12              -1.1e-12              2.2324e-07           
  -0.8                  -2.2344e-07           -6.54e-12             -1.1e-12              2.2366e-07           
  -0.85                 -2.2378e-07           -6.14e-12             -1.1e-12              2.24e-07             
  -0.9                  -2.2412e-07           -5.48e-12             -1.02e-12             2.2434e-07           
  -0.95                 -2.2446e-07           -5.2e-12              -1.14e-12             2.2462e-07           
  -1                    -2.247e-07            -4.96e-12             -1.06e-12             2.2492e-07           
  -1.05                 -2.2498e-07           -4.16e-12             -9.8e-13              2.252e-07            
  -1.1                  -2.2528e-07           -3.4e-12              -1.1e-12              2.2548e-07           
  -1.15                 -2.2552e-07           -2.48e-12             -1e-12                2.2572e-07           
  -1.2                  -2.2574e-07           -1.68e-12             -8.4e-13              2.2596e-07           
  -1.25                 -2.2594e-07           -8.6e-13              -6.6e-13              2.2614e-07           
  -1.3                  -2.2616e-07           4.2e-13               -3e-13                2.2634e-07           
  -1.35                 -2.2634e-07           1.74e-12              1.2e-13               2.265e-07            
END_DB

BEGIN_DB
 ICCAP_VAR vg         -0.543         
 ICCAP_VAR vb         -0             
 ICCAP_VAR vs         -0             

 #vd                    id                    ig                    ib                    is                   
  -0                    2.3764e-09            -1.3324e-10           -9.6e-13              -2.0444e-09          
  -0.05                 -1.5976e-06           -1.078e-10            -9.8e-13              1.601e-06            
  -0.1                  -2.6544e-06           -9.078e-11            -1.04e-12             2.6582e-06           
  -0.15                 -3.23e-06             -8.138e-11            -9.2e-13              3.2338e-06           
  -0.2                  -3.4644e-06           -7.748e-11            -9.8e-13              3.468e-06            
  -0.25                 -3.5414e-06           -7.626e-11            -1.04e-12             3.5452e-06           
  -0.3                  -3.572e-06            -7.522e-11            -1e-12                3.5756e-06           
  -0.35                 -3.5906e-06           -7.474e-11            -1.06e-12             3.5944e-06           
  -0.4                  -3.6048e-06           -7.46e-11             -1.02e-12             3.6086e-06           
  -0.45                 -3.6174e-06           -7.46e-11             -9.6e-13              3.6206e-06           
  -0.5                  -3.6282e-06           -7.424e-11            -9e-13                3.6318e-06           
  -0.55                 -3.6378e-06           -7.398e-11            -1e-12                3.6414e-06           
  -0.6                  -3.6466e-06           -7.388e-11            -9.6e-13              3.6502e-06           
  -0.65                 -3.6548e-06           -7.37e-11             -9.8e-13              3.6586e-06           
  -0.7                  -3.6624e-06           -7.348e-11            -1.08e-12             3.6658e-06           
  -0.75                 -3.6692e-06           -7.326e-11            -9.4e-13              3.6728e-06           
  -0.8                  -3.6752e-06           -7.326e-11            -9e-13                3.679e-06            
  -0.85                 -3.681e-06            -7.292e-11            -9.8e-13              3.6848e-06           
  -0.9                  -3.6868e-06           -7.268e-11            -1e-12                3.6902e-06           
  -0.95                 -3.6916e-06           -7.24e-11             -1.02e-12             3.6952e-06           
  -1                    -3.6964e-06           -7.202e-11            -1.06e-12             3.7004e-06           
  -1.05                 -3.7012e-06           -7.18e-11             -1.08e-12             3.705e-06            
  -1.1                  -3.7056e-06           -7.138e-11            -9.6e-13              3.7092e-06           
  -1.15                 -3.7094e-06           -7.086e-11            -9e-13                3.7132e-06           
  -1.2                  -3.7136e-06           -7.044e-11            -9.2e-13              3.7172e-06           
  -1.25                 -3.717e-06            -6.958e-11            -7e-13                3.7206e-06           
  -1.3                  -3.7204e-06           -6.888e-11            -4e-13                3.7238e-06           
  -1.35                 -3.7236e-06           -6.81e-11             3.4e-13               3.727e-06            
END_DB

