! VERSION = 6.00
BEGIN_HEADER
 ICCAP_INPUTS
  vd         V  D GROUND SMU1 0.1 LIN        1    -0         -1.35      28   -0.05     
  vg         V  G GROUND SMU2 0.001 LIST       2 3 -0.327 -0.527 -0.727
  vb         V  B GROUND SMU4 0.1 CON        1.2
  vs         V  S GROUND SMU3 0.1 CON        -0
 ICCAP_OUTPUTS
  id         I  D GROUND SMU1 B
  ig         I  G GROUND SMU2 B
  ib         I  B GROUND SMU4 B
  is         I  S GROUND SMU3 B
 ICCAP_VALUES
  MASTER_SETUP_TYPE "~dc_idvd~"
  LINVT_VALUE ""
  LISTVT_VALUE "|idvg|100.0n|-200.0m|1.000m|3|200.0m|200.0m|"
  TYPE "-1"
  TEMP " 27.0000 "
  IS_TNOM " 1.00000 "
  MAIN.W "10.00u"
  MAIN.L "2.000u"
  MAIN.AD "3.400p"
  MAIN.AS "3.400p"
  MAIN.PD "20.68u"
  MAIN.PS "20.68u"
  MAIN.NF "1.000"
  MAIN.M "1"
  MAIN.NRD "0.000"
  MAIN.NRS "0.000"
  MAIN.LDRIFT1 "1E-06"
  MAIN.LDRIFT2 "1E-06"
  MAIN.SA "0.000"
  MAIN.SB "0.000"
  MAIN.SD "0.000"
  MAIN.SCA "0.000"
  MAIN.SCB "0.000"
  MAIN.SCC "0.000"
  MAIN.SC "0.000"
  MODULE "S549"
  PIN_D "16"
  PIN_G "5"
  PIN_S "6"
  PIN_B "15"
  PIN_E ""
  PIN_6 ""
  XY_ID ""
  FUNC "L Scale"
  STI "SA ref"
  WPE "WPE ref"
  COMMENT ""
  DIS_MEAS ""
  TypeTCI "10"
END_HEADER

BEGIN_DB
 ICCAP_VAR vg         -0.327         
 ICCAP_VAR vb         1.2            
 ICCAP_VAR vs         -0             

 #vd                    id                    ig                    ib                    is                   
  -0                    2.8e-12               -1.16e-12             1.8e-13               -3.14e-12            
  -0.05                 -1.10818e-09          -9.8e-13              1.4e-13               1.10914e-09          
  -0.1                  -1.2802e-09           -8.8e-13              1e-13                 1.282e-09            
  -0.15                 -1.3132e-09           -7e-13                1.6e-13               1.3152e-09           
  -0.2                  -1.3254e-09           -7.8e-13              4e-14                 1.3274e-09           
  -0.25                 -1.334e-09            -7.6e-13              1.4e-13               1.335e-09            
  -0.3                  -1.3402e-09           -5.8e-13              1.4e-13               1.342e-09            
  -0.35                 -1.3468e-09           -7.2e-13              0                     1.3486e-09           
  -0.4                  -1.3526e-09           -7.8e-13              1.2e-13               1.354e-09            
  -0.45                 -1.3578e-09           -5.4e-13              -6e-14                1.359e-09            
  -0.5                  -1.3626e-09           -5.8e-13              6e-14                 1.364e-09            
  -0.55                 -1.3668e-09           -5e-13                1.2e-13               1.3686e-09           
  -0.6                  -1.371e-09            -3.2e-13              6e-14                 1.3722e-09           
  -0.65                 -1.3748e-09           -3.4e-13              1.6e-13               1.3764e-09           
  -0.7                  -1.3792e-09           -1.2e-13              8e-14                 1.38e-09             
  -0.75                 -1.3824e-09           4e-14                 6e-14                 1.3832e-09           
  -0.8                  -1.3856e-09           3.2e-13               0                     1.3862e-09           
  -0.85                 -1.3894e-09           5.4e-13               1.6e-13               1.3892e-09           
  -0.9                  -1.3922e-09           8.6e-13               1.6e-13               1.3916e-09           
  -0.95                 -1.3952e-09           1.24e-12              -2e-14                1.3944e-09           
  -1                    -1.3982e-09           1.62e-12              1.6e-13               1.3966e-09           
  -1.05                 -1.4008e-09           2.04e-12              4e-14                 1.3996e-09           
  -1.1                  -1.4036e-09           2.58e-12              1.6e-13               1.4016e-09           
  -1.15                 -1.4068e-09           3.2e-12               1.6e-13               1.4036e-09           
  -1.2                  -1.4092e-09           3.9e-12               2.8e-13               1.4056e-09           
  -1.25                 -1.4122e-09           4.72e-12              4e-13                 1.4076e-09           
  -1.3                  -1.415e-09            5.5e-12               6.6e-13               1.4094e-09           
  -1.35                 -1.4182e-09           6.44e-12              8.8e-13               1.4112e-09           
END_DB

BEGIN_DB
 ICCAP_VAR vg         -0.527         
 ICCAP_VAR vb         1.2            
 ICCAP_VAR vs         -0             

 #vd                    id                    ig                    ib                    is                   
  -0                    1.0206e-09            -2.38e-11             0                     -9.938e-10           
  -0.05                 -4.0508e-07           -1.76e-11             8e-14                 4.0528e-07           
  -0.1                  -5.1664e-07           -1.548e-11            4e-14                 5.169e-07            
  -0.15                 -5.4222e-07           -1.47e-11             -1.8e-13              5.425e-07            
  -0.2                  -5.5032e-07           -1.444e-11            8e-14                 5.5064e-07           
  -0.25                 -5.5512e-07           -1.406e-11            6e-14                 5.5532e-07           
  -0.3                  -5.5876e-07           -1.392e-11            1.4e-13               5.5902e-07           
  -0.35                 -5.619e-07            -1.38e-11             2.4e-13               5.6206e-07           
  -0.4                  -5.6472e-07           -1.38e-11             6e-14                 5.6506e-07           
  -0.45                 -5.6728e-07           -1.36e-11             6e-14                 5.6756e-07           
  -0.5                  -5.6972e-07           -1.348e-11            0                     5.7e-07              
  -0.55                 -5.719e-07            -1.36e-11             4e-14                 5.7224e-07           
  -0.6                  -5.738e-07            -1.356e-11            1e-13                 5.7402e-07           
  -0.65                 -5.7568e-07           -1.342e-11            2e-13                 5.7578e-07           
  -0.7                  -5.7724e-07           -1.342e-11            4e-14                 5.7752e-07           
  -0.75                 -5.7882e-07           -1.322e-11            4e-14                 5.7912e-07           
  -0.8                  -5.803e-07            -1.302e-11            -4e-14                5.805e-07            
  -0.85                 -5.8168e-07           -1.294e-11            -1.2e-13              5.8206e-07           
  -0.9                  -5.831e-07            -1.282e-11            4e-14                 5.8334e-07           
  -0.95                 -5.8414e-07           -1.248e-11            0                     5.8436e-07           
  -1                    -5.852e-07            -1.234e-11            0                     5.8544e-07           
  -1.05                 -5.862e-07            -1.188e-11            2e-14                 5.8654e-07           
  -1.1                  -5.8728e-07           -1.16e-11             1.6e-13               5.8752e-07           
  -1.15                 -5.8824e-07           -1.12e-11             2e-14                 5.8862e-07           
  -1.2                  -5.8926e-07           -1.084e-11            8e-14                 5.8946e-07           
  -1.25                 -5.9008e-07           -1.028e-11            3e-13                 5.9028e-07           
  -1.3                  -5.9102e-07           -9.82e-12             5e-13                 5.9122e-07           
  -1.35                 -5.9176e-07           -9.22e-12             1.02e-12              5.9202e-07           
END_DB

BEGIN_DB
 ICCAP_VAR vg         -0.727         
 ICCAP_VAR vb         1.2            
 ICCAP_VAR vs         -0             

 #vd                    id                    ig                    ib                    is                   
  -0                    3.2512e-09            -1.6994e-10           2e-14                 -3.7192e-09          
  -0.05                 -3.4474e-06           -1.4208e-10           -4e-14                3.451e-06            
  -0.1                  -5.838e-06            -1.2308e-10           0                     5.842e-06            
  -0.15                 -7.2682e-06           -1.0986e-10           0                     7.2724e-06           
  -0.2                  -7.9574e-06           -1.0332e-10           -6e-14                7.9616e-06           
  -0.25                 -8.2296e-06           -1.0024e-10           6e-14                 8.2338e-06           
  -0.3                  -8.3422e-06           -9.898e-11            2e-14                 8.3474e-06           
  -0.35                 -8.4068e-06           -9.83e-11             -4e-14                8.4098e-06           
  -0.4                  -8.453e-06            -9.758e-11            0                     8.4582e-06           
  -0.45                 -8.4924e-06           -9.718e-11            8e-14                 8.4966e-06           
  -0.5                  -8.5274e-06           -9.672e-11            -6e-14                8.532e-06            
  -0.55                 -8.5582e-06           -9.634e-11            0                     8.5614e-06           
  -0.6                  -8.5864e-06           -9.608e-11            -4e-14                8.5896e-06           
  -0.65                 -8.612e-06            -9.59e-11             4e-14                 8.6156e-06           
  -0.7                  -8.6358e-06           -9.554e-11            -4e-14                8.6388e-06           
  -0.75                 -8.6576e-06           -9.54e-11             0                     8.6626e-06           
  -0.8                  -8.6794e-06           -9.522e-11            -6e-14                8.684e-06            
  -0.85                 -8.699e-06            -9.496e-11            0                     8.7022e-06           
  -0.9                  -8.717e-06            -9.478e-11            4e-14                 8.7208e-06           
  -0.95                 -8.7344e-06           -9.466e-11            -1e-13                8.7382e-06           
  -1                    -8.7506e-06           -9.424e-11            2e-14                 8.754e-06            
  -1.05                 -8.7658e-06           -9.398e-11            8e-14                 8.7688e-06           
  -1.1                  -8.7816e-06           -9.37e-11             -2e-14                8.785e-06            
  -1.15                 -8.7954e-06           -9.332e-11            6e-14                 8.799e-06            
  -1.2                  -8.8082e-06           -9.296e-11            1.2e-13               8.8122e-06           
  -1.25                 -8.8208e-06           -9.24e-11             1e-13                 8.8244e-06           
  -1.3                  -8.8324e-06           -9.2e-11              4.6e-13               8.8362e-06           
  -1.35                 -8.8444e-06           -9.172e-11            1e-12                 8.847e-06            
END_DB

