! VERSION = 6.00
BEGIN_HEADER
 ICCAP_INPUTS
  vd         V  D GROUND SMU1 0.1 LIN        1    -0         -1.35      28   -0.05     
  vg         V  G GROUND SMU2 0.001 LIST       2 3 -0.321 -0.521 -0.721
  vb         V  B GROUND SMU4 0.1 CON        1.2
  vs         V  S GROUND SMU3 0.1 CON        -0
 ICCAP_OUTPUTS
  id         I  D GROUND SMU1 B
  ig         I  G GROUND SMU2 B
  ib         I  B GROUND SMU4 B
  is         I  S GROUND SMU3 B
 ICCAP_VALUES
  MASTER_SETUP_TYPE "~dc_idvd~"
  LINVT_VALUE ""
  LISTVT_VALUE "|idvg|100.0n|-200.0m|1.000m|3|200.0m|200.0m|"
  TYPE "-1"
  TEMP " 27.0000 "
  IS_TNOM " 1.00000 "
  MAIN.W "5.000u"
  MAIN.L "10.00u"
  MAIN.AD "1.700p"
  MAIN.AS "1.700p"
  MAIN.PD "10.68u"
  MAIN.PS "10.68u"
  MAIN.NF "1.000"
  MAIN.M "1"
  MAIN.NRD "0.000"
  MAIN.NRS "0.000"
  MAIN.LDRIFT1 "1E-06"
  MAIN.LDRIFT2 "1E-06"
  MAIN.SA "0.000"
  MAIN.SB "0.000"
  MAIN.SD "0.000"
  MAIN.SCA "0.000"
  MAIN.SCB "0.000"
  MAIN.SCC "0.000"
  MAIN.SC "0.000"
  MODULE "S550"
  PIN_D "16"
  PIN_G "5"
  PIN_S "6"
  PIN_B "15"
  PIN_E ""
  PIN_6 ""
  XY_ID ""
  FUNC "W Scale"
  STI "SA ref"
  WPE "WPE ref"
  COMMENT ""
  DIS_MEAS ""
  TypeTCI "10"
END_HEADER

BEGIN_DB
 ICCAP_VAR vg         -0.321         
 ICCAP_VAR vb         1.2            
 ICCAP_VAR vs         -0             

 #vd                    id                    ig                    ib                    is                   
  -0                    1.16e-12              -1.58e-12             1.6e-13               8.6e-13              
  -0.05                 -1.0786e-10           -1.2e-12              1.8e-13               1.089e-10            
  -0.1                  -1.2378e-10           -1.28e-12             1.8e-13               1.2498e-10           
  -0.15                 -1.2644e-10           -1.1e-12              1.6e-13               1.2766e-10           
  -0.2                  -1.271e-10            -1.02e-12             1.6e-13               1.281e-10            
  -0.25                 -1.2732e-10           -1.04e-12             1.2e-13               1.2836e-10           
  -0.3                  -1.275e-10            -1.04e-12             6e-14                 1.283e-10            
  -0.35                 -1.2752e-10           -1.02e-12             4e-14                 1.2854e-10           
  -0.4                  -1.2786e-10           -1.08e-12             0                     1.2888e-10           
  -0.45                 -1.279e-10            -9.2e-13              1.8e-13               1.2862e-10           
  -0.5                  -1.2822e-10           -1e-12                1.2e-13               1.2884e-10           
  -0.55                 -1.2838e-10           -8.2e-13              1.2e-13               1.2882e-10           
  -0.6                  -1.2852e-10           -9.2e-13              6e-14                 1.291e-10            
  -0.65                 -1.2872e-10           -7.6e-13              1e-13                 1.2924e-10           
  -0.7                  -1.2886e-10           -6.6e-13              -6e-14                1.2914e-10           
  -0.75                 -1.2902e-10           -5.8e-13              4e-14                 1.2918e-10           
  -0.8                  -1.2934e-10           -3.8e-13              1e-13                 1.291e-10            
  -0.85                 -1.297e-10            -2e-13                6e-14                 1.2926e-10           
  -0.9                  -1.297e-10            -2e-14                1.4e-13               1.2936e-10           
  -0.95                 -1.3006e-10           1.8e-13               6e-14                 1.295e-10            
  -1                    -1.3032e-10           3.8e-13               6e-14                 1.2946e-10           
  -1.05                 -1.308e-10            7.8e-13               4e-14                 1.295e-10            
  -1.1                  -1.3114e-10           1.02e-12              -4e-14                1.296e-10            
  -1.15                 -1.3138e-10           1.16e-12              1.4e-13               1.2946e-10           
  -1.2                  -1.3186e-10           1.58e-12              1.4e-13               1.2966e-10           
  -1.25                 -1.3224e-10           2.14e-12              1e-13                 1.2972e-10           
  -1.3                  -1.3288e-10           2.52e-12              1.8e-13               1.2978e-10           
  -1.35                 -1.3362e-10           2.92e-12              2.6e-13               1.2986e-10           
END_DB

BEGIN_DB
 ICCAP_VAR vg         -0.521         
 ICCAP_VAR vb         1.2            
 ICCAP_VAR vs         -0             

 #vd                    id                    ig                    ib                    is                   
  -0                    1.3358e-10            -4.748e-11            1e-13                 -8.602e-11           
  -0.05                 -4.2294e-08           -3.44e-11             -8e-14                4.2358e-08           
  -0.1                  -5.3404e-08           -3.022e-11            4e-14                 5.3468e-08           
  -0.15                 -5.552e-08            -2.916e-11            0                     5.5574e-08           
  -0.2                  -5.5942e-08           -2.882e-11            4e-14                 5.6004e-08           
  -0.25                 -5.6078e-08           -2.86e-11             8e-14                 5.6132e-08           
  -0.3                  -5.6166e-08           -2.868e-11            6e-14                 5.622e-08            
  -0.35                 -5.6226e-08           -2.868e-11            -2e-14                5.6286e-08           
  -0.4                  -5.6286e-08           -2.846e-11            4e-14                 5.6344e-08           
  -0.45                 -5.6348e-08           -2.852e-11            1.4e-13               5.64e-08             
  -0.5                  -5.6388e-08           -2.844e-11            2e-14                 5.645e-08            
  -0.55                 -5.6434e-08           -2.844e-11            2e-14                 5.6496e-08           
  -0.6                  -5.6468e-08           -2.846e-11            8e-14                 5.653e-08            
  -0.65                 -5.651e-08            -2.832e-11            2e-14                 5.657e-08            
  -0.7                  -5.6542e-08           -2.82e-11             2e-14                 5.6604e-08           
  -0.75                 -5.658e-08            -2.83e-11             6e-14                 5.6632e-08           
  -0.8                  -5.6606e-08           -2.826e-11            -4e-14                5.6668e-08           
  -0.85                 -5.664e-08            -2.816e-11            8e-14                 5.6698e-08           
  -0.9                  -5.6656e-08           -2.788e-11            1.4e-13               5.6708e-08           
  -0.95                 -5.6684e-08           -2.784e-11            2e-14                 5.674e-08            
  -1                    -5.6706e-08           -2.776e-11            4e-14                 5.6756e-08           
  -1.05                 -5.6726e-08           -2.742e-11            -4e-14                5.6782e-08           
  -1.1                  -5.6748e-08           -2.71e-11             4e-14                 5.6794e-08           
  -1.15                 -5.6766e-08           -2.7e-11              -2e-14                5.682e-08            
  -1.2                  -5.6782e-08           -2.686e-11            0                     5.6834e-08           
  -1.25                 -5.6794e-08           -2.66e-11             -6e-14                5.685e-08            
  -1.3                  -5.6806e-08           -2.626e-11            1.2e-13               5.6862e-08           
  -1.35                 -5.6824e-08           -2.592e-11            1.4e-13               5.6878e-08           
END_DB

BEGIN_DB
 ICCAP_VAR vg         -0.721         
 ICCAP_VAR vb         1.2            
 ICCAP_VAR vs         -0             

 #vd                    id                    ig                    ib                    is                   
  -0                    7.9544e-10            -3.82e-10             -4e-14                -4.1512e-10          
  -0.05                 -3.655e-07            -3.1714e-10           4e-14                 3.6598e-07           
  -0.1                  -6.1962e-07           -2.7052e-10           1e-13                 6.2018e-07           
  -0.15                 -7.721e-07            -2.4104e-10           4e-14                 7.7262e-07           
  -0.2                  -8.4408e-07           -2.2586e-10           0                     8.446e-07            
  -0.25                 -8.6846e-07           -2.205e-10            2e-14                 8.69e-07             
  -0.3                  -8.7516e-07           -2.189e-10            4e-14                 8.757e-07            
  -0.35                 -8.7742e-07           -2.1828e-10           -4e-14                8.7796e-07           
  -0.4                  -8.7878e-07           -2.1776e-10           2e-14                 8.793e-07            
  -0.45                 -8.799e-07            -2.175e-10            4e-14                 8.804e-07            
  -0.5                  -8.808e-07            -2.1716e-10           -4e-14                8.8126e-07           
  -0.55                 -8.8154e-07           -2.1708e-10           0                     8.821e-07            
  -0.6                  -8.8226e-07           -2.1682e-10           -6e-14                8.8274e-07           
  -0.65                 -8.8288e-07           -2.1672e-10           -2e-14                8.8338e-07           
  -0.7                  -8.8338e-07           -2.1656e-10           0                     8.8388e-07           
  -0.75                 -8.839e-07            -2.1628e-10           -2e-14                8.8438e-07           
  -0.8                  -8.8438e-07           -2.1622e-10           -4e-14                8.849e-07            
  -0.85                 -8.848e-07            -2.1612e-10           2e-14                 8.853e-07            
  -0.9                  -8.8522e-07           -2.1596e-10           1.2e-13               8.8572e-07           
  -0.95                 -8.856e-07            -2.1578e-10           1e-13                 8.8612e-07           
  -1                    -8.8598e-07           -2.1588e-10           1.2e-13               8.864e-07            
  -1.05                 -8.8632e-07           -2.1558e-10           -2e-14                8.8678e-07           
  -1.1                  -8.8664e-07           -2.1554e-10           -2e-14                8.8714e-07           
  -1.15                 -8.8694e-07           -2.1514e-10           2e-14                 8.8738e-07           
  -1.2                  -8.8712e-07           -2.148e-10            2e-14                 8.8762e-07           
  -1.25                 -8.8742e-07           -2.1472e-10           0                     8.8792e-07           
  -1.3                  -8.8762e-07           -2.146e-10            8e-14                 8.8814e-07           
  -1.35                 -8.8788e-07           -2.1424e-10           6e-14                 8.8834e-07           
END_DB

