! VERSION = 6.00
BEGIN_HEADER
 ICCAP_INPUTS
  vd         V  D GROUND SMU1 0.1 LIN        1    -0         -1.35      28   -0.05     
  vg         V  G GROUND SMU2 0.001 LIST       2 3 -0.235 -0.435 -0.635
  vb         V  B GROUND SMU4 0.1 CON        -0
  vs         V  S GROUND SMU3 0.1 CON        -0
 ICCAP_OUTPUTS
  id         I  D GROUND SMU1 B
  ig         I  G GROUND SMU2 B
  ib         I  B GROUND SMU4 B
  is         I  S GROUND SMU3 B
 ICCAP_VALUES
  MASTER_SETUP_TYPE "~dc_idvd~"
  LINVT_VALUE ""
  LISTVT_VALUE "|idvg|100.0n|-200.0m|1.000m|3|200.0m|200.0m|"
  TYPE "-1"
  TEMP "-40.0000 "
  IS_TNOM " 0.00000 "
  MAIN.W "10.00u"
  MAIN.L "180.0n"
  MAIN.AD "3.400p"
  MAIN.AS "3.400p"
  MAIN.PD "20.68u"
  MAIN.PS "20.68u"
  MAIN.NF "1.000"
  MAIN.M "1"
  MAIN.NRD "0.000"
  MAIN.NRS "0.000"
  MAIN.LDRIFT1 "1E-06"
  MAIN.LDRIFT2 "1E-06"
  MAIN.SA "0.000"
  MAIN.SB "0.000"
  MAIN.SD "0.000"
  MAIN.SCA "0.000"
  MAIN.SCB "0.000"
  MAIN.SCC "0.000"
  MAIN.SC "0.000"
  MODULE "S548"
  PIN_D "12"
  PIN_G "9"
  PIN_S "10"
  PIN_B "11"
  PIN_E ""
  PIN_6 ""
  XY_ID ""
  FUNC "L Scale"
  STI "SA ref"
  WPE "WPE ref"
  COMMENT ""
  DIS_MEAS ""
  TypeTCI "10"
END_HEADER

BEGIN_DB
 ICCAP_VAR vg         -0.235         
 ICCAP_VAR vb         -0             
 ICCAP_VAR vs         -0             

 #vd                    id                    ig                    ib                    is                   
  -0                    8.22e-12              -2e-13                -1.4e-13              -1.78e-11            
  -0.05                 -4.1082e-09           -2.4e-13              -1.2e-13              4.1094e-09           
  -0.1                  -4.7098e-09           -1.6e-13              -1.2e-13              4.7112e-09           
  -0.15                 -4.9754e-09           -6e-14                -8e-14                4.9732e-09           
  -0.2                  -5.196e-09            -2.4e-13              -8e-14                5.2002e-09           
  -0.25                 -5.41e-09             -8e-14                -4e-14                5.4082e-09           
  -0.3                  -5.6126e-09           -2.2e-13              -6e-14                5.6108e-09           
  -0.35                 -5.8058e-09           2e-14                 -1e-13                5.8058e-09           
  -0.4                  -5.9946e-09           -2e-14                -8e-14                5.998e-09            
  -0.45                 -6.183e-09            4e-14                 0                     6.1756e-09           
  -0.5                  -6.363e-09            2e-13                 0                     6.362e-09            
  -0.55                 -6.539e-09            3.6e-13               0                     6.5368e-09           
  -0.6                  -6.7148e-09           3.6e-13               -2e-14                6.7098e-09           
  -0.65                 -6.8806e-09           5.4e-13               -8e-14                6.883e-09            
  -0.7                  -7.0488e-09           8.4e-13               0                     7.054e-09            
  -0.75                 -7.2082e-09           1.18e-12              -4e-14                7.2176e-09           
  -0.8                  -7.3726e-09           1.56e-12              -8e-14                7.3744e-09           
  -0.85                 -7.5434e-09           1.82e-12              -6e-14                7.5346e-09           
  -0.9                  -7.6984e-09           2.08e-12              -6e-14                7.695e-09            
  -0.95                 -7.8596e-09           2.68e-12              -8e-14                7.8558e-09           
  -1                    -8.007e-09            3.26e-12              -1.2e-13              8.0042e-09           
  -1.05                 -8.1634e-09           3.74e-12              -1.4e-13              8.1588e-09           
  -1.1                  -8.3318e-09           4.44e-12              -2e-14                8.3276e-09           
  -1.15                 -8.4688e-09           5.2e-12               -1e-13                8.4624e-09           
  -1.2                  -8.634e-09            6.12e-12              -8e-14                8.612e-09            
  -1.25                 -8.7684e-09           7.06e-12              -8e-14                8.7638e-09           
  -1.3                  -8.9196e-09           7.98e-12              -6e-14                8.9272e-09           
  -1.35                 -9.0698e-09           9.28e-12              -2e-14                9.0646e-09           
END_DB

BEGIN_DB
 ICCAP_VAR vg         -0.435         
 ICCAP_VAR vb         -0             
 ICCAP_VAR vs         -0             

 #vd                    id                    ig                    ib                    is                   
  -0                    1.014e-08             -1.96e-12             -1.4e-13              -9.956e-09           
  -0.05                 -3.5812e-06           -1.78e-12             -8e-14                3.5802e-06           
  -0.1                  -4.5758e-06           -1.58e-12             -1e-13                4.5792e-06           
  -0.15                 -4.97e-06             -1.3e-12              -1.6e-13              4.9742e-06           
  -0.2                  -5.2334e-06           -1.24e-12             -1.2e-13              5.2388e-06           
  -0.25                 -5.4502e-06           -1.32e-12             -1.2e-13              5.4542e-06           
  -0.3                  -5.6454e-06           -1.1e-12              4e-14                 5.643e-06            
  -0.35                 -5.8152e-06           -9.4e-13              -4e-14                5.82e-06             
  -0.4                  -5.9832e-06           -1.06e-12             -4e-14                5.9892e-06           
  -0.45                 -6.1434e-06           -1.08e-12             -8e-14                6.1486e-06           
  -0.5                  -6.2902e-06           -1.14e-12             -1e-13                6.2936e-06           
  -0.55                 -6.4328e-06           -1.18e-12             -1e-13                6.4366e-06           
  -0.6                  -6.572e-06            -1.08e-12             -6e-14                6.5736e-06           
  -0.65                 -6.7016e-06           -8.6e-13              -2e-14                6.7052e-06           
  -0.7                  -6.8304e-06           -8.8e-13              -8e-14                6.8332e-06           
  -0.75                 -6.9562e-06           -6.8e-13              -6e-14                6.9578e-06           
  -0.8                  -7.078e-06            -5.4e-13              4e-14                 7.0794e-06           
  -0.85                 -7.191e-06            -4.4e-13              0                     7.1948e-06           
  -0.9                  -7.303e-06            -1.4e-13              -4e-14                7.3096e-06           
  -0.95                 -7.4176e-06           1.6e-13               2e-14                 7.4232e-06           
  -1                    -7.5268e-06           4.6e-13               2e-14                 7.5318e-06           
  -1.05                 -7.6354e-06           8.2e-13               2e-14                 7.6356e-06           
  -1.1                  -7.7332e-06           1.26e-12              8e-14                 7.7344e-06           
  -1.15                 -7.828e-06            1.74e-12              1.6e-13               7.8388e-06           
  -1.2                  -7.9364e-06           2.18e-12              3.4e-13               7.9404e-06           
  -1.25                 -8.0298e-06           2.76e-12              9.2e-13               8.032e-06            
  -1.3                  -8.1328e-06           3.58e-12              2.16e-12              8.1382e-06           
  -1.35                 -8.2268e-06           4.2e-12               4.54e-12              8.2294e-06           
END_DB

BEGIN_DB
 ICCAP_VAR vg         -0.635         
 ICCAP_VAR vb         -0             
 ICCAP_VAR vs         -0             

 #vd                    id                    ig                    ib                    is                   
  -0                    8.2402e-08            -1.016e-11            -8e-14                -7.7232e-08          
  -0.05                 -4.549e-05            -8.7e-12              -6e-14                4.5506e-05           
  -0.1                  -7.5444e-05           -7.5e-12              -6e-14                7.5476e-05           
  -0.15                 -9.3532e-05           -6.74e-12             -1e-13                9.3592e-05           
  -0.2                  -0.000104158          -6.24e-12             -1e-13                0.000104166          
  -0.25                 -0.00011093           -5.72e-12             -1.6e-13              0.000110942          
  -0.3                  -0.00011556           -5.58e-12             -1.6e-13              0.00011592           
  -0.35                 -0.00011942           -5.48e-12             -2e-14                0.00011974           
  -0.4                  -0.00012266           -5.3e-12              -1e-13                0.00012302           
  -0.45                 -0.00012556           -5.14e-12             -8e-14                0.0001259            
  -0.5                  -0.00012826           -5.1e-12              -1.2e-13              0.00012856           
  -0.55                 -0.00013066           -5.04e-12             0                     0.00013102           
  -0.6                  -0.000133             -4.96e-12             0                     0.00013334           
  -0.65                 -0.0001352            -4.92e-12             -1.2e-13              0.00013556           
  -0.7                  -0.00013728           -4.88e-12             -4e-14                0.00013766           
  -0.75                 -0.00013934           -4.72e-12             -4e-14                0.00013968           
  -0.8                  -0.00014132           -4.7e-12              -4e-14                0.00014168           
  -0.85                 -0.00014322           -4.78e-12             -6e-14                0.00014358           
  -0.9                  -0.00014508           -4.54e-12             -6e-14                0.0001454            
  -0.95                 -0.00014688           -4.36e-12             -6e-14                0.00014728           
  -1                    -0.00014864           -4.22e-12             0                     0.00014898           
  -1.05                 -0.00015034           -3.9e-12              2e-14                 0.00015072           
  -1.1                  -0.00015206           -3.8e-12              2e-14                 0.00015238           
  -1.15                 -0.00015364           -3.6e-12              1.6e-13               0.00015402           
  -1.2                  -0.00015526           -3.18e-12             3.8e-13               0.00015556           
  -1.25                 -0.0001568            -2.8e-12              1.38e-12              0.00015716           
  -1.3                  -0.00015834           -2.38e-12             3.44e-12              0.0001587            
  -1.35                 -0.0001599            -1.96e-12             9.12e-12              0.00016028           
END_DB

