! VERSION = 6.00
BEGIN_HEADER
 ICCAP_INPUTS
  vd         V  D GROUND SMU1 0.1 LIN        1    -0         -1.35      28   -0.05     
  vg         V  G GROUND SMU2 0.001 LIST       2 3 -0.142 -0.342 -0.542
  vb         V  B GROUND SMU4 0.1 CON        -0
  vs         V  S GROUND SMU3 0.1 CON        -0
 ICCAP_OUTPUTS
  id         I  D GROUND SMU1 B
  ig         I  G GROUND SMU2 B
  ib         I  B GROUND SMU4 B
  is         I  S GROUND SMU3 B
 ICCAP_VALUES
  MASTER_SETUP_TYPE "~dc_idvd~"
  LINVT_VALUE ""
  LISTVT_VALUE "|idvg|100.0n|-200.0m|1.000m|3|200.0m|200.0m|"
  TYPE "-1"
  TEMP " 27.0000 "
  IS_TNOM " 1.00000 "
  MAIN.W "10.00u"
  MAIN.L "10.00u"
  MAIN.AD "3.400p"
  MAIN.AS "3.400p"
  MAIN.PD "20.68u"
  MAIN.PS "20.68u"
  MAIN.NF "1.000"
  MAIN.M "1"
  MAIN.NRD "0.000"
  MAIN.NRS "0.000"
  MAIN.LDRIFT1 "1E-06"
  MAIN.LDRIFT2 "1E-06"
  MAIN.SA "0.000"
  MAIN.SB "0.000"
  MAIN.SD "0.000"
  MAIN.SCA "0.000"
  MAIN.SCB "0.000"
  MAIN.SCC "0.000"
  MAIN.SC "0.000"
  MODULE "S549"
  PIN_D "12"
  PIN_G "9"
  PIN_S "10"
  PIN_B "11"
  PIN_E ""
  PIN_6 ""
  XY_ID ""
  FUNC "Large"
  STI "SA ref"
  WPE "WPE ref"
  COMMENT ""
  DIS_MEAS ""
  TypeTCI "10"
END_HEADER

BEGIN_DB
 ICCAP_VAR vg         -0.142         
 ICCAP_VAR vb         -0             
 ICCAP_VAR vs         -0             

 #vd                    id                    ig                    ib                    is                   
  -0                    7e-13                 -2.2e-13              -1.24e-12             -7.4e-13             
  -0.05                 -2.5746e-10           -1e-13                -1.4e-12              2.5778e-10           
  -0.1                  -2.963e-10            -2.4e-13              -1.3e-12              2.9646e-10           
  -0.15                 -3.0246e-10           6e-14                 -1.3e-12              3.024e-10            
  -0.2                  -3.0376e-10           -2e-14                -1.34e-12             3.039e-10            
  -0.25                 -3.0486e-10           -6e-14                -1.34e-12             3.0482e-10           
  -0.3                  -3.0556e-10           -2e-14                -1.2e-12              3.0526e-10           
  -0.35                 -3.0604e-10           8e-14                 -1.24e-12             3.0588e-10           
  -0.4                  -3.0676e-10           2.2e-13               -1.16e-12             3.0608e-10           
  -0.45                 -3.073e-10            3e-13                 -1.28e-12             3.0668e-10           
  -0.5                  -3.0804e-10           4.6e-13               -1.3e-12              3.072e-10            
  -0.55                 -3.0866e-10           7.4e-13               -1.16e-12             3.0768e-10           
  -0.6                  -3.09e-10             1.02e-12              -1.26e-12             3.0802e-10           
  -0.65                 -3.0988e-10           1.42e-12              -1.26e-12             3.0796e-10           
  -0.7                  -3.1058e-10           1.76e-12              -1.24e-12             3.0846e-10           
  -0.75                 -3.112e-10            2.2e-12               -1.06e-12             3.086e-10            
  -0.8                  -3.1206e-10           2.74e-12              -1.3e-12              3.089e-10            
  -0.85                 -3.1306e-10           3.4e-12               -1.14e-12             3.093e-10            
  -0.9                  -3.1394e-10           4.38e-12              -1.04e-12             3.0908e-10           
  -0.95                 -3.1502e-10           5.06e-12              -1.14e-12             3.0958e-10           
  -1                    -3.1628e-10           6.12e-12              -1.04e-12             3.0966e-10           
  -1.05                 -3.1802e-10           7.3e-12               -1.06e-12             3.0978e-10           
  -1.1                  -3.1936e-10           8.54e-12              -7.8e-13              3.0998e-10           
  -1.15                 -3.21e-10             1.004e-11             -5.6e-13              3.1e-10              
  -1.2                  -3.231e-10            1.15e-11              -4.6e-13              3.103e-10            
  -1.25                 -3.2548e-10           1.328e-11             -1.2e-13              3.1046e-10           
  -1.3                  -3.2852e-10           1.524e-11             5e-13                 3.107e-10            
  -1.35                 -3.3156e-10           1.738e-11             1.88e-12              3.1082e-10           
END_DB

BEGIN_DB
 ICCAP_VAR vg         -0.342         
 ICCAP_VAR vb         -0             
 ICCAP_VAR vs         -0             

 #vd                    id                    ig                    ib                    is                   
  -0                    2.557e-10             -2.114e-11            -1.12e-12             -2.325e-10           
  -0.05                 -8.3372e-08           -1.464e-11            -1.32e-12             8.3422e-08           
  -0.1                  -1.03198e-07          -1.266e-11            -1.18e-12             1.03246e-07          
  -0.15                 -1.06944e-07          -1.244e-11            -1.2e-12              1.06998e-07          
  -0.2                  -1.0776e-07           -1.23e-11             -1.02e-12             1.07904e-07          
  -0.25                 -1.0818e-07           -1.222e-11            -1e-12                1.0832e-07           
  -0.3                  -1.0848e-07           -1.204e-11            -1.14e-12             1.08616e-07          
  -0.35                 -1.0874e-07           -1.208e-11            -1.04e-12             1.0886e-07           
  -0.4                  -1.0896e-07           -1.188e-11            -1.04e-12             1.09072e-07          
  -0.45                 -1.0914e-07           -1.194e-11            -1.06e-12             1.09272e-07          
  -0.5                  -1.0932e-07           -1.178e-11            -1.08e-12             1.0945e-07           
  -0.55                 -1.0948e-07           -1.168e-11            -1.12e-12             1.09614e-07          
  -0.6                  -1.0964e-07           -1.172e-11            -1.2e-12              1.09762e-07          
  -0.65                 -1.0978e-07           -1.152e-11            -1.02e-12             1.09902e-07          
  -0.7                  -1.099e-07            -1.13e-11             -1.08e-12             1.10022e-07          
  -0.75                 -1.1e-07              -1.104e-11            -1.1e-12              1.10118e-07          
  -0.8                  -1.101e-07            -1.074e-11            -9.8e-13              1.1022e-07           
  -0.85                 -1.102e-07            -1.034e-11            -1.02e-12             1.10312e-07          
  -0.9                  -1.1026e-07           -9.9e-12              -9.8e-13              1.10402e-07          
  -0.95                 -1.1036e-07           -9.36e-12             -1e-12                1.10488e-07          
  -1                    -1.1044e-07           -8.84e-12             -1.08e-12             1.10554e-07          
  -1.05                 -1.1052e-07           -8.1e-12              -9.6e-13              1.10634e-07          
  -1.1                  -1.1058e-07           -7.28e-12             -9.6e-13              1.10696e-07          
  -1.15                 -1.1064e-07           -6.66e-12             -9.4e-13              1.10756e-07          
  -1.2                  -1.107e-07            -5.6e-12              -8.6e-13              1.10812e-07          
  -1.25                 -1.1076e-07           -4.48e-12             -6.8e-13              1.10892e-07          
  -1.3                  -1.1082e-07           -3.08e-12             -6e-13                1.1094e-07           
  -1.35                 -1.1088e-07           -1.72e-12             -2e-13                1.10982e-07          
END_DB

BEGIN_DB
 ICCAP_VAR vg         -0.542         
 ICCAP_VAR vb         -0             
 ICCAP_VAR vs         -0             

 #vd                    id                    ig                    ib                    is                   
  -0                    1.5312e-09            -2.3412e-10           -1.08e-12             -1.2292e-09          
  -0.05                 -8.1086e-07           -1.8882e-10           -1.06e-12             8.1128e-07           
  -0.1                  -1.3478e-06           -1.587e-10            -9.4e-13              1.3516e-06           
  -0.15                 -1.6434e-06           -1.4102e-10           -1.14e-12             1.6472e-06           
  -0.2                  -1.7636e-06           -1.3382e-10           -1.02e-12             1.7674e-06           
  -0.25                 -1.7996e-06           -1.3118e-10           -8.4e-13              1.8034e-06           
  -0.3                  -1.8112e-06           -1.3044e-10           -9.6e-13              1.815e-06            
  -0.35                 -1.8174e-06           -1.3014e-10           -1.06e-12             1.8212e-06           
  -0.4                  -1.822e-06            -1.2968e-10           -9.8e-13              1.8258e-06           
  -0.45                 -1.8258e-06           -1.2944e-10           -9.4e-13              1.8296e-06           
  -0.5                  -1.8292e-06           -1.2936e-10           -1.02e-12             1.8328e-06           
  -0.55                 -1.832e-06            -1.2906e-10           -1.08e-12             1.8358e-06           
  -0.6                  -1.8348e-06           -1.2874e-10           -1e-12                1.8384e-06           
  -0.65                 -1.8372e-06           -1.2854e-10           -9.4e-13              1.841e-06            
  -0.7                  -1.8394e-06           -1.2836e-10           -9.4e-13              1.8432e-06           
  -0.75                 -1.8414e-06           -1.282e-10            -8e-13                1.8452e-06           
  -0.8                  -1.8432e-06           -1.28e-10             -1e-12                1.847e-06            
  -0.85                 -1.845e-06            -1.2776e-10           -9.8e-13              1.8488e-06           
  -0.9                  -1.8466e-06           -1.2724e-10           -9.4e-13              1.8502e-06           
  -0.95                 -1.848e-06            -1.2704e-10           -9.2e-13              1.8518e-06           
  -1                    -1.8494e-06           -1.2672e-10           -9.8e-13              1.8532e-06           
  -1.05                 -1.8506e-06           -1.2604e-10           -8e-13                1.8544e-06           
  -1.1                  -1.8518e-06           -1.2558e-10           -8.6e-13              1.8556e-06           
  -1.15                 -1.853e-06            -1.2524e-10           -7.8e-13              1.8568e-06           
  -1.2                  -1.854e-06            -1.2446e-10           -9.4e-13              1.8578e-06           
  -1.25                 -1.855e-06            -1.2384e-10           -7.6e-13              1.8588e-06           
  -1.3                  -1.856e-06            -1.231e-10            -7e-13                1.8598e-06           
  -1.35                 -1.857e-06            -1.2238e-10           -2e-14                1.8606e-06           
END_DB

