! VERSION = 6.00
BEGIN_HEADER
 ICCAP_INPUTS
  vd         V  D GROUND SMU1 0.1 LIN        1    -0         -1.35      28   -0.05     
  vg         V  G GROUND SMU2 0.001 LIST       2 3 -0.323 -0.523 -0.723
  vb         V  B GROUND SMU4 0.1 CON        1.2
  vs         V  S GROUND SMU3 0.1 CON        -0
 ICCAP_OUTPUTS
  id         I  D GROUND SMU1 B
  ig         I  G GROUND SMU2 B
  ib         I  B GROUND SMU4 B
  is         I  S GROUND SMU3 B
 ICCAP_VALUES
  MASTER_SETUP_TYPE "~dc_idvd~"
  LINVT_VALUE ""
  LISTVT_VALUE "|idvg|100.0n|-200.0m|1.000m|3|200.0m|200.0m|"
  TYPE "-1"
  TEMP " 27.0000 "
  IS_TNOM " 1.00000 "
  MAIN.W "180.0n"
  MAIN.L "140.0n"
  MAIN.AD "102.6f"
  MAIN.AS "102.6f"
  MAIN.PD "1.340u"
  MAIN.PS "1.340u"
  MAIN.NF "1.000"
  MAIN.M "1"
  MAIN.NRD "0.000"
  MAIN.NRS "0.000"
  MAIN.LDRIFT1 "1E-06"
  MAIN.LDRIFT2 "1E-06"
  MAIN.SA "0.000"
  MAIN.SB "0.000"
  MAIN.SD "0.000"
  MAIN.SCA "0.000"
  MAIN.SCB "0.000"
  MAIN.SCC "0.000"
  MAIN.SC "0.000"
  MODULE "S553"
  PIN_D "14"
  PIN_G "7"
  PIN_S "8"
  PIN_B "13"
  PIN_E ""
  PIN_6 ""
  XY_ID ""
  FUNC "LW Scale"
  STI "SA ref"
  WPE "WPE ref"
  COMMENT ""
  DIS_MEAS ""
  TypeTCI "10"
END_HEADER

BEGIN_DB
 ICCAP_VAR vg         -0.323         
 ICCAP_VAR vb         1.2            
 ICCAP_VAR vs         -0             

 #vd                    id                    ig                    ib                    is                   
  -0                    2.8e-13               2e-13                 1.4e-13               -2.8e-13             
  -0.05                 -1.4646e-10           4e-14                 1.4e-13               1.4616e-10           
  -0.1                  -1.909e-10            2.8e-13               1e-13                 1.9166e-10           
  -0.15                 -2.0992e-10           8e-14                 2e-13                 2.1504e-10           
  -0.2                  -2.3598e-10           2e-14                 8e-14                 2.3542e-10           
  -0.25                 -2.559e-10            2.4e-13               0                     2.5516e-10           
  -0.3                  -2.7848e-10           2e-14                 8e-14                 2.786e-10            
  -0.35                 -3.0238e-10           1.4e-13               -4e-14                2.9998e-10           
  -0.4                  -3.2432e-10           0                     -4e-14                3.2722e-10           
  -0.45                 -3.5368e-10           1.6e-13               0                     3.5122e-10           
  -0.5                  -3.7802e-10           -6e-14                -8e-14                3.766e-10            
  -0.55                 -4.0438e-10           1.4e-13               6e-14                 4.0404e-10           
  -0.6                  -4.3592e-10           1.4e-13               -2e-14                4.3506e-10           
  -0.65                 -4.6976e-10           1.8e-13               -2e-14                4.6694e-10           
  -0.7                  -5.0018e-10           4e-14                 -4e-14                4.995e-10            
  -0.75                 -5.3348e-10           1e-13                 -1e-13                5.3274e-10           
  -0.8                  -5.7288e-10           3.2e-13               4e-14                 5.733e-10            
  -0.85                 -6.1464e-10           -1e-13                -1.8e-13              6.1658e-10           
  -0.9                  -6.5594e-10           2.2e-13               0                     6.5368e-10           
  -0.95                 -7.0464e-10           0                     -2e-14                6.9912e-10           
  -1                    -7.5158e-10           2.2e-13               -2e-14                7.5098e-10           
  -1.05                 -8.0798e-10           2e-14                 -8e-14                8.0338e-10           
  -1.1                  -8.5544e-10           -4e-14                -1e-13                8.6208e-10           
  -1.15                 -9.1518e-10           2.4e-13               -4e-14                9.1902e-10           
  -1.2                  -9.8176e-10           1.2e-13               -6e-14                9.7604e-10           
  -1.25                 -1.0442e-09           -2e-14                -6e-14                1.0456e-09           
  -1.3                  -1.1186e-09           1e-13                 4e-14                 1.12068e-09          
  -1.35                 -1.1996e-09           3e-13                 0                     1.1916e-09           
END_DB

BEGIN_DB
 ICCAP_VAR vg         -0.523         
 ICCAP_VAR vb         1.2            
 ICCAP_VAR vs         -0             

 #vd                    id                    ig                    ib                    is                   
  -0                    1.224e-10             -2.6e-13              2e-14                 -1.2168e-10          
  -0.05                 -5.378e-08            -1.2e-13              2e-14                 5.3832e-08           
  -0.1                  -7.2288e-08           -1.4e-13              1e-13                 7.205e-08            
  -0.15                 -8.2626e-08           -1.8e-13              4e-14                 8.2836e-08           
  -0.2                  -9.1326e-08           -8e-14                -4e-14                9.1464e-08           
  -0.25                 -9.9444e-08           0                     -1e-13                9.8968e-08           
  -0.3                  -1.06646e-07          -6e-14                -1e-13                1.06568e-07          
  -0.35                 -1.148e-07            4e-14                 -1.2e-13              1.14564e-07          
  -0.4                  -1.2264e-07           0                     0                     1.2262e-07           
  -0.45                 -1.3082e-07           1.6e-13               -8e-14                1.3086e-07           
  -0.5                  -1.396e-07            1.2e-13               -2e-14                1.392e-07            
  -0.55                 -1.4782e-07           -1.4e-13              -4e-14                1.4808e-07           
  -0.6                  -1.5716e-07           -2e-13                0                     1.5746e-07           
  -0.65                 -1.6594e-07           -3e-13                -1.4e-13              1.6608e-07           
  -0.7                  -1.7546e-07           -3.2e-13              -2e-13                1.7562e-07           
  -0.75                 -1.852e-07            -1.8e-13              -1e-13                1.8542e-07           
  -0.8                  -1.9596e-07           -1.6e-13              -1e-13                1.9664e-07           
  -0.85                 -2.0654e-07           0                     -6e-14                2.0714e-07           
  -0.9                  -2.1772e-07           0                     -1.2e-13              2.181e-07            
  -0.95                 -2.2866e-07           4e-14                 -2e-13                2.2834e-07           
  -1                    -2.3978e-07           2e-14                 -1.6e-13              2.4018e-07           
  -1.05                 -2.525e-07            4e-14                 -6e-14                2.5356e-07           
  -1.1                  -2.6634e-07           0                     -6e-14                2.6646e-07           
  -1.15                 -2.7844e-07           -6e-14                2e-14                 2.7786e-07           
  -1.2                  -2.9228e-07           6e-14                 1.2e-13               2.9294e-07           
  -1.25                 -3.0774e-07           2e-14                 1.4e-13               3.0618e-07           
  -1.3                  -3.2006e-07           -1.2e-13              2.2e-13               3.2262e-07           
  -1.35                 -3.3598e-07           -2e-14                5.4e-13               3.3816e-07           
END_DB

BEGIN_DB
 ICCAP_VAR vg         -0.723         
 ICCAP_VAR vb         1.2            
 ICCAP_VAR vs         -0             

 #vd                    id                    ig                    ib                    is                   
  -0                    1.5578e-09            -5.4e-13              -4e-14                -1.4334e-09          
  -0.05                 -9.447e-07            -4e-13                -6e-14                9.446e-07            
  -0.1                  -1.5546e-06           -3.8e-13              0                     1.5568e-06           
  -0.15                 -1.932e-06            -6e-13                -6e-14                1.936e-06            
  -0.2                  -2.171e-06            -5.4e-13              -2e-14                2.178e-06            
  -0.25                 -2.349e-06            -4e-14                -4e-14                2.3544e-06           
  -0.3                  -2.4946e-06           -1.4e-13              -1e-13                2.4956e-06           
  -0.35                 -2.6186e-06           -1.6e-13              -2e-14                2.6222e-06           
  -0.4                  -2.7348e-06           -2.2e-13              -8e-14                2.7426e-06           
  -0.45                 -2.8518e-06           0                     -4e-14                2.8576e-06           
  -0.5                  -2.961e-06            -2.4e-13              -8e-14                2.9674e-06           
  -0.55                 -3.0704e-06           -3.2e-13              2e-14                 3.0698e-06           
  -0.6                  -3.1704e-06           -2.4e-13              -8e-14                3.1732e-06           
  -0.65                 -3.273e-06            -1.4e-13              -1.2e-13              3.2772e-06           
  -0.7                  -3.375e-06            -1.8e-13              -1.2e-13              3.3782e-06           
  -0.75                 -3.4694e-06           -3.2e-13              -8e-14                3.475e-06            
  -0.8                  -3.5696e-06           -4.6e-13              -1.2e-13              3.577e-06            
  -0.85                 -3.674e-06            -2.6e-13              -2e-13                3.6786e-06           
  -0.9                  -3.775e-06            -1.6e-13              -1e-13                3.775e-06            
  -0.95                 -3.872e-06            -4.2e-13              -4e-14                3.8764e-06           
  -1                    -3.968e-06            -2.2e-13              -2e-13                3.9744e-06           
  -1.05                 -4.0734e-06           -1.4e-13              -1.4e-13              4.0774e-06           
  -1.1                  -4.1752e-06           -5.6e-13              -8e-14                4.1848e-06           
  -1.15                 -4.2848e-06           -3.8e-13              0                     4.2842e-06           
  -1.2                  -4.386e-06            -1.6e-13              -2e-14                4.3896e-06           
  -1.25                 -4.4878e-06           -1.2e-13              1.6e-13               4.4912e-06           
  -1.3                  -4.595e-06            -2.8e-13              6.2e-13               4.5976e-06           
  -1.35                 -4.6978e-06           -3.4e-13              1.56e-12              4.7076e-06           
END_DB

