! VERSION = 6.00
BEGIN_HEADER
 ICCAP_INPUTS
  vg         V  G GROUND SMU2 0.001 LIN        1    0.5        -1.35      38   -0.05     
  vb         V  B GROUND SMU4 0.1 LIN        2    0          1.2        7    0.2       
  vd         V  D GROUND SMU1 0.1 LIST       3 3 -0.05 -0.6 -1.2
  vs         V  S GROUND SMU3 0.1 CON        -0
 ICCAP_OUTPUTS
  id         I  D GROUND SMU1 B
  ig         I  G GROUND SMU2 B
  ib         I  B GROUND SMU4 B
  is         I  S GROUND SMU3 B
 ICCAP_VALUES
  MASTER_SETUP_TYPE "~dc_idvg~"
  LINVT_VALUE ""
  LISTVT_VALUE ""
  TYPE "-1"
  TEMP " 27.0000 "
  IS_TNOM " 1.00000 "
  MAIN.W "150.0n"
  MAIN.L "500.0n"
  MAIN.AD "100.5f"
  MAIN.AS "100.5f"
  MAIN.PD "1.340u"
  MAIN.PS "1.340u"
  MAIN.NF "1.000"
  MAIN.M "1"
  MAIN.NRD "0.000"
  MAIN.NRS "0.000"
  MAIN.LDRIFT1 "1E-06"
  MAIN.LDRIFT2 "1E-06"
  MAIN.SA "0.000"
  MAIN.SB "0.000"
  MAIN.SD "0.000"
  MAIN.SCA "0.000"
  MAIN.SCB "0.000"
  MAIN.SCC "0.000"
  MAIN.SC "0.000"
  MODULE "S555"
  PIN_D "18"
  PIN_G "3"
  PIN_S "4"
  PIN_B "17"
  PIN_E ""
  PIN_6 ""
  XY_ID ""
  FUNC "LW Scale"
  STI "SA ref"
  WPE "WPE ref"
  COMMENT ""
  DIS_MEAS ""
  TypeTCI "10"
END_HEADER

BEGIN_DB
 ICCAP_VAR vb         0              
 ICCAP_VAR vd         -0.05          
 ICCAP_VAR vs         -0             

 #vg                    id                    ig                    ib                    is                   
  0.5                   -1.4e-13              1.876e-11             -5.84e-12             -2e-14               
  0.45                  -1e-13                3.02e-12              -1.8e-12              1e-13                
  0.4                   -1.6e-13              4.8e-13               -1.12e-12             1e-13                
  0.35                  -4e-14                1.4e-13               -9.4e-13              1.2e-13              
  0.3                   -4e-14                0                     -9.6e-13              -4e-14               
  0.25                  2e-14                 -2e-14                -9.4e-13              1e-13                
  0.2                   -1.2e-13              -1.4e-13              -8.4e-13              0                    
  0.15                  -4e-14                -2.4e-13              -8.2e-13              8e-14                
  0.1                   2e-14                 -2.8e-13              -9.6e-13              1.6e-13              
  0.05                  -3e-13                -2.6e-13              -8.2e-13              2e-13                
  0                     -8.8e-13              -2.8e-13              -8.6e-13              1e-12                
  -0.05                 -4.4e-12              -3e-13                -7.6e-13              4.5e-12              
  -0.1                  -2.096e-11            -2.6e-13              -9e-13                2.114e-11            
  -0.15                 -9.96e-11             -4.2e-13              -8e-13                9.962e-11            
  -0.2                  -4.6578e-10           -4.6e-13              -8.4e-13              4.8328e-10           
  -0.25                 -2.0974e-09           -2.2e-13              -9.2e-13              2.0956e-09           
  -0.3                  -8.4606e-09           -3.2e-13              -7.2e-13              8.4634e-09           
  -0.35                 -2.8078e-08           -2.6e-13              -9.2e-13              2.8516e-08           
  -0.4                  -7.1416e-08           -5e-13                -7e-13                7.079e-08            
  -0.45                 -1.382e-07            -5.4e-13              -7.6e-13              1.391e-07            
  -0.5                  -2.2316e-07           -4.4e-13              -9.4e-13              2.236e-07            
  -0.55                 -3.1794e-07           -6.2e-13              -7e-13                3.183e-07            
  -0.6                  -4.1676e-07           -7.4e-13              -9e-13                4.1712e-07           
  -0.65                 -5.168e-07            -9.2e-13              -8.6e-13              5.17e-07             
  -0.7                  -6.1328e-07           -9.8e-13              -7.4e-13              6.1364e-07           
  -0.75                 -7.0796e-07           -1.18e-12             -8e-13                7.0794e-07           
  -0.8                  -8.019e-07            -1.48e-12             -8.2e-13              8.0208e-07           
  -0.85                 -8.9174e-07           -1.78e-12             -9.4e-13              8.9208e-07           
  -0.9                  -9.796e-07            -2.14e-12             -8.4e-13              9.7952e-07           
  -0.95                 -1.06294e-06          -2.5e-12              -8e-13                1.06368e-06          
  -1                    -1.1438e-06           -2.88e-12             -7.6e-13              1.1447e-06           
  -1.05                 -1.2198e-06           -3.46e-12             -8.4e-13              1.2232e-06           
  -1.1                  -1.2916e-06           -4.28e-12             -8.8e-13              1.297e-06            
  -1.15                 -1.362e-06            -4.84e-12             -6.6e-13              1.3658e-06           
  -1.2                  -1.429e-06            -6e-12                -8.6e-13              1.4312e-06           
  -1.25                 -1.4916e-06           -6.86e-12             -7.4e-13              1.4972e-06           
  -1.3                  -1.5496e-06           -8.24e-12             -7.2e-13              1.5532e-06           
  -1.35                 -1.604e-06            -9.54e-12             -7.6e-13              1.6082e-06           
END_DB

BEGIN_DB
 ICCAP_VAR vb         0.2            
 ICCAP_VAR vd         -0.05          
 ICCAP_VAR vs         -0             

 #vg                    id                    ig                    ib                    is                   
  0.5                   -2e-14                3.2e-13               2e-14                 6e-14                
  0.45                  -8e-14                1e-13                 -2e-14                1e-13                
  0.4                   -6e-14                8e-14                 8e-14                 6e-14                
  0.35                  -6e-14                0                     0                     8e-14                
  0.3                   -6e-14                -1.8e-13              0                     1.4e-13              
  0.25                  4e-14                 -1.2e-13              4e-14                 6e-14                
  0.2                   -1e-13                -1.6e-13              -8e-14                4e-14                
  0.15                  0                     -2.2e-13              2.2e-13               0                    
  0.1                   0                     -1.4e-13              -1.8e-13              2.4e-13              
  0.05                  -1.4e-13              -2.4e-13              4e-14                 0                    
  0                     -2.6e-13              -2e-13                -6e-14                3.6e-13              
  -0.05                 -1.36e-12             -2.2e-13              4e-14                 1.5e-12              
  -0.1                  -7.06e-12             -4.2e-13              0                     6.96e-12             
  -0.15                 -3.406e-11            -3e-13                1e-13                 3.44e-11             
  -0.2                  -1.6532e-10           -3.6e-13              0                     1.654e-10            
  -0.25                 -7.8788e-10           -3.8e-13              8e-14                 7.891e-10            
  -0.3                  -3.5142e-09           -2.6e-13              6e-14                 3.5184e-09           
  -0.35                 -1.3786e-08           -2.4e-13              1.2e-13               1.3848e-08           
  -0.4                  -4.117e-08            -2.6e-13              0                     4.1238e-08           
  -0.45                 -9.293e-08            -5e-13                2e-14                 9.2946e-08           
  -0.5                  -1.6628e-07           -5e-13                -2e-14                1.6644e-07           
  -0.55                 -2.5296e-07           -5.8e-13              0                     2.5314e-07           
  -0.6                  -3.4456e-07           -7e-13                4e-14                 3.428e-07            
  -0.65                 -4.397e-07            -8.4e-13              -8e-14                4.4002e-07           
  -0.7                  -5.3732e-07           -8.6e-13              -4e-14                5.3754e-07           
  -0.75                 -6.3332e-07           -1.22e-12             -2e-14                6.3094e-07           
  -0.8                  -7.2394e-07           -1.42e-12             -8e-14                7.244e-07            
  -0.85                 -8.1422e-07           -1.7e-12              -1.4e-13              8.15e-07             
  -0.9                  -9.0202e-07           -1.88e-12             -2e-14                9.0282e-07           
  -0.95                 -9.8656e-07           -2.4e-12              -4e-14                9.8736e-07           
  -1                    -1.06692e-06          -2.98e-12             -8e-14                1.06664e-06          
  -1.05                 -1.1449e-06           -3.56e-12             -1.6e-13              1.14454e-06          
  -1.1                  -1.217e-06            -3.98e-12             -2e-14                1.2206e-06           
  -1.15                 -1.2872e-06           -4.98e-12             -1e-13                1.2898e-06           
  -1.2                  -1.3532e-06           -5.84e-12             -2e-14                1.3568e-06           
  -1.25                 -1.4176e-06           -6.78e-12             -1.2e-13              1.4212e-06           
  -1.3                  -1.4752e-06           -8.2e-12              0                     1.4832e-06           
  -1.35                 -1.5342e-06           -9.48e-12             8e-14                 1.5362e-06           
END_DB

BEGIN_DB
 ICCAP_VAR vb         0.4            
 ICCAP_VAR vd         -0.05          
 ICCAP_VAR vs         -0             

 #vg                    id                    ig                    ib                    is                   
  0.5                   -8e-14                3.4e-13               4e-14                 -2e-14               
  0.45                  -1e-13                1.8e-13               6e-14                 8e-14                
  0.4                   0                     4e-14                 1.6e-13               0                    
  0.35                  2e-14                 6e-14                 2e-14                 2e-14                
  0.3                   -2e-14                -1.6e-13              1.2e-13               -6e-14               
  0.25                  2e-14                 -2e-14                -8e-14                1.2e-13              
  0.2                   4e-14                 -1.8e-13              1e-13                 2e-14                
  0.15                  -2e-14                -1.2e-13              0                     1.2e-13              
  0.1                   2e-14                 -2.2e-13              0                     -1e-13               
  0.05                  1.8e-13               -1.4e-13              -4e-14                1.4e-13              
  0                     -1.6e-13              -3e-13                4e-14                 1.6e-13              
  -0.05                 -5.2e-13              -2.8e-13              -1.6e-13              6.8e-13              
  -0.1                  -2.46e-12             -3.6e-13              1e-13                 2.66e-12             
  -0.15                 -1.316e-11            -4.2e-13              -8e-14                1.294e-11            
  -0.2                  -6.368e-11            -3.4e-13              2e-14                 6.448e-11            
  -0.25                 -3.159e-10            -3.6e-13              -6e-14                3.1562e-10           
  -0.3                  -1.5618e-09           -3.2e-13              -2e-14                1.564e-09            
  -0.35                 -6.4754e-09           -4e-13                0                     6.4252e-09           
  -0.4                  -2.2958e-08           -2.8e-13              -1.6e-13              2.2988e-08           
  -0.45                 -6.0262e-08           -3.8e-13              4e-14                 6.0292e-08           
  -0.5                  -1.2106e-07           -6e-13                -2e-14                1.2128e-07           
  -0.55                 -1.988e-07            -5e-13                -2e-14                1.9938e-07           
  -0.6                  -2.8278e-07           -7.2e-13              6e-14                 2.8296e-07           
  -0.65                 -3.7598e-07           -7e-13                2e-14                 3.7626e-07           
  -0.7                  -4.711e-07            -8.8e-13              -8e-14                4.7132e-07           
  -0.75                 -5.637e-07            -1.06e-12             6e-14                 5.6352e-07           
  -0.8                  -6.5584e-07           -1.34e-12             -8e-14                6.5632e-07           
  -0.85                 -7.45e-07             -1.66e-12             4e-14                 7.4586e-07           
  -0.9                  -8.3254e-07           -2.06e-12             2e-14                 8.3276e-07           
  -0.95                 -9.1694e-07           -2.34e-12             1.2e-13               9.1746e-07           
  -1                    -9.9772e-07           -2.94e-12             -1.4e-13              9.985e-07            
  -1.05                 -1.07534e-06          -3.4e-12              2.2e-13               1.07578e-06          
  -1.1                  -1.148e-06            -4.04e-12             0                     1.152e-06            
  -1.15                 -1.2194e-06           -4.98e-12             0                     1.2236e-06           
  -1.2                  -1.288e-06            -5.72e-12             0                     1.2928e-06           
  -1.25                 -1.3522e-06           -6.78e-12             2e-14                 1.354e-06            
  -1.3                  -1.4108e-06           -7.98e-12             2e-14                 1.415e-06            
  -1.35                 -1.468e-06            -9.24e-12             6e-14                 1.471e-06            
END_DB

BEGIN_DB
 ICCAP_VAR vb         0.6            
 ICCAP_VAR vd         -0.05          
 ICCAP_VAR vs         -0             

 #vg                    id                    ig                    ib                    is                   
  0.5                   0                     4e-13                 1.2e-13               4e-14                
  0.45                  4e-14                 1e-13                 8e-14                 -6e-14               
  0.4                   -2e-14                4e-14                 2e-14                 0                    
  0.35                  -6e-14                6e-14                 8e-14                 2e-14                
  0.3                   0                     -4e-14                4e-14                 8e-14                
  0.25                  -1.4e-13              0                     -6e-14                8e-14                
  0.2                   4e-14                 -6e-14                2.2e-13               2e-14                
  0.15                  0                     -2.2e-13              1e-13                 0                    
  0.1                   2.6e-13               -2.6e-13              -4e-14                8e-14                
  0.05                  -8e-14                -1e-13                -4e-14                2e-14                
  0                     2e-14                 -3e-13                8e-14                 6e-14                
  -0.05                 0                     -3e-13                1e-13                 2.6e-13              
  -0.1                  -8e-13                -3.8e-13              1.4e-13               9e-13                
  -0.15                 -4.52e-12             -2.8e-13              -8e-14                4.82e-12             
  -0.2                  -2.386e-11            -2.8e-13              -4e-14                2.38e-11             
  -0.25                 -1.2542e-10           -4e-13                0                     1.2588e-10           
  -0.3                  -6.005e-10            -4e-13                2e-14                 6.0112e-10           
  -0.35                 -2.8912e-09           -3e-13                1e-13                 2.8882e-09           
  -0.4                  -1.14132e-08          -3.4e-13              -1.4e-13              1.13912e-08          
  -0.45                 -3.451e-08            -4.2e-13              -1.2e-13              3.4526e-08           
  -0.5                  -8.169e-08            -5.6e-13              -6e-14                8.0928e-08           
  -0.55                 -1.4922e-07           -6.4e-13              4e-14                 1.4944e-07           
  -0.6                  -2.2878e-07           -8e-13                -1.2e-13              2.2902e-07           
  -0.65                 -3.1746e-07           -7.8e-13              4e-14                 3.1728e-07           
  -0.7                  -4.0894e-07           -8e-13                -8e-14                4.0934e-07           
  -0.75                 -5.0148e-07           -1.1e-12              -4e-14                5.0178e-07           
  -0.8                  -5.912e-07            -1.44e-12             2e-14                 5.913e-07            
  -0.85                 -6.8044e-07           -1.58e-12             -4e-14                6.8102e-07           
  -0.9                  -7.674e-07            -1.82e-12             4e-14                 7.6844e-07           
  -0.95                 -8.5184e-07           -2.34e-12             4e-14                 8.5196e-07           
  -1                    -9.3284e-07           -2.86e-12             -2e-14                9.3324e-07           
  -1.05                 -1.01126e-06          -3.26e-12             2.4e-13               1.0107e-06           
  -1.1                  -1.0854e-06           -4.12e-12             -8e-14                1.08594e-06          
  -1.15                 -1.1564e-06           -4.82e-12             -4e-14                1.1584e-06           
  -1.2                  -1.2246e-06           -5.82e-12             1.4e-13               1.2282e-06           
  -1.25                 -1.2898e-06           -6.84e-12             -6e-14                1.2918e-06           
  -1.3                  -1.3506e-06           -7.94e-12             1.4e-13               1.3542e-06           
  -1.35                 -1.4068e-06           -9.22e-12             0                     1.4104e-06           
END_DB

BEGIN_DB
 ICCAP_VAR vb         0.8            
 ICCAP_VAR vd         -0.05          
 ICCAP_VAR vs         -0             

 #vg                    id                    ig                    ib                    is                   
  0.5                   -1e-13                3.6e-13               0                     2e-14                
  0.45                  -2e-14                1.6e-13               1.4e-13               -1.2e-13             
  0.4                   6e-14                 6e-14                 -1.6e-13              1.8e-13              
  0.35                  -1e-13                -6e-14                1.2e-13               -1.4e-13             
  0.3                   8e-14                 -1.2e-13              2e-14                 1.6e-13              
