! VERSION = 6.00
BEGIN_HEADER
 ICCAP_INPUTS
  vg         V  G GROUND SMU2 0.001 LIN        1    0.5        -1.35      38   -0.05     
  vb         V  B GROUND SMU4 0.1 LIN        2    0          1.2        7    0.2       
  vd         V  D GROUND SMU1 0.1 LIST       3 3 -0.05 -0.6 -1.2
  vs         V  S GROUND SMU3 0.1 CON        -0
 ICCAP_OUTPUTS
  id         I  D GROUND SMU1 B
  ig         I  G GROUND SMU2 B
  ib         I  B GROUND SMU4 B
  is         I  S GROUND SMU3 B
 ICCAP_VALUES
  MASTER_SETUP_TYPE "~dc_idvg~"
  LINVT_VALUE ""
  LISTVT_VALUE ""
  TYPE "-1"
  TEMP " 27.0000 "
  IS_TNOM " 1.00000 "
  MAIN.W "600.0n"
  MAIN.L "500.0n"
  MAIN.AD "204.0f"
  MAIN.AS "204.0f"
  MAIN.PD "1.880u"
  MAIN.PS "1.880u"
  MAIN.NF "1.000"
  MAIN.M "1"
  MAIN.NRD "0.000"
  MAIN.NRS "0.000"
  MAIN.LDRIFT1 "1E-06"
  MAIN.LDRIFT2 "1E-06"
  MAIN.SA "0.000"
  MAIN.SB "0.000"
  MAIN.SD "0.000"
  MAIN.SCA "0.000"
  MAIN.SCB "0.000"
  MAIN.SCC "0.000"
  MAIN.SC "0.000"
  MODULE "S551"
  PIN_D "14"
  PIN_G "7"
  PIN_S "8"
  PIN_B "13"
  PIN_E ""
  PIN_6 ""
  XY_ID ""
  FUNC "LW Scale"
  STI "SA ref"
  WPE "WPE ref"
  COMMENT ""
  DIS_MEAS ""
  TypeTCI "10"
END_HEADER

BEGIN_DB
 ICCAP_VAR vb         0              
 ICCAP_VAR vd         -0.05          
 ICCAP_VAR vs         -0             

 #vg                    id                    ig                    ib                    is                   
  0.5                   -1.2e-13              1.89e-11              -1.836e-11            6e-14                
  0.45                  -1.6e-13              3.02e-12              -1.39e-11             -8e-14               
  0.4                   -6e-14                5.2e-13               -1.266e-11            2e-14                
  0.35                  -6e-14                1.8e-13               -1.196e-11            0                    
  0.3                   -1e-13                -6e-14                -1.142e-11            0                    
  0.25                  -2e-14                -1.4e-13              -1.094e-11            0                    
  0.2                   -2e-14                -1.8e-13              -1.052e-11            4e-14                
  0.15                  -2e-14                -3.8e-13              -1.004e-11            1.2e-13              
  0.1                   -2e-13                -4.2e-13              -9.66e-12             8e-14                
  0.05                  -4.8e-13              -6.2e-13              -9.36e-12             6.2e-13              
  0                     -2.7e-12              -1.4e-13              -9.1e-12              2.72e-12             
  -0.05                 -1.23e-11             -7e-13                -8.68e-12             1.244e-11            
  -0.1                  -5.768e-11            -5.2e-13              -8.46e-12             5.772e-11            
  -0.15                 -2.7174e-10           -5.8e-13              -8.2e-12              2.7192e-10           
  -0.2                  -1.2692e-09           -6e-13                -7.58e-12             1.2666e-09           
  -0.25                 -5.7432e-09           -3.2e-13              -7.42e-12             5.7438e-09           
  -0.3                  -2.341e-08            -5.4e-13              -7.22e-12             2.3412e-08           
  -0.35                 -7.8106e-08           -6.4e-13              -6.94e-12             7.8148e-08           
  -0.4                  -2.0186e-07           -9e-13                -6.8e-12              2.0218e-07           
  -0.45                 -4.0784e-07           -9.8e-13              -6.62e-12             4.0828e-07           
  -0.5                  -6.8116e-07           -1.14e-12             -6.4e-12              6.8174e-07           
  -0.55                 -9.9502e-07           -1.66e-12             -6.42e-12             9.9488e-07           
  -0.6                  -1.3236e-06           -1.84e-12             -5.98e-12             1.3268e-06           
  -0.65                 -1.6558e-06           -2.44e-12             -5.84e-12             1.6598e-06           
  -0.7                  -1.9836e-06           -3.16e-12             -5.76e-12             1.9872e-06           
  -0.75                 -2.3012e-06           -4.12e-12             -5.5e-12              2.3048e-06           
  -0.8                  -2.6068e-06           -5.18e-12             -5.5e-12              2.6124e-06           
  -0.85                 -2.9008e-06           -6.68e-12             -5.28e-12             2.9024e-06           
  -0.9                  -3.178e-06            -8.44e-12             -5.22e-12             3.1806e-06           
  -0.95                 -3.4434e-06           -1.03e-11             -4.94e-12             3.4464e-06           
  -1                    -3.697e-06            -1.296e-11            -4.9e-12              3.7014e-06           
  -1.05                 -3.9406e-06           -1.564e-11            -4.84e-12             3.9426e-06           
  -1.1                  -4.167e-06            -1.92e-11             -4.66e-12             4.171e-06            
  -1.15                 -4.384e-06            -2.288e-11            -4.6e-12              4.3856e-06           
  -1.2                  -4.5896e-06           -2.748e-11            -4.46e-12             4.593e-06            
  -1.25                 -4.7844e-06           -3.278e-11            -4.38e-12             4.786e-06            
  -1.3                  -4.9662e-06           -3.842e-11            -4.22e-12             4.964e-06            
  -1.35                 -5.137e-06            -4.542e-11            -3.94e-12             5.139e-06            
END_DB

BEGIN_DB
 ICCAP_VAR vb         0.2            
 ICCAP_VAR vd         -0.05          
 ICCAP_VAR vs         -0             

 #vg                    id                    ig                    ib                    is                   
  0.5                   -2e-14                4.6e-13               2e-14                 -4e-14               
  0.45                  -2e-14                3.2e-13               0                     1.2e-13              
  0.4                   2e-14                 2e-14                 2e-14                 2e-14                
  0.35                  6e-14                 -4e-14                -4e-14                1.4e-13              
  0.3                   -6e-14                -3.2e-13              -6e-14                1.2e-13              
  0.25                  0                     -2.4e-13              2e-14                 4e-14                
  0.2                   1.2e-13               -2.6e-13              -2e-14                1.6e-13              
  0.15                  -6e-14                -2e-13                6e-14                 2e-14                
  0.1                   0                     -6.2e-13              -4e-14                0                    
  0.05                  -1e-13                -1.4e-13              0                     1.6e-13              
  0                     -6.8e-13              -5.2e-13              2e-14                 8.2e-13              
  -0.05                 -3.56e-12             -3.6e-13              -6e-14                3.66e-12             
  -0.1                  -1.73e-11             -5.2e-13              0                     1.756e-11            
  -0.15                 -8.532e-11            -3.4e-13              -6e-14                8.512e-11            
  -0.2                  -4.1406e-10           -5.8e-13              6e-14                 4.1262e-10           
  -0.25                 -1.975e-09            -5e-13                -6e-14                1.976e-09            
  -0.3                  -8.9488e-09           -4.4e-13              -1e-13                8.9652e-09           
  -0.35                 -3.5254e-08           -4.2e-13              0                     3.532e-08            
  -0.4                  -1.09406e-07          -5e-13                -1e-13                1.09628e-07          
  -0.45                 -2.5902e-07           -9.4e-13              2e-14                 2.5924e-07           
  -0.5                  -4.8576e-07           -8.8e-13              -4e-14                4.8588e-07           
  -0.55                 -7.6752e-07           -1.44e-12             -6e-14                7.6744e-07           
  -0.6                  -1.08024e-06          -1.84e-12             4e-14                 1.08034e-06          
  -0.65                 -1.4004e-06           -2.16e-12             -4e-14                1.4042e-06           
  -0.7                  -1.7232e-06           -2.92e-12             0                     1.7244e-06           
  -0.75                 -2.0344e-06           -3.88e-12             -2e-14                2.0396e-06           
  -0.8                  -2.3414e-06           -5.26e-12             0                     2.3452e-06           
  -0.85                 -2.6342e-06           -6.3e-12              -4e-14                2.637e-06            
  -0.9                  -2.913e-06            -8.28e-12             -1.2e-13              2.9152e-06           
  -0.95                 -3.18e-06             -1.018e-11            -6e-14                3.181e-06            
  -1                    -3.4342e-06           -1.276e-11            -8e-14                3.4372e-06           
  -1.05                 -3.6772e-06           -1.544e-11            -6e-14                3.6806e-06           
  -1.1                  -3.908e-06            -1.908e-11            -1e-13                3.911e-06            
  -1.15                 -4.125e-06            -2.298e-11            -1e-13                4.1294e-06           
  -1.2                  -4.3338e-06           -2.734e-11            -1e-13                4.3368e-06           
  -1.25                 -4.5292e-06           -3.256e-11            -1.2e-13              4.5312e-06           
  -1.3                  -4.7138e-06           -3.804e-11            0                     4.7174e-06           
  -1.35                 -4.8902e-06           -4.516e-11            2e-13                 4.8912e-06           
END_DB

BEGIN_DB
 ICCAP_VAR vb         0.4            
 ICCAP_VAR vd         -0.05          
 ICCAP_VAR vs         -0             

 #vg                    id                    ig                    ib                    is                   
  0.5                   8e-14                 6.4e-13               6e-14                 8e-14                
  0.45                  -6e-14                4.4e-13               6e-14                 1.2e-13              
  0.4                   2e-14                 6e-14                 -2e-14                4e-14                
  0.35                  0                     8e-14                 -2e-14                4e-14                
  0.3                   -2e-14                -2.8e-13              8e-14                 4e-14                
  0.25                  4e-14                 -2.2e-13              -1.4e-13              2e-14                
  0.2                   -4e-14                -2.2e-13              0                     1.8e-13              
  0.15                  2e-14                 -2.4e-13              -4e-14                1.4e-13              
  0.1                   6e-14                 -2e-13                -2e-14                2e-14                
  0.05                  -2e-14                -2.8e-13              -2e-14                2e-13                
  0                     -2.4e-13              -3.6e-13              -4e-14                3.4e-13              
  -0.05                 -1.04e-12             -3.6e-13              8e-14                 1.18e-12             
  -0.1                  -5.84e-12             -4.6e-13              0                     5.94e-12             
  -0.15                 -2.952e-11            -3.6e-13              6e-14                 2.948e-11            
  -0.2                  -1.4756e-10           -5.6e-13              -2e-14                1.4782e-10           
  -0.25                 -7.2978e-10           -4e-13                2e-14                 7.3064e-10           
  -0.3                  -3.5356e-09           -6.2e-13              4e-14                 3.5476e-09           
  -0.35                 -1.566e-08            -3.4e-13              2e-14                 1.5692e-08           
  -0.4                  -5.725e-08            -6.6e-13              0                     5.7198e-08           
  -0.45                 -1.5894e-07           -7.4e-13              -4e-14                1.5908e-07           
  -0.5                  -3.3832e-07           -1.04e-12             -2e-14                3.3862e-07           
  -0.55                 -5.85e-07             -1.24e-12             -4e-14                5.854e-07            
  -0.6                  -8.7426e-07           -1.74e-12             -4e-14                8.744e-07            
  -0.65                 -1.1824e-06           -1.96e-12             0                     1.1856e-06           
  -0.7                  -1.4968e-06           -3.06e-12             -2e-14                1.5e-06              
  -0.75                 -1.8072e-06           -3.76e-12             -6e-14                1.8096e-06           
  -0.8                  -2.108e-06            -4.86e-12             0                     2.1116e-06           
  -0.85                 -2.398e-06            -6.6e-12              -1e-13                2.4008e-06           
  -0.9                  -2.6744e-06           -7.98e-12             -1.2e-13              2.6784e-06           
  -0.95                 -2.944e-06            -1.014e-11            4e-14                 2.9458e-06           
  -1                    -3.1984e-06           -1.256e-11            -6e-14                3.2006e-06           
  -1.05                 -3.44e-06             -1.54e-11             0                     3.4446e-06           
  -1.1                  -3.6726e-06           -1.89e-11             -1e-13                3.6762e-06           
  -1.15                 -3.8918e-06           -2.266e-11            -6e-14                3.8952e-06           
  -1.2                  -4.101e-06            -2.722e-11            0                     4.1042e-06           
  -1.25                 -4.3002e-06           -3.222e-11            -4e-14                4.3032e-06           
  -1.3                  -4.4864e-06           -3.804e-11            0                     4.4898e-06           
  -1.35                 -4.6636e-06           -4.498e-11            1.6e-13               4.6658e-06           
END_DB

BEGIN_DB
 ICCAP_VAR vb         0.6            
 ICCAP_VAR vd         -0.05          
 ICCAP_VAR vs         -0             

 #vg                    id                    ig                    ib                    is                   
  0.5                   -1.2e-13              4.2e-13               8e-14                 -6e-14               
  0.45                  -2e-14                1.4e-13               -2e-14                4e-14                
  0.4                   6e-14                 6e-14                 2e-14                 1.4e-13              
  0.35                  -2e-14                2e-14                 2e-14                 4e-14                
  0.3                   -2e-14                -1.8e-13              6e-14                 1.4e-13              
  0.25                  0                     -3e-13                4e-14                 6e-14                
  0.2                   2e-14                 -1.4e-13              4e-14                 0                    
  0.15                  2e-14                 -3.2e-13              0                     1.2e-13              
  0.1                   6e-14                 -2.4e-13              2e-14                 0                    
  0.05                  6e-14                 -2.6e-13              0                     6e-14                
  0                     -8e-14                -4e-13                -4e-14                1e-13                
  -0.05                 -3.4e-13              -4.2e-13              -4e-14                6e-13                
  -0.1                  -2.12e-12             -4.6e-13              -4e-14                2.16e-12             
  -0.15                 -1.096e-11            -3.8e-13              -6e-14                1.116e-11            
  -0.2                  -5.61e-11             -6.4e-13              -8e-14                5.626e-11            
  -0.25                 -2.8614e-10           -5.8e-13              -4e-14                2.864e-10            
  -0.3                  -1.437e-09            -5.6e-13              2e-14                 1.4372e-09           
  -0.35                 -6.8576e-09           -6.4e-13              -2e-14                6.8542e-09           
  -0.4                  -2.862e-08            -5.4e-13              -6e-14                2.8614e-08           
  -0.45                 -9.3318e-08           -7.4e-13              -2e-14                9.3412e-08           
  -0.5                  -2.284e-07            -1.1e-12              -2e-14                2.285e-07            
  -0.55                 -4.3682e-07           -1.18e-12             -8e-14                4.3666e-07           
  -0.6                  -6.9994e-07           -1.8e-12              -6e-14                7.0016e-07           
  -0.65                 -9.9286e-07           -2.24e-12             -6e-14                9.9214e-07           
  -0.7                  -1.2954e-06           -2.88e-12             -1.2e-13              1.298e-06            
  -0.75                 -1.5992e-06           -3.82e-12             0                     1.6018e-06           
  -0.8                  -1.8964e-06           -4.7e-12              -1.2e-13              1.899e-06            
  -0.85                 -2.1872e-06           -6.18e-12             0                     2.1892e-06           
  -0.9                  -2.4656e-06           -7.86e-12             -1.4e-13              2.4704e-06           
  -0.95                 -2.734e-06            -1.004e-11            4e-14                 2.7366e-06           
  -1                    -2.9914e-06           -1.214e-11            -6e-14                2.9948e-06           
  -1.05                 -3.2354e-06           -1.538e-11            -2e-14                3.238e-06            
  -1.1                  -3.4692e-06           -1.834e-11            -2e-14                3.4726e-06           
  -1.15                 -3.6892e-06           -2.246e-11            -8e-14                3.6916e-06           
  -1.2                  -3.8984e-06           -2.678e-11            -1e-13                3.9014e-06           
  -1.25                 -4.0958e-06           -3.196e-11            4e-14                 4.0956e-06           
  -1.3                  -4.2786e-06           -3.776e-11            6e-14                 4.2816e-06           
  -1.35                 -4.4578e-06           -4.466e-11            2.4e-13               4.4632e-06           
END_DB

BEGIN_DB
 ICCAP_VAR vb         0.8            
 ICCAP_VAR vd         -0.05          
 ICCAP_VAR vs         -0             

 #vg                    id                    ig                    ib                    is                   
  0.5                   4e-14                 4.6e-13               1e-13                 6e-14                
  0.45                  -2e-14                1.2e-13               4e-14                 8e-14                
  0.4                   0                     0                     0                     1.4e-13              
  0.35                  -2e-14                -2e-14                0                     -4e-14               
  0.3                   8e-14                 -8e-14                4e-14                 4e-14                
