! VERSION = 6.00
BEGIN_HEADER
 ICCAP_INPUTS
  vd         V  D GROUND SMU1 0.1 LIN        1    -0         -1.35      28   -0.05     
  vg         V  G GROUND SMU2 0.001 LIST       2 3 -0.19 -0.39 -0.59
  vb         V  B GROUND SMU4 0.1 CON        -0
  vs         V  S GROUND SMU3 0.1 CON        -0
 ICCAP_OUTPUTS
  id         I  D GROUND SMU1 B
  ig         I  G GROUND SMU2 B
  ib         I  B GROUND SMU4 B
  is         I  S GROUND SMU3 B
 ICCAP_VALUES
  MASTER_SETUP_TYPE "~dc_idvd~"
  LINVT_VALUE ""
  LISTVT_VALUE "|idvg|100.0n|-200.0m|1.000m|3|200.0m|200.0m|"
  TYPE "-1"
  TEMP " 27.0000 "
  IS_TNOM " 1.00000 "
  MAIN.W "2.000u"
  MAIN.L "130.0n"
  MAIN.AD "680.0f"
  MAIN.AS "680.0f"
  MAIN.PD "4.680u"
  MAIN.PS "4.680u"
  MAIN.NF "1.000"
  MAIN.M "1"
  MAIN.NRD "0.000"
  MAIN.NRS "0.000"
  MAIN.LDRIFT1 "1E-06"
  MAIN.LDRIFT2 "1E-06"
  MAIN.SA "0.000"
  MAIN.SB "0.000"
  MAIN.SD "0.000"
  MAIN.SCA "0.000"
  MAIN.SCB "0.000"
  MAIN.SCC "0.000"
  MAIN.SC "0.000"
  MODULE "S550"
  PIN_D "14"
  PIN_G "7"
  PIN_S "8"
  PIN_B "13"
  PIN_E ""
  PIN_6 ""
  XY_ID ""
  FUNC "LW Scale"
  STI "SA ref"
  WPE "WPE ref"
  COMMENT ""
  DIS_MEAS ""
  TypeTCI "10"
END_HEADER

BEGIN_DB
 ICCAP_VAR vg         -0.19          
 ICCAP_VAR vb         -0             
 ICCAP_VAR vs         -0             

 #vd                    id                    ig                    ib                    is                   
  -0                    3.4e-12               2.2e-13               -1.04e-12             -8.76e-12            
  -0.05                 -4.3442e-09           1e-13                 -1.16e-12             4.3384e-09           
  -0.1                  -5.3488e-09           4e-14                 -1.2e-12              5.3436e-09           
  -0.15                 -5.8204e-09           1.2e-13               -1.14e-12             5.8218e-09           
  -0.2                  -6.2268e-09           2e-13                 -1.2e-12              6.2212e-09           
  -0.25                 -6.597e-09            -4e-14                -1.08e-12             6.5986e-09           
  -0.3                  -6.9848e-09           8e-14                 -1.18e-12             6.98e-09             
  -0.35                 -7.3646e-09           1.4e-13               -1.2e-12              7.3886e-09           
  -0.4                  -7.7828e-09           8e-14                 -1.16e-12             7.772e-09            
  -0.45                 -8.1922e-09           5.8e-13               -1.1e-12              8.1674e-09           
  -0.5                  -8.5702e-09           3.2e-13               -1.04e-12             8.5996e-09           
  -0.55                 -9.0428e-09           4.8e-13               -1.14e-12             9.0296e-09           
  -0.6                  -9.4704e-09           4.4e-13               -1.1e-12              9.4706e-09           
  -0.65                 -9.9032e-09           5.2e-13               -1.04e-12             9.8812e-09           
  -0.7                  -1.03456e-08          1.02e-12              -1.12e-12             1.03386e-08          
  -0.75                 -1.08188e-08          5.2e-13               -1.08e-12             1.08144e-08          
  -0.8                  -1.12958e-08          8.2e-13               -1.18e-12             1.12848e-08          
  -0.85                 -1.179e-08            9e-13                 -9.8e-13              1.1822e-08           
  -0.9                  -1.233e-08            1.18e-12              -1.1e-12              1.2334e-08           
  -0.95                 -1.2854e-08           1.38e-12              -1.1e-12              1.2866e-08           
  -1                    -1.3404e-08           1.48e-12              -1.08e-12             1.3428e-08           
  -1.05                 -1.396e-08            1.86e-12              -1.16e-12             1.3976e-08           
  -1.1                  -1.4562e-08           1.8e-12               -1.02e-12             1.4556e-08           
  -1.15                 -1.5152e-08           1.76e-12              -1.14e-12             1.5166e-08           
  -1.2                  -1.5752e-08           2.28e-12              -1e-12                1.5868e-08           
  -1.25                 -1.6518e-08           2.6e-12               -8.6e-13              1.6536e-08           
  -1.3                  -1.7194e-08           2.78e-12              -7.8e-13              1.7184e-08           
  -1.35                 -1.787e-08            3.38e-12              -6.8e-13              1.7872e-08           
END_DB

BEGIN_DB
 ICCAP_VAR vg         -0.39          
 ICCAP_VAR vb         -0             
 ICCAP_VAR vs         -0             

 #vd                    id                    ig                    ib                    is                   
  -0                    1.3644e-09            -5.8e-13              -1.02e-12             -1.2352e-09          
  -0.05                 -8.0544e-07           -4.2e-13              -1.02e-12             8.0576e-07           
  -0.1                  -1.0787e-06           -3.8e-13              -1e-12                1.07878e-06          
  -0.15                 -1.2012e-06           -6e-14                -1.1e-12              1.204e-06            
  -0.2                  -1.287e-06            -3.8e-13              -9.8e-13              1.29e-06             
  -0.25                 -1.362e-06            -5e-13                -1e-12                1.3656e-06           
  -0.3                  -1.4316e-06           -3.2e-13              -1.04e-12             1.437e-06            
  -0.35                 -1.503e-06            -1.2e-13              -1.06e-12             1.5072e-06           
  -0.4                  -1.5708e-06           -1.4e-13              -1.02e-12             1.573e-06            
  -0.45                 -1.6352e-06           -2.6e-13              -1.06e-12             1.638e-06            
  -0.5                  -1.7016e-06           -2.6e-13              -1.08e-12             1.7044e-06           
  -0.55                 -1.7676e-06           -1.2e-13              -1.02e-12             1.7712e-06           
  -0.6                  -1.833e-06            -1.6e-13              -1e-12                1.8382e-06           
  -0.65                 -1.9024e-06           -1.6e-13              -1.02e-12             1.9052e-06           
  -0.7                  -1.9688e-06           -4e-14                -1.1e-12              1.9728e-06           
  -0.75                 -2.0386e-06           2.2e-13               -1.14e-12             2.0414e-06           
  -0.8                  -2.1076e-06           3.4e-13               -1.04e-12             2.1102e-06           
  -0.85                 -2.1774e-06           0                     -9.6e-13              2.1808e-06           
  -0.9                  -2.2488e-06           2.6e-13               -9.6e-13              2.2522e-06           
  -0.95                 -2.321e-06            4.4e-13               -1.08e-12             2.3232e-06           
  -1                    -2.394e-06            5e-13                 -1.04e-12             2.3968e-06           
  -1.05                 -2.4688e-06           7e-13                 -1e-12                2.4708e-06           
  -1.1                  -2.5432e-06           6.8e-13               -9e-13                2.55e-06             
  -1.15                 -2.6214e-06           9.2e-13               -6.4e-13              2.6244e-06           
  -1.2                  -2.6994e-06           1.24e-12              -1.6e-13              2.7012e-06           
  -1.25                 -2.7786e-06           1.24e-12              7.6e-13               2.7784e-06           
  -1.3                  -2.8574e-06           1.52e-12              2.36e-12              2.8594e-06           
  -1.35                 -2.938e-06            1.8e-12               5.42e-12              2.9418e-06           
END_DB

BEGIN_DB
 ICCAP_VAR vg         -0.59          
 ICCAP_VAR vb         -0             
 ICCAP_VAR vs         -0             

 #vd                    id                    ig                    ib                    is                   
  -0                    1.3972e-08            -1.94e-12             -9e-13                -1.357e-08           
  -0.05                 -9.753e-06            -1.82e-12             -7.8e-13              9.738e-06            
  -0.1                  -1.6046e-05           -1.64e-12             -9e-13                1.6068e-05           
  -0.15                 -1.9922e-05           -1.42e-12             -9.6e-13              1.9966e-05           
  -0.2                  -2.2324e-05           -1.4e-12              -1.02e-12             2.2334e-05           
  -0.25                 -2.3936e-05           -1.22e-12             -9.4e-13              2.3978e-05           
  -0.3                  -2.518e-05            -9.8e-13              -9.6e-13              2.5232e-05           
  -0.35                 -2.62e-05             -1.06e-12             -9.4e-13              2.619e-05            
  -0.4                  -2.7108e-05           -1.12e-12             -9.8e-13              2.7076e-05           
  -0.45                 -2.7874e-05           -1.04e-12             -9.6e-13              2.7938e-05           
  -0.5                  -2.8678e-05           -1.02e-12             -1.04e-12             2.8672e-05           
  -0.55                 -2.9434e-05           -9.2e-13              -1.02e-12             2.9458e-05           
  -0.6                  -3.0202e-05           -9e-13                -9e-13                3.018e-05            
  -0.65                 -3.086e-05            -1.1e-12              -8.6e-13              3.0946e-05           
  -0.7                  -3.1604e-05           -7.8e-13              -9.6e-13              3.1622e-05           
  -0.75                 -3.2274e-05           -6.2e-13              -9.4e-13              3.2256e-05           
  -0.8                  -3.2918e-05           -8.6e-13              -1.04e-12             3.291e-05            
  -0.85                 -3.357e-05            -7.6e-13              -1.04e-12             3.3498e-05           
  -0.9                  -3.4102e-05           -8.2e-13              -9.6e-13              3.4194e-05           
  -0.95                 -3.48e-05             -7.6e-13              -9.6e-13              3.4828e-05           
  -1                    -3.544e-05            -6.2e-13              -9.4e-13              3.543e-05            
  -1.05                 -3.6026e-05           -4.6e-13              -8.4e-13              3.605e-05            
  -1.1                  -3.6696e-05           -5.2e-13              -7.2e-13              3.6764e-05           
  -1.15                 -3.7444e-05           -1.8e-13              -3.2e-13              3.7466e-05           
  -1.2                  -3.8098e-05           -1.6e-13              6.2e-13               3.8018e-05           
  -1.25                 -3.8658e-05           -1.6e-13              2.7e-12               3.8652e-05           
  -1.3                  -3.9362e-05           2e-13                 6.84e-12              3.9386e-05           
  -1.35                 -4.0042e-05           3e-13                 1.528e-11             4.0186e-05           
END_DB

