! VERSION = 6.00
BEGIN_HEADER
 ICCAP_INPUTS
  vd         V  D GROUND SMU1 0.1 LIN        1    -0         -1.35      28   -0.05     
  vg         V  G GROUND SMU2 0.001 LIST       2 3 -0.235 -0.435 -0.635
  vb         V  B GROUND SMU4 0.1 CON        1.2
  vs         V  S GROUND SMU3 0.1 CON        -0
 ICCAP_OUTPUTS
  id         I  D GROUND SMU1 B
  ig         I  G GROUND SMU2 B
  ib         I  B GROUND SMU4 B
  is         I  S GROUND SMU3 B
 ICCAP_VALUES
  MASTER_SETUP_TYPE "~dc_idvd~"
  LINVT_VALUE ""
  LISTVT_VALUE "|idvg|100.0n|-200.0m|1.000m|3|200.0m|200.0m|"
  TYPE "-1"
  TEMP " 125.000 "
  IS_TNOM " 0.00000 "
  MAIN.W "300.0n"
  MAIN.L "10.00u"
  MAIN.AD "102.0f"
  MAIN.AS "102.0f"
  MAIN.PD "1.280u"
  MAIN.PS "1.280u"
  MAIN.NF "1.000"
  MAIN.M "1"
  MAIN.NRD "0.000"
  MAIN.NRS "0.000"
  MAIN.LDRIFT1 "1E-06"
  MAIN.LDRIFT2 "1E-06"
  MAIN.SA "0.000"
  MAIN.SB "0.000"
  MAIN.SD "0.000"
  MAIN.SCA "0.000"
  MAIN.SCB "0.000"
  MAIN.SCC "0.000"
  MAIN.SC "0.000"
  MODULE "S553"
  PIN_D "18"
  PIN_G "3"
  PIN_S "4"
  PIN_B "17"
  PIN_E ""
  PIN_6 ""
  XY_ID ""
  FUNC "W Scale"
  STI "SA ref"
  WPE "WPE ref"
  COMMENT ""
  DIS_MEAS ""
  TypeTCI "10"
END_HEADER

BEGIN_DB
 ICCAP_VAR vg         -0.235         
 ICCAP_VAR vb         1.2            
 ICCAP_VAR vs         -0             

 #vd                    id                    ig                    ib                    is                   
  -0                    -1e-13                1.6e-13               3.114e-11             -2.2e-13             
  -0.05                 -2.4e-11              2e-14                 2.664e-11             2.34e-11             
  -0.1                  -2.962e-11            0                     2.308e-11             2.908e-11            
  -0.15                 -3.108e-11            1.6e-13               2.148e-11             3.03e-11             
  -0.2                  -3.13e-11             0                     1.902e-11             3.086e-11            
  -0.25                 -3.18e-11             8e-14                 1.75e-11              3.072e-11            
  -0.3                  -3.17e-11             -2e-14                1.638e-11             3.088e-11            
  -0.35                 -3.186e-11            1e-13                 1.438e-11             3.102e-11            
  -0.4                  -3.204e-11            1.4e-13               1.396e-11             3.082e-11            
  -0.45                 -3.202e-11            1e-13                 1.328e-11             3.088e-11            
  -0.5                  -3.206e-11            0                     1.274e-11             3.1e-11              
  -0.55                 -3.21e-11             4e-14                 1.158e-11             3.096e-11            
  -0.6                  -3.22e-11             1.4e-13               1.124e-11             3.098e-11            
  -0.65                 -3.232e-11            6e-14                 1.068e-11             3.1e-11              
  -0.7                  -3.236e-11            4e-14                 1.044e-11             3.098e-11            
  -0.75                 -3.232e-11            8e-14                 9.88e-12              3.104e-11            
  -0.8                  -3.244e-11            -4e-14                9.46e-12              3.106e-11            
  -0.85                 -3.254e-11            1.2e-13               9.28e-12              3.108e-11            
  -0.9                  -3.25e-11             8e-14                 8.7e-12               3.11e-11             
  -0.95                 -3.252e-11            4e-14                 8.3e-12               3.112e-11            
  -1                    -3.268e-11            2.2e-13               8.54e-12              3.1e-11              
  -1.05                 -3.262e-11            1.6e-13               8.28e-12              3.126e-11            
  -1.1                  -3.278e-11            1.6e-13               7.94e-12              3.124e-11            
  -1.15                 -3.276e-11            2e-13                 7.28e-12              3.122e-11            
  -1.2                  -3.276e-11            1e-13                 7.44e-12              3.12e-11             
  -1.25                 -3.288e-11            2e-13                 6.98e-12              3.116e-11            
  -1.3                  -3.296e-11            2.2e-13               7.34e-12              3.116e-11            
  -1.35                 -3.3e-11              3.6e-13               7.36e-12              3.112e-11            
END_DB

BEGIN_DB
 ICCAP_VAR vg         -0.435         
 ICCAP_VAR vb         1.2            
 ICCAP_VAR vs         -0             

 #vd                    id                    ig                    ib                    is                   
  -0                    5.84e-12              -2.02e-12             5.54e-12              -3.56e-12            
  -0.05                 -2.3684e-09           -1.54e-12             5.46e-12              2.3694e-09           
  -0.1                  -3.1592e-09           -1.3e-12              5.62e-12              3.1594e-09           
  -0.15                 -3.3764e-09           -1.24e-12             5.42e-12              3.3764e-09           
  -0.2                  -3.4332e-09           -1.18e-12             5.04e-12              3.4342e-09           
  -0.25                 -3.451e-09            -1.12e-12             5.86e-12              3.4522e-09           
  -0.3                  -3.4588e-09           -1.18e-12             5.36e-12              3.459e-09            
  -0.35                 -3.4638e-09           -1.18e-12             5.56e-12              3.4636e-09           
  -0.4                  -3.4668e-09           -1.18e-12             5.02e-12              3.4662e-09           
  -0.45                 -3.4716e-09           -1.08e-12             5.18e-12              3.4706e-09           
  -0.5                  -3.4736e-09           -1.22e-12             5.38e-12              3.4736e-09           
  -0.55                 -3.4776e-09           -1.16e-12             5.18e-12              3.477e-09            
  -0.6                  -3.48e-09             -1.02e-12             4.98e-12              3.4798e-09           
  -0.65                 -3.484e-09            -1.18e-12             5e-12                 3.4844e-09           
  -0.7                  -3.4876e-09           -9.4e-13              5.58e-12              3.4866e-09           
  -0.75                 -3.489e-09            -1.22e-12             4.88e-12              3.4886e-09           
  -0.8                  -3.492e-09            -1.12e-12             5.1e-12               3.4896e-09           
  -0.85                 -3.4924e-09           -1.14e-12             5.28e-12              3.4914e-09           
  -0.9                  -3.4946e-09           -1.04e-12             5.04e-12              3.4942e-09           
  -0.95                 -3.4968e-09           -1.14e-12             5.28e-12              3.4962e-09           
  -1                    -3.4988e-09           -1.14e-12             4.9e-12               3.4988e-09           
  -1.05                 -3.502e-09            -1.08e-12             4.98e-12              3.5014e-09           
  -1.1                  -3.5032e-09           -1.04e-12             4.54e-12              3.5016e-09           
  -1.15                 -3.503e-09            -1.06e-12             5e-12                 3.5024e-09           
  -1.2                  -3.5066e-09           -1.08e-12             5.16e-12              3.5048e-09           
  -1.25                 -3.5056e-09           -1.06e-12             4.44e-12              3.5052e-09           
  -1.3                  -3.5074e-09           -1.04e-12             4.08e-12              3.507e-09            
  -1.35                 -3.5086e-09           -1e-12                4.92e-12              3.5072e-09           
END_DB

BEGIN_DB
 ICCAP_VAR vg         -0.635         
 ICCAP_VAR vb         1.2            
 ICCAP_VAR vs         -0             

 #vd                    id                    ig                    ib                    is                   
  -0                    3.096e-11             -1.698e-11            4.2e-12               -1.382e-11           
  -0.05                 -1.8356e-08           -1.418e-11            3.96e-12              1.839e-08            
  -0.1                  -3.1012e-08           -1.2e-11              4.78e-12              3.1044e-08           
  -0.15                 -3.8634e-08           -1.072e-11            4.8e-12               3.8664e-08           
  -0.2                  -4.2408e-08           -1.002e-11            4.52e-12              4.244e-08            
  -0.25                 -4.3892e-08           -9.76e-12             4.62e-12              4.3922e-08           
  -0.3                  -4.438e-08            -9.64e-12             4.82e-12              4.4414e-08           
  -0.35                 -4.4572e-08           -9.5e-12              4.1e-12               4.46e-08             
  -0.4                  -4.4652e-08           -9.42e-12             4.88e-12              4.469e-08            
  -0.45                 -4.4716e-08           -9.52e-12             4.94e-12              4.4738e-08           
  -0.5                  -4.4766e-08           -9.52e-12             4.58e-12              4.4794e-08           
  -0.55                 -4.481e-08            -9.48e-12             4.44e-12              4.4846e-08           
  -0.6                  -4.485e-08            -9.6e-12              4.34e-12              4.488e-08            
  -0.65                 -4.489e-08            -9.56e-12             4.64e-12              4.491e-08            
  -0.7                  -4.4932e-08           -9.46e-12             5.12e-12              4.4952e-08           
  -0.75                 -4.4964e-08           -9.4e-12              4.68e-12              4.499e-08            
  -0.8                  -4.4982e-08           -9.34e-12             4.78e-12              4.502e-08            
  -0.85                 -4.501e-08            -9.34e-12             4.76e-12              4.504e-08            
  -0.9                  -4.5032e-08           -9.44e-12             4.76e-12              4.5064e-08           
  -0.95                 -4.5064e-08           -9.42e-12             4.28e-12              4.5084e-08           
  -1                    -4.5076e-08           -9.42e-12             4.56e-12              4.5116e-08           
  -1.05                 -4.5088e-08           -9.32e-12             4.6e-12               4.5126e-08           
  -1.1                  -4.5106e-08           -9.42e-12             4.98e-12              4.5138e-08           
  -1.15                 -4.5138e-08           -9.34e-12             4.04e-12              4.5164e-08           
  -1.2                  -4.516e-08            -9.28e-12             4.7e-12               4.5194e-08           
  -1.25                 -4.5178e-08           -9.24e-12             5.02e-12              4.5204e-08           
  -1.3                  -4.52e-08             -9.32e-12             4.64e-12              4.522e-08            
  -1.35                 -4.5212e-08           -9.28e-12             5.06e-12              4.5248e-08           
END_DB

