! VERSION = 6.00
BEGIN_HEADER
 ICCAP_INPUTS
  vd         V  D GROUND SMU1 0.1 LIN        1    -0         -1.35      28   -0.05     
  vg         V  G GROUND SMU2 0.001 LIST       2 3 -0.272 -0.472 -0.672
  vb         V  B GROUND SMU4 0.1 CON        1.2
  vs         V  S GROUND SMU3 0.1 CON        -0
 ICCAP_OUTPUTS
  id         I  D GROUND SMU1 B
  ig         I  G GROUND SMU2 B
  ib         I  B GROUND SMU4 B
  is         I  S GROUND SMU3 B
 ICCAP_VALUES
  MASTER_SETUP_TYPE "~dc_idvd~"
  LINVT_VALUE ""
  LISTVT_VALUE "|idvg|100.0n|-200.0m|1.000m|3|200.0m|200.0m|"
  TYPE "-1"
  TEMP " 125.000 "
  IS_TNOM " 0.00000 "
  MAIN.W "10.00u"
  MAIN.L "130.0n"
  MAIN.AD "3.400p"
  MAIN.AS "3.400p"
  MAIN.PD "20.68u"
  MAIN.PS "20.68u"
  MAIN.NF "1.000"
  MAIN.M "1"
  MAIN.NRD "0.000"
  MAIN.NRS "0.000"
  MAIN.LDRIFT1 "1E-06"
  MAIN.LDRIFT2 "1E-06"
  MAIN.SA "0.000"
  MAIN.SB "0.000"
  MAIN.SD "0.000"
  MAIN.SCA "0.000"
  MAIN.SCB "0.000"
  MAIN.SCC "0.000"
  MAIN.SC "0.000"
  MODULE "S548"
  PIN_D "18"
  PIN_G "3"
  PIN_S "4"
  PIN_B "17"
  PIN_E ""
  PIN_6 ""
  XY_ID ""
  FUNC "Short"
  STI "SA ref"
  WPE "WPE ref"
  COMMENT ""
  DIS_MEAS ""
  TypeTCI "10"
END_HEADER

BEGIN_DB
 ICCAP_VAR vg         -0.272         
 ICCAP_VAR vb         1.2            
 ICCAP_VAR vs         -0             

 #vd                    id                    ig                    ib                    is                   
  -0                    7.336e-11             -9.2e-13              3.344e-11             -1.2068e-10          
  -0.05                 -4.5856e-08           -8e-13                2.704e-11             4.5924e-08           
  -0.1                  -6.1864e-08           -7e-13                2.624e-11             6.1862e-08           
  -0.15                 -7.0092e-08           -6.4e-13              2.444e-11             7.0128e-08           
  -0.2                  -7.6636e-08           -7.4e-13              2.232e-11             7.6624e-08           
  -0.25                 -8.2782e-08           -5.6e-13              2.14e-11              8.2886e-08           
  -0.3                  -8.9306e-08           -6.6e-13              2.03e-11              8.9298e-08           
  -0.35                 -9.586e-08            -5.8e-13              1.934e-11             9.5888e-08           
  -0.4                  -1.0287e-07           -4.4e-13              1.83e-11              1.02866e-07          
  -0.45                 -1.10146e-07          -3.4e-13              1.758e-11             1.10142e-07          
  -0.5                  -1.1778e-07           -3.8e-13              1.662e-11             1.1784e-07           
  -0.55                 -1.2578e-07           -1.4e-13              1.652e-11             1.2588e-07           
  -0.6                  -1.3422e-07           6e-14                 1.608e-11             1.3428e-07           
  -0.65                 -1.4328e-07           2.2e-13               1.512e-11             1.4342e-07           
  -0.7                  -1.5276e-07           5.2e-13               1.528e-11             1.5278e-07           
  -0.75                 -1.6266e-07           8.4e-13               1.51e-11              1.6276e-07           
  -0.8                  -1.7308e-07           1.18e-12              1.498e-11             1.7322e-07           
  -0.85                 -1.8426e-07           1.58e-12              1.54e-11              1.8422e-07           
  -0.9                  -1.958e-07            2.18e-12              1.538e-11             1.9606e-07           
  -0.95                 -2.084e-07            2.66e-12              1.588e-11             2.0834e-07           
  -1                    -2.2116e-07           3.46e-12              1.692e-11             2.2142e-07           
  -1.05                 -2.3488e-07           4.24e-12              1.808e-11             2.3486e-07           
  -1.1                  -2.4936e-07           5.14e-12              1.954e-11             2.4926e-07           
  -1.15                 -2.6456e-07           6.2e-12               2.242e-11             2.6494e-07           
  -1.2                  -2.8082e-07           7.32e-12              2.638e-11             2.8116e-07           
  -1.25                 -2.9814e-07           8.64e-12              3.212e-11             2.9814e-07           
  -1.3                  -3.1624e-07           1.004e-11             3.986e-11             3.1642e-07           
  -1.35                 -3.3556e-07           1.16e-11              5.266e-11             3.3554e-07           
END_DB

BEGIN_DB
 ICCAP_VAR vg         -0.472         
 ICCAP_VAR vb         1.2            
 ICCAP_VAR vs         -0             

 #vd                    id                    ig                    ib                    is                   
  -0                    3.396e-09             -4.6e-12              9.46e-12              -4.2186e-09          
  -0.05                 -3.2112e-06           -3.94e-12             9.36e-12              3.2122e-06           
  -0.1                  -4.5826e-06           -3.52e-12             9.96e-12              4.5834e-06           
  -0.15                 -5.3026e-06           -3.32e-12             9.34e-12              5.3064e-06           
  -0.2                  -5.8114e-06           -3.1e-12              9.28e-12              5.8156e-06           
  -0.25                 -6.2616e-06           -3.04e-12             9.6e-12               6.2674e-06           
  -0.3                  -6.696e-06            -2.98e-12             9.3e-12               6.7022e-06           
  -0.35                 -7.1304e-06           -2.94e-12             9.62e-12              7.1344e-06           
  -0.4                  -7.5708e-06           -2.98e-12             9.74e-12              7.5718e-06           
  -0.45                 -8.018e-06            -2.78e-12             9.26e-12              8.0216e-06           
  -0.5                  -8.476e-06            -2.72e-12             9.3e-12               8.4778e-06           
  -0.55                 -8.937e-06            -2.84e-12             9.32e-12              8.95e-06             
  -0.6                  -9.4326e-06           -2.74e-12             9.18e-12              9.4354e-06           
  -0.65                 -9.9286e-06           -2.68e-12             9.76e-12              9.9292e-06           
  -0.7                  -1.04378e-05          -2.52e-12             9.62e-12              1.04384e-05          
  -0.75                 -1.09644e-05          -2.38e-12             9.3e-12               1.09688e-05          
  -0.8                  -1.1514e-05           -2.14e-12             8.6e-12               1.1518e-05           
  -0.85                 -1.2064e-05           -2.02e-12             8.92e-12              1.2074e-05           
  -0.9                  -1.2644e-05           -1.7e-12              1.02e-11              1.265e-05            
  -0.95                 -1.3238e-05           -1.42e-12             9.98e-12              1.3248e-05           
  -1                    -1.3862e-05           -1e-12                1.182e-11             1.3866e-05           
  -1.05                 -1.4488e-05           -5.8e-13              1.364e-11             1.4484e-05           
  -1.1                  -1.513e-05            -1.4e-13              1.716e-11             1.5152e-05           
  -1.15                 -1.581e-05            4.2e-13               2.462e-11             1.5814e-05           
  -1.2                  -1.652e-05            1.12e-12              3.714e-11             1.6522e-05           
  -1.25                 -1.7242e-05           2e-12                 5.792e-11             1.723e-05            
  -1.3                  -1.7978e-05           2.9e-12               9.3e-11               1.798e-05            
  -1.35                 -1.8742e-05           3.88e-12              1.4802e-10            1.8758e-05           
END_DB

BEGIN_DB
 ICCAP_VAR vg         -0.672         
 ICCAP_VAR vb         1.2            
 ICCAP_VAR vs         -0             

 #vd                    id                    ig                    ib                    is                   
  -0                    4.8906e-08            -1.726e-11            8.06e-12              -4.6522e-08          
  -0.05                 -3.2534e-05           -1.508e-11            8e-12                 3.2528e-05           
  -0.1                  -5.4684e-05           -1.346e-11            8.24e-12              5.4692e-05           
  -0.15                 -6.9212e-05           -1.234e-11            8.18e-12              6.9324e-05           
  -0.2                  -7.8968e-05           -1.15e-11             8.66e-12              7.9e-05              
  -0.25                 -8.5902e-05           -1.098e-11            7.88e-12              8.5936e-05           
  -0.3                  -9.1388e-05           -1.06e-11             8.42e-12              9.1556e-05           
  -0.35                 -9.6146e-05           -1.026e-11            7.9e-12               9.6186e-05           
  -0.4                  -0.000100458          -1.006e-11            8.32e-12              0.000100528          
  -0.45                 -0.000104532          -1.01e-11             7.9e-12               0.000104406          
  -0.5                  -0.00010837           -9.84e-12             8.32e-12              0.00010849           
  -0.55                 -0.00011225           -9.76e-12             8.24e-12              0.000112162          
  -0.6                  -0.00011588           -9.54e-12             7.84e-12              0.00011618           
  -0.65                 -0.00011958           -9.52e-12             8.08e-12              0.00011984           
  -0.7                  -0.00012336           -9.58e-12             8.06e-12              0.0001236            
  -0.75                 -0.00012706           -9.4e-12              8.32e-12              0.00012734           
  -0.8                  -0.00013082           -9.36e-12             8.5e-12               0.00013106           
  -0.85                 -0.0001345            -9.3e-12              8.02e-12              0.00013498           
  -0.9                  -0.0001384            -9.18e-12             7.94e-12              0.00013882           
  -0.95                 -0.00014232           -9.04e-12             9.06e-12              0.00014258           
  -1                    -0.000146             -8.84e-12             1.032e-11             0.00014642           
  -1.05                 -0.00015002           -8.62e-12             1.268e-11             0.00015038           
  -1.1                  -0.00015394           -8.28e-12             1.862e-11             0.00015426           
  -1.15                 -0.00015788           -7.98e-12             2.952e-11             0.0001583            
  -1.2                  -0.00016198           -7.62e-12             5.018e-11             0.00016224           
  -1.25                 -0.00016588           -7.12e-12             9.042e-11             0.0001662            
  -1.3                  -0.00017              -6.72e-12             1.6062e-10            0.00017036           
  -1.35                 -0.00017418           -6.12e-12             2.8392e-10            0.00017446           
END_DB

