! VERSION = 6.00
BEGIN_HEADER
 ICCAP_INPUTS
  vd         V  D GROUND SMU1 0.1 LIN        1    -0         -1.35      28   -0.05     
  vg         V  G GROUND SMU2 0.001 LIST       2 3 -0.354 -0.554 -0.754
  vb         V  B GROUND SMU4 0.1 CON        1.2
  vs         V  S GROUND SMU3 0.1 CON        -0
 ICCAP_OUTPUTS
  id         I  D GROUND SMU1 B
  ig         I  G GROUND SMU2 B
  ib         I  B GROUND SMU4 B
  is         I  S GROUND SMU3 B
 ICCAP_VALUES
  MASTER_SETUP_TYPE "~dc_idvd~"
  LINVT_VALUE ""
  LISTVT_VALUE "|idvg|100.0n|-200.0m|1.000m|3|200.0m|200.0m|"
  TYPE "-1"
  TEMP "-40.0000 "
  IS_TNOM " 0.00000 "
  MAIN.W "150.0n"
  MAIN.L "130.0n"
  MAIN.AD "100.5f"
  MAIN.AS "100.5f"
  MAIN.PD "1.340u"
  MAIN.PS "1.340u"
  MAIN.NF "1.000"
  MAIN.M "1"
  MAIN.NRD "0.000"
  MAIN.NRS "0.000"
  MAIN.LDRIFT1 "1E-06"
  MAIN.LDRIFT2 "1E-06"
  MAIN.SA "0.000"
  MAIN.SB "0.000"
  MAIN.SD "0.000"
  MAIN.SCA "0.000"
  MAIN.SCB "0.000"
  MAIN.SCC "0.000"
  MAIN.SC "0.000"
  MODULE "S554"
  PIN_D "16"
  PIN_G "5"
  PIN_S "6"
  PIN_B "15"
  PIN_E ""
  PIN_6 ""
  XY_ID ""
  FUNC "Small"
  STI "SA ref"
  WPE "WPE ref"
  COMMENT ""
  DIS_MEAS ""
  TypeTCI "10"
END_HEADER

BEGIN_DB
 ICCAP_VAR vg         -0.354         
 ICCAP_VAR vb         1.2            
 ICCAP_VAR vs         -0             

 #vd                    id                    ig                    ib                    is                   
  -0                    1.4e-13               -1.6e-13              2e-14                 1.6e-13              
  -0.05                 -2.13e-11             3.8e-13               1e-13                 2.116e-11            
  -0.1                  -2.66e-11             -1.8e-13              -2e-14                2.656e-11            
  -0.15                 -3.056e-11            6e-14                 0                     3.046e-11            
  -0.2                  -3.432e-11            3.2e-13               2e-14                 3.448e-11            
  -0.25                 -3.888e-11            8e-14                 -6e-14                3.884e-11            
  -0.3                  -4.356e-11            4.2e-13               6e-14                 4.376e-11            
  -0.35                 -4.924e-11            -3.6e-13              -4e-14                4.882e-11            
  -0.4                  -5.534e-11            -2.6e-13              2e-14                 5.44e-11             
  -0.45                 -6.164e-11            -1e-13                1.2e-13               6.14e-11             
  -0.5                  -6.832e-11            5e-13                 0                     6.776e-11            
  -0.55                 -7.6e-11              2e-14                 -6e-14                7.602e-11            
  -0.6                  -8.496e-11            -2e-13                4e-14                 8.38e-11             
  -0.65                 -9.382e-11            3.2e-13               6e-14                 9.408e-11            
  -0.7                  -1.043e-10            1.6e-13               2e-14                 1.0424e-10           
  -0.75                 -1.1534e-10           6e-14                 6e-14                 1.1518e-10           
  -0.8                  -1.279e-10            2e-13                 -1.4e-13              1.274e-10            
  -0.85                 -1.418e-10            0                     2e-14                 1.425e-10            
  -0.9                  -1.5778e-10           4.4e-13               1e-13                 1.5744e-10           
  -0.95                 -1.741e-10            -2.4e-13              -4e-14                1.7434e-10           
  -1                    -1.9308e-10           0                     4e-14                 1.9318e-10           
  -1.05                 -2.1594e-10           1.4e-13               8e-14                 2.1446e-10           
  -1.1                  -2.3786e-10           2.2e-13               -2e-14                2.376e-10            
  -1.15                 -2.6446e-10           0                     4e-14                 2.648e-10            
  -1.2                  -2.9626e-10           -1.8e-13              -1.4e-13              2.9502e-10           
  -1.25                 -3.2748e-10           -3.4e-13              -2e-14                3.2622e-10           
  -1.3                  -3.6472e-10           5.2e-13               -6e-14                3.6296e-10           
  -1.35                 -4.0626e-10           6.4e-13               -2e-14                4.0604e-10           
END_DB

BEGIN_DB
 ICCAP_VAR vg         -0.554         
 ICCAP_VAR vb         1.2            
 ICCAP_VAR vs         -0             

 #vd                    id                    ig                    ib                    is                   
  -0                    1.0264e-10            2.4e-13               -4e-14                -1.0294e-10          
  -0.05                 -3.8184e-08           -2.4e-13              -8e-14                3.8178e-08           
  -0.1                  -5.0522e-08           -6e-13                -4e-14                5.1078e-08           
  -0.15                 -5.8334e-08           5.4e-13               0                     5.8038e-08           
  -0.2                  -6.4232e-08           -6e-13                -1.4e-13              6.4034e-08           
  -0.25                 -7.1652e-08           -4.4e-13              -8e-14                7.1234e-08           
  -0.3                  -7.8838e-08           -2e-13                -2e-14                7.8934e-08           
  -0.35                 -8.578e-08            -1.2e-13              4e-14                 8.6516e-08           
  -0.4                  -9.4028e-08           8e-14                 2e-14                 9.4354e-08           
  -0.45                 -1.01712e-07          2e-14                 -2e-14                1.0209e-07           
  -0.5                  -1.11424e-07          -8e-14                6e-14                 1.11578e-07          
  -0.55                 -1.2014e-07           2.6e-13               -8e-14                1.2046e-07           
  -0.6                  -1.3062e-07           -4e-13                -4e-14                1.3082e-07           
  -0.65                 -1.4124e-07           6e-14                 -2e-14                1.4206e-07           
  -0.7                  -1.5104e-07           -4e-14                -1.2e-13              1.5122e-07           
  -0.75                 -1.6292e-07           -1.2e-13              -4e-14                1.6308e-07           
  -0.8                  -1.7668e-07           -1.2e-13              8e-14                 1.7782e-07           
  -0.85                 -1.8966e-07           3.2e-13               -4e-14                1.8964e-07           
  -0.9                  -2.0556e-07           -3e-13                2e-14                 2.0524e-07           
  -0.95                 -2.1936e-07           -1.6e-13              -2e-14                2.2006e-07           
  -1                    -2.3724e-07           -6e-14                -2e-14                2.3766e-07           
  -1.05                 -2.5366e-07           -1.4e-13              0                     2.5368e-07           
  -1.1                  -2.7202e-07           2e-14                 -2e-14                2.7458e-07           
  -1.15                 -2.934e-07            0                     -2e-14                2.9206e-07           
  -1.2                  -3.1452e-07           -2.6e-13              6e-14                 3.1486e-07           
  -1.25                 -3.3674e-07           -4e-14                -4e-14                3.3582e-07           
  -1.3                  -3.6136e-07           4e-14                 4e-14                 3.5962e-07           
  -1.35                 -3.8674e-07           4.8e-13               6e-14                 3.8674e-07           
END_DB

BEGIN_DB
 ICCAP_VAR vg         -0.754         
 ICCAP_VAR vb         1.2            
 ICCAP_VAR vs         -0             

 #vd                    id                    ig                    ib                    is                   
  -0                    1.6462e-09            -5e-13                -8e-14                -1.442e-09           
  -0.05                 -1.2366e-06           -6e-14                -4e-14                1.2398e-06           
  -0.1                  -2.0278e-06           -9.6e-13              -4e-14                2.0316e-06           
  -0.15                 -2.5298e-06           -6.8e-13              -1e-13                2.5334e-06           
  -0.2                  -2.8756e-06           -2e-14                -8e-14                2.8714e-06           
  -0.25                 -3.1264e-06           1.4e-13               -1e-13                3.1316e-06           
  -0.3                  -3.3372e-06           -6.2e-13              0                     3.3424e-06           
  -0.35                 -3.5282e-06           -2.4e-13              -8e-14                3.5302e-06           
  -0.4                  -3.7066e-06           -8e-14                2e-14                 3.7066e-06           
  -0.45                 -3.8698e-06           -2e-13                0                     3.8742e-06           
  -0.5                  -4.037e-06            -1.2e-13              -2e-14                4.0384e-06           
  -0.55                 -4.2056e-06           -6e-14                -4e-14                4.207e-06            
  -0.6                  -4.364e-06            -1.4e-13              -6e-14                4.3676e-06           
  -0.65                 -4.5278e-06           -2.2e-13              0                     4.5368e-06           
  -0.7                  -4.6936e-06           -4.8e-13              -4e-14                4.7004e-06           
  -0.75                 -4.8634e-06           -4e-13                0                     4.8674e-06           
  -0.8                  -5.0326e-06           -3.2e-13              0                     5.0322e-06           
  -0.85                 -5.2052e-06           -4.2e-13              -4e-14                5.2046e-06           
  -0.9                  -5.376e-06            5.6e-13               -4e-14                5.378e-06            
  -0.95                 -5.5466e-06           -4.6e-13              -4e-14                5.5504e-06           
  -1                    -5.7276e-06           -1e-13                -1e-13                5.7324e-06           
  -1.05                 -5.9066e-06           -6.8e-13              -6e-14                5.9122e-06           
  -1.1                  -6.0854e-06           0                     8e-14                 6.0918e-06           
  -1.15                 -6.2658e-06           2e-14                 6e-14                 6.2694e-06           
  -1.2                  -6.4554e-06           -3.4e-13              -2e-14                6.4614e-06           
  -1.25                 -6.6438e-06           3e-13                 6e-14                 6.648e-06            
  -1.3                  -6.8434e-06           4e-14                 2.2e-13               6.8564e-06           
  -1.35                 -7.0462e-06           -3e-13                6e-13                 7.0468e-06           
END_DB

