! VERSION = 6.00
BEGIN_HEADER
 ICCAP_INPUTS
  vd         V  D GROUND SMU1 0.1 LIN        1    -0         -1.35      28   -0.05     
  vg         V  G GROUND SMU2 0.001 LIN        2    -0.418     -1.35      5    -0.233    
  vb         V  B GROUND SMU4 0.1 CON        -0
  vs         V  S GROUND SMU3 0.1 CON        -0
 ICCAP_OUTPUTS
  id         I  D GROUND SMU1 B
  ig         I  G GROUND SMU2 B
  ib         I  B GROUND SMU4 B
  is         I  S GROUND SMU3 B
 ICCAP_VALUES
  MASTER_SETUP_TYPE "~dc_idvd~"
  LINVT_VALUE "|idvg|100.0n|100.0m|1.000m|5|1.350|"
  LISTVT_VALUE ""
  TYPE "-1"
  TEMP " 125.000 "
  IS_TNOM " 0.00000 "
  MAIN.W "150.0n"
  MAIN.L "130.0n"
  MAIN.AD "100.5f"
  MAIN.AS "100.5f"
  MAIN.PD "1.340u"
  MAIN.PS "1.340u"
  MAIN.NF "1.000"
  MAIN.M "1"
  MAIN.NRD "0.000"
  MAIN.NRS "0.000"
  MAIN.LDRIFT1 "1E-06"
  MAIN.LDRIFT2 "1E-06"
  MAIN.SA "0.000"
  MAIN.SB "0.000"
  MAIN.SD "0.000"
  MAIN.SCA "0.000"
  MAIN.SCB "0.000"
  MAIN.SCC "0.000"
  MAIN.SC "0.000"
  MODULE "S554"
  PIN_D "16"
  PIN_G "5"
  PIN_S "6"
  PIN_B "15"
  PIN_E ""
  PIN_6 ""
  XY_ID ""
  FUNC "Small"
  STI "SA ref"
  WPE "WPE ref"
  COMMENT ""
  DIS_MEAS ""
  TypeTCI "10"
END_HEADER

BEGIN_DB
 ICCAP_VAR vg         -0.418         
 ICCAP_VAR vb         -0             
 ICCAP_VAR vs         -0             

 #vd                    id                    ig                    ib                    is                   
  -0                    4.7412e-10            -3.8e-13              -2.88e-11             -5.9284e-10          
  -0.05                 -3.1642e-07           -3.6e-13              -2.836e-11            3.1658e-07           
  -0.1                  -4.6622e-07           -2.6e-13              -2.616e-11            4.6622e-07           
  -0.15                 -5.364e-07            -2.2e-13              -2.512e-11            5.3402e-07           
  -0.2                  -5.7484e-07           -1.6e-13              -2.424e-11            5.7498e-07           
  -0.25                 -6.0204e-07           -4e-14                -2.308e-11            6.0218e-07           
  -0.3                  -6.2488e-07           -1.4e-13              -2.226e-11            6.2524e-07           
  -0.35                 -6.4638e-07           -2e-14                -2.18e-11             6.4628e-07           
  -0.4                  -6.666e-07            -2.4e-13              -2.036e-11            6.6676e-07           
  -0.45                 -6.8634e-07           -8e-14                -1.992e-11            6.8652e-07           
  -0.5                  -7.055e-07            -2e-14                -1.954e-11            7.0624e-07           
  -0.55                 -7.2526e-07           -1.8e-13              -1.878e-11            7.2496e-07           
  -0.6                  -7.4396e-07           -1e-13                -1.816e-11            7.4412e-07           
  -0.65                 -7.6274e-07           -2e-14                -1.794e-11            7.6248e-07           
  -0.7                  -7.8134e-07           -1e-13                -1.706e-11            7.8196e-07           
  -0.75                 -8.0052e-07           -1.6e-13              -1.686e-11            8.007e-07            
  -0.8                  -8.1896e-07           -1.2e-13              -1.664e-11            8.1936e-07           
  -0.85                 -8.3828e-07           0                     -1.588e-11            8.3818e-07           
  -0.9                  -8.575e-07            -6e-14                -1.542e-11            8.5772e-07           
  -0.95                 -8.769e-07            -1.2e-13              -1.484e-11            8.7732e-07           
  -1                    -8.9654e-07           -8e-14                -1.442e-11            8.8444e-07           
  -1.05                 -9.1544e-07           4e-14                 -1.418e-11            9.1572e-07           
  -1.1                  -9.3562e-07           -6e-14                -1.33e-11             9.3564e-07           
  -1.15                 -9.5646e-07           0                     -1.328e-11            9.5616e-07           
  -1.2                  -9.7516e-07           -1e-13                -1.198e-11            9.7638e-07           
  -1.25                 -9.9606e-07           -1.6e-13              -1.046e-11            9.9578e-07           
  -1.3                  -1.0165e-06           -1e-13                -9.1e-12              1.01772e-06          
  -1.35                 -1.03854e-06          -2e-14                -6.16e-12             1.03938e-06          
END_DB

BEGIN_DB
 ICCAP_VAR vg         -0.651         
 ICCAP_VAR vb         -0             
 ICCAP_VAR vs         -0             

 #vd                    id                    ig                    ib                    is                   
  -0                    2.0508e-09            -6e-13                -1.264e-11            -1.8852e-09          
  -0.05                 -1.7046e-06           -4.4e-13              -1.23e-11             1.7104e-06           
  -0.1                  -3.01e-06             -5e-13                -1.12e-11             3.0138e-06           
  -0.15                 -3.9516e-06           -4.6e-13              -1.114e-11            3.9754e-06           
  -0.2                  -4.6468e-06           -3e-13                -1.116e-11            4.6362e-06           
  -0.25                 -5.102e-06            -2.2e-13              -1.06e-11             5.1038e-06           
  -0.3                  -5.4308e-06           -3.8e-13              -1.056e-11            5.4592e-06           
  -0.35                 -5.7136e-06           -4.6e-13              -1.024e-11            5.6982e-06           
  -0.4                  -5.8848e-06           -4e-13                -1.006e-11            5.8986e-06           
  -0.45                 -6.0414e-06           -2.4e-13              -9.38e-12             6.0684e-06           
  -0.5                  -6.193e-06            -4.2e-13              -9.26e-12             6.199e-06            
  -0.55                 -6.3338e-06           -3.6e-13              -9.28e-12             6.3374e-06           
  -0.6                  -6.5152e-06           -3e-13                -9e-12                6.4698e-06           
  -0.65                 -6.6146e-06           -3.4e-13              -8.5e-12              6.619e-06            
  -0.7                  -6.7148e-06           -3e-13                -8.94e-12             6.7168e-06           
  -0.75                 -6.886e-06            -3.4e-13              -8.36e-12             6.834e-06            
  -0.8                  -6.9488e-06           -3e-13                -8.34e-12             7.0076e-06           
  -0.85                 -7.0596e-06           -3.2e-13              -8.16e-12             7.077e-06            
  -0.9                  -7.1736e-06           -2.8e-13              -7.98e-12             7.1772e-06           
  -0.95                 -7.3434e-06           -3.2e-13              -7.9e-12              7.353e-06            
  -1                    -7.4222e-06           -3.8e-13              -7.78e-12             7.3936e-06           
  -1.05                 -7.4876e-06           -2e-13                -7.28e-12             7.497e-06            
  -1.1                  -7.6026e-06           -3.2e-13              -7.06e-12             7.6238e-06           
  -1.15                 -7.7156e-06           -4.2e-13              -6.68e-12             7.7098e-06           
  -1.2                  -7.8094e-06           -2.2e-13              -5.74e-12             7.8144e-06           
  -1.25                 -7.9268e-06           -1.8e-13              -4.28e-12             7.9176e-06           
  -1.3                  -8.0766e-06           -1.2e-13              -2.08e-12             8.098e-06            
  -1.35                 -8.1246e-06           -2.2e-13              2.34e-12              8.136e-06            
END_DB

BEGIN_DB
 ICCAP_VAR vg         -0.884         
 ICCAP_VAR vb         -0             
 ICCAP_VAR vs         -0             

 #vd                    id                    ig                    ib                    is                   
  -0                    3.0706e-09            -1.4e-12              -8.28e-12             -2.9458e-09          
  -0.05                 -3.244e-06            -1.18e-12             -8.1e-12              3.2448e-06           
  -0.1                  -6.0794e-06           -1.18e-12             -6.94e-12             6.1126e-06           
  -0.15                 -8.5648e-06           -1.02e-12             -7.82e-12             8.5412e-06           
  -0.2                  -1.05594e-05          -9.2e-13              -7.68e-12             1.0624e-05           
  -0.25                 -1.233e-05            -9.2e-13              -7.22e-12             1.2324e-05           
  -0.3                  -1.3674e-05           -7.8e-13              -6.8e-12              1.3706e-05           
  -0.35                 -1.4772e-05           -8.4e-13              -6.66e-12             1.4774e-05           
  -0.4                  -1.5624e-05           -8.2e-13              -6.14e-12             1.5646e-05           
  -0.45                 -1.6312e-05           -6.8e-13              -6.06e-12             1.6328e-05           
  -0.5                  -1.6846e-05           -6.6e-13              -6.16e-12             1.6852e-05           
  -0.55                 -1.731e-05            -6.4e-13              -5.56e-12             1.7348e-05           
  -0.6                  -1.7728e-05           -7e-13                -6.16e-12             1.7782e-05           
  -0.65                 -1.8096e-05           -5.6e-13              -5.8e-12              1.8142e-05           
  -0.7                  -1.843e-05            -6.8e-13              -5.06e-12             1.8464e-05           
  -0.75                 -1.874e-05            -6e-13                -5.58e-12             1.8784e-05           
  -0.8                  -1.9084e-05           -5.4e-13              -5.26e-12             1.9092e-05           
  -0.85                 -1.935e-05            -6.4e-13              -4.96e-12             1.933e-05            
  -0.9                  -1.9612e-05           -7e-13                -4.92e-12             1.9622e-05           
  -0.95                 -1.9848e-05           -7.2e-13              -5.26e-12             1.989e-05            
  -1                    -2.0148e-05           -6.2e-13              -5.06e-12             2.0144e-05           
  -1.05                 -2.0396e-05           -5.6e-13              -4.46e-12             2.0298e-05           
  -1.1                  -2.063e-05            -6.2e-13              -4.4e-12              2.0648e-05           
  -1.15                 -2.0878e-05           -5.6e-13              -4.64e-12             2.0878e-05           
  -1.2                  -2.1108e-05           -5.6e-13              -3.7e-12              2.1074e-05           
  -1.25                 -2.1282e-05           -6.2e-13              -2.74e-12             2.129e-05            
  -1.3                  -2.1564e-05           -5.8e-13              -9.6e-13              2.157e-05            
  -1.35                 -2.1778e-05           -5.4e-13              1.82e-12              2.179e-05            
END_DB

BEGIN_DB
 ICCAP_VAR vg         -1.117         
 ICCAP_VAR vb         -0             
 ICCAP_VAR vs         -0             

 #vd                    id                    ig                    ib                    is                   
  -0                    3.3644e-09            -3e-12                -6.1e-12              -3.5678e-09          
  -0.05                 -4.5298e-06           -2.68e-12             -6.56e-12             4.5428e-06           
  -0.1                  -8.7242e-06           -2.54e-12             -5.16e-12             8.7432e-06           
  -0.15                 -1.253e-05            -2.18e-12             -6e-12                1.2556e-05           
  -0.2                  -1.5982e-05           -2.18e-12             -4.96e-12             1.6002e-05           
  -0.25                 -1.8998e-05           -2.1e-12              -4.94e-12             1.901e-05            
  -0.3                  -2.1748e-05           -1.96e-12             -4.48e-12             2.1728e-05           
  -0.35                 -2.4026e-05           -1.8e-12              -4.3e-12              2.4048e-05           
  -0.4                  -2.608e-05            -1.6e-12              -4.4e-12              2.6174e-05           
  -0.45                 -2.771e-05            -1.62e-12             -4.28e-12             2.7572e-05           
  -0.5                  -2.913e-05            -1.7e-12              -4.16e-12             2.9098e-05           
  -0.55                 -3.0292e-05           -1.54e-12             -4.6e-12              3.0208e-05           
  -0.6                  -3.1378e-05           -1.44e-12             -4.24e-12             3.133e-05            
  -0.65                 -3.2156e-05           -1.5e-12              -4.18e-12             3.2386e-05           
  -0.7                  -3.3104e-05           -1.46e-12             -3.96e-12             3.313e-05            
  -0.75                 -3.3802e-05           -1.46e-12             -3.88e-12             3.3816e-05           
  -0.8                  -3.4358e-05           -1.38e-12             -3.8e-12              3.4376e-05           
  -0.85                 -3.4954e-05           -1.46e-12             -3.46e-12             3.4922e-05           
  -0.9                  -3.546e-05            -1.46e-12             -3.12e-12             3.5428e-05           
  -0.95                 -3.5798e-05           -1.2e-12              -3.96e-12             3.5896e-05           
  -1                    -3.6402e-05           -1.32e-12             -3.42e-12             3.6382e-05           
  -1.05                 -3.6766e-05           -1.36e-12             -3.22e-12             3.6586e-05           
  -1.1                  -3.7188e-05           -1.3e-12              -3.32e-12             3.7212e-05           
  -1.15                 -3.7646e-05           -1.3e-12              -2.9e-12              3.7668e-05           
  -1.2                  -3.7944e-05           -1.32e-12             -2.42e-12             3.806e-05            
  -1.25                 -3.8272e-05           -1.3e-12              -2.44e-12             3.8366e-05           
  -1.3                  -3.8724e-05           -1.24e-12             -1.22e-12             3.8786e-05           
  -1.35                 -3.9164e-05           -1.22e-12             1.1e-12               3.9208e-05           
END_DB

BEGIN_DB
 ICCAP_VAR vg         -1.35          
 ICCAP_VAR vb         -0             
 ICCAP_VAR vs         -0             

 #vd                    id                    ig                    ib                    is                   
  -0                    3.391e-09             -5.88e-12             -4.46e-12             -4.3808e-09          
  -0.05                 -5.6096e-06           -5.42e-12             -4.74e-12             5.612e-06            
  -0.1                  -1.0929e-05           -5.08e-12             -3.98e-12             1.08984e-05          
  -0.15                 -1.5866e-05           -4.84e-12             -4.64e-12             1.5902e-05           
  -0.2                  -2.0482e-05           -4.5e-12              -3.46e-12             2.0444e-05           
  -0.25                 -2.4676e-05           -4.22e-12             -3.48e-12             2.4698e-05           
  -0.3                  -2.848e-05            -4.06e-12             -3.92e-12             2.8612e-05           
  -0.35                 -3.2118e-05           -3.8e-12              -3.36e-12             3.211e-05            
  -0.4                  -3.5198e-05           -3.66e-12             -3.56e-12             3.5262e-05           
  -0.45                 -3.8028e-05           -3.4e-12              -3.42e-12             3.808e-05            
  -0.5                  -4.0574e-05           -3.14e-12             -2.92e-12             4.0614e-05           
  -0.55                 -4.2824e-05           -3.04e-12             -2.98e-12             4.2788e-05           
  -0.6                  -4.458e-05            -2.98e-12             -3.3e-12              4.4684e-05           
  -0.65                 -4.625e-05            -2.94e-12             -2.74e-12             4.6232e-05           
  -0.7                  -4.791e-05            -2.88e-12             -3.16e-12             4.78e-05             
  -0.75                 -4.9124e-05           -2.72e-12             -2.78e-12             4.9148e-05           
  -0.8                  -5.0228e-05           -2.76e-12             -3.16e-12             5.0376e-05           
  -0.85                 -5.1162e-05           -2.8e-12              -3.06e-12             5.1128e-05           
  -0.9                  -5.2162e-05           -2.76e-12             -2.68e-12             5.2036e-05           
  -0.95                 -5.293e-05            -2.62e-12             -2.48e-12             5.289e-05            
  -1                    -5.3758e-05           -2.58e-12             -2.02e-12             5.3878e-05           
  -1.05                 -5.4454e-05           -2.54e-12             -2.3e-12              5.4382e-05           
  -1.1                  -5.5124e-05           -2.68e-12             -2.4e-12              5.5138e-05           
  -1.15                 -5.5848e-05           -2.66e-12             -2.28e-12             5.5818e-05           
  -1.2                  -5.6374e-05           -2.56e-12             -1.9e-12              5.6444e-05           
  -1.25                 -5.7002e-05           -2.54e-12             -1.86e-12             5.681e-05            
  -1.3                  -5.7444e-05           -2.52e-12             -1.48e-12             5.7448e-05           
  -1.35                 -5.809e-05            -2.46e-12             -3.2e-13              5.8012e-05           
END_DB

