! VERSION = 6.00
BEGIN_HEADER
 ICCAP_INPUTS
  vd         V  D GROUND SMU1 0.1 LIN        1    -0         -1.35      28   -0.05     
  vg         V  G GROUND SMU2 0.001 LIST       2 3 -0.279 -0.479 -0.679
  vb         V  B GROUND SMU4 0.1 CON        1.2
  vs         V  S GROUND SMU3 0.1 CON        -0
 ICCAP_OUTPUTS
  id         I  D GROUND SMU1 B
  ig         I  G GROUND SMU2 B
  ib         I  B GROUND SMU4 B
  is         I  S GROUND SMU3 B
 ICCAP_VALUES
  MASTER_SETUP_TYPE "~dc_idvd~"
  LINVT_VALUE ""
  LISTVT_VALUE "|idvg|100.0n|-200.0m|1.000m|3|200.0m|200.0m|"
  TYPE "-1"
  TEMP " 125.000 "
  IS_TNOM " 0.00000 "
  MAIN.W "10.00u"
  MAIN.L "180.0n"
  MAIN.AD "3.400p"
  MAIN.AS "3.400p"
  MAIN.PD "20.68u"
  MAIN.PS "20.68u"
  MAIN.NF "1.000"
  MAIN.M "1"
  MAIN.NRD "0.000"
  MAIN.NRS "0.000"
  MAIN.LDRIFT1 "1E-06"
  MAIN.LDRIFT2 "1E-06"
  MAIN.SA "0.000"
  MAIN.SB "0.000"
  MAIN.SD "0.000"
  MAIN.SCA "0.000"
  MAIN.SCB "0.000"
  MAIN.SCC "0.000"
  MAIN.SC "0.000"
  MODULE "S548"
  PIN_D "12"
  PIN_G "9"
  PIN_S "10"
  PIN_B "11"
  PIN_E ""
  PIN_6 ""
  XY_ID ""
  FUNC "L Scale"
  STI "SA ref"
  WPE "WPE ref"
  COMMENT ""
  DIS_MEAS ""
  TypeTCI "10"
END_HEADER

BEGIN_DB
 ICCAP_VAR vg         -0.279         
 ICCAP_VAR vb         1.2            
 ICCAP_VAR vs         -0             

 #vd                    id                    ig                    ib                    is                   
  -0                    6.722e-11             -6.4e-13              3.576e-11             -1.1062e-10          
  -0.05                 -4.1262e-08           -5.4e-13              2.978e-11             4.1282e-08           
  -0.1                  -5.34e-08             -5.4e-13              2.778e-11             5.351e-08            
  -0.15                 -5.8364e-08           -4.8e-13              2.57e-11              5.836e-08            
  -0.2                  -6.1422e-08           -4.2e-13              2.37e-11              6.1362e-08           
  -0.25                 -6.3826e-08           -2.2e-13              2.182e-11             6.3836e-08           
  -0.3                  -6.6288e-08           -3.4e-13              2.118e-11             6.6304e-08           
  -0.35                 -6.8682e-08           -2.2e-13              2e-11                 6.8692e-08           
  -0.4                  -7.0996e-08           -2e-13                1.876e-11             7.1048e-08           
  -0.45                 -7.3404e-08           -1.6e-13              1.79e-11              7.3452e-08           
  -0.5                  -7.5764e-08           -1e-13                1.77e-11              7.5742e-08           
  -0.55                 -7.7996e-08           -4e-14                1.644e-11             7.7996e-08           
  -0.6                  -8.023e-08            2.2e-13               1.644e-11             8.0358e-08           
  -0.65                 -8.2694e-08           3e-13                 1.584e-11             8.2758e-08           
  -0.7                  -8.5096e-08           5.2e-13               1.564e-11             8.5082e-08           
  -0.75                 -8.7354e-08           7.6e-13               1.504e-11             8.7382e-08           
  -0.8                  -8.9704e-08           1.1e-12               1.456e-11             8.9744e-08           
  -0.85                 -9.1784e-08           1.42e-12              1.488e-11             9.1914e-08           
  -0.9                  -9.4176e-08           1.74e-12              1.502e-11             9.4212e-08           
  -0.95                 -9.647e-08            2.28e-12              1.538e-11             9.6496e-08           
  -1                    -9.8824e-08           2.94e-12              1.61e-11              9.8816e-08           
  -1.05                 -1.01128e-07          3.58e-12              1.726e-11             1.01172e-07          
  -1.1                  -1.03548e-07          4.36e-12              1.91e-11              1.03506e-07          
  -1.15                 -1.059e-07            5e-12                 2.17e-11              1.05874e-07          
  -1.2                  -1.0828e-07           5.98e-12              2.508e-11             1.08282e-07          
  -1.25                 -1.1066e-07           6.96e-12              3.042e-11             1.10656e-07          
  -1.3                  -1.1308e-07           8.14e-12              3.698e-11             1.13024e-07          
  -1.35                 -1.1552e-07           9.42e-12              4.6e-11               1.156e-07            
END_DB

BEGIN_DB
 ICCAP_VAR vg         -0.479         
 ICCAP_VAR vb         1.2            
 ICCAP_VAR vs         -0             

 #vd                    id                    ig                    ib                    is                   
  -0                    3.4552e-09            -3.92e-12             9.22e-12              -4.2546e-09          
  -0.05                 -3.163e-06            -3.22e-12             9.02e-12              3.1646e-06           
  -0.1                  -4.4184e-06           -2.98e-12             8.32e-12              4.4254e-06           
  -0.15                 -4.964e-06            -2.8e-12              9.14e-12              4.968e-06            
  -0.2                  -5.2776e-06           -2.66e-12             9.08e-12              5.2836e-06           
  -0.25                 -5.5148e-06           -2.38e-12             9.3e-12               5.5154e-06           
  -0.3                  -5.7136e-06           -2.2e-12              9.04e-12              5.7164e-06           
  -0.35                 -5.9036e-06           -2.24e-12             9.12e-12              5.9074e-06           
  -0.4                  -6.085e-06            -2.28e-12             8.88e-12              6.0874e-06           
  -0.45                 -6.2632e-06           -2.18e-12             9.32e-12              6.2642e-06           
  -0.5                  -6.4378e-06           -2.02e-12             8.82e-12              6.4374e-06           
  -0.55                 -6.599e-06            -2.18e-12             8.46e-12              6.6016e-06           
  -0.6                  -6.769e-06            -2.06e-12             8.98e-12              6.7754e-06           
  -0.65                 -6.9288e-06           -2e-12                8.78e-12              6.9394e-06           
  -0.7                  -7.0992e-06           -1.82e-12             8.8e-12               7.0958e-06           
  -0.75                 -7.2638e-06           -1.78e-12             8.9e-12               7.2684e-06           
  -0.8                  -7.4168e-06           -1.6e-12              8.36e-12              7.4174e-06           
  -0.85                 -7.5824e-06           -1.64e-12             8.96e-12              7.573e-06            
  -0.9                  -7.726e-06            -1.16e-12             9.04e-12              7.7344e-06           
  -0.95                 -7.8862e-06           -9e-13                9.2e-12               7.8944e-06           
  -1                    -8.0294e-06           -6.2e-13              9.88e-12              8.044e-06            
  -1.05                 -8.1908e-06           -3.8e-13              1.05e-11              8.1962e-06           
  -1.1                  -8.3458e-06           1.8e-13               1.232e-11             8.3444e-06           
  -1.15                 -8.4972e-06           6.8e-13               1.624e-11             8.5004e-06           
  -1.2                  -8.6512e-06           1.16e-12              2.106e-11             8.6572e-06           
  -1.25                 -8.8054e-06           1.84e-12              2.978e-11             8.7942e-06           
  -1.3                  -8.9396e-06           2.8e-12               4.442e-11             8.941e-06            
  -1.35                 -9.0746e-06           3.48e-12              6.7e-11               9.079e-06            
END_DB

BEGIN_DB
 ICCAP_VAR vg         -0.679         
 ICCAP_VAR vb         1.2            
 ICCAP_VAR vs         -0             

 #vd                    id                    ig                    ib                    is                   
  -0                    4.3172e-08            -1.646e-11            7.52e-12              -4.1544e-08          
  -0.05                 -2.621e-05            -1.426e-11            7.22e-12              2.6206e-05           
  -0.1                  -4.4402e-05           -1.25e-11             7.58e-12              4.4422e-05           
  -0.15                 -5.617e-05            -1.124e-11            8e-12                 5.6208e-05           
  -0.2                  -6.3462e-05           -1.044e-11            7.28e-12              6.343e-05            
  -0.25                 -6.8072e-05           -9.78e-12             7.48e-12              6.8136e-05           
  -0.3                  -7.1328e-05           -9.44e-12             7.38e-12              7.1322e-05           
  -0.35                 -7.381e-05            -9.1e-12              7.64e-12              7.3782e-05           
  -0.4                  -7.5868e-05           -8.8e-12              7.76e-12              7.5872e-05           
  -0.45                 -7.7734e-05           -8.68e-12             7.7e-12               7.773e-05            
  -0.5                  -7.9474e-05           -8.64e-12             7.52e-12              7.9516e-05           
  -0.55                 -8.1162e-05           -8.58e-12             8.14e-12              8.1138e-05           
  -0.6                  -8.274e-05            -8.4e-12              8.26e-12              8.2786e-05           
  -0.65                 -8.4302e-05           -8.5e-12              7.7e-12               8.4298e-05           
  -0.7                  -8.581e-05            -8.28e-12             7.84e-12              8.5868e-05           
  -0.75                 -8.7266e-05           -8.16e-12             7.84e-12              8.7268e-05           
  -0.8                  -8.868e-05            -8.12e-12             7.4e-12               8.8686e-05           
  -0.85                 -9.0098e-05           -8.1e-12              7.86e-12              9.0014e-05           
  -0.9                  -9.145e-05            -7.8e-12              7.58e-12              9.1454e-05           
  -0.95                 -9.2754e-05           -7.8e-12              8.06e-12              9.281e-05            
  -1                    -9.4196e-05           -7.68e-12             8.4e-12               9.4156e-05           
  -1.05                 -9.553e-05            -7.24e-12             9.28e-12              9.5494e-05           
  -1.1                  -9.6792e-05           -7.04e-12             1.13e-11              9.6748e-05           
  -1.15                 -9.801e-05            -6.92e-12             1.532e-11             9.7996e-05           
  -1.2                  -9.9226e-05           -6.34e-12             2.302e-11             9.9296e-05           
  -1.25                 -0.000100536          -6.02e-12             3.792e-11             0.000100586          
  -1.3                  -0.000101778          -5.58e-12             6.444e-11             0.000101738          
  -1.35                 -0.000102944          -5.22e-12             1.1208e-10            0.00010296           
END_DB

