! VERSION = 6.00
BEGIN_HEADER
 ICCAP_INPUTS
  vd         V  D GROUND SMU1 0.1 LIN        1    -0         -1.35      28   -0.05     
  vg         V  G GROUND SMU2 0.001 LIST       2 3 -0.154 -0.354 -0.554
  vb         V  B GROUND SMU4 0.1 CON        -0
  vs         V  S GROUND SMU3 0.1 CON        -0
 ICCAP_OUTPUTS
  id         I  D GROUND SMU1 B
  ig         I  G GROUND SMU2 B
  ib         I  B GROUND SMU4 B
  is         I  S GROUND SMU3 B
 ICCAP_VALUES
  MASTER_SETUP_TYPE "~dc_idvd~"
  LINVT_VALUE ""
  LISTVT_VALUE "|idvg|100.0n|-200.0m|1.000m|3|200.0m|200.0m|"
  TYPE "-1"
  TEMP " 70.0000 "
  IS_TNOM " 0.00000 "
  MAIN.W "10.00u"
  MAIN.L "180.0n"
  MAIN.AD "3.400p"
  MAIN.AS "3.400p"
  MAIN.PD "20.68u"
  MAIN.PS "20.68u"
  MAIN.NF "1.000"
  MAIN.M "1"
  MAIN.NRD "0.000"
  MAIN.NRS "0.000"
  MAIN.LDRIFT1 "1E-06"
  MAIN.LDRIFT2 "1E-06"
  MAIN.SA "0.000"
  MAIN.SB "0.000"
  MAIN.SD "0.000"
  MAIN.SCA "0.000"
  MAIN.SCB "0.000"
  MAIN.SCC "0.000"
  MAIN.SC "0.000"
  MODULE "S548"
  PIN_D "12"
  PIN_G "9"
  PIN_S "10"
  PIN_B "11"
  PIN_E ""
  PIN_6 ""
  XY_ID ""
  FUNC "L Scale"
  STI "SA ref"
  WPE "WPE ref"
  COMMENT ""
  DIS_MEAS ""
  TypeTCI "10"
END_HEADER

BEGIN_DB
 ICCAP_VAR vg         -0.154         
 ICCAP_VAR vb         -0             
 ICCAP_VAR vs         -0             

 #vd                    id                    ig                    ib                    is                   
  -0                    5.7e-11               0                     -6.86e-12             -9.89e-11            
  -0.05                 -3.2438e-08           4e-14                 -6.42e-12             3.2458e-08           
  -0.1                  -4.0032e-08           6e-14                 -6.02e-12             4.0058e-08           
  -0.15                 -4.2684e-08           1.2e-13               -5.66e-12             4.2706e-08           
  -0.2                  -4.4306e-08           1.6e-13               -5.46e-12             4.4344e-08           
  -0.25                 -4.5684e-08           -1.6e-13              -5.12e-12             4.574e-08            
  -0.3                  -4.6992e-08           1.8e-13               -4.6e-12              4.7012e-08           
  -0.35                 -4.82e-08             1.8e-13               -4.26e-12             4.8232e-08           
  -0.4                  -4.937e-08            2.2e-13               -3.9e-12              4.938e-08            
  -0.45                 -5.0492e-08           4.4e-13               -3.58e-12             5.0532e-08           
  -0.5                  -5.1618e-08           4.6e-13               -3.14e-12             5.1638e-08           
  -0.55                 -5.2678e-08           7.2e-13               -2.94e-12             5.277e-08            
  -0.6                  -5.379e-08            1e-12                 -2.66e-12             5.3808e-08           
  -0.65                 -5.4814e-08           1.26e-12              -2.32e-12             5.4842e-08           
  -0.7                  -5.5788e-08           1.56e-12              -2.04e-12             5.5814e-08           
  -0.75                 -5.674e-08            2e-12                 -1.8e-12              5.6776e-08           
  -0.8                  -5.7716e-08           2.34e-12              -1.5e-12              5.7768e-08           
  -0.85                 -5.8642e-08           2.98e-12              -1.14e-12             5.869e-08            
  -0.9                  -5.9578e-08           3.5e-12               -8.6e-13              5.96e-08             
  -0.95                 -6.046e-08            4.02e-12              -3.2e-13              6.0504e-08           
  -1                    -6.1392e-08           4.86e-12              3.2e-13               6.1476e-08           
  -1.05                 -6.2314e-08           5.78e-12              1.1e-12               6.234e-08            
  -1.1                  -6.3196e-08           6.76e-12              2.02e-12              6.3248e-08           
  -1.15                 -6.4092e-08           7.8e-12               3.14e-12              6.4062e-08           
  -1.2                  -6.4936e-08           8.92e-12              4.64e-12              6.4928e-08           
  -1.25                 -6.5734e-08           1.022e-11             6.56e-12              6.5808e-08           
  -1.3                  -6.6606e-08           1.166e-11             8.8e-12               6.6606e-08           
  -1.35                 -6.7416e-08           1.324e-11             1.2e-11               6.747e-08            
END_DB

BEGIN_DB
 ICCAP_VAR vg         -0.354         
 ICCAP_VAR vb         -0             
 ICCAP_VAR vs         -0             

 #vd                    id                    ig                    ib                    is                   
  -0                    3.5198e-09            -1.5e-12              -4.1e-12              -5.1162e-09          
  -0.05                 -3.5148e-06           -1.26e-12             -3.76e-12             3.5144e-06           
  -0.1                  -4.713e-06            -1.12e-12             -3.58e-12             4.7194e-06           
  -0.15                 -5.1714e-06           -1e-12                -3.3e-12              5.1784e-06           
  -0.2                  -5.4286e-06           -1e-12                -2.92e-12             5.4358e-06           
  -0.25                 -5.6246e-06           -9.6e-13              -2.72e-12             5.6194e-06           
  -0.3                  -5.7886e-06           -8.8e-13              -2.52e-12             5.7922e-06           
  -0.35                 -5.9442e-06           -8e-13                -2.22e-12             5.9432e-06           
  -0.4                  -6.0888e-06           -8.2e-13              -2e-12                6.0916e-06           
  -0.45                 -6.227e-06            -8.4e-13              -1.7e-12              6.2308e-06           
  -0.5                  -6.357e-06            -6.8e-13              -1.42e-12             6.3562e-06           
  -0.55                 -6.4788e-06           -7.2e-13              -1.18e-12             6.4836e-06           
  -0.6                  -6.604e-06            -6e-13                -8.8e-13              6.6042e-06           
  -0.65                 -6.7174e-06           -4e-13                -7.4e-13              6.7226e-06           
  -0.7                  -6.8314e-06           -2.2e-13              -5e-13                6.8362e-06           
  -0.75                 -6.9428e-06           -8e-14                -3e-13                6.946e-06            
  -0.8                  -7.0438e-06           1.8e-13               4e-14                 7.0518e-06           
  -0.85                 -7.1504e-06           4.2e-13               2.4e-13               7.1462e-06           
  -0.9                  -7.2474e-06           8.6e-13               3e-13                 7.2496e-06           
  -0.95                 -7.3442e-06           1e-12                 6.4e-13               7.354e-06            
  -1                    -7.4462e-06           1.76e-12              1.1e-12               7.4436e-06           
  -1.05                 -7.537e-06            2.14e-12              1.62e-12              7.5428e-06           
  -1.1                  -7.636e-06            2.82e-12              2.64e-12              7.6314e-06           
  -1.15                 -7.714e-06            3.32e-12              4.4e-12               7.7194e-06           
  -1.2                  -7.809e-06            4.1e-12               7.48e-12              7.808e-06            
  -1.25                 -7.894e-06            5.02e-12              1.266e-11             7.8992e-06           
  -1.3                  -7.981e-06            6e-12                 2.134e-11             7.9874e-06           
  -1.35                 -8.0828e-06           6.88e-12              3.512e-11             8.0846e-06           
END_DB

BEGIN_DB
 ICCAP_VAR vg         -0.554         
 ICCAP_VAR vb         -0             
 ICCAP_VAR vs         -0             

 #vd                    id                    ig                    ib                    is                   
  -0                    5.4196e-08            -7.72e-12             -2.96e-12             -5.366e-08           
  -0.05                 -3.2456e-05           -6.36e-12             -2.84e-12             3.2446e-05           
  -0.1                  -5.3916e-05           -5.46e-12             -2.6e-12              5.394e-05            
  -0.15                 -6.691e-05            -5e-12                -2.46e-12             6.6928e-05           
  -0.2                  -7.445e-05            -4.7e-12              -2.14e-12             7.4482e-05           
  -0.25                 -7.9062e-05           -4.18e-12             -1.78e-12             7.9076e-05           
  -0.3                  -8.2226e-05           -4.24e-12             -1.62e-12             8.2218e-05           
  -0.35                 -8.469e-05            -4.04e-12             -1.4e-12              8.4674e-05           
  -0.4                  -8.68e-05             -4.02e-12             -1.22e-12             8.6794e-05           
  -0.45                 -8.863e-05            -3.94e-12             -9.2e-13              8.8606e-05           
  -0.5                  -9.0342e-05           -3.8e-12              -6.8e-13              9.0346e-05           
  -0.55                 -9.1972e-05           -3.98e-12             -4.6e-13              9.2006e-05           
  -0.6                  -9.3494e-05           -3.8e-12              -2.4e-13              9.3538e-05           
  -0.65                 -9.4978e-05           -3.76e-12             -1.6e-13              9.4998e-05           
  -0.7                  -9.6376e-05           -3.76e-12             2e-13                 9.6412e-05           
  -0.75                 -9.7754e-05           -3.62e-12             3.4e-13               9.7744e-05           
  -0.8                  -9.9028e-05           -3.56e-12             6.6e-13               9.9066e-05           
  -0.85                 -0.000100344          -3.4e-12              6.8e-13               0.000100366          
  -0.9                  -0.00010159           -3.24e-12             9e-13                 0.000101584          
  -0.95                 -0.000102792          -2.98e-12             1.18e-12              0.000102794          
  -1                    -0.000103972          -2.68e-12             1.48e-12              0.000104014          
  -1.05                 -0.000105106          -2.38e-12             2.16e-12              0.000105148          
  -1.1                  -0.00010628           -2.04e-12             3.24e-12              0.000106262          
  -1.15                 -0.000107364          -1.58e-12             5.78e-12              0.000107418          
  -1.2                  -0.000108492          -1.22e-12             1.074e-11             0.000108534          
  -1.25                 -0.00010954           -7.2e-13              2.084e-11             0.000109602          
  -1.3                  -0.00011058           -2.2e-13              4.018e-11             0.000110552          
  -1.35                 -0.000111602          6.6e-13               7.596e-11             0.000111668          
END_DB

