! VERSION = 6.00
BEGIN_HEADER
 ICCAP_INPUTS
  vg         V  G GROUND SMU2 0.001 LIN        1    0.5        -1.35      38   -0.05     
  vb         V  B GROUND SMU4 0.1 LIN        2    0          1.2        7    0.2       
  vd         V  D GROUND SMU1 0.1 LIST       3 3 -0.05 -0.6 -1.2
  vs         V  S GROUND SMU3 0.1 CON        -0
 ICCAP_OUTPUTS
  id         I  D GROUND SMU1 B
  ig         I  G GROUND SMU2 B
  ib         I  B GROUND SMU4 B
  is         I  S GROUND SMU3 B
 ICCAP_VALUES
  MASTER_SETUP_TYPE "~dc_idvg~"
  LINVT_VALUE ""
  LISTVT_VALUE ""
  TYPE "-1"
  TEMP " 70.0000 "
  IS_TNOM " 0.00000 "
  MAIN.W "300.0n"
  MAIN.L "130.0n"
  MAIN.AD "102.0f"
  MAIN.AS "102.0f"
  MAIN.PD "1.280u"
  MAIN.PS "1.280u"
  MAIN.NF "1.000"
  MAIN.M "1"
  MAIN.NRD "0.000"
  MAIN.NRS "0.000"
  MAIN.LDRIFT1 "1E-06"
  MAIN.LDRIFT2 "1E-06"
  MAIN.SA "0.000"
  MAIN.SB "0.000"
  MAIN.SD "0.000"
  MAIN.SCA "0.000"
  MAIN.SCB "0.000"
  MAIN.SCC "0.000"
  MAIN.SC "0.000"
  MODULE "S552"
  PIN_D "18"
  PIN_G "3"
  PIN_S "4"
  PIN_B "17"
  PIN_E ""
  PIN_6 ""
  XY_ID ""
  FUNC "LW Scale"
  STI "SA ref"
  WPE "WPE ref"
  COMMENT ""
  DIS_MEAS ""
  TypeTCI "10"
END_HEADER

BEGIN_DB
 ICCAP_VAR vb         0              
 ICCAP_VAR vd         -0.05          
 ICCAP_VAR vs         -0             

 #vg                    id                    ig                    ib                    is                   
  0.5                   -3.8e-13              6.3894e-10            -5.3212e-10           -3.4e-13             
  0.45                  -1e-13                1.1938e-10            -2.4608e-10           1.6e-13              
  0.4                   0                     2.26e-11              -1.4256e-10           4e-14                
  0.35                  0                     4.42e-12              -9.948e-11            1.8e-13              
  0.3                   1e-13                 7e-13                 -7.726e-11            2.2e-13              
  0.25                  -1.6e-13              0                     -6.358e-11            1.8e-13              
  0.2                   -4e-14                -1.2e-13              -5.426e-11            3e-13                
  0.15                  -4.2e-13              -2.8e-13              -4.754e-11            5.6e-13              
  0.1                   -1.76e-12             -2.2e-13              -4.224e-11            1.74e-12             
  0.05                  -5.78e-12             -3.2e-13              -3.808e-11            5.94e-12             
  0                     -2.068e-11            -2.8e-13              -3.46e-11             2.068e-11            
  -0.05                 -7.388e-11            -3.4e-13              -3.138e-11            7.436e-11            
  -0.1                  -2.6634e-10           -4.6e-13              -2.876e-11            2.6632e-10           
  -0.15                 -9.5642e-10           -4.2e-13              -2.672e-11            9.562e-10            
  -0.2                  -3.4132e-09           -4e-13                -2.326e-11            3.4148e-09           
  -0.25                 -1.1846e-08           -3.6e-13              -2.116e-11            1.185e-08            
  -0.3                  -3.882e-08            -3.8e-13              -1.984e-11            3.8688e-08           
  -0.35                 -1.12562e-07          -4.4e-13              -1.856e-11            1.12664e-07          
  -0.4                  -2.7594e-07           -5.2e-13              -1.722e-11            2.7598e-07           
  -0.45                 -5.5864e-07           -5e-13                -1.614e-11            5.5922e-07           
  -0.5                  -9.5772e-07           -5.2e-13              -1.5e-11              9.5764e-07           
  -0.55                 -1.4322e-06           -5.6e-13              -1.356e-11            1.4362e-06           
  -0.6                  -1.9642e-06           -7.8e-13              -1.272e-11            1.967e-06            
  -0.65                 -2.518e-06            -8.2e-13              -1.198e-11            2.521e-06            
  -0.7                  -3.0654e-06           -9.8e-13              -1.128e-11            3.0648e-06           
  -0.75                 -3.6098e-06           -1.08e-12             -1.042e-11            3.6096e-06           
  -0.8                  -4.1434e-06           -1.34e-12             -9.86e-12             4.1418e-06           
  -0.85                 -4.645e-06            -1.68e-12             -9.46e-12             4.6438e-06           
  -0.9                  -5.1142e-06           -1.92e-12             -8.8e-12              5.1244e-06           
  -0.95                 -5.5932e-06           -2.32e-12             -8.24e-12             5.5898e-06           
  -1                    -6.0314e-06           -2.72e-12             -7.76e-12             6.0562e-06           
  -1.05                 -6.4952e-06           -3.28e-12             -7.26e-12             6.4866e-06           
  -1.1                  -6.8796e-06           -4.04e-12             -6.88e-12             6.8762e-06           
  -1.15                 -7.26e-06             -4.64e-12             -6.48e-12             7.2696e-06           
  -1.2                  -7.6478e-06           -5.66e-12             -6.08e-12             7.6476e-06           
  -1.25                 -7.9828e-06           -6.7e-12              -5.46e-12             7.9878e-06           
  -1.3                  -8.3172e-06           -7.82e-12             -5.3e-12              8.327e-06            
  -1.35                 -8.6272e-06           -9.16e-12             -4.74e-12             8.6292e-06           
END_DB

BEGIN_DB
 ICCAP_VAR vb         0.2            
 ICCAP_VAR vd         -0.05          
 ICCAP_VAR vs         -0             

 #vg                    id                    ig                    ib                    is                   
  0.5                   -2.8e-13              1.26e-12              1.07e-11              -3.2e-13             
  0.45                  0                     3.4e-13               1.104e-11             -4e-14               
  0.4                   -8e-14                1.2e-13               1.1e-11               2e-14                
  0.35                  -1e-13                -2e-14                1.106e-11             -1.4e-13             
  0.3                   0                     -2e-13                1.11e-11              -1.6e-13             
  0.25                  -4e-14                -1.6e-13              1.102e-11             0                    
  0.2                   -1.4e-13              -2e-13                1.096e-11             8e-14                
  0.15                  -3e-13                -2.6e-13              1.1e-11               1.6e-13              
  0.1                   -5.6e-13              -2.8e-13              1.094e-11             5.4e-13              
  0.05                  -1.72e-12             -4.2e-13              1.096e-11             1.78e-12             
  0                     -6.52e-12             -3.2e-13              1.1e-11               6.54e-12             
  -0.05                 -2.408e-11            -4.8e-13              1.094e-11             2.42e-11             
  -0.1                  -8.972e-11            -5.4e-13              1.094e-11             8.992e-11            
  -0.15                 -3.3484e-10           -4.2e-13              1.098e-11             3.3344e-10           
  -0.2                  -1.2292e-09           -3.4e-13              1.092e-11             1.2304e-09           
  -0.25                 -4.5008e-09           -4e-13                1.096e-11             4.5022e-09           
  -0.3                  -1.5818e-08           -4e-13                1.072e-11             1.5826e-08           
  -0.35                 -5.1396e-08           -5.2e-13              1.08e-11              5.1444e-08           
  -0.4                  -1.451e-07            -5.4e-13              1.086e-11             1.4522e-07           
  -0.45                 -3.3842e-07           -6.8e-13              1.09e-11              3.3888e-07           
  -0.5                  -6.4932e-07           -6.6e-13              1.084e-11             6.4946e-07           
  -0.55                 -1.06814e-06          -6.8e-13              1.076e-11             1.06818e-06          
  -0.6                  -1.5596e-06           -7.2e-13              1.08e-11              1.564e-06            
  -0.65                 -2.0912e-06           -8.8e-13              1.086e-11             2.0952e-06           
  -0.7                  -2.6376e-06           -1.02e-12             1.092e-11             2.6238e-06           
  -0.75                 -3.1648e-06           -1.2e-12              1.08e-11              3.1636e-06           
  -0.8                  -3.7004e-06           -1.5e-12              1.074e-11             3.6884e-06           
  -0.85                 -4.2018e-06           -1.7e-12              1.076e-11             4.2014e-06           
  -0.9                  -4.7026e-06           -1.94e-12             1.074e-11             4.6994e-06           
  -0.95                 -5.1768e-06           -2.28e-12             1.07e-11              5.1726e-06           
  -1                    -5.636e-06            -2.64e-12             1.08e-11              5.638e-06            
  -1.05                 -6.076e-06            -3.3e-12              1.076e-11             6.0736e-06           
  -1.1                  -6.4738e-06           -3.92e-12             1.084e-11             6.4794e-06           
  -1.15                 -6.8744e-06           -4.7e-12              1.076e-11             6.8776e-06           
  -1.2                  -7.2508e-06           -5.78e-12             1.092e-11             7.2288e-06           
  -1.25                 -7.5802e-06           -6.64e-12             1.072e-11             7.5868e-06           
  -1.3                  -7.897e-06            -7.7e-12              1.076e-11             7.9132e-06           
  -1.35                 -8.2326e-06           -8.94e-12             1.084e-11             8.2382e-06           
END_DB

BEGIN_DB
 ICCAP_VAR vb         0.4            
 ICCAP_VAR vd         -0.05          
 ICCAP_VAR vs         -0             

 #vg                    id                    ig                    ib                    is                   
  0.5                   0                     4.4e-13               1.166e-11             -1.2e-13             
  0.45                  -1.2e-13              2.2e-13               1.19e-11              -2e-13               
  0.4                   0                     -2e-14                1.194e-11             0                    
  0.35                  4e-14                 -8e-14                1.18e-11              -2e-14               
  0.3                   -1e-13                -1.6e-13              1.19e-11              -4e-14               
  0.25                  2e-14                 -2.6e-13              1.18e-11              1.2e-13              
  0.2                   -1.2e-13              -3.6e-13              1.188e-11             8e-14                
  0.15                  -1e-13                -2.4e-13              1.198e-11             4e-14                
  0.1                   -2.4e-13              -3.8e-13              1.182e-11             2.2e-13              
  0.05                  -8.2e-13              -3.2e-13              1.178e-11             6.4e-13              
  0                     -2.42e-12             -3.2e-13              1.19e-11              2.4e-12              
  -0.05                 -8.98e-12             -4.6e-13              1.188e-11             8.96e-12             
  -0.1                  -3.39e-11             -3e-13                1.194e-11             3.4e-11              
  -0.15                 -1.2942e-10           -4.8e-13              1.182e-11             1.294e-10            
  -0.2                  -4.9216e-10           -5.2e-13              1.19e-11              4.9086e-10           
  -0.25                 -1.8532e-09           -3.8e-13              1.188e-11             1.8526e-09           
  -0.3                  -6.8498e-09           -4.6e-13              1.184e-11             6.844e-09            
  -0.35                 -2.407e-08            -5.8e-13              1.184e-11             2.4088e-08           
  -0.4                  -7.586e-08            -4.8e-13              1.2e-11               7.5662e-08           
  -0.45                 -2e-07                -6.2e-13              1.186e-11             2.009e-07            
  -0.5                  -4.3746e-07           -6.2e-13              1.204e-11             4.3756e-07           
  -0.55                 -7.9278e-07           -7e-13                1.168e-11             7.9242e-07           
  -0.6                  -1.2334e-06           -5.4e-13              1.18e-11              1.233e-06            
  -0.65                 -1.736e-06            -9e-13                1.192e-11             1.7392e-06           
  -0.7                  -2.2684e-06           -1.02e-12             1.188e-11             2.2704e-06           
  -0.75                 -2.805e-06            -1.18e-12             1.172e-11             2.7984e-06           
  -0.8                  -3.3114e-06           -1.34e-12             1.178e-11             3.3132e-06           
  -0.85                 -3.8076e-06           -1.68e-12             1.184e-11             3.8126e-06           
  -0.9                  -4.3104e-06           -1.78e-12             1.174e-11             4.3126e-06           
  -0.95                 -4.8002e-06           -2.16e-12             1.186e-11             4.7846e-06           
  -1                    -5.262e-06            -2.82e-12             1.18e-11              5.2652e-06           
  -1.05                 -5.7012e-06           -3.2e-12              1.186e-11             5.7178e-06           
  -1.1                  -6.1172e-06           -3.86e-12             1.17e-11              6.113e-06            
  -1.15                 -6.5172e-06           -4.76e-12             1.174e-11             6.5146e-06           
  -1.2                  -6.8666e-06           -5.6e-12              1.18e-11              6.888e-06            
  -1.25                 -7.254e-06            -6.7e-12              1.18e-11              7.2624e-06           
  -1.3                  -7.5922e-06           -7.78e-12             1.186e-11             7.5944e-06           
  -1.35                 -7.9118e-06           -9.04e-12             1.182e-11             7.8956e-06           
END_DB

BEGIN_DB
 ICCAP_VAR vb         0.6            
 ICCAP_VAR vd         -0.05          
 ICCAP_VAR vs         -0             

 #vg                    id                    ig                    ib                    is                   
  0.5                   4e-14                 4e-13                 1.204e-11             -1.6e-13             
  0.45                  -8e-14                2e-13                 1.208e-11             0                    
  0.4                   -8e-14                4e-14                 1.198e-11             0                    
  0.35                  -6e-14                4e-14                 1.208e-11             -4e-14               
  0.3                   -4e-14                -1.4e-13              1.206e-11             0                    
  0.25                  -1.2e-13              -1.6e-13              1.212e-11             -4e-14               
  0.2                   -6e-14                -2.8e-13              1.204e-11             1.2e-13              
  0.15                  -6e-14                -2e-13                1.214e-11             0                    
  0.1                   -2e-14                -2.6e-13              1.208e-11             1e-13                
  0.05                  -2.8e-13              -3.6e-13              1.216e-11             2.8e-13              
  0                     -1.02e-12             -3.4e-13              1.22e-11              9.8e-13              
  -0.05                 -3.8e-12              -4.6e-13              1.202e-11             3.78e-12             
  -0.1                  -1.472e-11            -4e-13                1.216e-11             1.46e-11             
  -0.15                 -5.652e-11            -4.2e-13              1.208e-11             5.672e-11            
  -0.2                  -2.2006e-10           -4.4e-13              1.216e-11             2.202e-10            
  -0.25                 -8.4374e-10           -4.6e-13              1.19e-11              8.477e-10            
  -0.3                  -3.2062e-09           -3.6e-13              1.194e-11             3.221e-09            
  -0.35                 -1.1794e-08           -4.6e-13              1.204e-11             1.1754e-08           
  -0.4                  -3.988e-08            -5.4e-13              1.206e-11             3.9916e-08           
  -0.45                 -1.1792e-07           -7e-13                1.214e-11             1.1776e-07           
  -0.5                  -2.8686e-07           -6.6e-13              1.21e-11              2.8764e-07           
  -0.55                 -5.7048e-07           -6.2e-13              1.212e-11             5.7282e-07           
  -0.6                  -9.6826e-07           -8.4e-13              1.21e-11              9.6376e-07           
  -0.65                 -1.4318e-06           -5.4e-13              1.204e-11             1.434e-06            
  -0.7                  -1.9434e-06           -8.4e-13              1.224e-11             1.9458e-06           
  -0.75                 -2.47e-06             -1.16e-12             1.194e-11             2.4728e-06           
  -0.8                  -2.9988e-06           -1.38e-12             1.208e-11             3.0024e-06           
  -0.85                 -3.5168e-06           -1.6e-12              1.21e-11              3.5214e-06           
  -0.9                  -4.018e-06            -1.88e-12             1.202e-11             4.0058e-06           
  -0.95                 -4.4952e-06           -2.28e-12             1.204e-11             4.492e-06            
  -1                    -4.9198e-06           -2.62e-12             1.198e-11             4.936e-06            
  -1.05                 -5.3724e-06           -3.24e-12             1.208e-11             5.3676e-06           
  -1.1                  -5.7894e-06           -3.92e-12             1.204e-11             5.795e-06            
  -1.15                 -6.2062e-06           -4.66e-12             1.206e-11             6.2128e-06           
  -1.2                  -6.5904e-06           -5.58e-12             1.21e-11              6.5988e-06           
  -1.25                 -6.9566e-06           -6.56e-12             1.208e-11             6.962e-06            
  -1.3                  -7.2936e-06           -7.76e-12             1.214e-11             7.299e-06            
  -1.35                 -7.6312e-06           -8.86e-12             1.212e-11             7.63e-06             
END_DB

BEGIN_DB
 ICCAP_VAR vb         0.8            
 ICCAP_VAR vd         -0.05          
 ICCAP_VAR vs         -0             

 #vg                    id                    ig                    ib                    is                   
  0.5                   -1.6e-13              4.6e-13               1.24e-11              -6e-14               
  0.45                  4e-14                 1.4e-13               1.23e-11              -1e-13               
  0.4                   -1.2e-13              -2e-14                1.226e-11             0                    
  0.35                  -1.8e-13              0                     1.23e-11              0                    
  0.3                   -1e-13                -2.8e-13              1.228e-11             8e-14                
