! VERSION = 6.00
BEGIN_HEADER
 ICCAP_INPUTS
  vd         V  D GROUND SMU1 0.1 LIN        1    -0         -1.35      28   -0.05     
  vg         V  G GROUND SMU2 0.001 LIST       2 3 -0.332 -0.532 -0.732
  vb         V  B GROUND SMU4 0.1 CON        1.2
  vs         V  S GROUND SMU3 0.1 CON        -0
 ICCAP_OUTPUTS
  id         I  D GROUND SMU1 B
  ig         I  G GROUND SMU2 B
  ib         I  B GROUND SMU4 B
  is         I  S GROUND SMU3 B
 ICCAP_VALUES
  MASTER_SETUP_TYPE "~dc_idvd~"
  LINVT_VALUE ""
  LISTVT_VALUE "|idvg|100.0n|-200.0m|1.000m|3|200.0m|200.0m|"
  TYPE "-1"
  TEMP " 27.0000 "
  IS_TNOM " 1.00000 "
  MAIN.W "10.00u"
  MAIN.L "130.0n"
  MAIN.AD "3.400p"
  MAIN.AS "3.400p"
  MAIN.PD "20.68u"
  MAIN.PS "20.68u"
  MAIN.NF "1.000"
  MAIN.M "1"
  MAIN.NRD "0.000"
  MAIN.NRS "0.000"
  MAIN.LDRIFT1 "1E-06"
  MAIN.LDRIFT2 "1E-06"
  MAIN.SA "0.000"
  MAIN.SB "0.000"
  MAIN.SD "0.000"
  MAIN.SCA "0.000"
  MAIN.SCB "0.000"
  MAIN.SCC "0.000"
  MAIN.SC "0.000"
  MODULE "S548"
  PIN_D "18"
  PIN_G "3"
  PIN_S "4"
  PIN_B "17"
  PIN_E ""
  PIN_6 ""
  XY_ID ""
  FUNC "Short"
  STI "SA ref"
  WPE "WPE ref"
  COMMENT ""
  DIS_MEAS ""
  TypeTCI "10"
END_HEADER

BEGIN_DB
 ICCAP_VAR vg         -0.332         
 ICCAP_VAR vb         1.2            
 ICCAP_VAR vs         -0             

 #vd                    id                    ig                    ib                    is                   
  -0                    1.824e-11             -1.16e-12             1.4e-13               -3.402e-11           
  -0.05                 -1.162e-08            -8.2e-13              1.4e-13               1.1668e-08           
  -0.1                  -1.4998e-08           -8.4e-13              8e-14                 1.5014e-08           
  -0.15                 -1.7018e-08           -7.4e-13              1.2e-13               1.7054e-08           
  -0.2                  -1.8936e-08           -8.4e-13              8e-14                 1.899e-08            
  -0.25                 -2.0958e-08           -7.8e-13              2.2e-13               2.0984e-08           
  -0.3                  -2.3074e-08           -7e-13                1.4e-13               2.309e-08            
  -0.35                 -2.5358e-08           -6.6e-13              1.8e-13               2.538e-08            
  -0.4                  -2.7826e-08           -6.2e-13              2.4e-13               2.784e-08            
  -0.45                 -3.0452e-08           -5.4e-13              2.4e-13               3.0492e-08           
  -0.5                  -3.3224e-08           -5.6e-13              2e-14                 3.3226e-08           
  -0.55                 -3.6178e-08           -2.8e-13              6e-14                 3.6236e-08           
  -0.6                  -3.9426e-08           -2.4e-13              2e-14                 3.945e-08            
  -0.65                 -4.2886e-08           -1.4e-13              6e-14                 4.295e-08            
  -0.7                  -4.662e-08            1.2e-13               1.2e-13               4.6646e-08           
  -0.75                 -5.0656e-08           2.4e-13               8e-14                 5.0662e-08           
  -0.8                  -5.49e-08             4.2e-13               1.4e-13               5.492e-08            
  -0.85                 -5.9494e-08           8.2e-13               2.2e-13               5.9598e-08           
  -0.9                  -6.4544e-08           1.26e-12              1.4e-13               6.461e-08            
  -0.95                 -6.9916e-08           1.62e-12              1.2e-13               6.994e-08            
  -1                    -7.5796e-08           2.3e-12               2.2e-13               7.5804e-08           
  -1.05                 -8.1966e-08           2.82e-12              2e-14                 8.1998e-08           
  -1.1                  -8.8732e-08           3.68e-12              1.4e-13               8.8752e-08           
  -1.15                 -9.596e-08            4.44e-12              1.8e-13               9.5998e-08           
  -1.2                  -1.03766e-07          5.26e-12              4.4e-13               1.03846e-07          
  -1.25                 -1.1214e-07           6.38e-12              8.2e-13               1.1224e-07           
  -1.3                  -1.2118e-07           7.58e-12              1.06e-12              1.2144e-07           
  -1.35                 -1.3112e-07           8.9e-12               1.78e-12              1.3122e-07           
END_DB

BEGIN_DB
 ICCAP_VAR vg         -0.532         
 ICCAP_VAR vb         1.2            
 ICCAP_VAR vs         -0             

 #vd                    id                    ig                    ib                    is                   
  -0                    3.4754e-09            -5.36e-12             4e-14                 -4.2322e-09          
  -0.05                 -2.9908e-06           -4.54e-12             -4e-14                2.9926e-06           
  -0.1                  -4.1242e-06           -4.12e-12             0                     4.1336e-06           
  -0.15                 -4.7624e-06           -3.88e-12             -8e-14                4.7716e-06           
  -0.2                  -5.2746e-06           -3.54e-12             4e-14                 5.2814e-06           
  -0.25                 -5.7578e-06           -3.48e-12             1.4e-13               5.7638e-06           
  -0.3                  -6.238e-06            -3.36e-12             -2e-14                6.23e-06             
  -0.35                 -6.712e-06            -3.28e-12             -6e-14                6.7254e-06           
  -0.4                  -7.2118e-06           -3.24e-12             0                     7.217e-06            
  -0.45                 -7.7224e-06           -3.28e-12             -1e-13                7.7216e-06           
  -0.5                  -8.249e-06            -3.2e-12              -6e-14                8.2526e-06           
  -0.55                 -8.798e-06            -3.18e-12             2e-14                 8.799e-06            
  -0.6                  -9.36e-06             -3.12e-12             0                     9.3632e-06           
  -0.65                 -9.9472e-06           -3.08e-12             2e-14                 9.9616e-06           
  -0.7                  -1.05736e-05          -2.96e-12             2e-13                 1.05638e-05          
  -0.75                 -1.121e-05            -2.94e-12             -4e-14                1.1205e-05           
  -0.8                  -1.1852e-05           -2.82e-12             1.2e-13               1.1872e-05           
  -0.85                 -1.2536e-05           -2.7e-12              2e-14                 1.2546e-05           
  -0.9                  -1.3244e-05           -2.42e-12             0                     1.3256e-05           
  -0.95                 -1.3962e-05           -2.12e-12             1.6e-13               1.3986e-05           
  -1                    -1.4734e-05           -1.82e-12             1.8e-13               1.4754e-05           
  -1.05                 -1.553e-05            -1.56e-12             2.8e-13               1.5562e-05           
  -1.1                  -1.6374e-05           -1.3e-12              7.2e-13               1.6384e-05           
  -1.15                 -1.7202e-05           -9.4e-13              1.72e-12              1.722e-05            
  -1.2                  -1.8092e-05           -3e-13                3.76e-12              1.8092e-05           
  -1.25                 -1.9034e-05           2.4e-13               8.1e-12               1.9066e-05           
  -1.3                  -1.9998e-05           9.4e-13               1.654e-11             2.002e-05            
  -1.35                 -2.1016e-05           1.92e-12              3.226e-11             2.1038e-05           
END_DB

BEGIN_DB
 ICCAP_VAR vg         -0.732         
 ICCAP_VAR vb         1.2            
 ICCAP_VAR vs         -0             

 #vd                    id                    ig                    ib                    is                   
  -0                    6.6116e-08            -2.056e-11            0                     -6.2598e-08          
  -0.05                 -4.146e-05            -1.8e-11              6e-14                 4.1468e-05           
  -0.1                  -6.9386e-05           -1.598e-11            4e-14                 6.9368e-05           
  -0.15                 -8.7618e-05           -1.454e-11            4e-14                 8.764e-05            
  -0.2                  -9.988e-05            -1.358e-11            4e-14                 9.9994e-05           
  -0.25                 -0.000108984          -1.282e-11            2e-14                 0.000109042          
  -0.3                  -0.00011612           -1.234e-11            2e-13                 0.00011642           
  -0.35                 -0.00012236           -1.19e-11             -4e-14                0.00012262           
  -0.4                  -0.00012816           -1.16e-11             -1.2e-13              0.0001286            
  -0.45                 -0.00013366           -1.15e-11             -4e-14                0.00013408           
  -0.5                  -0.00013898           -1.134e-11            6e-14                 0.00013944           
  -0.55                 -0.00014428           -1.134e-11            2e-14                 0.00014474           
  -0.6                  -0.00014946           -1.118e-11            0                     0.0001498            
  -0.65                 -0.0001545            -1.1e-11              -2e-14                0.00015478           
  -0.7                  -0.00015958           -1.096e-11            0                     0.00015984           
  -0.75                 -0.0001646            -1.086e-11            4e-14                 0.0001649            
  -0.8                  -0.00016964           -1.088e-11            6e-14                 0.0001698            
  -0.85                 -0.00017474           -1.074e-11            0                     0.00017498           
  -0.9                  -0.00017982           -1.074e-11            -4e-14                0.00018018           
  -0.95                 -0.00018502           -1.056e-11            -4e-14                0.0001854            
  -1                    -0.00019014           -1.034e-11            1.4e-13               0.0001906            
  -1.05                 -0.00019538           -1.03e-11             2.8e-13               0.0001957            
  -1.1                  -0.00020078           -1.014e-11            8e-13                 0.0002011            
  -1.15                 -0.00020586           -9.86e-12             2.12e-12              0.0002063            
  -1.2                  -0.00021148           -9.54e-12             5.24e-12              0.00021192           
  -1.25                 -0.00021708           -9.22e-12             1.226e-11             0.00021742           
  -1.3                  -0.00022256           -8.68e-12             2.746e-11             0.00022284           
  -1.35                 -0.00022822           -8.44e-12             5.926e-11             0.00022846           
END_DB

