! VERSION = 6.00
BEGIN_HEADER
 ICCAP_INPUTS
  vd         V  D GROUND SMU1 0.1 LIN        1    -0         -1.35      28   -0.05     
  vg         V  G GROUND SMU2 0.001 LIN        2    -0.626     -1.35      5    -0.181    
  vb         V  B GROUND SMU4 0.1 CON        1.2
  vs         V  S GROUND SMU3 0.1 CON        -0
 ICCAP_OUTPUTS
  id         I  D GROUND SMU1 B
  ig         I  G GROUND SMU2 B
  ib         I  B GROUND SMU4 B
  is         I  S GROUND SMU3 B
 ICCAP_VALUES
  MASTER_SETUP_TYPE "~dc_idvd~"
  LINVT_VALUE "|idvg|100.0n|100.0m|1.000m|5|1.350|"
  LISTVT_VALUE ""
  TYPE "-1"
  TEMP " 27.0000 "
  IS_TNOM " 1.00000 "
  MAIN.W "600.0n"
  MAIN.L "180.0n"
  MAIN.AD "204.0f"
  MAIN.AS "204.0f"
  MAIN.PD "1.880u"
  MAIN.PS "1.880u"
  MAIN.NF "1.000"
  MAIN.M "1"
  MAIN.NRD "0.000"
  MAIN.NRS "0.000"
  MAIN.LDRIFT1 "1E-06"
  MAIN.LDRIFT2 "1E-06"
  MAIN.SA "0.000"
  MAIN.SB "0.000"
  MAIN.SD "0.000"
  MAIN.SCA "0.000"
  MAIN.SCB "0.000"
  MAIN.SCC "0.000"
  MAIN.SC "0.000"
  MODULE "S551"
  PIN_D "16"
  PIN_G "5"
  PIN_S "6"
  PIN_B "15"
  PIN_E ""
  PIN_6 ""
  XY_ID ""
  FUNC "LW Scale"
  STI "SA ref"
  WPE "WPE ref"
  COMMENT ""
  DIS_MEAS ""
  TypeTCI "10"
END_HEADER

BEGIN_DB
 ICCAP_VAR vg         -0.626         
 ICCAP_VAR vb         1.2            
 ICCAP_VAR vs         -0             

 #vd                    id                    ig                    ib                    is                   
  -0                    1.5954e-09            -8.8e-13              4.2e-13               -1.6112e-09          
  -0.05                 -9.9638e-07           -7.2e-13              3.2e-13               9.97e-07             
  -0.1                  -1.4886e-06           -5e-13                4.2e-13               1.4916e-06           
  -0.15                 -1.7168e-06           -4.4e-13              4.4e-13               1.7204e-06           
  -0.2                  -1.8404e-06           -4.4e-13              4e-13                 1.8354e-06           
  -0.25                 -1.917e-06            -2.6e-13              3e-13                 1.921e-06            
  -0.3                  -1.989e-06            -3e-13                2.2e-13               1.993e-06            
  -0.35                 -2.0534e-06           -3.2e-13              2.6e-13               2.0578e-06           
  -0.4                  -2.1146e-06           -3.8e-13              2.6e-13               2.1178e-06           
  -0.45                 -2.1716e-06           -3.6e-13              2e-13                 2.1758e-06           
  -0.5                  -2.227e-06            -2.8e-13              2.6e-13               2.23e-06             
  -0.55                 -2.2798e-06           -3.8e-13              2.8e-13               2.2824e-06           
  -0.6                  -2.3306e-06           -4.4e-13              2.4e-13               2.3344e-06           
  -0.65                 -2.3814e-06           -2.2e-13              2.2e-13               2.3858e-06           
  -0.7                  -2.4326e-06           -2.4e-13              1.4e-13               2.437e-06            
  -0.75                 -2.4814e-06           -1.6e-13              2e-13                 2.4856e-06           
  -0.8                  -2.5304e-06           -3.2e-13              1.8e-13               2.5336e-06           
  -0.85                 -2.5786e-06           -3.2e-13              1.2e-13               2.5818e-06           
  -0.9                  -2.6264e-06           -1.4e-13              2e-13                 2.6296e-06           
  -0.95                 -2.673e-06            -1.4e-13              1.4e-13               2.6768e-06           
  -1                    -2.7198e-06           -1.8e-13              1.6e-13               2.7246e-06           
  -1.05                 -2.767e-06            -1e-13                1.8e-13               2.769e-06            
  -1.1                  -2.8118e-06           -1.4e-13              2.4e-13               2.815e-06            
  -1.15                 -2.8574e-06           0                     2e-13                 2.8614e-06           
  -1.2                  -2.9032e-06           -2e-14                2.6e-13               2.9056e-06           
  -1.25                 -2.9468e-06           6e-14                 5.2e-13               2.95e-06             
  -1.3                  -2.9918e-06           1.4e-13               7.6e-13               2.9964e-06           
  -1.35                 -3.0362e-06           1.4e-13               1.5e-12               3.0414e-06           
END_DB

BEGIN_DB
 ICCAP_VAR vg         -0.807         
 ICCAP_VAR vb         1.2            
 ICCAP_VAR vs         -0             

 #vd                    id                    ig                    ib                    is                   
  -0                    3.2536e-09            -2.26e-12             8e-14                 -3.709e-09           
  -0.05                 -3.612e-06            -1.88e-12             4e-14                 3.616e-06            
  -0.1                  -6.3872e-06           -1.66e-12             1.4e-13               6.391e-06            
  -0.15                 -8.392e-06            -1.48e-12             8e-14                 8.396e-06            
  -0.2                  -9.7578e-06           -1.34e-12             1.6e-13               9.7594e-06           
  -0.25                 -1.0656e-05           -1.26e-12             6e-14                 1.06626e-05          
  -0.3                  -1.12626e-05          -1.12e-12             -2e-14                1.12638e-05          
  -0.35                 -1.1692e-05           -1.08e-12             6e-14                 1.171e-05            
  -0.4                  -1.2046e-05           -1.04e-12             1e-13                 1.2068e-05           
  -0.45                 -1.2352e-05           -8.8e-13              1e-13                 1.2368e-05           
  -0.5                  -1.2612e-05           -9.2e-13              1.8e-13               1.2638e-05           
  -0.55                 -1.2872e-05           -9.2e-13              1.2e-13               1.289e-05            
  -0.6                  -1.3166e-05           -7.8e-13              1.4e-13               1.3128e-05           
  -0.65                 -1.333e-05            -8.4e-13              1.6e-13               1.3348e-05           
  -0.7                  -1.354e-05            -9.4e-13              2e-14                 1.3564e-05           
  -0.75                 -1.3752e-05           -8.8e-13              4e-14                 1.3768e-05           
  -0.8                  -1.4022e-05           -9e-13                1.6e-13               1.404e-05            
  -0.85                 -1.4216e-05           -8e-13                -4e-14                1.4236e-05           
  -0.9                  -1.4408e-05           -8.8e-13              -1.6e-13              1.4426e-05           
  -0.95                 -1.4594e-05           -9.4e-13              -6e-14                1.461e-05            
  -1                    -1.4754e-05           -9e-13                1e-13                 1.4792e-05           
  -1.05                 -1.4958e-05           -8.4e-13              2e-14                 1.4976e-05           
  -1.1                  -1.5136e-05           -7.4e-13              1.2e-13               1.5158e-05           
  -1.15                 -1.5314e-05           -7e-13                1.4e-13               1.5336e-05           
  -1.2                  -1.5494e-05           -8e-13                6e-14                 1.5506e-05           
  -1.25                 -1.5662e-05           -7.8e-13              2.2e-13               1.5686e-05           
  -1.3                  -1.584e-05            -6.6e-13              5e-13                 1.5854e-05           
  -1.35                 -1.6004e-05           -6e-13                1.08e-12              1.6022e-05           
END_DB

BEGIN_DB
 ICCAP_VAR vg         -0.988         
 ICCAP_VAR vb         1.2            
 ICCAP_VAR vs         -0             

 #vd                    id                    ig                    ib                    is                   
  -0                    3.3368e-09            -5.42e-12             6e-14                 -5.0306e-09          
  -0.05                 -6.3084e-06           -4.88e-12             1e-13                 6.3122e-06           
  -0.1                  -1.1796e-05           -4.38e-12             -4e-14                1.1824e-05           
  -0.15                 -1.6482e-05           -3.86e-12             0                     1.6514e-05           
  -0.2                  -2.0358e-05           -3.44e-12             -2e-14                2.036e-05            
  -0.25                 -2.3414e-05           -3.16e-12             -2e-14                2.3434e-05           
  -0.3                  -2.5786e-05           -2.84e-12             8e-14                 2.5804e-05           
  -0.35                 -2.7576e-05           -2.56e-12             1e-13                 2.7596e-05           
  -0.4                  -2.895e-05            -2.44e-12             -1.2e-13              2.897e-05            
  -0.45                 -3e-05                -2.42e-12             0                     3.0014e-05           
  -0.5                  -3.0864e-05           -2.3e-12              2e-14                 3.0872e-05           
  -0.55                 -3.152e-05            -2.12e-12             6e-14                 3.1544e-05           
  -0.6                  -3.215e-05            -2.16e-12             8e-14                 3.2144e-05           
  -0.65                 -3.268e-05            -2.1e-12              -4e-14                3.2692e-05           
  -0.7                  -3.3166e-05           -2.08e-12             -1e-13                3.3188e-05           
  -0.75                 -3.3644e-05           -2.14e-12             6e-14                 3.3654e-05           
  -0.8                  -3.406e-05            -1.96e-12             1.4e-13               3.4088e-05           
  -0.85                 -3.449e-05            -1.98e-12             1.2e-13               3.4516e-05           
  -0.9                  -3.4906e-05           -2.04e-12             8e-14                 3.4894e-05           
  -0.95                 -3.5222e-05           -1.98e-12             6e-14                 3.5276e-05           
  -1                    -3.5634e-05           -2e-12                6e-14                 3.5662e-05           
  -1.05                 -3.6012e-05           -2e-12                -2e-14                3.6024e-05           
  -1.1                  -3.6368e-05           -1.9e-12              0                     3.6348e-05           
  -1.15                 -3.6702e-05           -1.98e-12             2e-14                 3.6748e-05           
  -1.2                  -3.7076e-05           -1.9e-12              0                     3.708e-05            
  -1.25                 -3.7376e-05           -1.86e-12             4e-14                 3.7416e-05           
  -1.3                  -3.7738e-05           -1.86e-12             1.6e-13               3.7736e-05           
  -1.35                 -3.8046e-05           -1.78e-12             4.4e-13               3.8066e-05           
END_DB

BEGIN_DB
 ICCAP_VAR vg         -1.169         
 ICCAP_VAR vb         1.2            
 ICCAP_VAR vs         -0             

 #vd                    id                    ig                    ib                    is                   
  -0                    1.2224e-08            -1.056e-11            0                     -1.2266e-08          
  -0.05                 -8.6274e-06           -9.68e-12             0                     8.6274e-06           
  -0.1                  -1.6536e-05           -8.96e-12             6e-14                 1.654e-05            
  -0.15                 -2.3716e-05           -8.32e-12             6e-14                 2.3734e-05           
  -0.2                  -3.0084e-05           -7.48e-12             1e-13                 3.0114e-05           
  -0.25                 -3.5672e-05           -6.86e-12             1.2e-13               3.5706e-05           
  -0.3                  -4.0466e-05           -6.38e-12             6e-14                 4.0492e-05           
  -0.35                 -4.4526e-05           -5.88e-12             2e-14                 4.4542e-05           
  -0.4                  -4.7842e-05           -5.38e-12             0                     4.7824e-05           
  -0.45                 -5.0494e-05           -5.06e-12             2e-14                 5.0452e-05           
  -0.5                  -5.2648e-05           -4.9e-12              0                     5.272e-05            
  -0.55                 -5.4418e-05           -4.72e-12             8e-14                 5.4466e-05           
  -0.6                  -5.5882e-05           -4.52e-12             6e-14                 5.59e-05             
  -0.65                 -5.7078e-05           -4.38e-12             -6e-14                5.7094e-05           
  -0.7                  -5.8104e-05           -4.32e-12             -6e-14                5.813e-05            
  -0.75                 -5.901e-05            -4.16e-12             0                     5.9028e-05           
  -0.8                  -5.9802e-05           -4.2e-12              2e-14                 5.9838e-05           
  -0.85                 -6.0562e-05           -4.16e-12             -1.2e-13              6.0626e-05           
  -0.9                  -6.1278e-05           -4.16e-12             2e-14                 6.1298e-05           
  -0.95                 -6.1914e-05           -3.96e-12             8e-14                 6.192e-05            
  -1                    -6.258e-05            -4e-12                -8e-14                6.255e-05            
  -1.05                 -6.313e-05            -3.96e-12             1e-13                 6.3138e-05           
  -1.1                  -6.3732e-05           -3.9e-12              1.2e-13               6.3754e-05           
  -1.15                 -6.4228e-05           -3.94e-12             4e-14                 6.4276e-05           
  -1.2                  -6.4896e-05           -3.92e-12             8e-14                 6.4936e-05           
  -1.25                 -6.543e-05            -3.8e-12              1e-13                 6.5468e-05           
  -1.3                  -6.5936e-05           -3.82e-12             1e-13                 6.5958e-05           
  -1.35                 -6.6462e-05           -3.76e-12             8e-14                 6.6518e-05           
END_DB

BEGIN_DB
 ICCAP_VAR vg         -1.35          
 ICCAP_VAR vb         1.2            
 ICCAP_VAR vs         -0             

 #vd                    id                    ig                    ib                    is                   
  -0                    1.5604e-08            -1.83e-11             6e-14                 -1.4646e-08          
  -0.05                 -1.0518e-05           -1.694e-11            2e-14                 1.0546e-05           
  -0.1                  -2.0422e-05           -1.59e-11             2e-14                 2.0468e-05           
  -0.15                 -2.9718e-05           -1.48e-11             4e-14                 2.9762e-05           
  -0.2                  -3.8312e-05           -1.376e-11            4e-14                 3.8288e-05           
  -0.25                 -4.6126e-05           -1.288e-11            0                     4.6116e-05           
  -0.3                  -5.307e-05            -1.218e-11            -2e-14                5.309e-05            
  -0.35                 -5.9428e-05           -1.138e-11            0                     5.9444e-05           
  -0.4                  -6.4912e-05           -1.052e-11            0                     6.49e-05             
  -0.45                 -6.9642e-05           -9.88e-12             1.2e-13               6.9564e-05           
  -0.5                  -7.3674e-05           -9.36e-12             8e-14                 7.368e-05            
  -0.55                 -7.7172e-05           -8.88e-12             6e-14                 7.7222e-05           
  -0.6                  -8.0208e-05           -8.52e-12             2e-14                 8.013e-05            
  -0.65                 -8.2484e-05           -8.22e-12             1.2e-13               8.272e-05            
  -0.7                  -8.4742e-05           -7.92e-12             1.6e-13               8.484e-05            
  -0.75                 -8.6734e-05           -7.66e-12             4e-14                 8.6726e-05           
  -0.8                  -8.8196e-05           -7.52e-12             -2e-14                8.8218e-05           
  -0.85                 -8.9574e-05           -7.46e-12             -6e-14                8.958e-05            
  -0.9                  -9.0714e-05           -7.32e-12             6e-14                 9.0742e-05           
  -0.95                 -9.1772e-05           -7.2e-12              8e-14                 9.1782e-05           
  -1                    -9.2706e-05           -7.16e-12             6e-14                 9.2774e-05           
  -1.05                 -9.3582e-05           -7.16e-12             0                     9.3518e-05           
  -1.1                  -9.427e-05            -6.96e-12             8e-14                 9.4396e-05           
  -1.15                 -9.5204e-05           -6.78e-12             6e-14                 9.5304e-05           
  -1.2                  -9.6154e-05           -6.82e-12             -6e-14                9.6218e-05           
  -1.25                 -9.6972e-05           -6.94e-12             -6e-14                9.696e-05            
  -1.3                  -9.7604e-05           -6.84e-12             1e-13                 9.761e-05            
  -1.35                 -9.8372e-05           -6.66e-12             4e-14                 9.8338e-05           
END_DB

