! VERSION = 6.00
BEGIN_HEADER
 ICCAP_INPUTS
  vd         V  D GROUND SMU1 0.1 LIN        1    -0         -1.35      28   -0.05     
  vg         V  G GROUND SMU2 0.001 LIN        2    -0.522     -1.35      5    -0.207    
  vb         V  B GROUND SMU4 0.1 CON        1.2
  vs         V  S GROUND SMU3 0.1 CON        -0
 ICCAP_OUTPUTS
  id         I  D GROUND SMU1 B
  ig         I  G GROUND SMU2 B
  ib         I  B GROUND SMU4 B
  is         I  S GROUND SMU3 B
 ICCAP_VALUES
  MASTER_SETUP_TYPE "~dc_idvd~"
  LINVT_VALUE "|idvg|100.0n|100.0m|1.000m|5|1.350|"
  LISTVT_VALUE ""
  TYPE "-1"
  TEMP " 125.000 "
  IS_TNOM " 0.00000 "
  MAIN.W "150.0n"
  MAIN.L "10.00u"
  MAIN.AD "100.5f"
  MAIN.AS "100.5f"
  MAIN.PD "1.340u"
  MAIN.PS "1.340u"
  MAIN.NF "1.000"
  MAIN.M "1"
  MAIN.NRD "0.000"
  MAIN.NRS "0.000"
  MAIN.LDRIFT1 "1E-06"
  MAIN.LDRIFT2 "1E-06"
  MAIN.SA "0.000"
  MAIN.SB "0.000"
  MAIN.SD "0.000"
  MAIN.SCA "0.000"
  MAIN.SCB "0.000"
  MAIN.SCC "0.000"
  MAIN.SC "0.000"
  MODULE "S555"
  PIN_D "16"
  PIN_G "5"
  PIN_S "6"
  PIN_B "15"
  PIN_E ""
  PIN_6 ""
  XY_ID ""
  FUNC "Narrow"
  STI "SA ref"
  WPE "WPE ref"
  COMMENT ""
  DIS_MEAS ""
  TypeTCI "10"
END_HEADER

BEGIN_DB
 ICCAP_VAR vg         -0.522         
 ICCAP_VAR vb         1.2            
 ICCAP_VAR vs         -0             

 #vd                    id                    ig                    ib                    is                   
  -0                    6.84e-12              -3.2e-12              5.972e-11             -5.32e-12            
  -0.05                 -4.5722e-09           -2.46e-12             4.79e-11              4.5734e-09           
  -0.1                  -6.9676e-09           -2.16e-12             4.388e-11             6.9694e-09           
  -0.15                 -7.948e-09            -1.82e-12             4.038e-11             7.9492e-09           
  -0.2                  -8.2708e-09           -1.88e-12             3.732e-11             8.2702e-09           
  -0.25                 -8.3702e-09           -1.82e-12             3.536e-11             8.367e-09            
  -0.3                  -8.4092e-09           -1.76e-12             3.344e-11             8.4064e-09           
  -0.35                 -8.4314e-09           -1.82e-12             3.114e-11             8.4308e-09           
  -0.4                  -8.4494e-09           -1.7e-12              2.948e-11             8.4478e-09           
  -0.45                 -8.464e-09            -1.8e-12              2.798e-11             8.4646e-09           
  -0.5                  -8.4814e-09           -1.8e-12              2.758e-11             8.4788e-09           
  -0.55                 -8.4912e-09           -1.78e-12             2.652e-11             8.491e-09            
  -0.6                  -8.5042e-09           -1.76e-12             2.486e-11             8.5052e-09           
  -0.65                 -8.5152e-09           -1.68e-12             2.36e-11              8.5154e-09           
  -0.7                  -8.5262e-09           -1.66e-12             2.304e-11             8.5232e-09           
  -0.75                 -8.5348e-09           -1.8e-12              2.18e-11              8.5328e-09           
  -0.8                  -8.5446e-09           -1.82e-12             2.19e-11              8.5426e-09           
  -0.85                 -8.5496e-09           -1.78e-12             2.096e-11             8.5474e-09           
  -0.9                  -8.5586e-09           -1.8e-12              2.036e-11             8.5586e-09           
  -0.95                 -8.5656e-09           -1.58e-12             1.954e-11             8.5658e-09           
  -1                    -8.5762e-09           -1.68e-12             1.914e-11             8.5766e-09           
  -1.05                 -8.5848e-09           -1.68e-12             1.902e-11             8.581e-09            
  -1.1                  -8.5864e-09           -1.64e-12             1.82e-11              8.5872e-09           
  -1.15                 -8.592e-09            -1.78e-12             1.804e-11             8.5912e-09           
  -1.2                  -8.5968e-09           -1.68e-12             1.732e-11             8.5948e-09           
  -1.25                 -8.6026e-09           -1.7e-12              1.688e-11             8.6004e-09           
  -1.3                  -8.606e-09            -1.64e-12             1.652e-11             8.6074e-09           
  -1.35                 -8.6144e-09           -1.6e-12              1.622e-11             8.6138e-09           
END_DB

BEGIN_DB
 ICCAP_VAR vg         -0.729         
 ICCAP_VAR vb         1.2            
 ICCAP_VAR vs         -0             

 #vd                    id                    ig                    ib                    is                   
  -0                    2.77e-11              -1.442e-11            1.27e-11              -1.39e-11            
  -0.05                 -1.557e-08            -1.244e-11            1.196e-11             1.56e-08             
  -0.1                  -2.7894e-08           -1.09e-11             1.242e-11             2.7928e-08           
  -0.15                 -3.709e-08            -9.82e-12             1.258e-11             3.7096e-08           
  -0.2                  -4.332e-08            -9.04e-12             1.25e-11              4.334e-08            
  -0.25                 -4.6976e-08           -8.38e-12             1.292e-11             4.7008e-08           
  -0.3                  -4.8726e-08           -8.14e-12             1.26e-11              4.8756e-08           
  -0.35                 -4.9416e-08           -8.06e-12             1.156e-11             4.944e-08            
  -0.4                  -4.9708e-08           -7.96e-12             1.242e-11             4.9734e-08           
  -0.45                 -4.9854e-08           -8.04e-12             1.212e-11             4.9876e-08           
  -0.5                  -4.994e-08            -8e-12                1.146e-11             4.9956e-08           
  -0.55                 -5.0018e-08           -8.04e-12             1.162e-11             5.005e-08            
  -0.6                  -5.009e-08            -8.04e-12             1.178e-11             5.0104e-08           
  -0.65                 -5.014e-08            -7.84e-12             1.176e-11             5.0162e-08           
  -0.7                  -5.0192e-08           -7.98e-12             1.134e-11             5.0216e-08           
  -0.75                 -5.0258e-08           -7.82e-12             1.088e-11             5.0274e-08           
  -0.8                  -5.0302e-08           -7.94e-12             1.17e-11              5.0326e-08           
  -0.85                 -5.0332e-08           -7.86e-12             1.136e-11             5.0356e-08           
  -0.9                  -5.039e-08            -7.88e-12             1.088e-11             5.0394e-08           
  -0.95                 -5.0424e-08           -7.9e-12              1.05e-11              5.0454e-08           
  -1                    -5.0468e-08           -8.02e-12             1.074e-11             5.0492e-08           
  -1.05                 -5.0488e-08           -7.94e-12             1.092e-11             5.0538e-08           
  -1.1                  -5.0544e-08           -7.68e-12             1.092e-11             5.0562e-08           
  -1.15                 -5.0568e-08           -7.86e-12             1.054e-11             5.0592e-08           
  -1.2                  -5.0582e-08           -7.8e-12              1.05e-11              5.0612e-08           
  -1.25                 -5.0626e-08           -7.88e-12             1.048e-11             5.0656e-08           
  -1.3                  -5.0644e-08           -7.9e-12              1.02e-11              5.0676e-08           
  -1.35                 -5.067e-08            -7.88e-12             1.004e-11             5.0698e-08           
END_DB

BEGIN_DB
 ICCAP_VAR vg         -0.936         
 ICCAP_VAR vb         1.2            
 ICCAP_VAR vs         -0             

 #vd                    id                    ig                    ib                    is                   
  -0                    5.424e-11             -4.304e-11            8.44e-12              -1.258e-11           
  -0.05                 -2.731e-08            -3.85e-11             7.9e-12               2.7368e-08           
  -0.1                  -5.1412e-08           -3.472e-11            8.5e-12               5.1474e-08           
  -0.15                 -7.2276e-08           -3.15e-11             8.94e-12              7.2328e-08           
  -0.2                  -8.9846e-08           -2.878e-11            8.54e-12              8.9896e-08           
  -0.25                 -1.04148e-07          -2.662e-11            9.12e-12              1.04198e-07          
  -0.3                  -1.1524e-07           -2.492e-11            7.76e-12              1.1534e-07           
  -0.35                 -1.2326e-07           -2.378e-11            8.84e-12              1.2334e-07           
  -0.4                  -1.285e-07            -2.31e-11             8.82e-12              1.2862e-07           
  -0.45                 -1.3144e-07           -2.278e-11            8.32e-12              1.3152e-07           
  -0.5                  -1.3278e-07           -2.238e-11            8.44e-12              1.3286e-07           
  -0.55                 -1.3336e-07           -2.232e-11            8.48e-12              1.3346e-07           
  -0.6                  -1.3368e-07           -2.23e-11             9.06e-12              1.338e-07            
  -0.65                 -1.339e-07            -2.208e-11            8.34e-12              1.34e-07             
  -0.7                  -1.341e-07            -2.214e-11            8.38e-12              1.3418e-07           
  -0.75                 -1.3424e-07           -2.218e-11            8.7e-12               1.343e-07            
  -0.8                  -1.3436e-07           -2.216e-11            8.86e-12              1.3444e-07           
  -0.85                 -1.3448e-07           -2.214e-11            8.06e-12              1.3458e-07           
  -0.9                  -1.3458e-07           -2.216e-11            8.64e-12              1.3466e-07           
  -0.95                 -1.3466e-07           -2.206e-11            8.44e-12              1.3478e-07           
  -1                    -1.348e-07            -2.208e-11            8.26e-12              1.349e-07            
  -1.05                 -1.349e-07            -2.2e-11              8.1e-12               1.3498e-07           
  -1.1                  -1.3496e-07           -2.202e-11            7.92e-12              1.3508e-07           
  -1.15                 -1.3508e-07           -2.202e-11            8.3e-12               1.3518e-07           
  -1.2                  -1.3518e-07           -2.206e-11            8.14e-12              1.3526e-07           
  -1.25                 -1.3526e-07           -2.202e-11            7.92e-12              1.3538e-07           
  -1.3                  -1.3532e-07           -2.198e-11            8.24e-12              1.3542e-07           
  -1.35                 -1.3536e-07           -2.2e-11              7.92e-12              1.3548e-07           
END_DB

BEGIN_DB
 ICCAP_VAR vg         -1.143         
 ICCAP_VAR vb         1.2            
 ICCAP_VAR vs         -0             

 #vd                    id                    ig                    ib                    is                   
  -0                    9.33e-11              -9.932e-11            6.8e-12               3.88e-12             
  -0.05                 -3.8092e-08           -9.096e-11            6.14e-12              3.8192e-08           
  -0.1                  -7.3268e-08           -8.356e-11            7.16e-12              7.339e-08            
  -0.15                 -1.05482e-07          -7.718e-11            7.16e-12              1.0559e-07           
  -0.2                  -1.3452e-07           -7.118e-11            6.58e-12              1.3466e-07           
  -0.25                 -1.6042e-07           -6.646e-11            7.06e-12              1.606e-07            
  -0.3                  -1.8318e-07           -6.226e-11            7.04e-12              1.833e-07            
  -0.35                 -2.0268e-07           -5.868e-11            7.18e-12              2.029e-07            
  -0.4                  -2.19e-07             -5.584e-11            6.82e-12              2.1916e-07           
  -0.45                 -2.3218e-07           -5.324e-11            7.34e-12              2.3238e-07           
  -0.5                  -2.4216e-07           -5.16e-11             7.16e-12              2.4224e-07           
  -0.55                 -2.4924e-07           -5.036e-11            6.98e-12              2.4938e-07           
  -0.6                  -2.5362e-07           -4.956e-11            7.04e-12              2.5376e-07           
  -0.65                 -2.561e-07            -4.922e-11            7.04e-12              2.563e-07            
  -0.7                  -2.5728e-07           -4.892e-11            7.34e-12              2.5738e-07           
  -0.75                 -2.5786e-07           -4.886e-11            7.16e-12              2.58e-07             
  -0.8                  -2.5824e-07           -4.872e-11            7.26e-12              2.5846e-07           
  -0.85                 -2.5862e-07           -4.868e-11            7e-12                 2.5878e-07           
  -0.9                  -2.588e-07            -4.86e-11             6.8e-12               2.5896e-07           
  -0.95                 -2.59e-07             -4.866e-11            6.82e-12              2.5918e-07           
  -1                    -2.5926e-07           -4.862e-11            6.68e-12              2.594e-07            
  -1.05                 -2.5948e-07           -4.856e-11            6.7e-12               2.596e-07            
  -1.1                  -2.5962e-07           -4.846e-11            7.44e-12              2.5974e-07           
  -1.15                 -2.5984e-07           -4.852e-11            7e-12                 2.5992e-07           
  -1.2                  -2.5996e-07           -4.842e-11            7e-12                 2.6012e-07           
  -1.25                 -2.6008e-07           -4.846e-11            6.86e-12              2.6026e-07           
  -1.3                  -2.6026e-07           -4.844e-11            6.46e-12              2.6042e-07           
  -1.35                 -2.6042e-07           -4.836e-11            6.82e-12              2.6058e-07           
END_DB

BEGIN_DB
 ICCAP_VAR vg         -1.35          
 ICCAP_VAR vb         1.2            
 ICCAP_VAR vs         -0             

 #vd                    id                    ig                    ib                    is                   
  -0                    1.5194e-10            -1.9868e-10           8.24e-12              4.3e-11              
  -0.05                 -4.7516e-08           -1.8402e-10           7.1e-12               4.7718e-08           
  -0.1                  -9.2494e-08           -1.7132e-10           7.52e-12              9.2728e-08           
  -0.15                 -1.349e-07            -1.596e-10            6.98e-12              1.3508e-07           
  -0.2                  -1.7436e-07           -1.4914e-10           6.82e-12              1.7464e-07           
  -0.25                 -2.111e-07            -1.3974e-10           6.86e-12              2.1128e-07           
  -0.3                  -2.4484e-07           -1.3162e-10           6.8e-12               2.4498e-07           
  -0.35                 -2.755e-07            -1.2426e-10           6.68e-12              2.757e-07            
  -0.4                  -3.0326e-07           -1.1784e-10           6.78e-12              3.0344e-07           
  -0.45                 -3.2792e-07           -1.124e-10            6.58e-12              3.2806e-07           
  -0.5                  -3.494e-07            -1.0756e-10           6.72e-12              3.4946e-07           
  -0.55                 -3.675e-07            -1.0374e-10           6.88e-12              3.6766e-07           
  -0.6                  -3.8266e-07           -1.0044e-10           6.94e-12              3.8296e-07           
  -0.65                 -3.9466e-07           -9.788e-11            6.3e-12               3.9492e-07           
  -0.7                  -4.039e-07            -9.612e-11            6.6e-12               4.0418e-07           
  -0.75                 -4.1026e-07           -9.484e-11            6.58e-12              4.1032e-07           
  -0.8                  -4.1388e-07           -9.414e-11            6.4e-12               4.1402e-07           
  -0.85                 -4.1582e-07           -9.364e-11            6.4e-12               4.1608e-07           
  -0.9                  -4.1698e-07           -9.338e-11            6.7e-12               4.173e-07            
  -0.95                 -4.1766e-07           -9.308e-11            6.86e-12              4.178e-07            
  -1                    -4.1802e-07           -9.284e-11            6.64e-12              4.181e-07            
  -1.05                 -4.1836e-07           -9.29e-11             6.38e-12              4.1852e-07           
  -1.1                  -4.1878e-07           -9.292e-11            6.62e-12              4.1904e-07           
  -1.15                 -4.1906e-07           -9.292e-11            6.2e-12               4.1928e-07           
  -1.2                  -4.1932e-07           -9.27e-11             6.38e-12              4.194e-07            
  -1.25                 -4.1954e-07           -9.268e-11            6.42e-12              4.1966e-07           
  -1.3                  -4.1964e-07           -9.276e-11            6.68e-12              4.1982e-07           
  -1.35                 -4.1996e-07           -9.256e-11            6.96e-12              4.2022e-07           
END_DB

