! VERSION = 6.00
BEGIN_HEADER
 ICCAP_INPUTS
  vd         V  D GROUND SMU1 0.1 LIN        1    -0         -1.35      28   -0.05     
  vg         V  G GROUND SMU2 0.001 LIST       2 3 -0.138 -0.338 -0.538
  vb         V  B GROUND SMU4 0.1 CON        -0
  vs         V  S GROUND SMU3 0.1 CON        -0
 ICCAP_OUTPUTS
  id         I  D GROUND SMU1 B
  ig         I  G GROUND SMU2 B
  ib         I  B GROUND SMU4 B
  is         I  S GROUND SMU3 B
 ICCAP_VALUES
  MASTER_SETUP_TYPE "~dc_idvd~"
  LINVT_VALUE ""
  LISTVT_VALUE "|idvg|100.0n|-200.0m|1.000m|3|200.0m|200.0m|"
  TYPE "-1"
  TEMP " 27.0000 "
  IS_TNOM " 1.00000 "
  MAIN.W "150.0n"
  MAIN.L "500.0n"
  MAIN.AD "100.5f"
  MAIN.AS "100.5f"
  MAIN.PD "1.340u"
  MAIN.PS "1.340u"
  MAIN.NF "1.000"
  MAIN.M "1"
  MAIN.NRD "0.000"
  MAIN.NRS "0.000"
  MAIN.LDRIFT1 "1E-06"
  MAIN.LDRIFT2 "1E-06"
  MAIN.SA "0.000"
  MAIN.SB "0.000"
  MAIN.SD "0.000"
  MAIN.SCA "0.000"
  MAIN.SCB "0.000"
  MAIN.SCC "0.000"
  MAIN.SC "0.000"
  MODULE "S555"
  PIN_D "18"
  PIN_G "3"
  PIN_S "4"
  PIN_B "17"
  PIN_E ""
  PIN_6 ""
  XY_ID ""
  FUNC "LW Scale"
  STI "SA ref"
  WPE "WPE ref"
  COMMENT ""
  DIS_MEAS ""
  TypeTCI "10"
END_HEADER

BEGIN_DB
 ICCAP_VAR vg         -0.138         
 ICCAP_VAR vb         -0             
 ICCAP_VAR vs         -0             

 #vd                    id                    ig                    ib                    is                   
  -0                    1.6e-13               1.8e-13               -1.06e-12             2e-14                
  -0.05                 -6.406e-11            2.2e-13               -1.16e-12             6.36e-11             
  -0.1                  -7.438e-11            1.6e-13               -9.8e-13              7.366e-11            
  -0.15                 -8.024e-11            2.8e-13               -1.04e-12             7.77e-11             
  -0.2                  -8.032e-11            1.8e-13               -1.02e-12             8.366e-11            
  -0.25                 -8.292e-11            6e-14                 -1.18e-12             8.264e-11            
  -0.3                  -8.838e-11            2.4e-13               -1.04e-12             8.82e-11             
  -0.35                 -8.686e-11            1.4e-13               -1.1e-12              8.676e-11            
  -0.4                  -8.868e-11            8e-14                 -1.08e-12             8.82e-11             
  -0.45                 -9.02e-11             2.2e-13               -1.08e-12             8.988e-11            
  -0.5                  -9.192e-11            1.6e-13               -1.06e-12             9.14e-11             
  -0.55                 -9.72e-11             2.8e-13               -1.08e-12             9.31e-11             
  -0.6                  -9.482e-11            2.2e-13               -9.6e-13              9.41e-11             
  -0.65                 -9.61e-11             2.6e-13               -9.8e-13              9.924e-11            
  -0.7                  -9.964e-11            2.6e-13               -1.14e-12             9.674e-11            
  -0.75                 -9.848e-11            2e-13                 -1.06e-12             9.78e-11             
  -0.8                  -9.952e-11            2.6e-13               -8.6e-13              9.882e-11            
  -0.85                 -1.0084e-10           2.6e-13               -1.04e-12             1.001e-10            
  -0.9                  -1.0188e-10           3.6e-13               -1.02e-12             1.0292e-10           
  -0.95                 -1.0792e-10           4.4e-13               -1e-12                1.0194e-10           
  -1                    -1.0358e-10           3e-13                 -1.08e-12             1.0272e-10           
  -1.05                 -1.0456e-10           5.4e-13               -9.4e-13              1.0356e-10           
  -1.1                  -1.0624e-10           4e-13                 -8.8e-13              1.0432e-10           
  -1.15                 -1.061e-10            4e-13                 -9.6e-13              1.0518e-10           
  -1.2                  -1.0698e-10           5.6e-13               -1.04e-12             1.116e-10            
  -1.25                 -1.0758e-10           5e-13                 -9.2e-13              1.0666e-10           
  -1.3                  -1.0816e-10           6.2e-13               -1e-12                1.1286e-10           
  -1.35                 -1.0914e-10           6.6e-13               -9e-13                1.0772e-10           
END_DB

BEGIN_DB
 ICCAP_VAR vg         -0.338         
 ICCAP_VAR vb         -0             
 ICCAP_VAR vs         -0             

 #vd                    id                    ig                    ib                    is                   
  -0                    6.078e-11             -2e-14                -1.08e-12             -5.652e-11           
  -0.05                 -1.9458e-08           8e-14                 -9.2e-13              1.9492e-08           
  -0.1                  -2.5058e-08           0                     -7.8e-13              2.451e-08            
  -0.15                 -2.631e-08            6e-14                 -9.4e-13              2.6326e-08           
  -0.2                  -2.7446e-08           -6e-14                -1.04e-12             2.7438e-08           
  -0.25                 -2.8314e-08           0                     -9.6e-13              2.8352e-08           
  -0.3                  -2.9138e-08           0                     -9e-13                2.9184e-08           
  -0.35                 -2.9854e-08           6e-14                 -9.8e-13              2.9928e-08           
  -0.4                  -3.0662e-08           4e-14                 -1.06e-12             3.1504e-08           
  -0.45                 -3.2286e-08           8e-14                 -1.12e-12             3.2374e-08           
  -0.5                  -3.2956e-08           2e-14                 -1e-12                3.293e-08            
  -0.55                 -3.269e-08            1e-13                 -9e-13                3.3538e-08           
  -0.6                  -3.3102e-08           2e-14                 -9.4e-13              3.3368e-08           
  -0.65                 -3.369e-08            1e-13                 -7.6e-13              3.3614e-08           
  -0.7                  -3.461e-08            1.4e-13               -7.8e-13              3.5226e-08           
  -0.75                 -3.4552e-08           4e-14                 -8.8e-13              3.4572e-08           
  -0.8                  -3.507e-08            1e-13                 -8.8e-13              3.6234e-08           
  -0.85                 -3.6578e-08           1.4e-13               -9.6e-13              3.538e-08            
  -0.9                  -3.5784e-08           8e-14                 -8.8e-13              3.578e-08            
  -0.95                 -3.6138e-08           2e-13                 -7.6e-13              3.6166e-08           
  -1                    -3.6456e-08           2.8e-13               -8.6e-13              3.6464e-08           
  -1.05                 -3.681e-08            1.8e-13               -9e-13                3.6814e-08           
  -1.1                  -3.7962e-08           1.8e-13               -8.2e-13              3.7174e-08           
  -1.15                 -3.7462e-08           3e-13                 -7.6e-13              3.7474e-08           
  -1.2                  -3.77e-08             3.4e-13               -7.4e-13              3.8816e-08           
  -1.25                 -3.9332e-08           3.8e-13               -7.2e-13              3.8636e-08           
  -1.3                  -3.8284e-08           5.6e-13               -9e-13                3.9704e-08           
  -1.35                 -3.9936e-08           4.8e-13               -6.2e-13              3.9948e-08           
END_DB

BEGIN_DB
 ICCAP_VAR vg         -0.538         
 ICCAP_VAR vb         -0             
 ICCAP_VAR vs         -0             

 #vd                    id                    ig                    ib                    is                   
  -0                    5.2474e-10            -2.8e-13              -9.8e-13              -5.3706e-10          
  -0.05                 -2.8406e-07           -1.6e-13              -8e-13                2.8464e-07           
  -0.1                  -4.5788e-07           -4e-14                -1.02e-12             4.586e-07            
  -0.15                 -5.4466e-07           -1.2e-13              -9.4e-13              5.4514e-07           
  -0.2                  -5.853e-07            -1.6e-13              -7.6e-13              5.8546e-07           
  -0.25                 -6.0702e-07           -1.2e-13              -8.4e-13              6.0684e-07           
  -0.3                  -6.2182e-07           -1.6e-13              -8.8e-13              6.2196e-07           
  -0.35                 -6.3414e-07           -2e-14                -8.4e-13              6.3362e-07           
  -0.4                  -6.446e-07            -2e-14                -7.4e-13              6.4488e-07           
  -0.45                 -6.5482e-07           -2e-14                -7.6e-13              6.549e-07            
  -0.5                  -6.6366e-07           0                     -7.6e-13              6.6406e-07           
  -0.55                 -6.7238e-07           0                     -6.8e-13              6.74e-07             
  -0.6                  -6.8428e-07           -2e-14                -7.6e-13              6.8456e-07           
  -0.65                 -6.9182e-07           -1e-13                -7.2e-13              6.9222e-07           
  -0.7                  -6.985e-07            -1e-13                -9.6e-13              7.0008e-07           
  -0.75                 -7.0644e-07           -1e-13                -1.02e-12             7.0716e-07           
  -0.8                  -7.1338e-07           2e-14                 -9.2e-13              7.1404e-07           
  -0.85                 -7.1986e-07           -1.6e-13              -8e-13                7.1988e-07           
  -0.9                  -7.2564e-07           -1.8e-13              -9.4e-13              7.2666e-07           
  -0.95                 -7.326e-07            0                     -8.8e-13              7.3316e-07           
  -1                    -7.3812e-07           -4e-14                -9.4e-13              7.3902e-07           
  -1.05                 -7.4254e-07           1e-13                 -6e-13                7.4208e-07           
  -1.1                  -7.4722e-07           1e-13                 -6.8e-13              7.5022e-07           
  -1.15                 -7.5306e-07           -2e-14                -6.8e-13              7.557e-07            
  -1.2                  -7.5878e-07           8e-14                 -8e-13                7.6642e-07           
  -1.25                 -7.7396e-07           2.4e-13               -7.2e-13              7.748e-07            
  -1.3                  -7.7878e-07           1e-13                 -6.8e-13              7.791e-07            
  -1.35                 -7.8364e-07           1.8e-13               -5.2e-13              7.8412e-07           
END_DB

