! VERSION = 6.00
BEGIN_HEADER
 ICCAP_INPUTS
  vg         V  G GROUND SMU2 0.001 LIN        1    0.5        -1.35      38   -0.05     
  vb         V  B GROUND SMU4 0.1 LIN        2    0          1.2        7    0.2       
  vd         V  D GROUND SMU1 0.1 LIST       3 3 -0.05 -0.6 -1.2
  vs         V  S GROUND SMU3 0.1 CON        -0
 ICCAP_OUTPUTS
  id         I  D GROUND SMU1 B
  ig         I  G GROUND SMU2 B
  ib         I  B GROUND SMU4 B
  is         I  S GROUND SMU3 B
 ICCAP_VALUES
  MASTER_SETUP_TYPE "~dc_idvg~"
  LINVT_VALUE ""
  LISTVT_VALUE ""
  TYPE "-1"
  TEMP " 27.0000 "
  IS_TNOM " 1.00000 "
  MAIN.W "180.0n"
  MAIN.L "130.0n"
  MAIN.AD "102.6f"
  MAIN.AS "102.6f"
  MAIN.PD "1.340u"
  MAIN.PS "1.340u"
  MAIN.NF "1.000"
  MAIN.M "1"
  MAIN.NRD "0.000"
  MAIN.NRS "0.000"
  MAIN.LDRIFT1 "1E-06"
  MAIN.LDRIFT2 "1E-06"
  MAIN.SA "0.000"
  MAIN.SB "0.000"
  MAIN.SD "0.000"
  MAIN.SCA "0.000"
  MAIN.SCB "0.000"
  MAIN.SCC "0.000"
  MAIN.SC "0.000"
  MODULE "S553"
  PIN_D "16"
  PIN_G "5"
  PIN_S "6"
  PIN_B "15"
  PIN_E ""
  PIN_6 ""
  XY_ID ""
  FUNC "LW Scale"
  STI "SA ref"
  WPE "WPE ref"
  COMMENT ""
  DIS_MEAS ""
  TypeTCI "10"
END_HEADER

BEGIN_DB
 ICCAP_VAR vb         0              
 ICCAP_VAR vd         -0.05          
 ICCAP_VAR vs         -0             

 #vg                    id                    ig                    ib                    is                   
  0.5                   -1.6e-13              1.938e-11             -6.14e-12             -6e-14               
  0.45                  -6e-14                3e-12                 -1.84e-12             6e-14                
  0.4                   -1e-13                4.6e-13               -1.08e-12             1.2e-13              
  0.35                  -1.2e-13              0                     -1.02e-12             0                    
  0.3                   -1.6e-13              -8e-14                -1e-12                2e-14                
  0.25                  -6e-14                -2e-13                -1e-12                1.6e-13              
  0.2                   0                     -1.2e-13              -9.8e-13              6e-14                
  0.15                  -1e-13                -1.4e-13              -9.4e-13              4e-14                
  0.1                   -1.6e-13              -3e-13                -8.6e-13              1e-13                
  0.05                  -6e-13                -1.8e-13              -9e-13                4.4e-13              
  0                     -2.16e-12             -3.2e-13              -8.6e-13              2.1e-12              
  -0.05                 -9.1e-12              -1.8e-13              -8.2e-13              9.14e-12             
  -0.1                  -3.942e-11            -4e-13                -9.6e-13              3.98e-11             
  -0.15                 -1.7306e-10           -3.2e-13              -8.4e-13              1.721e-10            
  -0.2                  -7.43e-10             -3.4e-13              -1.04e-12             7.4304e-10           
  -0.25                 -3.135e-09            -3.6e-13              -8.4e-13              3.1402e-09           
  -0.3                  -1.2454e-08           -2.8e-13              -8.8e-13              1.248e-08            
  -0.35                 -4.3482e-08           -4.2e-13              -8.4e-13              4.3518e-08           
  -0.4                  -1.237e-07            -4.4e-13              -7.8e-13              1.238e-07            
  -0.45                 -2.7938e-07           -4e-13                -7.8e-13              2.7956e-07           
  -0.5                  -5.2182e-07           -5.2e-13              -9.6e-13              5.2216e-07           
  -0.55                 -8.4566e-07           -6.4e-13              -7.6e-13              8.4628e-07           
  -0.6                  -1.2366e-06           -4.6e-13              -7.8e-13              1.2402e-06           
  -0.65                 -1.6728e-06           -6e-13                -8e-13                1.6778e-06           
  -0.7                  -2.134e-06            -7.4e-13              -8.8e-13              2.1378e-06           
  -0.75                 -2.5974e-06           -8.4e-13              -9e-13                2.6022e-06           
  -0.8                  -3.0576e-06           -1.02e-12             -8.2e-13              3.058e-06            
  -0.85                 -3.4978e-06           -1.04e-12             -8.4e-13              3.4996e-06           
  -0.9                  -3.9222e-06           -1.34e-12             -8.4e-13              3.9208e-06           
  -0.95                 -4.3364e-06           -1.46e-12             -8.8e-13              4.338e-06            
  -1                    -4.7288e-06           -1.76e-12             -8.8e-13              4.7334e-06           
  -1.05                 -5.104e-06            -1.98e-12             -9.2e-13              5.1076e-06           
  -1.1                  -5.4606e-06           -2.36e-12             -8.2e-13              5.4588e-06           
  -1.15                 -5.7816e-06           -2.78e-12             -8.8e-13              5.786e-06            
  -1.2                  -6.0958e-06           -3.32e-12             -8.4e-13              6.1032e-06           
  -1.25                 -6.4074e-06           -3.96e-12             -7.4e-13              6.411e-06            
  -1.3                  -6.6856e-06           -4.6e-12              -8.8e-13              6.6876e-06           
  -1.35                 -6.9608e-06           -5.5e-12              -6.8e-13              6.9596e-06           
END_DB

BEGIN_DB
 ICCAP_VAR vb         0.2            
 ICCAP_VAR vd         -0.05          
 ICCAP_VAR vs         -0             

 #vg                    id                    ig                    ib                    is                   
  0.5                   0                     4.4e-13               1.4e-13               8e-14                
  0.45                  -8e-14                1.6e-13               0                     1.8e-13              
  0.4                   -1e-13                1.4e-13               8e-14                 0                    
  0.35                  -4e-14                2e-14                 -2e-14                2e-13                
  0.3                   2e-14                 -6e-14                6e-14                 2e-14                
  0.25                  4e-14                 0                     4e-14                 1.6e-13              
  0.2                   -8e-14                -8e-14                0                     1.2e-13              
  0.15                  0                     -1.2e-13              4e-14                 2e-13                
  0.1                   -2e-14                -2e-13                -2e-14                1e-13                
  0.05                  -8e-14                -2.2e-13              4e-14                 4.2e-13              
  0                     -7e-13                -1.2e-13              0                     7.8e-13              
  -0.05                 -2.94e-12             -2.8e-13              4e-14                 2.92e-12             
  -0.1                  -1.286e-11            -2.4e-13              -2e-14                1.308e-11            
  -0.15                 -5.848e-11            -3.8e-13              -2e-14                5.854e-11            
  -0.2                  -2.6082e-10           -3.4e-13              6e-14                 2.6046e-10           
  -0.25                 -1.149e-09            -2.4e-13              0                     1.1488e-09           
  -0.3                  -4.8866e-09           -4e-13                2e-14                 4.8884e-09           
  -0.35                 -1.9052e-08           -3.6e-13              -2e-14                1.9116e-08           
  -0.4                  -6.3246e-08           -5e-13                -6e-14                6.315e-08            
  -0.45                 -1.6638e-07           -3.4e-13              -1e-13                1.6612e-07           
  -0.5                  -3.4864e-07           -5.2e-13              4e-14                 3.497e-07            
  -0.55                 -6.1536e-07           -5.6e-13              -8e-14                6.1552e-07           
  -0.6                  -9.5796e-07           -4.8e-13              -4e-14                9.5844e-07           
  -0.65                 -1.3568e-06           -6e-13                -4e-14                1.3606e-06           
  -0.7                  -1.7922e-06           -7e-13                -2e-14                1.796e-06            
  -0.75                 -2.2428e-06           -8.4e-13              2e-14                 2.2472e-06           
  -0.8                  -2.6914e-06           -8.6e-13              2e-14                 2.6968e-06           
  -0.85                 -3.1334e-06           -1.16e-12             -4e-14                3.1396e-06           
  -0.9                  -3.5642e-06           -1.28e-12             1e-13                 3.5704e-06           
  -0.95                 -3.9786e-06           -1.42e-12             -4e-14                3.9832e-06           
  -1                    -4.3716e-06           -1.74e-12             -2e-14                4.3822e-06           
  -1.05                 -4.7446e-06           -1.98e-12             0                     4.747e-06            
  -1.1                  -5.1066e-06           -2.28e-12             -6e-14                5.1102e-06           
  -1.15                 -5.449e-06            -2.7e-12              -8e-14                5.451e-06            
  -1.2                  -5.7726e-06           -3.06e-12             -2e-14                5.7788e-06           
  -1.25                 -6.0786e-06           -3.72e-12             2e-14                 6.0846e-06           
  -1.3                  -6.3706e-06           -4.66e-12             1.2e-13               6.3718e-06           
  -1.35                 -6.645e-06            -5.54e-12             -2e-14                6.6262e-06           
END_DB

BEGIN_DB
 ICCAP_VAR vb         0.4            
 ICCAP_VAR vd         -0.05          
 ICCAP_VAR vs         -0             

 #vg                    id                    ig                    ib                    is                   
  0.5                   -1.8e-13              4.6e-13               8e-14                 1.8e-13              
  0.45                  -6e-14                2e-13                 -4e-14                1.2e-13              
  0.4                   -1e-13                -2e-14                1e-13                 1.4e-13              
  0.35                  -1.2e-13              8e-14                 -6e-14                1.2e-13              
  0.3                   0                     -8e-14                1.4e-13               2e-14                
  0.25                  0                     -4e-14                1.2e-13               8e-14                
  0.2                   -1.2e-13              -1.2e-13              2e-14                 1e-13                
  0.15                  0                     -2e-14                1.6e-13               -4e-14               
  0.1                   -8e-14                -1.8e-13              2e-14                 1.6e-13              
  0.05                  2e-14                 -2e-13                2.2e-13               1e-13                
  0                     -2.6e-13              -1.8e-13              6e-14                 2e-13                
  -0.05                 -1.12e-12             -1.4e-13              -2e-14                1.22e-12             
  -0.1                  -4.88e-12             -3.8e-13              1e-13                 5.08e-12             
  -0.15                 -2.304e-11            -2.6e-13              4e-14                 2.298e-11            
  -0.2                  -1.0532e-10           -4.2e-13              -6e-14                1.0446e-10           
  -0.25                 -4.7094e-10           -2.8e-13              4e-14                 4.7112e-10           
  -0.3                  -2.0938e-09           -2.2e-13              6e-14                 2.0942e-09           
  -0.35                 -8.788e-09            -4.4e-13              4e-14                 8.7776e-09           
  -0.4                  -3.2596e-08           -4.2e-13              8e-14                 3.2604e-08           
  -0.45                 -9.853e-08            -5.2e-13              8e-14                 9.9106e-08           
  -0.5                  -2.3498e-07           -4.2e-13              8e-14                 2.3562e-07           
  -0.55                 -4.5188e-07           -5.2e-13              2e-14                 4.522e-07            
  -0.6                  -7.4814e-07           -4.6e-13              0                     7.487e-07            
  -0.65                 -1.11168e-06          -6.2e-13              -4e-14                1.11252e-06          
  -0.7                  -1.5186e-06           -6.2e-13              -6e-14                1.522e-06            
  -0.75                 -1.9522e-06           -5.8e-13              1.4e-13               1.9554e-06           
  -0.8                  -2.3934e-06           -9.2e-13              -1.4e-13              2.3976e-06           
  -0.85                 -2.833e-06            -9.6e-13              1e-13                 2.833e-06            
  -0.9                  -3.2618e-06           -1.2e-12              -1.6e-13              3.2654e-06           
  -0.95                 -3.677e-06            -1.44e-12             4e-14                 3.679e-06            
  -1                    -4.0788e-06           -1.72e-12             -6e-14                4.0828e-06           
  -1.05                 -4.4588e-06           -1.96e-12             8e-14                 4.4596e-06           
  -1.1                  -4.828e-06            -2.28e-12             4e-14                 4.8294e-06           
  -1.15                 -5.1732e-06           -2.68e-12             2e-14                 5.1722e-06           
  -1.2                  -5.498e-06            -3.24e-12             0                     5.5042e-06           
  -1.25                 -5.8024e-06           -3.72e-12             4e-14                 5.8036e-06           
  -1.3                  -6.0968e-06           -4.7e-12              -4e-14                6.1066e-06           
  -1.35                 -6.371e-06            -5.4e-12              1.6e-13               6.3728e-06           
END_DB

BEGIN_DB
 ICCAP_VAR vb         0.6            
 ICCAP_VAR vd         -0.05          
 ICCAP_VAR vs         -0             

 #vg                    id                    ig                    ib                    is                   
  0.5                   -1.4e-13              4.2e-13               0                     0                    
  0.45                  -4e-14                2e-13                 0                     1.6e-13              
  0.4                   0                     1.4e-13               0                     1.2e-13              
  0.35                  0                     -1e-13                1e-13                 1e-13                
  0.3                   0                     0                     -2e-14                2e-13                
  0.25                  -8e-14                -8e-14                -4e-14                1.4e-13              
  0.2                   -4e-14                -4e-14                8e-14                 1.4e-13              
  0.15                  -1.2e-13              -2.2e-13              0                     1.4e-13              
  0.1                   -2e-14                -2.2e-13              2e-14                 1.6e-13              
  0.05                  -1.2e-13              -1.2e-13              6e-14                 1.6e-13              
  0                     -1.2e-13              -2.4e-13              0                     1.6e-13              
  -0.05                 -4.4e-13              -2.2e-13              0                     5.6e-13              
  -0.1                  -2.14e-12             -3e-13                1e-13                 2.04e-12             
  -0.15                 -9.94e-12             -1.6e-13              1.8e-13               9.9e-12              
  -0.2                  -4.626e-11            -3e-13                -2e-14                4.648e-11            
  -0.25                 -2.1544e-10           -3.4e-13              4e-14                 2.1542e-10           
  -0.3                  -9.8528e-10           -4e-13                1e-13                 9.8476e-10           
  -0.35                 -4.3276e-09           -3.2e-13              6e-14                 4.3348e-09           
  -0.4                  -1.7376e-08           -3.4e-13              0                     1.773e-08            
  -0.45                 -5.9636e-08           -3.8e-13              1.2e-13               5.966e-08            
  -0.5                  -1.5846e-07           -3.8e-13              0                     1.5882e-07           
  -0.55                 -3.3434e-07           -5.2e-13              0                     3.341e-07            
  -0.6                  -5.9e-07              -5.2e-13              1.8e-13               5.896e-07            
  -0.65                 -9.1862e-07           -6.2e-13              -2e-14                9.1706e-07           
  -0.7                  -1.299e-06            -6e-13                6e-14                 1.301e-06            
  -0.75                 -1.712e-06            -7.8e-13              -2e-14                1.714e-06            
  -0.8                  -2.1404e-06           -9.4e-13              8e-14                 2.1442e-06           
  -0.85                 -2.5774e-06           -1.02e-12             -8e-14                2.5792e-06           
  -0.9                  -3.0036e-06           -1.22e-12             0                     3.0006e-06           
  -0.95                 -3.4182e-06           -1.46e-12             4e-14                 3.4232e-06           
  -1                    -3.8224e-06           -1.68e-12             -8e-14                3.8276e-06           
  -1.05                 -4.21e-06             -2e-12                -2e-14                4.205e-06            
  -1.1                  -4.566e-06            -2.24e-12             -4e-14                4.5702e-06           
  -1.15                 -4.922e-06            -2.64e-12             -6e-14                4.931e-06            
  -1.2                  -5.2558e-06           -3.12e-12             0                     5.2634e-06           
  -1.25                 -5.5638e-06           -3.76e-12             2e-14                 5.5712e-06           
  -1.3                  -5.862e-06            -4.6e-12              0                     5.8706e-06           
  -1.35                 -6.143e-06            -5.6e-12              0                     6.1514e-06           
END_DB

BEGIN_DB
 ICCAP_VAR vb         0.8            
 ICCAP_VAR vd         -0.05          
 ICCAP_VAR vs         -0             

 #vg                    id                    ig                    ib                    is                   
  0.5                   -1e-13                4.2e-13               1.4e-13               -4e-14               
  0.45                  0                     1.6e-13               1.4e-13               4e-14                
  0.4                   2e-14                 1e-13                 6e-14                 2e-14                
  0.35                  -2e-14                -2e-14                1.8e-13               0                    
  0.3                   0                     8e-14                 1.6e-13               0                    
