! VERSION = 6.00
BEGIN_HEADER
 ICCAP_INPUTS
  vd         V  D GROUND SMU1 0.1 LIN        1    -0         -1.35      28   -0.05     
  vg         V  G GROUND SMU2 0.001 LIST       2 3 -0.318 -0.518 -0.718
  vb         V  B GROUND SMU4 0.1 CON        1.2
  vs         V  S GROUND SMU3 0.1 CON        -0
 ICCAP_OUTPUTS
  id         I  D GROUND SMU1 B
  ig         I  G GROUND SMU2 B
  ib         I  B GROUND SMU4 B
  is         I  S GROUND SMU3 B
 ICCAP_VALUES
  MASTER_SETUP_TYPE "~dc_idvd~"
  LINVT_VALUE ""
  LISTVT_VALUE "|idvg|100.0n|-200.0m|1.000m|3|200.0m|200.0m|"
  TYPE "-1"
  TEMP " 27.0000 "
  IS_TNOM " 1.00000 "
  MAIN.W "2.000u"
  MAIN.L "130.0n"
  MAIN.AD "680.0f"
  MAIN.AS "680.0f"
  MAIN.PD "4.680u"
  MAIN.PS "4.680u"
  MAIN.NF "1.000"
  MAIN.M "1"
  MAIN.NRD "0.000"
  MAIN.NRS "0.000"
  MAIN.LDRIFT1 "1E-06"
  MAIN.LDRIFT2 "1E-06"
  MAIN.SA "0.000"
  MAIN.SB "0.000"
  MAIN.SD "0.000"
  MAIN.SCA "0.000"
  MAIN.SCB "0.000"
  MAIN.SCC "0.000"
  MAIN.SC "0.000"
  MODULE "S550"
  PIN_D "14"
  PIN_G "7"
  PIN_S "8"
  PIN_B "13"
  PIN_E ""
  PIN_6 ""
  XY_ID ""
  FUNC "LW Scale"
  STI "SA ref"
  WPE "WPE ref"
  COMMENT ""
  DIS_MEAS ""
  TypeTCI "10"
END_HEADER

BEGIN_DB
 ICCAP_VAR vg         -0.318         
 ICCAP_VAR vb         1.2            
 ICCAP_VAR vs         -0             

 #vd                    id                    ig                    ib                    is                   
  -0                    2.26e-12              -6e-14                1e-13                 -5.76e-12            
  -0.05                 -2.5818e-09           0                     1.6e-13               2.5874e-09           
  -0.1                  -3.3126e-09           -6e-14                4e-14                 3.316e-09            
  -0.15                 -3.769e-09            -6e-14                1.2e-13               3.7528e-09           
  -0.2                  -4.1794e-09           -2e-14                4e-14                 4.1812e-09           
  -0.25                 -4.6164e-09           -1.2e-13              -2e-14                4.6066e-09           
  -0.3                  -5.0614e-09           -1.4e-13              0                     5.0568e-09           
  -0.35                 -5.5452e-09           -8e-14                -4e-14                5.552e-09            
  -0.4                  -6.0588e-09           -1.8e-13              4e-14                 6.0552e-09           
  -0.45                 -6.6204e-09           0                     -1e-13                6.6172e-09           
  -0.5                  -7.2036e-09           2e-14                 -2e-14                7.2198e-09           
  -0.55                 -7.8828e-09           2e-14                 -1e-13                7.869e-09            
  -0.6                  -8.5234e-09           2.2e-13               2e-14                 8.5094e-09           
  -0.65                 -9.2404e-09           1e-13                 -1.2e-13              9.2368e-09           
  -0.7                  -1.001e-08            2.6e-13               -4e-14                9.996e-09            
  -0.75                 -1.08618e-08          3.6e-13               0                     1.08298e-08          
  -0.8                  -1.1732e-08           4.8e-13               -6e-14                1.1756e-08           
  -0.85                 -1.2692e-08           5.2e-13               -2e-14                1.2672e-08           
  -0.9                  -1.3652e-08           6.2e-13               -1.8e-13              1.37e-08             
  -0.95                 -1.476e-08            8.2e-13               -1e-13                1.476e-08            
  -1                    -1.5938e-08           9.4e-13               -1.6e-13              1.5922e-08           
  -1.05                 -1.7162e-08           1e-12                 -8e-14                1.722e-08            
  -1.1                  -1.852e-08            1.14e-12              -6e-14                1.8478e-08           
  -1.15                 -1.9872e-08           1.34e-12              -4e-14                1.988e-08            
  -1.2                  -2.1366e-08           1.62e-12              -4e-14                2.1408e-08           
  -1.25                 -2.2996e-08           1.9e-12               -2e-14                2.3026e-08           
  -1.3                  -2.4718e-08           2.12e-12              4e-14                 2.4748e-08           
  -1.35                 -2.6628e-08           2.44e-12              2.6e-13               2.6608e-08           
END_DB

BEGIN_DB
 ICCAP_VAR vg         -0.518         
 ICCAP_VAR vb         1.2            
 ICCAP_VAR vs         -0             

 #vd                    id                    ig                    ib                    is                   
  -0                    1.1946e-09            -1.12e-12             -6e-14                -1.1102e-09          
  -0.05                 -6.1866e-07           -1.06e-12             -4e-14                6.135e-07            
  -0.1                  -8.4722e-07           -8.6e-13              -4e-14                8.5416e-07           
  -0.15                 -9.8494e-07           -8.2e-13              -1.4e-13              9.8482e-07           
  -0.2                  -1.08582e-06          -6.6e-13              -1e-13                1.08438e-06          
  -0.25                 -1.1764e-06           -6.8e-13              -6e-14                1.1798e-06           
  -0.3                  -1.2728e-06           -5e-13                -1.2e-13              1.2762e-06           
  -0.35                 -1.3644e-06           -4.2e-13              -4e-14                1.37e-06             
  -0.4                  -1.4592e-06           -5.6e-13              -6e-14                1.4636e-06           
  -0.45                 -1.556e-06            -7.2e-13              0                     1.558e-06            
  -0.5                  -1.655e-06            -5.8e-13              -8e-14                1.658e-06            
  -0.55                 -1.7642e-06           -4.4e-13              -6e-14                1.7642e-06           
  -0.6                  -1.8708e-06           -4.8e-13              0                     1.8758e-06           
  -0.65                 -1.9824e-06           -6e-13                -1e-13                1.9848e-06           
  -0.7                  -2.0924e-06           -4.8e-13              -1.2e-13              2.0974e-06           
  -0.75                 -2.2122e-06           -2.8e-13              -8e-14                2.2158e-06           
  -0.8                  -2.3358e-06           -3e-13                -1.4e-13              2.3414e-06           
  -0.85                 -2.4616e-06           -3.2e-13              -1e-13                2.471e-06            
  -0.9                  -2.592e-06            -1.8e-13              -2e-13                2.593e-06            
  -0.95                 -2.7236e-06           -2.8e-13              -2.2e-13              2.7294e-06           
  -1                    -2.8648e-06           -2.2e-13              -1.2e-13              2.87e-06             
  -1.05                 -3.0106e-06           -1.2e-13              -4e-14                3.0108e-06           
  -1.1                  -3.1618e-06           1e-13                 6e-14                 3.1622e-06           
  -1.15                 -3.3136e-06           4.4e-13               2.6e-13               3.3166e-06           
  -1.2                  -3.4728e-06           6.6e-13               5.8e-13               3.473e-06            
  -1.25                 -3.6398e-06           5.2e-13               1.44e-12              3.6378e-06           
  -1.3                  -3.81e-06             7e-13                 3e-12                 3.8144e-06           
  -1.35                 -3.9878e-06           8.2e-13               6.1e-12               3.9966e-06           
END_DB

BEGIN_DB
 ICCAP_VAR vg         -0.718         
 ICCAP_VAR vb         1.2            
 ICCAP_VAR vs         -0             

 #vd                    id                    ig                    ib                    is                   
  -0                    1.3286e-08            -3.68e-12             -1e-13                -1.2944e-08          
  -0.05                 -8.4508e-06           -3.22e-12             -6e-14                8.456e-06            
  -0.1                  -1.403e-05            -2.86e-12             -2e-14                1.4064e-05           
  -0.15                 -1.7682e-05           -2.68e-12             -4e-14                1.7698e-05           
  -0.2                  -2.014e-05            -2.66e-12             -1.2e-13              2.0182e-05           
  -0.25                 -2.1922e-05           -2.28e-12             -6e-14                2.1914e-05           
  -0.3                  -2.3322e-05           -1.94e-12             -8e-14                2.3356e-05           
  -0.35                 -2.457e-05            -1.98e-12             -1.2e-13              2.4582e-05           
  -0.4                  -2.5678e-05           -1.98e-12             -8e-14                2.5708e-05           
  -0.45                 -2.677e-05            -2.02e-12             -8e-14                2.6732e-05           
  -0.5                  -2.7696e-05           -2e-12                -1.8e-13              2.7796e-05           
  -0.55                 -2.8736e-05           -1.94e-12             -1e-13                2.874e-05            
  -0.6                  -2.9708e-05           -1.76e-12             -2e-13                2.9732e-05           
  -0.65                 -3.0678e-05           -1.74e-12             -8e-14                3.0706e-05           
  -0.7                  -3.163e-05            -1.84e-12             -6e-14                3.165e-05            
  -0.75                 -3.2588e-05           -1.8e-12              -1e-13                3.2594e-05           
  -0.8                  -3.35e-05             -1.7e-12              -8e-14                3.3552e-05           
  -0.85                 -3.4532e-05           -1.74e-12             -1.4e-13              3.4464e-05           
  -0.9                  -3.5458e-05           -1.56e-12             -8e-14                3.5484e-05           
  -0.95                 -3.6502e-05           -1.48e-12             -1.8e-13              3.6504e-05           
  -1                    -3.749e-05            -1.54e-12             -8e-14                3.7434e-05           
  -1.05                 -3.8476e-05           -1.36e-12             0                     3.8514e-05           
  -1.1                  -3.9534e-05           -1.38e-12             -2e-14                3.9526e-05           
  -1.15                 -4.0606e-05           -1.5e-12              2.2e-13               4.054e-05            
  -1.2                  -4.1422e-05           -1.16e-12             9.2e-13               4.1462e-05           
  -1.25                 -4.2546e-05           -1.06e-12             2.38e-12              4.2488e-05           
  -1.3                  -4.3472e-05           -1.14e-12             5.42e-12              4.3646e-05           
  -1.35                 -4.473e-05            -1.06e-12             1.18e-11              4.4738e-05           
END_DB

