! VERSION = 6.00
BEGIN_HEADER
 ICCAP_INPUTS
  vd         V  D GROUND SMU1 0.1 LIN        1    -0         -1.35      28   -0.05     
  vg         V  G GROUND SMU2 0.001 LIN        2    -0.506     -1.35      5    -0.211    
  vb         V  B GROUND SMU4 0.1 CON        -0
  vs         V  S GROUND SMU3 0.1 CON        -0
 ICCAP_OUTPUTS
  id         I  D GROUND SMU1 B
  ig         I  G GROUND SMU2 B
  ib         I  B GROUND SMU4 B
  is         I  S GROUND SMU3 B
 ICCAP_VALUES
  MASTER_SETUP_TYPE "~dc_idvd~"
  LINVT_VALUE "|idvg|100.0n|100.0m|1.000m|5|1.350|"
  LISTVT_VALUE ""
  TYPE "-1"
  TEMP " 27.0000 "
  IS_TNOM " 1.00000 "
  MAIN.W "10.00u"
  MAIN.L "140.0n"
  MAIN.AD "3.400p"
  MAIN.AS "3.400p"
  MAIN.PD "20.68u"
  MAIN.PS "20.68u"
  MAIN.NF "1.000"
  MAIN.M "1"
  MAIN.NRD "0.000"
  MAIN.NRS "0.000"
  MAIN.LDRIFT1 "1E-06"
  MAIN.LDRIFT2 "1E-06"
  MAIN.SA "0.000"
  MAIN.SB "0.000"
  MAIN.SD "0.000"
  MAIN.SCA "0.000"
  MAIN.SCB "0.000"
  MAIN.SCC "0.000"
  MAIN.SC "0.000"
  MODULE "S548"
  PIN_D "16"
  PIN_G "5"
  PIN_S "6"
  PIN_B "15"
  PIN_E ""
  PIN_6 ""
  XY_ID ""
  FUNC "L Scale"
  STI "SA ref"
  WPE "WPE ref"
  COMMENT ""
  DIS_MEAS ""
  TypeTCI "10"
END_HEADER

BEGIN_DB
 ICCAP_VAR vg         -0.506         
 ICCAP_VAR vb         -0             
 ICCAP_VAR vs         -0             

 #vd                    id                    ig                    ib                    is                   
  -0                    3.1532e-08            -5.08e-12             -3.2e-12              -3.4526e-08          
  -0.05                 -1.9552e-05           -4.14e-12             -3.28e-12             1.9568e-05           
  -0.1                  -2.9326e-05           -3.86e-12             -3.22e-12             2.935e-05            
  -0.15                 -3.4154e-05           -3.34e-12             -3.14e-12             3.4168e-05           
  -0.2                  -3.6984e-05           -3.08e-12             -2.96e-12             3.6994e-05           
  -0.25                 -3.8984e-05           -2.8e-12              -3e-12                3.8992e-05           
  -0.3                  -4.0662e-05           -2.78e-12             -3.06e-12             4.0676e-05           
  -0.35                 -4.2162e-05           -2.78e-12             -2.92e-12             4.217e-05            
  -0.4                  -4.358e-05            -2.78e-12             -2.94e-12             4.356e-05            
  -0.45                 -4.4904e-05           -2.62e-12             -2.88e-12             4.492e-05            
  -0.5                  -4.6186e-05           -2.58e-12             -2.76e-12             4.617e-05            
  -0.55                 -4.74e-05             -2.64e-12             -2.9e-12              4.74e-05             
  -0.6                  -4.86e-05             -2.46e-12             -2.9e-12              4.8656e-05           
  -0.65                 -4.9832e-05           -2.48e-12             -2.72e-12             4.9856e-05           
  -0.7                  -5.1002e-05           -2.48e-12             -2.84e-12             5.1022e-05           
  -0.75                 -5.2184e-05           -2.24e-12             -2.88e-12             5.2194e-05           
  -0.8                  -5.3312e-05           -2.08e-12             -2.62e-12             5.3334e-05           
  -0.85                 -5.4448e-05           -2.22e-12             -2.7e-12              5.4494e-05           
  -0.9                  -5.5594e-05           -1.9e-12              -2.74e-12             5.5648e-05           
  -0.95                 -5.6744e-05           -1.6e-12              -2.64e-12             5.677e-05            
  -1                    -5.7828e-05           -1.26e-12             -2.5e-12              5.7874e-05           
  -1.05                 -5.898e-05            -9.4e-13              -2.26e-12             5.8998e-05           
  -1.1                  -6.012e-05            -4.8e-13              -1.62e-12             6.0146e-05           
  -1.15                 -6.1216e-05           0                     -1e-13                6.1254e-05           
  -1.2                  -6.2358e-05           4.4e-13               3.08e-12              6.2388e-05           
  -1.25                 -6.3494e-05           1.16e-12              1.014e-11             6.3522e-05           
  -1.3                  -6.4618e-05           1.86e-12              2.414e-11             6.4644e-05           
  -1.35                 -6.577e-05            2.46e-12              5.028e-11             6.5816e-05           
END_DB

BEGIN_DB
 ICCAP_VAR vg         -0.717         
 ICCAP_VAR vb         -0             
 ICCAP_VAR vs         -0             

 #vd                    id                    ig                    ib                    is                   
  -0                    1.12442e-07           -2.04e-11             -2.28e-12             -1.07814e-07         
  -0.05                 -8.0292e-05           -1.764e-11            -2.32e-12             8.0304e-05           
  -0.1                  -0.00014252           -1.556e-11            -2.2e-12              0.00014282           
  -0.15                 -0.00018856           -1.382e-11            -2.22e-12             0.000189             
  -0.2                  -0.00022132           -1.27e-11             -2.26e-12             0.00022168           
  -0.25                 -0.00024412           -1.19e-11             -2.36e-12             0.00024462           
  -0.3                  -0.00026044           -1.134e-11            -2.28e-12             0.00026088           
  -0.35                 -0.00027288           -1.082e-11            -2.26e-12             0.00027328           
  -0.4                  -0.00028274           -1.05e-11             -2.14e-12             0.00028326           
  -0.45                 -0.0002913            -1.01e-11             -2.1e-12              0.00029162           
  -0.5                  -0.00029874           -9.96e-12             -2.08e-12             0.00029922           
  -0.55                 -0.00030562           -9.78e-12             -2.12e-12             0.00030588           
  -0.6                  -0.00031186           -9.72e-12             -2.18e-12             0.00031218           
  -0.65                 -0.00031774           -9.72e-12             -2.06e-12             0.00031832           
  -0.7                  -0.00032364           -9.54e-12             -2.04e-12             0.00032412           
  -0.75                 -0.00032912           -9.46e-12             -2.16e-12             0.00032928           
  -0.8                  -0.00033436           -9.32e-12             -2.16e-12             0.00033488           
  -0.85                 -0.00033976           -9.26e-12             -2.06e-12             0.00034018           
  -0.9                  -0.00034484           -9.32e-12             -2e-12                0.0003453            
  -0.95                 -0.00034984           -9.06e-12             -2.1e-12              0.00035014           
  -1                    -0.00035484           -8.88e-12             -1.96e-12             0.00035526           
  -1.05                 -0.00035964           -8.7e-12              -1.74e-12             0.0003601            
  -1.1                  -0.0003644            -8.48e-12             -1.28e-12             0.0003648            
  -1.15                 -0.00036924           -8.14e-12             -3.4e-13              0.0003694            
  -1.2                  -0.00037378           -7.92e-12             2.06e-12              0.00037406           
  -1.25                 -0.00037838           -7.4e-12              7.92e-12              0.00037862           
  -1.3                  -0.00038262           -7e-12                2.076e-11             0.00038318           
  -1.35                 -0.00038748           -6.46e-12             4.802e-11             0.00038786           
END_DB

BEGIN_DB
 ICCAP_VAR vg         -0.928         
 ICCAP_VAR vb         -0             
 ICCAP_VAR vs         -0             

 #vd                    id                    ig                    ib                    is                   
  -0                    3.7062e-07            -6.104e-11            -1.88e-12             -1.381e-07           
  -0.05                 -0.00014032           -5.44e-11             -1.92e-12             0.00014062           
  -0.1                  -0.00026412           -4.866e-11            -1.84e-12             0.00026452           
  -0.15                 -0.0003708            -4.386e-11            -1.7e-12              0.00037118           
  -0.2                  -0.00046062           -3.996e-11            -1.92e-12             0.00046118           
  -0.25                 -0.00053434           -3.674e-11            -1.94e-12             0.00053494           
  -0.3                  -0.00059386           -3.418e-11            -1.82e-12             0.00059422           
  -0.35                 -0.00064088           -3.228e-11            -1.72e-12             0.00064108           
  -0.4                  -0.00067758           -3.088e-11            -1.92e-12             0.0006779            
  -0.45                 -0.00070712           -2.95e-11             -1.76e-12             0.00070732           
  -0.5                  -0.00073086           -2.872e-11            -1.82e-12             0.00073132           
  -0.55                 -0.00075104           -2.8e-11              -1.82e-12             0.00075154           
  -0.6                  -0.00076864           -2.724e-11            -1.68e-12             0.00076914           
  -0.65                 -0.0007842            -2.69e-11             -1.62e-12             0.0007845            
  -0.7                  -0.0007985            -2.654e-11            -1.72e-12             0.00079856           
  -0.75                 -0.00081122           -2.612e-11            -1.68e-12             0.00081178           
  -0.8                  -0.00082336           -2.588e-11            -1.62e-12             0.00082412           
  -0.85                 -0.0008352            -2.57e-11             -1.66e-12             0.00083544           
  -0.9                  -0.00084616           -2.55e-11             -1.68e-12             0.00084666           
  -0.95                 -0.0008568            -2.534e-11            -1.56e-12             0.00085714           
  -1                    -0.00086692           -2.504e-11            -1.54e-12             0.00086762           
  -1.05                 -0.00087732           -2.5e-11              -1.62e-12             0.00087738           
  -1.1                  -0.00088688           -2.472e-11            -1.46e-12             0.0008876            
  -1.15                 -0.00089664           -2.458e-11            -9.4e-13              0.00089724           
  -1.2                  -0.00090616           -2.43e-11             2.4e-13               0.0009065            
  -1.25                 -0.00091502           -2.41e-11             2.82e-12              0.00091564           
  -1.3                  -0.00092418           -2.372e-11            8.94e-12              0.00092468           
  -1.35                 -0.00093324           -2.334e-11            2.258e-11             0.00093378           
END_DB

BEGIN_DB
 ICCAP_VAR vg         -1.139         
 ICCAP_VAR vb         -0             
 ICCAP_VAR vs         -0             

 #vd                    id                    ig                    ib                    is                   
  -0                    5.191e-07             -1.4278e-10           -1.46e-12             -1.7566e-07          
  -0.05                 -0.00018892           -1.308e-10            -1.5e-12              0.0001892            
  -0.1                  -0.00036388           -1.1984e-10           -1.5e-12              0.00036434           
  -0.15                 -0.00052388           -1.1006e-10           -1.38e-12             0.00052424           
  -0.2                  -0.00066796           -1.016e-10            -1.48e-12             0.00066834           
  -0.25                 -0.00079612           -9.384e-11            -1.52e-12             0.0007967            
  -0.3                  -0.00090886           -8.732e-11            -1.46e-12             0.00090924           
  -0.35                 -0.00100526           -8.172e-11            -1.46e-12             0.0010058            
  -0.4                  -0.00108798           -7.718e-11            -1.44e-12             0.0010882            
  -0.45                 -0.0011562            -7.316e-11            -1.36e-12             0.0011576            
  -0.5                  -0.0012138            -7.02e-11             -1.38e-12             0.0012154            
  -0.55                 -0.0012622            -6.744e-11            -1.42e-12             0.0012636            
  -0.6                  -0.0013032            -6.544e-11            -1.58e-12             0.0013046            
  -0.65                 -0.0013376            -6.362e-11            -1.5e-12              0.001339             
  -0.7                  -0.0013674            -6.232e-11            -1.4e-12              0.001369             
  -0.75                 -0.001394             -6.134e-11            -1.3e-12              0.0013956            
  -0.8                  -0.0014172            -6.024e-11            -1.38e-12             0.001419             
  -0.85                 -0.001439             -5.944e-11            -1.36e-12             0.0014402            
  -0.9                  -0.0014588            -5.874e-11            -1.48e-12             0.0014602            
  -0.95                 -0.0014778            -5.824e-11            -1.42e-12             0.0014788            
  -1                    -0.0014952            -5.754e-11            -1.46e-12             0.001497             
  -1.05                 -0.0015118            -5.706e-11            -1.34e-12             0.0015132            
  -1.1                  -0.0015272            -5.65e-11             -1.28e-12             0.0015282            
  -1.15                 -0.0015426            -5.622e-11            -1.06e-12             0.0015446            
  -1.2                  -0.0015574            -5.57e-11             -6.4e-13              0.0015586            
  -1.25                 -0.0015714            -5.548e-11            3.6e-13               0.0015732            
  -1.3                  -0.0015862            -5.5e-11              3.12e-12              0.0015878            
  -1.35                 -0.0016002            -5.464e-11            9.08e-12              0.0016022            
END_DB

BEGIN_DB
 ICCAP_VAR vg         -1.35          
 ICCAP_VAR vb         -0             
 ICCAP_VAR vs         -0             

 #vd                    id                    ig                    ib                    is                   
  -0                    5.4812e-07            -2.882e-10            1.32e-12              -2.0278e-07          
  -0.05                 -0.00022672           -2.6788e-10           5e-13                 0.00022702           
  -0.1                  -0.00044214           -2.5006e-10           1.8e-13               0.00044248           
  -0.15                 -0.0006444            -2.3106e-10           -8e-14                0.00064492           
  -0.2                  -0.00083324           -2.1542e-10           -2.4e-13              0.00083374           
  -0.25                 -0.0010073            -2.0094e-10           -4.8e-13              0.00100788           
  -0.3                  -0.0011664            -1.881e-10            -5.4e-13              0.0011676            
  -0.35                 -0.0013102            -1.7658e-10           -4.4e-13              0.0013116            
  -0.4                  -0.001439             -1.6654e-10           -6.2e-13              0.001441             
  -0.45                 -0.0015544            -1.5762e-10           -6e-13                0.0015554            
  -0.5                  -0.0016554            -1.5022e-10           -7e-13                0.0016566            
  -0.55                 -0.0017432            -1.4352e-10           -7.6e-13              0.001746             
  -0.6                  -0.0018212            -1.3816e-10           -7.8e-13              0.0018226            
  -0.65                 -0.001887             -1.3362e-10           -7.4e-13              0.001888             
  -0.7                  -0.0019444            -1.2978e-10           -7.2e-13              0.0019456            
  -0.75                 -0.0019948            -1.2662e-10           -7.8e-13              0.0019966            
  -0.8                  -0.0020386            -1.2342e-10           -7e-13                0.0020402            
  -0.85                 -0.0020762            -1.2164e-10           -7.4e-13              0.002078             
  -0.9                  -0.0021112            -1.1956e-10           -7.6e-13              0.0021134            
  -0.95                 -0.0021424            -1.2176e-10           -9e-13                0.0021446            
  -1                    -0.0021712            -1.1646e-10           -7.6e-13              0.0021726            
  -1.05                 -0.0021966            -1.151e-10            -7.4e-13              0.0021978            
  -1.1                  -0.0022212            -1.1386e-10           -8e-13                0.0022232            
  -1.15                 -0.0022446            -1.1276e-10           -7.2e-13              0.0022466            
  -1.2                  -0.002266             -1.1208e-10           -5e-13                0.0022674            
  -1.25                 -0.0022874            -1.1112e-10           -8e-14                0.0022892            
  -1.3                  -0.0023078            -1.1026e-10           1.04e-12              0.002309             
  -1.35                 -0.0023268            -1.0934e-10           3.7e-12               0.002329             
END_DB

