! VERSION = 6.00
BEGIN_HEADER
 ICCAP_INPUTS
  vd         V  D GROUND SMU1 0.1 LIN        1    -0         -1.35      28   -0.05     
  vg         V  G GROUND SMU2 0.001 LIN        2    -0.614     -1.35      5    -0.184    
  vb         V  B GROUND SMU4 0.1 CON        1.2
  vs         V  S GROUND SMU3 0.1 CON        -0
 ICCAP_OUTPUTS
  id         I  D GROUND SMU1 B
  ig         I  G GROUND SMU2 B
  ib         I  B GROUND SMU4 B
  is         I  S GROUND SMU3 B
 ICCAP_VALUES
  MASTER_SETUP_TYPE "~dc_idvd~"
  LINVT_VALUE "|idvg|100.0n|100.0m|1.000m|5|1.350|"
  LISTVT_VALUE ""
  TYPE "-1"
  TEMP " 27.0000 "
  IS_TNOM " 1.00000 "
  MAIN.W "10.00u"
  MAIN.L "120.0n"
  MAIN.AD "3.400p"
  MAIN.AS "3.400p"
  MAIN.PD "20.68u"
  MAIN.PS "20.68u"
  MAIN.NF "1.000"
  MAIN.M "1"
  MAIN.NRD "0.000"
  MAIN.NRS "0.000"
  MAIN.LDRIFT1 "1E-06"
  MAIN.LDRIFT2 "1E-06"
  MAIN.SA "0.000"
  MAIN.SB "0.000"
  MAIN.SD "0.000"
  MAIN.SCA "0.000"
  MAIN.SCB "0.000"
  MAIN.SCC "0.000"
  MAIN.SC "0.000"
  MODULE "S548"
  PIN_D "20"
  PIN_G "1"
  PIN_S "2"
  PIN_B "19"
  PIN_E ""
  PIN_6 ""
  XY_ID ""
  FUNC "Additional"
  STI "SA ref"
  WPE "WPE ref"
  COMMENT ""
  DIS_MEAS ""
  TypeTCI "10"
END_HEADER

BEGIN_DB
 ICCAP_VAR vg         -0.614         
 ICCAP_VAR vb         1.2            
 ICCAP_VAR vs         -0             

 #vd                    id                    ig                    ib                    is                   
  -0                    2.3772e-08            -1.078e-11            5.4e-13               -2.8094e-08          
  -0.05                 -1.3648e-05           -9.4e-12              5e-13                 1.3662e-05           
  -0.1                  -2.0914e-05           -8.22e-12             4.4e-13               2.0964e-05           
  -0.15                 -2.5436e-05           -7.44e-12             5e-13                 2.5436e-05           
  -0.2                  -2.8814e-05           -6.84e-12             5.2e-13               2.8826e-05           
  -0.25                 -3.1834e-05           -6.5e-12              3.8e-13               3.185e-05            
  -0.3                  -3.4636e-05           -6.26e-12             3.8e-13               3.4638e-05           
  -0.35                 -3.7476e-05           -6.06e-12             3.6e-13               3.7444e-05           
  -0.4                  -4.0254e-05           -6.02e-12             3.2e-13               4.0202e-05           
  -0.45                 -4.3074e-05           -6.04e-12             3.6e-13               4.309e-05            
  -0.5                  -4.5968e-05           -5.9e-12              3.2e-13               4.6054e-05           
  -0.55                 -4.899e-05            -5.86e-12             3e-13                 4.8956e-05           
  -0.6                  -5.2032e-05           -5.78e-12             8e-14                 5.2062e-05           
  -0.65                 -5.5244e-05           -5.74e-12             2.6e-13               5.5238e-05           
  -0.7                  -5.858e-05            -5.66e-12             3.4e-13               5.8624e-05           
  -0.75                 -6.1936e-05           -5.68e-12             3.4e-13               6.19e-05             
  -0.8                  -6.5464e-05           -5.62e-12             3.2e-13               6.5434e-05           
  -0.85                 -6.9024e-05           -5.56e-12             3e-13                 6.8998e-05           
  -0.9                  -7.2768e-05           -5.36e-12             2e-13                 7.2832e-05           
  -0.95                 -7.6804e-05           -5.26e-12             2.2e-13               7.6824e-05           
  -1                    -8.0792e-05           -5e-12                4.8e-13               8.0684e-05           
  -1.05                 -8.4826e-05           -4.88e-12             8.4e-13               8.4852e-05           
  -1.1                  -8.9212e-05           -4.46e-12             1.78e-12              8.9136e-05           
  -1.15                 -9.36e-05             -4.24e-12             4.1e-12               9.3598e-05           
  -1.2                  -9.8112e-05           -3.78e-12             9.4e-12               9.8104e-05           
  -1.25                 -0.00010276           -3.46e-12             2.138e-11             0.000102798          
  -1.3                  -0.00010769           -2.82e-12             4.55e-11              0.000107712          
  -1.35                 -0.000112768          -2.28e-12             9.144e-11             0.000112692          
END_DB

BEGIN_DB
 ICCAP_VAR vg         -0.798         
 ICCAP_VAR vb         1.2            
 ICCAP_VAR vs         -0             

 #vd                    id                    ig                    ib                    is                   
  -0                    1.1031e-07            -3.178e-11            1.2e-13               -1.05064e-07         
  -0.05                 -6.7284e-05           -2.822e-11            8e-14                 6.7302e-05           
  -0.1                  -0.0001178            -2.546e-11            1.6e-13               0.00011822           
  -0.15                 -0.00015502           -2.316e-11            2.4e-13               0.00015538           
  -0.2                  -0.00018248           -2.156e-11            8e-14                 0.00018306           
  -0.25                 -0.00020372           -2.018e-11            1e-13                 0.000204             
  -0.3                  -0.00022086           -1.92e-11             1.8e-13               0.00022124           
  -0.35                 -0.0002355            -1.84e-11             1.6e-13               0.00023586           
  -0.4                  -0.00024872           -1.8e-11              1e-13                 0.00024914           
  -0.45                 -0.00026116           -1.752e-11            1.4e-13               0.00026148           
  -0.5                  -0.00027288           -1.718e-11            1.4e-13               0.00027322           
  -0.55                 -0.00028422           -1.698e-11            8e-14                 0.00028466           
  -0.6                  -0.00029518           -1.664e-11            1.2e-13               0.00029562           
  -0.65                 -0.0003063            -1.654e-11            1.8e-13               0.00030646           
  -0.7                  -0.00031744           -1.644e-11            1.8e-13               0.00031788           
  -0.75                 -0.00032864           -1.634e-11            1.4e-13               0.00032876           
  -0.8                  -0.00033946           -1.612e-11            6e-14                 0.00033978           
  -0.85                 -0.00035078           -1.6e-11              1.2e-13               0.00035128           
  -0.9                  -0.00036222           -1.594e-11            4e-14                 0.00036252           
  -0.95                 -0.00037332           -1.576e-11            2.2e-13               0.00037394           
  -1                    -0.00038504           -1.568e-11            3.2e-13               0.00038562           
  -1.05                 -0.0003969            -1.546e-11            5.6e-13               0.0003969            
  -1.1                  -0.00040812           -1.534e-11            1.4e-12               0.0004086            
  -1.15                 -0.00041974           -1.5e-11              3.54e-12              0.00042018           
  -1.2                  -0.00043194           -1.482e-11            8.7e-12               0.0004321            
  -1.25                 -0.0004437            -1.45e-11             2.066e-11             0.00044416           
  -1.3                  -0.0004564            -1.422e-11            4.632e-11             0.00045666           
  -1.35                 -0.00046858           -1.388e-11            9.942e-11             0.00046928           
END_DB

BEGIN_DB
 ICCAP_VAR vg         -0.982         
 ICCAP_VAR vb         1.2            
 ICCAP_VAR vs         -0             

 #vd                    id                    ig                    ib                    is                   
  -0                    3.7262e-07            -7.532e-11            8e-14                 -1.4808e-07          
  -0.05                 -0.00013004           -6.848e-11            1.8e-13               0.00013042           
  -0.1                  -0.00024308           -6.25e-11             0                     0.00024338           
  -0.15                 -0.00033862           -5.736e-11            -4e-14                0.00033902           
  -0.2                  -0.0004181            -5.328e-11            4e-14                 0.00041862           
  -0.25                 -0.00048376           -4.956e-11            2e-14                 0.00048438           
  -0.3                  -0.00053738           -4.688e-11            6e-14                 0.00053746           
  -0.35                 -0.00058118           -4.476e-11            8e-14                 0.0005816            
  -0.4                  -0.0006183            -4.29e-11             1.2e-13               0.00061852           
  -0.45                 -0.00065056           -4.166e-11            -2e-14                0.00065052           
  -0.5                  -0.00067896           -4.048e-11            2e-14                 0.00067914           
  -0.55                 -0.0007036            -3.95e-11             6e-14                 0.00070466           
  -0.6                  -0.00072762           -3.882e-11            -4e-14                0.00072774           
  -0.65                 -0.00074974           -3.824e-11            0                     0.00075014           
  -0.7                  -0.00077158           -3.772e-11            1e-13                 0.00077174           
  -0.75                 -0.00079188           -3.734e-11            -4e-14                0.00079272           
  -0.8                  -0.00081306           -3.688e-11            -2e-14                0.00081298           
  -0.85                 -0.00083314           -3.648e-11            0                     0.00083302           
  -0.9                  -0.00085274           -3.634e-11            6e-14                 0.00085308           
  -0.95                 -0.00087208           -3.606e-11            2e-13                 0.0008726            
  -1                    -0.0008921            -3.574e-11            1.8e-13               0.00089248           
  -1.05                 -0.00091114           -3.548e-11            3.6e-13               0.00091142           
  -1.1                  -0.00093078           -3.532e-11            9.2e-13               0.00093082           
  -1.15                 -0.0009499            -3.516e-11            2.5e-12               0.00095012           
  -1.2                  -0.00096946           -3.48e-11             5.86e-12              0.00096958           
  -1.25                 -0.00098836           -3.444e-11            1.394e-11             0.0009884            
  -1.3                  -0.0010079            -3.412e-11            3.202e-11             0.00100806           
  -1.35                 -0.0010279            -3.374e-11            7.036e-11             0.00102796           
END_DB

BEGIN_DB
 ICCAP_VAR vg         -1.166         
 ICCAP_VAR vb         1.2            
 ICCAP_VAR vs         -0             

 #vd                    id                    ig                    ib                    is                   
  -0                    5.3326e-07            -1.5394e-10           1.8e-13               -1.93e-07            
  -0.05                 -0.0001835            -1.4212e-10           1.6e-13               0.00018394           
  -0.1                  -0.00035238           -1.3102e-10           1.4e-13               0.00035268           
  -0.15                 -0.00050472           -1.212e-10            4e-14                 0.0005054            
  -0.2                  -0.0006411            -1.1316e-10           1.4e-13               0.00064132           
  -0.25                 -0.00076132           -1.0584e-10           1.8e-13               0.0007616            
  -0.3                  -0.000865             -9.96e-11             1.4e-13               0.00086542           
  -0.35                 -0.00095488           -9.418e-11            8e-14                 0.000955             
  -0.4                  -0.00103196           -8.96e-11             1.4e-13               0.00103226           
  -0.45                 -0.00109864           -8.6e-11              1e-13                 0.00109926           
  -0.5                  -0.0011552            -8.284e-11            1.6e-13               0.0011564            
  -0.55                 -0.0012046            -8.056e-11            2e-14                 0.0012068            
  -0.6                  -0.0012498            -7.866e-11            1e-13                 0.0012508            
  -0.65                 -0.0012898            -7.698e-11            -2e-14                0.0012916            
  -0.7                  -0.0013272            -7.562e-11            1.8e-13               0.0013292            
  -0.75                 -0.0013622            -7.454e-11            1.4e-13               0.0013632            
  -0.8                  -0.0013936            -7.35e-11             2.8e-13               0.0013954            
  -0.85                 -0.0014246            -7.262e-11            1e-13                 0.001426             
  -0.9                  -0.001454             -7.2e-11              1e-13                 0.0014554            
  -0.95                 -0.0014836            -7.126e-11            1.2e-13               0.0014844            
  -1                    -0.001511             -7.072e-11            1.6e-13               0.0015124            
  -1.05                 -0.0015384            -7.014e-11            2.6e-13               0.00154              
  -1.1                  -0.0015652            -6.974e-11            6.2e-13               0.0015672            
  -1.15                 -0.0015926            -6.892e-11            1.54e-12              0.0015942            
  -1.2                  -0.0016188            -6.836e-11            3.56e-12              0.001621             
  -1.25                 -0.001645             -6.802e-11            8.66e-12              0.001647             
  -1.3                  -0.001671             -6.764e-11            2.02e-11              0.0016728            
  -1.35                 -0.001697             -6.71e-11             4.488e-11             0.0016984            
END_DB

BEGIN_DB
 ICCAP_VAR vg         -1.35          
 ICCAP_VAR vb         1.2            
 ICCAP_VAR vs         -0             

 #vd                    id                    ig                    ib                    is                   
  -0                    5.7662e-07            -2.847e-10            2.74e-12              -2.1986e-07          
  -0.05                 -0.00022652           -2.647e-10            2.12e-12              0.00022694           
  -0.1                  -0.00044072           -2.4612e-10           1.62e-12              0.00044102           
  -0.15                 -0.00064064           -2.2978e-10           1.38e-12              0.00064104           
  -0.2                  -0.0008252            -2.1518e-10           1.1e-12               0.0008258            
  -0.25                 -0.00099508           -2.0168e-10           9.8e-13               0.00099558           
  -0.3                  -0.00114882           -1.8992e-10           9e-13                 0.00114928           
  -0.35                 -0.0012868            -1.7914e-10           7e-13                 0.0012882            
  -0.4                  -0.0014102            -1.7038e-10           7.6e-13               0.0014114            
  -0.45                 -0.0015194            -1.6232e-10           8.2e-13               0.0015206            
  -0.5                  -0.0016158            -1.5548e-10           7.4e-13               0.0016184            
  -0.55                 -0.0017024            -1.497e-10            6.6e-13               0.0017036            
  -0.6                  -0.0017774            -1.4492e-10           6.2e-13               0.0017792            
  -0.65                 -0.0018444            -1.4102e-10           5.2e-13               0.0018464            
  -0.7                  -0.001906             -1.3794e-10           5.8e-13               0.0019074            
  -0.75                 -0.0019608            -1.3482e-10           6e-13                 0.0019612            
  -0.8                  -0.0020098            -1.3242e-10           6.2e-13               0.0020126            
  -0.85                 -0.002057             -1.3062e-10           6e-13                 0.002058             
  -0.9                  -0.0020998            -1.2858e-10           6.2e-13               0.0021028            
  -0.95                 -0.002141             -1.269e-10            6.4e-13               0.0021426            
  -1                    -0.0021804            -1.2566e-10           5.4e-13               0.0021816            
  -1.05                 -0.0022182            -1.2444e-10           7e-13                 0.00222              
  -1.1                  -0.0022546            -1.2322e-10           9e-13                 0.0022566            
  -1.15                 -0.0022902            -1.2212e-10           1.36e-12              0.0022918            
  -1.2                  -0.002325             -1.2122e-10           2.66e-12              0.0023266            
  -1.25                 -0.002359             -1.2032e-10           5.9e-12               0.00236              
  -1.3                  -0.0023928            -1.1958e-10           1.314e-11             0.0023946            
  -1.35                 -0.0024256            -1.1878e-10           2.858e-11             0.0024272            
END_DB

