! VERSION = 6.00
BEGIN_HEADER
 ICCAP_INPUTS
  vd         V  D GROUND SMU1 0.1 LIN        1    -0         -1.35      28   -0.05     
  vg         V  G GROUND SMU2 0.001 LIST       2 3 -0.157 -0.357 -0.557
  vb         V  B GROUND SMU4 0.1 CON        -0
  vs         V  S GROUND SMU3 0.1 CON        -0
 ICCAP_OUTPUTS
  id         I  D GROUND SMU1 B
  ig         I  G GROUND SMU2 B
  ib         I  B GROUND SMU4 B
  is         I  S GROUND SMU3 B
 ICCAP_VALUES
  MASTER_SETUP_TYPE "~dc_idvd~"
  LINVT_VALUE ""
  LISTVT_VALUE "|idvg|100.0n|-200.0m|1.000m|3|200.0m|200.0m|"
  TYPE "-1"
  TEMP "-40.0000 "
  IS_TNOM " 0.00000 "
  MAIN.W "300.0n"
  MAIN.L "10.00u"
  MAIN.AD "102.0f"
  MAIN.AS "102.0f"
  MAIN.PD "1.280u"
  MAIN.PS "1.280u"
  MAIN.NF "1.000"
  MAIN.M "1"
  MAIN.NRD "0.000"
  MAIN.NRS "0.000"
  MAIN.LDRIFT1 "1E-06"
  MAIN.LDRIFT2 "1E-06"
  MAIN.SA "0.000"
  MAIN.SB "0.000"
  MAIN.SD "0.000"
  MAIN.SCA "0.000"
  MAIN.SCB "0.000"
  MAIN.SCC "0.000"
  MAIN.SC "0.000"
  MODULE "S553"
  PIN_D "18"
  PIN_G "3"
  PIN_S "4"
  PIN_B "17"
  PIN_E ""
  PIN_6 ""
  XY_ID ""
  FUNC "W Scale"
  STI "SA ref"
  WPE "WPE ref"
  COMMENT ""
  DIS_MEAS ""
  TypeTCI "10"
END_HEADER

BEGIN_DB
 ICCAP_VAR vg         -0.157         
 ICCAP_VAR vb         -0             
 ICCAP_VAR vs         -0             

 #vd                    id                    ig                    ib                    is                   
  -0                    6e-14                 1.2e-13               -6e-14                4e-14                
  -0.05                 -1.36e-12             8e-14                 -6e-14                1.36e-12             
  -0.1                  -1.5e-12              2e-13                 4e-14                 1.38e-12             
  -0.15                 -1.56e-12             1.4e-13               -1.4e-13              1.58e-12             
  -0.2                  -1.6e-12              2.4e-13               -2e-14                1.4e-12              
  -0.25                 -1.74e-12             4e-14                 -2e-14                1.64e-12             
  -0.3                  -1.72e-12             1.4e-13               -1.8e-13              1.46e-12             
  -0.35                 -1.48e-12             8e-14                 -4e-14                1.38e-12             
  -0.4                  -1.68e-12             4e-14                 -1.2e-13              1.6e-12              
  -0.45                 -1.66e-12             1.6e-13               -4e-14                1.38e-12             
  -0.5                  -1.88e-12             0                     -6e-14                1.5e-12              
  -0.55                 -1.7e-12              1.6e-13               -8e-14                1.48e-12             
  -0.6                  -1.8e-12              1.2e-13               -1.8e-13              1.58e-12             
  -0.65                 -1.78e-12             0                     -2.6e-13              1.5e-12              
  -0.7                  -1.86e-12             2e-13                 -1.4e-13              1.56e-12             
  -0.75                 -1.86e-12             2e-13                 -6e-14                1.5e-12              
  -0.8                  -1.94e-12             1e-13                 -1.2e-13              1.56e-12             
  -0.85                 -2.08e-12             1.8e-13               0                     1.52e-12             
  -0.9                  -1.92e-12             1.6e-13               -8e-14                1.6e-12              
  -0.95                 -2.1e-12              2.2e-13               -8e-14                1.46e-12             
  -1                    -2.08e-12             1.4e-13               -1.2e-13              1.48e-12             
  -1.05                 -2.04e-12             2.6e-13               -4e-14                1.5e-12              
  -1.1                  -2.16e-12             3.2e-13               -1e-13                1.64e-12             
  -1.15                 -2.3e-12              3e-13                 -1.2e-13              1.56e-12             
  -1.2                  -2.22e-12             3.8e-13               -6e-14                1.56e-12             
  -1.25                 -2.14e-12             3.2e-13               -1.4e-13              1.52e-12             
  -1.3                  -2.18e-12             2.6e-13               -6e-14                1.62e-12             
  -1.35                 -2.3e-12              2e-13                 -6e-14                1.52e-12             
END_DB

BEGIN_DB
 ICCAP_VAR vg         -0.357         
 ICCAP_VAR vb         -0             
 ICCAP_VAR vs         -0             

 #vd                    id                    ig                    ib                    is                   
  -0                    8.06e-12              -5.6e-13              -2.4e-13              -6.6e-12             
  -0.05                 -2.6106e-09           -4e-13                -8e-14                2.6114e-09           
  -0.1                  -3.033e-09            -4e-13                -4e-14                3.0344e-09           
  -0.15                 -3.1048e-09           -4.6e-13              -1.6e-13              3.1058e-09           
  -0.2                  -3.1328e-09           -4.2e-13              -1.2e-13              3.1358e-09           
  -0.25                 -3.1556e-09           -4.4e-13              -1e-13                3.1568e-09           
  -0.3                  -3.1726e-09           -3.4e-13              -6e-14                3.174e-09            
  -0.35                 -3.1864e-09           -4.2e-13              -2e-14                3.187e-09            
  -0.4                  -3.1956e-09           -3e-13                -1.2e-13              3.1968e-09           
  -0.45                 -3.2054e-09           -4e-13                -1e-13                3.206e-09            
  -0.5                  -3.2142e-09           -2.8e-13              -2e-13                3.2158e-09           
  -0.55                 -3.2234e-09           -2e-13                -1.2e-13              3.224e-09            
  -0.6                  -3.2302e-09           -3.8e-13              -1.6e-13              3.2314e-09           
  -0.65                 -3.2376e-09           -3.2e-13              -8e-14                3.238e-09            
  -0.7                  -3.2436e-09           -3.6e-13              -1.2e-13              3.2436e-09           
  -0.75                 -3.25e-09             -2e-13                -1.2e-13              3.2496e-09           
  -0.8                  -3.2536e-09           -3.2e-13              -1.2e-13              3.2548e-09           
  -0.85                 -3.2574e-09           -1.8e-13              -2e-14                3.259e-09            
  -0.9                  -3.263e-09            -2.8e-13              -6e-14                3.2636e-09           
  -0.95                 -3.2662e-09           -2e-13                2e-14                 3.2682e-09           
  -1                    -3.2716e-09           -1.8e-13              0                     3.2716e-09           
  -1.05                 -3.275e-09            -2e-13                0                     3.276e-09            
  -1.1                  -3.278e-09            -3.4e-13              -1.2e-13              3.2788e-09           
  -1.15                 -3.2818e-09           -2.6e-13              -2e-14                3.2826e-09           
  -1.2                  -3.2856e-09           -1.8e-13              0                     3.2864e-09           
  -1.25                 -3.289e-09            -2e-13                -1.4e-13              3.289e-09            
  -1.3                  -3.2896e-09           -1.4e-13              -1e-13                3.2906e-09           
  -1.35                 -3.2952e-09           -2.4e-13              -1e-13                3.2946e-09           
END_DB

BEGIN_DB
 ICCAP_VAR vg         -0.557         
 ICCAP_VAR vb         -0             
 ICCAP_VAR vs         -0             

 #vd                    id                    ig                    ib                    is                   
  -0                    6.328e-11             -7.52e-12             -1.2e-13              -5.64e-11            
  -0.05                 -3.9112e-08           -6.16e-12             -1e-13                3.9152e-08           
  -0.1                  -6.4074e-08           -4.98e-12             -6e-14                6.4108e-08           
  -0.15                 -7.652e-08            -4.62e-12             -1.8e-13              7.6548e-08           
  -0.2                  -8.0706e-08           -4.5e-12              -2e-14                8.075e-08            
  -0.25                 -8.194e-08            -4.2e-12              -6e-14                8.1978e-08           
  -0.3                  -8.2514e-08           -4.34e-12             -6e-14                8.254e-08            
  -0.35                 -8.2888e-08           -4.3e-12              2e-14                 8.2928e-08           
  -0.4                  -8.3214e-08           -4.16e-12             4e-14                 8.3234e-08           
  -0.45                 -8.3458e-08           -4.18e-12             2e-14                 8.3494e-08           
  -0.5                  -8.3658e-08           -4.2e-12              0                     8.3692e-08           
  -0.55                 -8.3844e-08           -4.24e-12             -1e-13                8.3882e-08           
  -0.6                  -8.4014e-08           -4.34e-12             -2.6e-13              8.4058e-08           
  -0.65                 -8.4142e-08           -4.24e-12             -6e-14                8.4186e-08           
  -0.7                  -8.4288e-08           -4.18e-12             -6e-14                8.4332e-08           
  -0.75                 -8.4412e-08           -4.34e-12             -1.2e-13              8.445e-08            
  -0.8                  -8.4514e-08           -4.22e-12             -6e-14                8.4544e-08           
  -0.85                 -8.463e-08            -4.26e-12             -8e-14                8.465e-08            
  -0.9                  -8.473e-08            -4.16e-12             -8e-14                8.4756e-08           
  -0.95                 -8.4804e-08           -4.32e-12             -1e-13                8.4838e-08           
  -1                    -8.4886e-08           -4.18e-12             -1e-13                8.493e-08            
  -1.05                 -8.4966e-08           -4.2e-12              -6e-14                8.4998e-08           
  -1.1                  -8.5038e-08           -4.04e-12             -8e-14                8.507e-08            
  -1.15                 -8.5104e-08           -4.18e-12             -1.6e-13              8.5136e-08           
  -1.2                  -8.519e-08            -4.14e-12             -2e-14                8.5206e-08           
  -1.25                 -8.524e-08            -3.96e-12             0                     8.5274e-08           
  -1.3                  -8.53e-08             -4.1e-12              -4e-14                8.5342e-08           
  -1.35                 -8.5364e-08           -4.02e-12             6e-14                 8.5404e-08           
END_DB

