! VERSION = 6.00
BEGIN_HEADER
 ICCAP_INPUTS
  vg         V  G GROUND SMU2 0.001 LIN        1    0.5        -1.35      38   -0.05     
  vb         V  B GROUND SMU4 0.1 LIN        2    0          1.2        7    0.2       
  vd         V  D GROUND SMU1 0.1 LIST       3 3 -0.05 -0.6 -1.2
  vs         V  S GROUND SMU3 0.1 CON        -0
 ICCAP_OUTPUTS
  id         I  D GROUND SMU1 B
  ig         I  G GROUND SMU2 B
  ib         I  B GROUND SMU4 B
  is         I  S GROUND SMU3 B
 ICCAP_VALUES
  MASTER_SETUP_TYPE "~dc_idvg~"
  LINVT_VALUE ""
  LISTVT_VALUE ""
  TYPE "-1"
  TEMP " 125.000 "
  IS_TNOM " 0.00000 "
  MAIN.W "10.00u"
  MAIN.L "10.00u"
  MAIN.AD "3.400p"
  MAIN.AS "3.400p"
  MAIN.PD "20.68u"
  MAIN.PS "20.68u"
  MAIN.NF "1.000"
  MAIN.M "1"
  MAIN.NRD "0.000"
  MAIN.NRS "0.000"
  MAIN.LDRIFT1 "1E-06"
  MAIN.LDRIFT2 "1E-06"
  MAIN.SA "0.000"
  MAIN.SB "0.000"
  MAIN.SD "0.000"
  MAIN.SCA "0.000"
  MAIN.SCB "0.000"
  MAIN.SCC "0.000"
  MAIN.SC "0.000"
  MODULE "S549"
  PIN_D "12"
  PIN_G "9"
  PIN_S "10"
  PIN_B "11"
  PIN_E ""
  PIN_6 ""
  XY_ID ""
  FUNC "Large"
  STI "SA ref"
  WPE "WPE ref"
  COMMENT ""
  DIS_MEAS ""
  TypeTCI "10"
END_HEADER

BEGIN_DB
 ICCAP_VAR vb         0              
 ICCAP_VAR vd         -0.05          
 ICCAP_VAR vs         -0             

 #vg                    id                    ig                    ib                    is                   
  0.5                   -3.34e-12             2.0682e-08            -2.0646e-08           -2.38e-12            
  0.45                  4.06e-12              4.8342e-09            -4.8464e-09           -1.56e-12            
  0.4                   -1.54e-12             1.1324e-09            -1.151e-09            -1.1e-12             
  0.35                  -1.66e-12             2.669e-10             -2.8498e-10           -1.06e-12            
  0.3                   -1.56e-12             6.372e-11             -8.168e-11            -4.4e-13             
  0.25                  -2.16e-12             1.596e-11             -3.272e-11            -2.8e-13             
  0.2                   -3.92e-12             4.24e-12              -1.94e-11             1.38e-12             
  0.15                  -7.96e-12             1.28e-12              -1.562e-11            5.34e-12             
  0.1                   -2.052e-11            1.2e-13               -1.45e-11             1.874e-11            
  0.05                  -6.09e-11             8e-14                 -1.364e-11            5.962e-11            
  0                     -1.9166e-10           -2.4e-13              -1.358e-11            1.9096e-10           
  -0.05                 -6.1336e-10           -5.6e-13              -1.282e-11            6.131e-10            
  -0.1                  -1.9746e-09           -7.8e-13              -1.27e-11             1.9752e-09           
  -0.15                 -6.2832e-09           -1.66e-12             -1.19e-11             6.2844e-09           
  -0.2                  -1.9008e-08           -3.56e-12             -1.07e-11             1.9026e-08           
  -0.25                 -5.1454e-08           -8.6e-12              -1.064e-11            5.148e-08            
  -0.3                  -1.1706e-07           -1.964e-11            -1.084e-11            1.1712e-07           
  -0.35                 -2.2074e-07           -3.886e-11            -9.94e-12             2.2082e-07           
  -0.4                  -3.5602e-07           -7.166e-11            -9.08e-12             3.5618e-07           
  -0.45                 -5.1148e-07           -1.207e-10            -8.84e-12             5.1172e-07           
  -0.5                  -6.7818e-07           -1.9196e-10           -8.84e-12             6.7844e-07           
  -0.55                 -8.4926e-07           -2.9076e-10           -8e-12                8.4964e-07           
  -0.6                  -1.02142e-06          -4.2456e-10           -7.48e-12             1.0219e-06           
  -0.65                 -1.1906e-06           -6.0056e-10           -6.96e-12             1.194e-06            
  -0.7                  -1.358e-06            -8.2706e-10           -7.38e-12             1.3616e-06           
  -0.75                 -1.521e-06            -1.1132e-09           -6.62e-12             1.5248e-06           
  -0.8                  -1.6796e-06           -1.4694e-09           -6.48e-12             1.684e-06            
  -0.85                 -1.8332e-06           -1.9052e-09           -5.8e-12              1.838e-06            
  -0.9                  -1.9816e-06           -2.434e-09            -5.3e-12              1.987e-06            
  -0.95                 -2.1248e-06           -3.062e-09            -5.32e-12             2.1304e-06           
  -1                    -2.2624e-06           -3.81e-09             -4.86e-12             2.269e-06            
  -1.05                 -2.3946e-06           -4.6778e-09           -3.58e-12             2.402e-06            
  -1.1                  -2.522e-06            -5.686e-09            -1.12e-12             2.5302e-06           
  -1.15                 -2.6436e-06           -6.8462e-09           3.22e-12              2.6532e-06           
  -1.2                  -2.7604e-06           -8.18e-09             1.248e-11             2.7714e-06           
  -1.25                 -2.8726e-06           -9.7012e-09           3.35e-11              2.8848e-06           
  -1.3                  -2.9794e-06           -1.14252e-08          7.224e-11             2.9934e-06           
  -1.35                 -3.082e-06            -1.3386e-08           1.408e-10             3.0974e-06           
END_DB

BEGIN_DB
 ICCAP_VAR vb         0.2            
 ICCAP_VAR vd         -0.05          
 ICCAP_VAR vs         -0             

 #vg                    id                    ig                    ib                    is                   
  0.5                   -3.76e-12             6.732e-11             -5.062e-11            -3.46e-12            
  0.45                  -3.96e-12             1.832e-11             -3.24e-12             -3.56e-12            
  0.4                   -4.46e-12             6.38e-12              9.72e-12              -4e-12               
  0.35                  -4.96e-12             3.04e-12              1.216e-11             -4.3e-12             
  0.3                   -5e-12                1.78e-12              1.34e-11              -4.52e-12            
  0.25                  -4.92e-12             1.2e-12               1.348e-11             -4.46e-12            
  0.2                   -4.88e-12             5.4e-13               1.33e-11              -3.44e-12            
  0.15                  -5.78e-12             4e-13                 1.198e-11             -1.72e-12            
  0.1                   -9.3e-12              6e-14                 1.136e-11             2.94e-12             
  0.05                  -2.198e-11            -6e-14                9.82e-12              1.738e-11            
  0                     -6.562e-11            -4.4e-13              7.3e-12               6.282e-11            
  -0.05                 -2.1334e-10           -5e-13                5.98e-12              2.1154e-10           
  -0.1                  -7.0828e-10           -8.6e-13              5.76e-12              7.071e-10            
  -0.15                 -2.3522e-09           -1.28e-12             5.82e-12              2.3514e-09           
  -0.2                  -7.6326e-09           -2.54e-12             4.88e-12              7.6336e-09           
  -0.25                 -2.32e-08             -6.02e-12             5.24e-12              2.3222e-08           
  -0.3                  -6.1452e-08           -1.42e-11             5.26e-12              6.149e-08            
  -0.35                 -1.3448e-07           -3.106e-11            4.9e-12               1.3454e-07           
  -0.4                  -2.4408e-07           -6.042e-11            4.74e-12              2.4422e-07           
  -0.45                 -3.8138e-07           -1.0666e-10           4.78e-12              3.8158e-07           
  -0.5                  -5.3602e-07           -1.7474e-10           4.64e-12              5.3624e-07           
  -0.55                 -6.992e-07            -2.7048e-10           4.44e-12              6.995e-07            
  -0.6                  -8.6594e-07           -4.0106e-10           4.46e-12              8.664e-07            
  -0.65                 -1.0327e-06           -5.7336e-10           4.3e-12               1.03334e-06          
  -0.7                  -1.1962e-06           -7.9588e-10           4.28e-12              1.2e-06              
  -0.75                 -1.3576e-06           -1.0778e-09           3.96e-12              1.3614e-06           
  -0.8                  -1.5148e-06           -1.4296e-09           3.8e-12               1.5192e-06           
  -0.85                 -1.6676e-06           -1.8614e-09           4.04e-12              1.6724e-06           
  -0.9                  -1.8156e-06           -2.3844e-09           4.42e-12              1.8208e-06           
  -0.95                 -1.9582e-06           -3.0092e-09           4.84e-12              1.964e-06            
  -1                    -2.0958e-06           -3.752e-09            4.8e-12               2.1024e-06           
  -1.05                 -2.228e-06            -4.6172e-09           5.46e-12              2.2354e-06           
  -1.1                  -2.3554e-06           -5.6236e-09           7.26e-12              2.3638e-06           
  -1.15                 -2.4778e-06           -6.7824e-09           1.182e-11             2.4872e-06           
  -1.2                  -2.5946e-06           -8.106e-09            2.17e-11              2.6054e-06           
  -1.25                 -2.707e-06            -9.6154e-09           4.188e-11             2.7192e-06           
  -1.3                  -2.8142e-06           -1.1338e-08           8.042e-11             2.828e-06            
  -1.35                 -2.9172e-06           -1.3292e-08           1.5008e-10            2.9326e-06           
END_DB

BEGIN_DB
 ICCAP_VAR vb         0.4            
 ICCAP_VAR vd         -0.05          
 ICCAP_VAR vs         -0             

 #vg                    id                    ig                    ib                    is                   
  0.5                   -6.86e-12             5.16e-12              2.174e-11             -6.22e-12            
  0.45                  -6.44e-12             3.74e-12              2.044e-11             -6.08e-12            
  0.4                   -5.92e-12             2.72e-12              1.894e-11             -5.2e-12             
  0.35                  -5.44e-12             2.02e-12              1.876e-11             -5e-12               
  0.3                   -5.04e-12             1.54e-12              1.75e-11              -4.74e-12            
  0.25                  -4.74e-12             9.4e-13               1.65e-11              -4.06e-12            
  0.2                   -4.56e-12             4.6e-13               1.604e-11             -3.84e-12            
  0.15                  -4.58e-12             3.2e-13               1.59e-11              -3.2e-12             
  0.1                   -5.72e-12             -4e-14                1.45e-11              -9.4e-13             
  0.05                  -9.94e-12             -1.6e-13              1.292e-11             4.56e-12             
  0                     -2.588e-11            -3e-13                1.156e-11             2.222e-11            
  -0.05                 -8.264e-11            -5.8e-13              1.038e-11             8.018e-11            
  -0.1                  -2.7776e-10           -7.6e-13              9.14e-12              2.7634e-10           
  -0.15                 -9.4492e-10           -1.18e-12             8.18e-12              9.4436e-10           
  -0.2                  -3.1892e-09           -2.1e-12              7.88e-12              3.189e-09            
  -0.25                 -1.04102e-08          -4.44e-12             7.92e-12              1.04102e-08          
  -0.3                  -3.0984e-08           -1.046e-11            7.26e-12              3.1012e-08           
  -0.35                 -7.814e-08            -2.384e-11            7.7e-12               7.818e-08            
  -0.4                  -1.614e-07            -4.968e-11            7.52e-12              1.6148e-07           
  -0.45                 -2.7804e-07           -9.22e-11             7.16e-12              2.7818e-07           
  -0.5                  -4.184e-07            -1.568e-10            7.22e-12              4.186e-07            
  -0.55                 -5.7218e-07           -2.4924e-10           7.2e-12               5.7248e-07           
  -0.6                  -7.3272e-07           -3.7582e-10           7.04e-12              7.3316e-07           
  -0.65                 -8.9524e-07           -5.4444e-10           6.9e-12               8.9584e-07           
  -0.7                  -1.05716e-06          -7.6334e-10           7.02e-12              1.05784e-06          
  -0.75                 -1.215e-06            -1.0408e-09           6.82e-12              1.2188e-06           
  -0.8                  -1.371e-06            -1.3884e-09           6.64e-12              1.3752e-06           
  -0.85                 -1.5228e-06           -1.8158e-09           6.36e-12              1.5274e-06           
  -0.9                  -1.67e-06             -2.3372e-09           7.04e-12              1.675e-06            
  -0.95                 -1.8122e-06           -2.9578e-09           6.84e-12              1.818e-06            
  -1                    -1.9496e-06           -3.6876e-09           7.3e-12               1.956e-06            
  -1.05                 -2.0816e-06           -4.5466e-09           7.74e-12              2.089e-06            
  -1.1                  -2.2088e-06           -5.5468e-09           9.96e-12              2.2172e-06           
  -1.15                 -2.3312e-06           -6.7002e-09           1.478e-11             2.3406e-06           
  -1.2                  -2.4484e-06           -8.0206e-09           2.474e-11             2.4588e-06           
  -1.25                 -2.5608e-06           -9.532e-09            4.406e-11             2.573e-06            
  -1.3                  -2.6684e-06           -1.12498e-08          8.364e-11             2.6822e-06           
  -1.35                 -2.7716e-06           -1.3202e-08           1.5232e-10            2.787e-06            
END_DB

BEGIN_DB
 ICCAP_VAR vb         0.6            
 ICCAP_VAR vd         -0.05          
 ICCAP_VAR vs         -0             

 #vg                    id                    ig                    ib                    is                   
  0.5                   -7.04e-12             4.84e-12              2.456e-11             -6.46e-12            
  0.45                  -6.34e-12             3.48e-12              2.212e-11             -5.8e-12             
  0.4                   -5.8e-12              2.68e-12              2.072e-11             -5.2e-12             
  0.35                  -5.26e-12             2.06e-12              2.026e-11             -4.82e-12            
  0.3                   -4.9e-12              1.22e-12              1.938e-11             -4.38e-12            
  0.25                  -4.68e-12             8.8e-13               1.862e-11             -4.16e-12            
  0.2                   -4.28e-12             5.4e-13               1.828e-11             -3.86e-12            
  0.15                  -4.26e-12             1.8e-13               1.762e-11             -3.44e-12            
  0.1                   -4.62e-12             4e-14                 1.736e-11             -2.78e-12            
  0.05                  -6.02e-12             -3e-13                1.572e-11             0                    
  0                     -1.23e-11             -3.8e-13              1.428e-11             7.5e-12              
  -0.05                 -3.528e-11            -5.2e-13              1.292e-11             3.19e-11             
  -0.1                  -1.1692e-10           -8.2e-13              1.15e-11              1.1494e-10           
  -0.15                 -4.0258e-10           -1.26e-12             1.046e-11             4.0154e-10           
  -0.2                  -1.389e-09            -1.74e-12             1.04e-11              1.389e-09            
  -0.25                 -4.7284e-09           -3.48e-12             9.86e-12              4.729e-09            
  -0.3                  -1.5236e-08           -7.54e-12             9.84e-12              1.5258e-08           
  -0.35                 -4.335e-08            -1.796e-11            9.04e-12              4.3382e-08           
  -0.4                  -1.02152e-07          -3.946e-11            9.3e-12               1.02212e-07          
  -0.45                 -1.9652e-07           -7.816e-11            9.58e-12              1.9664e-07           
  -0.5                  -3.204e-07            -1.386e-10            9.08e-12              3.206e-07            
  -0.55                 -4.6312e-07           -2.268e-10            8.94e-12              4.634e-07            
  -0.6                  -6.1632e-07           -3.4956e-10           8.94e-12              6.167e-07            
  -0.65                 -7.7392e-07           -5.1388e-10           8.64e-12              7.7452e-07           
  -0.7                  -9.3238e-07           -7.2874e-10           8.18e-12              9.3322e-07           
  -0.75                 -1.08928e-06          -1.0014e-09           8.56e-12              1.09022e-06          
  -0.8                  -1.2424e-06           -1.3446e-09           9.28e-12              1.2464e-06           
  -0.85                 -1.393e-06            -1.7672e-09           8.24e-12              1.3976e-06           
  -0.9                  -1.5394e-06           -2.2806e-09           8.54e-12              1.5444e-06           
  -0.95                 -1.681e-06            -2.8952e-09           8.5e-12               1.6866e-06           
  -1                    -1.8178e-06           -3.6244e-09           9.18e-12              1.8244e-06           
  -1.05                 -1.9498e-06           -4.4788e-09           1.006e-11             1.957e-06            
  -1.1                  -2.077e-06            -5.4738e-09           1.198e-11             2.0852e-06           
  -1.15                 -2.1994e-06           -6.6212e-09           1.662e-11             2.2086e-06           
  -1.2                  -2.3166e-06           -7.9382e-09           2.596e-11             2.3272e-06           
  -1.25                 -2.4294e-06           -9.4468e-09           4.704e-11             2.4414e-06           
  -1.3                  -2.537e-06            -1.11568e-08          8.534e-11             2.5508e-06           
  -1.35                 -2.6408e-06           -1.3102e-08           1.5468e-10            2.656e-06            
END_DB

BEGIN_DB
 ICCAP_VAR vb         0.8            
 ICCAP_VAR vd         -0.05          
 ICCAP_VAR vs         -0             

 #vg                    id                    ig                    ib                    is                   
  0.5                   -6.92e-12             4.66e-12              2.536e-11             -6.46e-12            
  0.45                  -6.22e-12             3.46e-12              2.392e-11             -5.56e-12            
  0.4                   -5.6e-12              2.62e-12              2.252e-11             -5.12e-12            
  0.35                  -5.2e-12              1.98e-12              2.124e-11             -4.8e-12             
  0.3                   -4.78e-12             1.16e-12              2.158e-11             -4.5e-12             
