! VERSION = 6.00
BEGIN_HEADER
 ICCAP_INPUTS
  vd         V  D GROUND SMU1 0.1 LIN        1    -0         -1.35      28   -0.05     
  vg         V  G GROUND SMU2 0.001 LIST       2 3 -0.312 -0.512 -0.712
  vb         V  B GROUND SMU4 0.1 CON        1.2
  vs         V  S GROUND SMU3 0.1 CON        -0
 ICCAP_OUTPUTS
  id         I  D GROUND SMU1 B
  ig         I  G GROUND SMU2 B
  ib         I  B GROUND SMU4 B
  is         I  S GROUND SMU3 B
 ICCAP_VALUES
  MASTER_SETUP_TYPE "~dc_idvd~"
  LINVT_VALUE ""
  LISTVT_VALUE "|idvg|100.0n|-200.0m|1.000m|3|200.0m|200.0m|"
  TYPE "-1"
  TEMP " 27.0000 "
  IS_TNOM " 1.00000 "
  MAIN.W "150.0n"
  MAIN.L "130.0n"
  MAIN.AD "100.5f"
  MAIN.AS "100.5f"
  MAIN.PD "1.340u"
  MAIN.PS "1.340u"
  MAIN.NF "1.000"
  MAIN.M "1"
  MAIN.NRD "0.000"
  MAIN.NRS "0.000"
  MAIN.LDRIFT1 "1E-06"
  MAIN.LDRIFT2 "1E-06"
  MAIN.SA "0.000"
  MAIN.SB "0.000"
  MAIN.SD "0.000"
  MAIN.SCA "0.000"
  MAIN.SCB "0.000"
  MAIN.SCC "0.000"
  MAIN.SC "0.000"
  MODULE "S554"
  PIN_D "16"
  PIN_G "5"
  PIN_S "6"
  PIN_B "15"
  PIN_E ""
  PIN_6 ""
  XY_ID ""
  FUNC "Small"
  STI "SA ref"
  WPE "WPE ref"
  COMMENT ""
  DIS_MEAS ""
  TypeTCI "10"
END_HEADER

BEGIN_DB
 ICCAP_VAR vg         -0.312         
 ICCAP_VAR vb         1.2            
 ICCAP_VAR vs         -0             

 #vd                    id                    ig                    ib                    is                   
  -0                    4e-13                 1.4e-13               2.2e-13               -3.8e-13             
  -0.05                 -1.2306e-10           1.4e-13               3.2e-13               1.2256e-10           
  -0.1                  -1.5662e-10           4e-14                 1.8e-13               1.5492e-10           
  -0.15                 -1.756e-10            8e-14                 2.4e-13               1.7626e-10           
  -0.2                  -1.9464e-10           1.6e-13               1e-13                 1.947e-10            
  -0.25                 -2.1378e-10           1.2e-13               1.4e-13               2.141e-10            
  -0.3                  -2.351e-10            1.2e-13               1e-13                 2.3468e-10           
  -0.35                 -2.572e-10            4e-14                 2e-13                 2.5684e-10           
  -0.4                  -2.816e-10            2e-13                 1e-13                 2.8088e-10           
  -0.45                 -3.074e-10            4e-14                 -4e-14                3.0616e-10           
  -0.5                  -3.3498e-10           2.2e-13               6e-14                 3.342e-10            
  -0.55                 -3.6476e-10           1.2e-13               2e-14                 3.6452e-10           
  -0.6                  -3.9742e-10           2.4e-13               1.2e-13               3.9594e-10           
  -0.65                 -4.3146e-10           1.2e-13               4e-14                 4.311e-10            
  -0.7                  -4.6846e-10           1.6e-13               -2e-14                4.6862e-10           
  -0.75                 -5.0872e-10           8e-14                 1.4e-13               5.1002e-10           
  -0.8                  -5.5356e-10           1.4e-13               -2e-14                5.5172e-10           
  -0.85                 -6.0016e-10           1e-13                 4e-14                 6.0002e-10           
  -0.9                  -6.5086e-10           2e-14                 0                     6.5154e-10           
  -0.95                 -7.0708e-10           2.6e-13               0                     7.0686e-10           
  -1                    -7.6746e-10           1.2e-13               -4e-14                7.6752e-10           
  -1.05                 -8.3406e-10           1.2e-13               0                     8.3142e-10           
  -1.1                  -9.055e-10            3e-13                 1.6e-13               9.035e-10            
  -1.15                 -9.7866e-10           1.6e-13               1e-13                 9.7908e-10           
  -1.2                  -1.0646e-09           1.4e-13               -6e-14                1.0662e-09           
  -1.25                 -1.1592e-09           2.8e-13               4e-14                 1.1564e-09           
  -1.3                  -1.2568e-09           1.8e-13               2e-14                 1.2592e-09           
  -1.35                 -1.3644e-09           2.8e-13               4e-14                 1.3654e-09           
END_DB

BEGIN_DB
 ICCAP_VAR vg         -0.512         
 ICCAP_VAR vb         1.2            
 ICCAP_VAR vs         -0             

 #vd                    id                    ig                    ib                    is                   
  -0                    1.3136e-10            -6e-14                0                     -1.273e-10           
  -0.05                 -4.5522e-08           -1.4e-13              0                     4.5546e-08           
  -0.1                  -6.0628e-08           -1.2e-13              8e-14                 6.0662e-08           
  -0.15                 -6.8818e-08           2e-14                 0                     6.9154e-08           
  -0.2                  -7.6014e-08           0                     6e-14                 7.5974e-08           
  -0.25                 -8.2728e-08           -6e-14                4e-14                 8.281e-08            
  -0.3                  -8.9682e-08           2e-14                 -4e-14                8.9864e-08           
  -0.35                 -9.6754e-08           -2e-14                -1e-13                9.6708e-08           
  -0.4                  -1.04614e-07          -4e-14                2e-14                 1.04568e-07          
  -0.45                 -1.1196e-07           -4e-14                0                     1.12266e-07          
  -0.5                  -1.2076e-07           6e-14                 2e-14                 1.2044e-07           
  -0.55                 -1.2918e-07           8e-14                 0                     1.294e-07            
  -0.6                  -1.3846e-07           6e-14                 -2e-14                1.3856e-07           
  -0.65                 -1.48e-07             -2e-14                -4e-14                1.4808e-07           
  -0.7                  -1.5782e-07           2e-14                 1.4e-13               1.5814e-07           
  -0.75                 -1.6862e-07           -2e-14                0                     1.6914e-07           
  -0.8                  -1.7952e-07           2e-14                 2e-14                 1.7998e-07           
  -0.85                 -1.9176e-07           0                     1e-13                 1.9216e-07           
  -0.9                  -2.0404e-07           4e-14                 0                     2.0394e-07           
  -0.95                 -2.1694e-07           -1e-13                -1.4e-13              2.174e-07            
  -1                    -2.309e-07            -2e-14                -4e-14                2.3106e-07           
  -1.05                 -2.4528e-07           8e-14                 2e-14                 2.458e-07            
  -1.1                  -2.6106e-07           2e-14                 4e-14                 2.6122e-07           
  -1.15                 -2.776e-07            6e-14                 1e-13                 2.778e-07            
  -1.2                  -2.9394e-07           1.6e-13               8e-14                 2.9424e-07           
  -1.25                 -3.119e-07            1.4e-13               2e-13                 3.1282e-07           
  -1.3                  -3.3142e-07           1.8e-13               4.4e-13               3.3176e-07           
  -1.35                 -3.5158e-07           4e-14                 7.6e-13               3.5238e-07           
END_DB

BEGIN_DB
 ICCAP_VAR vg         -0.712         
 ICCAP_VAR vb         1.2            
 ICCAP_VAR vs         -0             

 #vd                    id                    ig                    ib                    is                   
  -0                    1.5826e-09            -3.2e-13              -2e-14                -1.4096e-09          
  -0.05                 -9.8416e-07           -2.6e-13              8e-14                 9.8614e-07           
  -0.1                  -1.6216e-06           -3.4e-13              -8e-14                1.6216e-06           
  -0.15                 -2.0174e-06           -3e-13                -1.2e-13              2.0192e-06           
  -0.2                  -2.2904e-06           -2.2e-13              0                     2.2938e-06           
  -0.25                 -2.4842e-06           -1.8e-13              8e-14                 2.4892e-06           
  -0.3                  -2.6404e-06           -2e-13                2e-14                 2.6436e-06           
  -0.35                 -2.7774e-06           -2.6e-13              0                     2.7828e-06           
  -0.4                  -2.9118e-06           -3e-13                1.4e-13               2.912e-06            
  -0.45                 -3.0374e-06           -2.4e-13              6e-14                 3.0412e-06           
  -0.5                  -3.1516e-06           -1e-13                6e-14                 3.1634e-06           
  -0.55                 -3.2774e-06           -1.2e-13              6e-14                 3.2864e-06           
  -0.6                  -3.419e-06            -2.4e-13              -1.6e-13              3.4238e-06           
  -0.65                 -3.5464e-06           -1.6e-13              -1.2e-13              3.5518e-06           
  -0.7                  -3.6616e-06           -2e-13                0                     3.674e-06            
  -0.75                 -3.7946e-06           -6e-14                -8e-14                3.7984e-06           
  -0.8                  -3.9182e-06           -8e-14                -2e-14                3.9276e-06           
  -0.85                 -4.053e-06            -2.2e-13              4e-14                 4.0558e-06           
  -0.9                  -4.182e-06            -1.6e-13              0                     4.1872e-06           
  -0.95                 -4.3114e-06           -2.6e-13              0                     4.3172e-06           
  -1                    -4.4442e-06           -1.4e-13              -8e-14                4.447e-06            
  -1.05                 -4.58e-06             -1.2e-13              1.8e-13               4.5852e-06           
  -1.1                  -4.7238e-06           -2e-14                1.8e-13               4.7302e-06           
  -1.15                 -4.8612e-06           -1e-13                1e-13                 4.8644e-06           
  -1.2                  -5.01e-06             -1e-13                2.2e-13               5.0124e-06           
  -1.25                 -5.1528e-06           -8e-14                3.6e-13               5.155e-06            
  -1.3                  -5.3056e-06           -1.2e-13              8.4e-13               5.3054e-06           
  -1.35                 -5.4594e-06           -8e-14                1.76e-12              5.4554e-06           
END_DB

