! VERSION = 6.00
BEGIN_HEADER
 ICCAP_INPUTS
  vd         V  D GROUND SMU1 0.1 LIN        1    -0         -1.35      28   -0.05     
  vg         V  G GROUND SMU2 0.001 LIN        2    -0.634     -1.35      5    -0.179    
  vb         V  B GROUND SMU4 0.1 CON        1.2
  vs         V  S GROUND SMU3 0.1 CON        -0
 ICCAP_OUTPUTS
  id         I  D GROUND SMU1 B
  ig         I  G GROUND SMU2 B
  ib         I  B GROUND SMU4 B
  is         I  S GROUND SMU3 B
 ICCAP_VALUES
  MASTER_SETUP_TYPE "~dc_idvd~"
  LINVT_VALUE "|idvg|100.0n|100.0m|1.000m|5|1.350|"
  LISTVT_VALUE ""
  TYPE "-1"
  TEMP " 27.0000 "
  IS_TNOM " 1.00000 "
  MAIN.W "10.00u"
  MAIN.L "1.200u"
  MAIN.AD "3.400p"
  MAIN.AS "3.400p"
  MAIN.PD "20.68u"
  MAIN.PS "20.68u"
  MAIN.NF "1.000"
  MAIN.M "1"
  MAIN.NRD "0.000"
  MAIN.NRS "0.000"
  MAIN.LDRIFT1 "1E-06"
  MAIN.LDRIFT2 "1E-06"
  MAIN.SA "0.000"
  MAIN.SB "0.000"
  MAIN.SD "0.000"
  MAIN.SCA "0.000"
  MAIN.SCB "0.000"
  MAIN.SCC "0.000"
  MAIN.SC "0.000"
  MODULE "S549"
  PIN_D "18"
  PIN_G "3"
  PIN_S "4"
  PIN_B "17"
  PIN_E ""
  PIN_6 ""
  XY_ID ""
  FUNC "L Scale"
  STI "SA ref"
  WPE "WPE ref"
  COMMENT ""
  DIS_MEAS ""
  TypeTCI "10"
END_HEADER

BEGIN_DB
 ICCAP_VAR vg         -0.634         
 ICCAP_VAR vb         1.2            
 ICCAP_VAR vs         -0             

 #vd                    id                    ig                    ib                    is                   
  -0                    2.9014e-09            -4.988e-11            6.2e-13               -3.5238e-09          
  -0.05                 -2.8082e-06           -4.022e-11            4.6e-13               2.8112e-06           
  -0.1                  -4.2466e-06           -3.464e-11            5e-13                 4.251e-06            
  -0.15                 -4.8136e-06           -3.212e-11            6.4e-13               4.8164e-06           
  -0.2                  -5.0112e-06           -3.09e-11             5.4e-13               5.0164e-06           
  -0.25                 -5.1018e-06           -3.02e-11             3.2e-13               5.1052e-06           
  -0.3                  -5.1596e-06           -2.988e-11            3.8e-13               5.1638e-06           
  -0.35                 -5.2074e-06           -2.96e-11             4e-13                 5.2106e-06           
  -0.4                  -5.2468e-06           -2.936e-11            3.8e-13               5.251e-06            
  -0.45                 -5.2826e-06           -2.914e-11            3.6e-13               5.2864e-06           
  -0.5                  -5.3152e-06           -2.88e-11             2.8e-13               5.3188e-06           
  -0.55                 -5.3462e-06           -2.876e-11            2.8e-13               5.351e-06            
  -0.6                  -5.3754e-06           -2.866e-11            4.8e-13               5.3798e-06           
  -0.65                 -5.4024e-06           -2.85e-11             4e-13                 5.4066e-06           
  -0.7                  -5.426e-06            -2.85e-11             3.8e-13               5.43e-06             
  -0.75                 -5.4486e-06           -2.824e-11            2e-13                 5.4534e-06           
  -0.8                  -5.4716e-06           -2.818e-11            3e-13                 5.4758e-06           
  -0.85                 -5.4904e-06           -2.794e-11            2.4e-13               5.4948e-06           
  -0.9                  -5.5088e-06           -2.782e-11            3.4e-13               5.5134e-06           
  -0.95                 -5.527e-06            -2.772e-11            3e-13                 5.5318e-06           
  -1                    -5.5448e-06           -2.742e-11            1.8e-13               5.5484e-06           
  -1.05                 -5.5598e-06           -2.72e-11             1.6e-13               5.5634e-06           
  -1.1                  -5.575e-06            -2.684e-11            2.8e-13               5.5798e-06           
  -1.15                 -5.5904e-06           -2.646e-11            2.4e-13               5.5942e-06           
  -1.2                  -5.6042e-06           -2.612e-11            3.2e-13               5.6086e-06           
  -1.25                 -5.6176e-06           -2.556e-11            6.6e-13               5.6214e-06           
  -1.3                  -5.6316e-06           -2.514e-11            1.24e-12              5.6358e-06           
  -1.35                 -5.6446e-06           -2.45e-11             2.28e-12              5.6474e-06           
END_DB

BEGIN_DB
 ICCAP_VAR vg         -0.813         
 ICCAP_VAR vb         1.2            
 ICCAP_VAR vs         -0             

 #vd                    id                    ig                    ib                    is                   
  -0                    1.2762e-08            -1.8822e-10           2.6e-13               -1.2496e-08          
  -0.05                 -8.29e-06             -1.6214e-10           1e-13                 8.2934e-06           
  -0.1                  -1.4762e-05           -1.4172e-10           0                     1.4778e-05           
  -0.15                 -1.9436e-05           -1.2672e-10           2.4e-13               1.9458e-05           
  -0.2                  -2.245e-05            -1.1668e-10           2.8e-13               2.2464e-05           
  -0.25                 -2.4108e-05           -1.1084e-10           3e-13                 2.4124e-05           
  -0.3                  -2.4918e-05           -1.0772e-10           1.8e-13               2.4936e-05           
  -0.35                 -2.5328e-05           -1.0594e-10           2.8e-13               2.5348e-05           
  -0.4                  -2.5584e-05           -1.0486e-10           1.2e-13               2.5598e-05           
  -0.45                 -2.5774e-05           -1.0422e-10           1e-13                 2.5796e-05           
  -0.5                  -2.5938e-05           -1.0352e-10           8e-14                 2.5958e-05           
  -0.55                 -2.608e-05            -1.0298e-10           2e-14                 2.6096e-05           
  -0.6                  -2.6204e-05           -1.026e-10            8e-14                 2.6224e-05           
  -0.65                 -2.632e-05            -1.0208e-10           3.2e-13               2.6338e-05           
  -0.7                  -2.6432e-05           -1.0168e-10           1e-13                 2.645e-05            
  -0.75                 -2.6534e-05           -1.0146e-10           4e-14                 2.655e-05            
  -0.8                  -2.6628e-05           -1.0096e-10           0                     2.6644e-05           
  -0.85                 -2.6716e-05           -1.007e-10            4e-14                 2.6738e-05           
  -0.9                  -2.6802e-05           -1.0072e-10           8e-14                 2.6822e-05           
  -0.95                 -2.6882e-05           -1.0028e-10           2.8e-13               2.6902e-05           
  -1                    -2.6958e-05           -9.99e-11             1.8e-13               2.6976e-05           
  -1.05                 -2.703e-05            -9.964e-11            -2e-14                2.7046e-05           
  -1.1                  -2.7098e-05           -9.942e-11            2e-14                 2.7118e-05           
  -1.15                 -2.7168e-05           -9.908e-11            1.4e-13               2.7184e-05           
  -1.2                  -2.7234e-05           -9.87e-11             1.4e-13               2.7252e-05           
  -1.25                 -2.7294e-05           -9.836e-11            1.8e-13               2.731e-05            
  -1.3                  -2.735e-05            -9.75e-11             4.8e-13               2.7368e-05           
  -1.35                 -2.7408e-05           -9.706e-11            8.8e-13               2.7426e-05           
END_DB

BEGIN_DB
 ICCAP_VAR vg         -0.992         
 ICCAP_VAR vb         1.2            
 ICCAP_VAR vs         -0             

 #vd                    id                    ig                    ib                    is                   
  -0                    2.0108e-08            -4.8788e-10           2e-14                 -1.9502e-08          
  -0.05                 -1.3628e-05           -4.3406e-10           -8e-14                1.3644e-05           
  -0.1                  -2.5592e-05           -3.8848e-10           6e-14                 2.5612e-05           
  -0.15                 -3.582e-05            -3.5056e-10           8e-14                 3.5838e-05           
  -0.2                  -4.427e-05            -3.2008e-10           1e-13                 4.4292e-05           
  -0.25                 -5.0932e-05           -2.9628e-10           8e-14                 5.0958e-05           
  -0.3                  -5.584e-05            -2.7886e-10           1.6e-13               5.5864e-05           
  -0.35                 -5.9134e-05           -2.6686e-10           1.2e-13               5.916e-05            
  -0.4                  -6.1138e-05           -2.5942e-10           6e-14                 6.1156e-05           
  -0.45                 -6.2288e-05           -2.55e-10             1e-13                 6.2314e-05           
  -0.5                  -6.2982e-05           -2.5238e-10           1.4e-13               6.301e-05            
  -0.55                 -6.3462e-05           -2.5028e-10           -6e-14                6.3482e-05           
  -0.6                  -6.3834e-05           -2.4884e-10           -6e-14                6.3854e-05           
  -0.65                 -6.4142e-05           -2.4734e-10           4e-14                 6.4158e-05           
  -0.7                  -6.4408e-05           -2.4636e-10           -8e-14                6.442e-05            
  -0.75                 -6.4654e-05           -2.4572e-10           -6e-14                6.4672e-05           
  -0.8                  -6.4878e-05           -2.4486e-10           2e-14                 6.4896e-05           
  -0.85                 -6.5088e-05           -2.4408e-10           -2e-14                6.5104e-05           
  -0.9                  -6.5286e-05           -2.4356e-10           2e-14                 6.5308e-05           
  -0.95                 -6.5478e-05           -2.427e-10            4e-14                 6.549e-05            
  -1                    -6.5658e-05           -2.4238e-10           4e-14                 6.5672e-05           
  -1.05                 -6.5822e-05           -2.416e-10            0                     6.5842e-05           
  -1.1                  -6.5982e-05           -2.4106e-10           1.4e-13               6.6e-05              
  -1.15                 -6.614e-05            -2.4038e-10           1e-13                 6.6154e-05           
  -1.2                  -6.6286e-05           -2.3988e-10           2e-14                 6.6304e-05           
  -1.25                 -6.6432e-05           -2.3942e-10           1.6e-13               6.6446e-05           
  -1.3                  -6.6566e-05           -2.3888e-10           0                     6.6594e-05           
  -1.35                 -6.6718e-05           -2.3848e-10           2.2e-13               6.6738e-05           
END_DB

BEGIN_DB
 ICCAP_VAR vg         -1.171         
 ICCAP_VAR vb         1.2            
 ICCAP_VAR vs         -0             

 #vd                    id                    ig                    ib                    is                   
  -0                    2.6884e-08            -1.0386e-09           1.02e-12              -2.544e-08           
  -0.05                 -1.8258e-05           -9.4378e-10           4.8e-13               1.8278e-05           
  -0.1                  -3.507e-05            -8.605e-10            3.6e-13               3.5086e-05           
  -0.15                 -5.034e-05            -7.8776e-10           4.6e-13               5.0364e-05           
  -0.2                  -6.4024e-05           -7.241e-10            3.6e-13               6.4054e-05           
  -0.25                 -7.6076e-05           -6.7006e-10           1.8e-13               7.61e-05             
  -0.3                  -8.643e-05            -6.251e-10            1.8e-13               8.6466e-05           
  -0.35                 -9.5044e-05           -5.8848e-10           2.2e-13               9.5078e-05           
  -0.4                  -0.000101956          -5.5976e-10           3.2e-13               0.00010199           
  -0.45                 -0.000107174          -5.3804e-10           2e-13                 0.00010719           
  -0.5                  -0.000110852          -5.2278e-10           1.8e-13               0.00011087           
  -0.55                 -0.000113262          -5.128e-10            1e-13                 0.000113304          
  -0.6                  -0.00011464           -5.057e-10            1.8e-13               0.00011484           
  -0.65                 -0.00011566           -5.0136e-10           8e-14                 0.00011602           
  -0.7                  -0.0001164            -4.9782e-10           3.2e-13               0.00011674           
  -0.75                 -0.00011694           -4.9568e-10           2.4e-13               0.00011732           
  -0.8                  -0.00011744           -4.9358e-10           1.6e-13               0.0001178            
  -0.85                 -0.00011788           -4.917e-10            1.6e-13               0.00011824           
  -0.9                  -0.00011824           -4.9078e-10           1.6e-13               0.00011862           
  -0.95                 -0.0001186            -4.8862e-10           1.8e-13               0.00011896           
  -1                    -0.00011892           -4.8748e-10           2.4e-13               0.00011928           
  -1.05                 -0.00011922           -4.8654e-10           1.6e-13               0.00011958           
  -1.1                  -0.00011952           -4.8556e-10           1.2e-13               0.00011988           
  -1.15                 -0.0001198            -4.8432e-10           2.6e-13               0.00012014           
  -1.2                  -0.00012006           -4.8354e-10           2e-13                 0.00012042           
  -1.25                 -0.00012034           -4.8258e-10           0                     0.00012068           
  -1.3                  -0.00012056           -4.8138e-10           2.4e-13               0.00012094           
  -1.35                 -0.0001208            -4.8098e-10           2.2e-13               0.00012116           
END_DB

BEGIN_DB
 ICCAP_VAR vg         -1.35          
 ICCAP_VAR vb         1.2            
 ICCAP_VAR vs         -0             

 #vd                    id                    ig                    ib                    is                   
  -0                    3.3354e-08            -1.9576e-09           1.44e-11              -2.9016e-08          
  -0.05                 -2.2154e-05           -1.8014e-09           1.058e-11             2.217e-05            
  -0.1                  -4.3066e-05           -1.663e-09            7.88e-12              4.3088e-05           
  -0.15                 -6.2648e-05           -1.539e-09            6.22e-12              6.2674e-05           
  -0.2                  -8.0842e-05           -1.427e-09            5.12e-12              8.0864e-05           
  -0.25                 -9.7628e-05           -1.329e-09            4.36e-12              9.765e-05            
  -0.3                  -0.0001129            -1.2426e-09           3.88e-12              0.00011294           
  -0.35                 -0.00012648           -1.1716e-09           3.5e-12               0.00012686           
  -0.4                  -0.00013862           -1.1048e-09           3.18e-12              0.000139             
  -0.45                 -0.00014914           -1.0502e-09           2.96e-12              0.00014952           
  -0.5                  -0.000158             -1.005e-09            2.82e-12              0.00015838           
  -0.55                 -0.0001652            -9.7028e-10           2.76e-12              0.00016558           
  -0.6                  -0.0001708            -9.429e-10            2.62e-12              0.00017114           
  -0.65                 -0.00017488           -9.2264e-10           2.56e-12              0.00017524           
  -0.7                  -0.00017774           -9.0854e-10           2.68e-12              0.00017812           
  -0.75                 -0.0001797            -8.994e-10            2.56e-12              0.00018006           
  -0.8                  -0.00018106           -8.9224e-10           2.54e-12              0.00018144           
  -0.85                 -0.0001821            -8.8684e-10           2.54e-12              0.00018246           
  -0.9                  -0.00018288           -8.8326e-10           2.58e-12              0.00018324           
  -0.95                 -0.00018354           -8.8014e-10           2.52e-12              0.00018388           
  -1                    -0.0001841            -8.7724e-10           2.58e-12              0.0001845            
  -1.05                 -0.00018466           -8.748e-10            2.52e-12              0.000185             
  -1.1                  -0.0001851            -8.7202e-10           2.46e-12              0.0001855            
  -1.15                 -0.00018558           -8.7086e-10           2.46e-12              0.00018594           
  -1.2                  -0.000186             -8.6884e-10           2.62e-12              0.00018636           
  -1.25                 -0.00018642           -8.6676e-10           2.54e-12              0.00018678           
  -1.3                  -0.00018678           -8.646e-10            2.54e-12              0.00018714           
  -1.35                 -0.00018712           -8.6368e-10           2.5e-12               0.0001875            
END_DB

