! VERSION = 6.00
BEGIN_HEADER
 ICCAP_INPUTS
  vd         V  D GROUND SMU1 0.1 LIN        1    -0         -1.35      28   -0.05     
  vg         V  G GROUND SMU2 0.001 LIST       2 3 -0.219 -0.419 -0.619
  vb         V  B GROUND SMU4 0.1 CON        1.2
  vs         V  S GROUND SMU3 0.1 CON        -0
 ICCAP_OUTPUTS
  id         I  D GROUND SMU1 B
  ig         I  G GROUND SMU2 B
  ib         I  B GROUND SMU4 B
  is         I  S GROUND SMU3 B
 ICCAP_VALUES
  MASTER_SETUP_TYPE "~dc_idvd~"
  LINVT_VALUE ""
  LISTVT_VALUE "|idvg|100.0n|-200.0m|1.000m|3|200.0m|200.0m|"
  TYPE "-1"
  TEMP " 125.000 "
  IS_TNOM " 0.00000 "
  MAIN.W "150.0n"
  MAIN.L "10.00u"
  MAIN.AD "100.5f"
  MAIN.AS "100.5f"
  MAIN.PD "1.340u"
  MAIN.PS "1.340u"
  MAIN.NF "1.000"
  MAIN.M "1"
  MAIN.NRD "0.000"
  MAIN.NRS "0.000"
  MAIN.LDRIFT1 "1E-06"
  MAIN.LDRIFT2 "1E-06"
  MAIN.SA "0.000"
  MAIN.SB "0.000"
  MAIN.SD "0.000"
  MAIN.SCA "0.000"
  MAIN.SCB "0.000"
  MAIN.SCC "0.000"
  MAIN.SC "0.000"
  MODULE "S555"
  PIN_D "16"
  PIN_G "5"
  PIN_S "6"
  PIN_B "15"
  PIN_E ""
  PIN_6 ""
  XY_ID ""
  FUNC "Narrow"
  STI "SA ref"
  WPE "WPE ref"
  COMMENT ""
  DIS_MEAS ""
  TypeTCI "10"
END_HEADER

BEGIN_DB
 ICCAP_VAR vg         -0.219         
 ICCAP_VAR vb         1.2            
 ICCAP_VAR vs         -0             

 #vd                    id                    ig                    ib                    is                   
  -0                    -1.2e-13              1.2e-13               3.126e-11             -1.8e-13             
  -0.05                 -1.198e-11            1.4e-13               2.682e-11             1.114e-11            
  -0.1                  -1.464e-11            1.2e-13               2.35e-11              1.406e-11            
  -0.15                 -1.54e-11             1.8e-13               2.06e-11              1.444e-11            
  -0.2                  -1.56e-11             1.4e-13               1.924e-11             1.478e-11            
  -0.25                 -1.584e-11            2.4e-13               1.794e-11             1.47e-11             
  -0.3                  -1.586e-11            1e-13                 1.642e-11             1.498e-11            
  -0.35                 -1.598e-11            1e-13                 1.52e-11              1.492e-11            
  -0.4                  -1.594e-11            1.4e-13               1.38e-11              1.504e-11            
  -0.45                 -1.614e-11            8e-14                 1.32e-11              1.49e-11             
  -0.5                  -1.606e-11            2e-13                 1.2e-11               1.514e-11            
  -0.55                 -1.624e-11            8e-14                 1.162e-11             1.516e-11            
  -0.6                  -1.618e-11            8e-14                 1.15e-11              1.492e-11            
  -0.65                 -1.632e-11            1.4e-13               1.088e-11             1.526e-11            
  -0.7                  -1.622e-11            0                     1.016e-11             1.514e-11            
  -0.75                 -1.636e-11            2.2e-13               1.01e-11              1.5e-11              
  -0.8                  -1.632e-11            8e-14                 9.54e-12              1.498e-11            
  -0.85                 -1.638e-11            1.2e-13               8.88e-12              1.506e-11            
  -0.9                  -1.666e-11            1e-13                 9.3e-12               1.49e-11             
  -0.95                 -1.646e-11            2.4e-13               8.76e-12              1.522e-11            
  -1                    -1.662e-11            1.4e-13               8.38e-12              1.498e-11            
  -1.05                 -1.668e-11            1e-13                 8.02e-12              1.508e-11            
  -1.1                  -1.668e-11            2e-13                 7.84e-12              1.508e-11            
  -1.15                 -1.698e-11            2.4e-13               7.72e-12              1.492e-11            
  -1.2                  -1.68e-11             1.6e-13               7.98e-12              1.512e-11            
  -1.25                 -1.7e-11              1.2e-13               7.46e-12              1.52e-11             
  -1.3                  -1.712e-11            8e-14                 7.06e-12              1.53e-11             
  -1.35                 -1.706e-11            3e-13                 7.64e-12              1.518e-11            
END_DB

BEGIN_DB
 ICCAP_VAR vg         -0.419         
 ICCAP_VAR vb         1.2            
 ICCAP_VAR vs         -0             

 #vd                    id                    ig                    ib                    is                   
  -0                    2.8e-12               -9.6e-13              5.94e-12              -2.1e-12             
  -0.05                 -1.1802e-09           -6.4e-13              5.54e-12              1.1806e-09           
  -0.1                  -1.5704e-09           -6.6e-13              5.72e-12              1.5724e-09           
  -0.15                 -1.681e-09            -5.8e-13              5.6e-12               1.681e-09            
  -0.2                  -1.7106e-09           -5.6e-13              5.48e-12              1.71e-09             
  -0.25                 -1.7214e-09           -5.8e-13              5.78e-12              1.7208e-09           
  -0.3                  -1.7256e-09           -5.4e-13              5.94e-12              1.7266e-09           
  -0.35                 -1.7304e-09           -4.4e-13              5.4e-12               1.7306e-09           
  -0.4                  -1.7352e-09           -5.2e-13              5.32e-12              1.7338e-09           
  -0.45                 -1.738e-09            -4.8e-13              5.74e-12              1.7368e-09           
  -0.5                  -1.7404e-09           -5.2e-13              5.1e-12               1.738e-09            
  -0.55                 -1.7418e-09           -4.4e-13              5.38e-12              1.741e-09            
  -0.6                  -1.7434e-09           -4e-13                5.26e-12              1.7436e-09           
  -0.65                 -1.7466e-09           -5e-13                5.86e-12              1.7468e-09           
  -0.7                  -1.7476e-09           -4.4e-13              5.36e-12              1.7466e-09           
  -0.75                 -1.7512e-09           -6.2e-13              5.14e-12              1.7494e-09           
  -0.8                  -1.7536e-09           -4e-13                5.22e-12              1.7518e-09           
  -0.85                 -1.7526e-09           -3.8e-13              5.28e-12              1.7528e-09           
  -0.9                  -1.7554e-09           -4.8e-13              4.74e-12              1.7552e-09           
  -0.95                 -1.7558e-09           -4.4e-13              5.3e-12               1.7564e-09           
  -1                    -1.7598e-09           -5.2e-13              5.2e-12               1.7576e-09           
  -1.05                 -1.7592e-09           -3.2e-13              5.02e-12              1.7582e-09           
  -1.1                  -1.7604e-09           -4.8e-13              5.2e-12               1.76e-09             
  -1.15                 -1.7614e-09           -4.6e-13              5.54e-12              1.7608e-09           
  -1.2                  -1.7618e-09           -2.4e-13              4.84e-12              1.7604e-09           
  -1.25                 -1.7638e-09           -3.8e-13              4.98e-12              1.762e-09            
  -1.3                  -1.7652e-09           -5e-13                5.5e-12               1.7642e-09           
  -1.35                 -1.7656e-09           -3.6e-13              5.06e-12              1.7646e-09           
END_DB

BEGIN_DB
 ICCAP_VAR vg         -0.619         
 ICCAP_VAR vb         1.2            
 ICCAP_VAR vs         -0             

 #vd                    id                    ig                    ib                    is                   
  -0                    1.654e-11             -6.74e-12             4.86e-12              -9.16e-12            
  -0.05                 -9.3862e-09           -5.7e-12              4.24e-12              9.391e-09            
  -0.1                  -1.5818e-08           -4.76e-12             4.16e-12              1.584e-08            
  -0.15                 -1.9656e-08           -4.36e-12             4.72e-12              1.9678e-08           
  -0.2                  -2.152e-08            -4.1e-12              4.88e-12              2.1538e-08           
  -0.25                 -2.224e-08            -4e-12                4.76e-12              2.2262e-08           
  -0.3                  -2.2482e-08           -3.98e-12             4.94e-12              2.2512e-08           
  -0.35                 -2.2594e-08           -3.86e-12             5.26e-12              2.261e-08            
  -0.4                  -2.2656e-08           -3.98e-12             5.44e-12              2.2666e-08           
  -0.45                 -2.2694e-08           -3.8e-12              5.48e-12              2.2718e-08           
  -0.5                  -2.274e-08            -3.86e-12             5.04e-12              2.2758e-08           
  -0.55                 -2.2778e-08           -3.94e-12             4.74e-12              2.2794e-08           
  -0.6                  -2.2812e-08           -3.78e-12             5.24e-12              2.2832e-08           
  -0.65                 -2.2848e-08           -3.92e-12             4.9e-12               2.286e-08            
  -0.7                  -2.2864e-08           -3.78e-12             4.9e-12               2.2884e-08           
  -0.75                 -2.2882e-08           -3.82e-12             5.02e-12              2.2908e-08           
  -0.8                  -2.2918e-08           -4.06e-12             5.02e-12              2.2934e-08           
  -0.85                 -2.2934e-08           -3.8e-12              4.54e-12              2.2952e-08           
  -0.9                  -2.2956e-08           -3.62e-12             4.8e-12               2.2974e-08           
  -0.95                 -2.297e-08            -3.82e-12             4.62e-12              2.2996e-08           
  -1                    -2.3002e-08           -3.86e-12             4.92e-12              2.302e-08            
  -1.05                 -2.3018e-08           -3.78e-12             4.96e-12              2.3044e-08           
  -1.1                  -2.3034e-08           -3.82e-12             4.96e-12              2.3048e-08           
  -1.15                 -2.3048e-08           -3.72e-12             5.24e-12              2.3064e-08           
  -1.2                  -2.306e-08            -3.7e-12              4.64e-12              2.3086e-08           
  -1.25                 -2.3084e-08           -3.76e-12             5.28e-12              2.3102e-08           
  -1.3                  -2.309e-08            -3.8e-12              4.58e-12              2.3106e-08           
  -1.35                 -2.3104e-08           -3.76e-12             5.1e-12               2.3118e-08           
END_DB

