! VERSION = 6.00
BEGIN_HEADER
 ICCAP_INPUTS
  vd         V  D GROUND SMU1 0.1 LIN        1    -0         -1.35      28   -0.05     
  vg         V  G GROUND SMU2 0.001 LIN        2    -0.586     -1.35      5    -0.191    
  vb         V  B GROUND SMU4 0.1 CON        1.2
  vs         V  S GROUND SMU3 0.1 CON        -0
 ICCAP_OUTPUTS
  id         I  D GROUND SMU1 B
  ig         I  G GROUND SMU2 B
  ib         I  B GROUND SMU4 B
  is         I  S GROUND SMU3 B
 ICCAP_VALUES
  MASTER_SETUP_TYPE "~dc_idvd~"
  LINVT_VALUE "|idvg|100.0n|100.0m|1.000m|5|1.350|"
  LISTVT_VALUE ""
  TYPE "-1"
  TEMP " 27.0000 "
  IS_TNOM " 1.00000 "
  MAIN.W "150.0n"
  MAIN.L "120.0n"
  MAIN.AD "100.5f"
  MAIN.AS "100.5f"
  MAIN.PD "1.340u"
  MAIN.PS "1.340u"
  MAIN.NF "1.000"
  MAIN.M "1"
  MAIN.NRD "0.000"
  MAIN.NRS "0.000"
  MAIN.LDRIFT1 "1E-06"
  MAIN.LDRIFT2 "1E-06"
  MAIN.SA "0.000"
  MAIN.SB "0.000"
  MAIN.SD "0.000"
  MAIN.SCA "0.000"
  MAIN.SCB "0.000"
  MAIN.SCC "0.000"
  MAIN.SC "0.000"
  MODULE "S554"
  PIN_D "18"
  PIN_G "3"
  PIN_S "4"
  PIN_B "17"
  PIN_E ""
  PIN_6 ""
  XY_ID ""
  FUNC "Additional"
  STI "SA ref"
  WPE "WPE ref"
  COMMENT ""
  DIS_MEAS ""
  TypeTCI "10"
END_HEADER

BEGIN_DB
 ICCAP_VAR vg         -0.586         
 ICCAP_VAR vb         1.2            
 ICCAP_VAR vs         -0             

 #vd                    id                    ig                    ib                    is                   
  -0                    4.9776e-10            -2e-13                5.2e-13               -6.0746e-10          
  -0.05                 -2.8538e-07           -2.2e-13              4.2e-13               2.8518e-07           
  -0.1                  -4.2918e-07           -6e-14                5.4e-13               4.2982e-07           
  -0.15                 -5.145e-07            -8e-14                3.8e-13               5.1048e-07           
  -0.2                  -5.7458e-07           -8e-14                4.8e-13               5.7404e-07           
  -0.25                 -6.2818e-07           -1.4e-13              4e-13                 6.2562e-07           
  -0.3                  -6.7538e-07           -8e-14                2.8e-13               6.7578e-07           
  -0.35                 -7.2402e-07           -8e-14                2.8e-13               7.2754e-07           
  -0.4                  -7.7452e-07           -1.8e-13              4e-13                 7.7538e-07           
  -0.45                 -8.2368e-07           -1.8e-13              3.6e-13               8.287e-07            
  -0.5                  -8.8258e-07           -1.2e-13              3e-13                 8.8124e-07           
  -0.55                 -9.3608e-07           -1e-13                2.8e-13               9.404e-07            
  -0.6                  -9.947e-07            -8e-14                3.2e-13               9.9426e-07           
  -0.65                 -1.0548e-06           -8e-14                4.2e-13               1.04878e-06          
  -0.7                  -1.1119e-06           2e-14                 3.4e-13               1.115e-06            
  -0.75                 -1.1846e-06           0                     2.8e-13               1.1814e-06           
  -0.8                  -1.2466e-06           -1e-13                1e-13                 1.2566e-06           
  -0.85                 -1.3206e-06           4e-14                 2.4e-13               1.3312e-06           
  -0.9                  -1.397e-06            2e-14                 2.2e-13               1.3994e-06           
  -0.95                 -1.4714e-06           -6e-14                2.2e-13               1.4822e-06           
  -1                    -1.5524e-06           4e-14                 2e-13                 1.5616e-06           
  -1.05                 -1.6354e-06           8e-14                 2.6e-13               1.6412e-06           
  -1.1                  -1.7312e-06           -2e-14                1.8e-13               1.7286e-06           
  -1.15                 -1.811e-06            6e-14                 2.8e-13               1.8188e-06           
  -1.2                  -1.9038e-06           8e-14                 3.2e-13               1.9092e-06           
  -1.25                 -2.0028e-06           1.2e-13               7.6e-13               1.998e-06            
  -1.3                  -2.0844e-06           0                     1.38e-12              2.0964e-06           
  -1.35                 -2.1912e-06           1.2e-13               2.44e-12              2.2058e-06           
END_DB

BEGIN_DB
 ICCAP_VAR vg         -0.777         
 ICCAP_VAR vb         1.2            
 ICCAP_VAR vs         -0             

 #vd                    id                    ig                    ib                    is                   
  -0                    2.474e-09             -6e-13                2.4e-13               -2.1104e-09          
  -0.05                 -1.6012e-06           -4.2e-13              -2e-14                1.6044e-06           
  -0.1                  -2.8014e-06           -3.4e-13              8e-14                 2.7862e-06           
  -0.15                 -3.6622e-06           -2.6e-13              1.6e-13               3.673e-06            
  -0.2                  -4.299e-06            -3.4e-13              1.6e-13               4.3018e-06           
  -0.25                 -4.7664e-06           -3.2e-13              2e-14                 4.772e-06            
  -0.3                  -5.1342e-06           -2.8e-13              1e-13                 5.1484e-06           
  -0.35                 -5.4526e-06           -1.8e-13              2e-13                 5.4544e-06           
  -0.4                  -5.733e-06            -1.4e-13              1.8e-13               5.723e-06            
  -0.45                 -5.9856e-06           -1.6e-13              1e-13                 5.9868e-06           
  -0.5                  -6.1064e-06           -2e-13                2e-13                 6.105e-06            
  -0.55                 -6.3264e-06           -1.8e-13              1.6e-13               6.485e-06            
  -0.6                  -6.7232e-06           -1.2e-13              -4e-14                6.714e-06            
  -0.65                 -6.9562e-06           -4e-14                1.8e-13               6.9622e-06           
  -0.7                  -7.1996e-06           -1.4e-13              2.2e-13               7.1858e-06           
  -0.75                 -7.4324e-06           -2.2e-13              1.6e-13               7.4442e-06           
  -0.8                  -7.6788e-06           -2e-13                8e-14                 7.6726e-06           
  -0.85                 -7.9168e-06           -6e-14                1.8e-13               7.9224e-06           
  -0.9                  -8.1604e-06           -1.8e-13              1.2e-13               8.158e-06            
  -0.95                 -8.4232e-06           -1.6e-13              1e-13                 8.4246e-06           
  -1                    -8.6714e-06           -1e-13                2e-13                 8.6666e-06           
  -1.05                 -8.925e-06            -8e-14                1.6e-13               8.9324e-06           
  -1.1                  -9.164e-06            -2e-13                4e-14                 9.1676e-06           
  -1.15                 -9.428e-06            -2.2e-13              1.4e-13               9.4382e-06           
  -1.2                  -9.6856e-06           -2.8e-13              1.4e-13               9.685e-06            
  -1.25                 -9.9404e-06           -1e-13                6e-13                 9.9454e-06           
  -1.3                  -9.9758e-06           -1.2e-13              1.32e-12              9.9882e-06           
  -1.35                 -1.02362e-05          -1.2e-13              2.7e-12               1.02424e-05          
END_DB

BEGIN_DB
 ICCAP_VAR vg         -0.968         
 ICCAP_VAR vb         1.2            
 ICCAP_VAR vs         -0             

 #vd                    id                    ig                    ib                    is                   
  -0                    3.2744e-09            -1.3e-12              0                     -3.3394e-09          
  -0.05                 -3.1786e-06           -1.02e-12             -1.8e-13              3.199e-06            
  -0.1                  -5.9334e-06           -1e-12                4e-14                 5.9432e-06           
  -0.15                 -8.2346e-06           -8.4e-13              6e-14                 8.2268e-06           
  -0.2                  -1.01138e-05          -8.2e-13              8e-14                 1.01162e-05          
  -0.25                 -1.1632e-05           -6.8e-13              2e-14                 1.1644e-05           
  -0.3                  -1.2852e-05           -6.2e-13              4e-14                 1.2866e-05           
  -0.35                 -1.406e-05            -6.4e-13              -1.2e-13              1.3856e-05           
  -0.4                  -1.4664e-05           -6.6e-13              2e-14                 1.4672e-05           
  -0.45                 -1.5366e-05           -5.6e-13              2.4e-13               1.5384e-05           
  -0.5                  -1.597e-05            -5.6e-13              1.6e-13               1.5988e-05           
  -0.55                 -1.6532e-05           -3.8e-13              2e-14                 1.655e-05            
  -0.6                  -1.7074e-05           -3.6e-13              1e-13                 1.7064e-05           
  -0.65                 -1.7544e-05           -4.8e-13              2e-14                 1.757e-05            
  -0.7                  -1.801e-05            -4e-13                6e-14                 1.8044e-05           
  -0.75                 -1.8472e-05           -3.8e-13              1.6e-13               1.8494e-05           
  -0.8                  -1.8932e-05           -4.8e-13              1.2e-13               1.8934e-05           
  -0.85                 -1.9532e-05           -5e-13                1.6e-13               1.9474e-05           
  -0.9                  -1.9806e-05           -3.8e-13              1e-13                 1.9962e-05           
  -0.95                 -2.024e-05            -3.4e-13              4e-14                 2.0252e-05           
  -1                    -2.0656e-05           -4e-13                8e-14                 2.0696e-05           
  -1.05                 -2.1094e-05           -3.6e-13              1.6e-13               2.1106e-05           
  -1.1                  -2.1512e-05           -3.4e-13              1.8e-13               2.1542e-05           
  -1.15                 -2.194e-05            -4.2e-13              2e-13                 2.1962e-05           
  -1.2                  -2.2372e-05           -3.2e-13              2.8e-13               2.2376e-05           
  -1.25                 -2.2758e-05           -3.8e-13              3.6e-13               2.2724e-05           
  -1.3                  -2.3202e-05           -4e-13                8.8e-13               2.321e-05            
  -1.35                 -2.3608e-05           -4.6e-13              1.96e-12              2.3638e-05           
END_DB

BEGIN_DB
 ICCAP_VAR vg         -1.159         
 ICCAP_VAR vb         1.2            
 ICCAP_VAR vs         -0             

 #vd                    id                    ig                    ib                    is                   
  -0                    3.7706e-09            -2.4e-12              2e-14                 -4.4972e-09          
  -0.05                 -4.693e-06            -2.38e-12             -1e-13                4.6796e-06           
  -0.1                  -8.9134e-06           -2.06e-12             -1e-13                8.9438e-06           
  -0.15                 -1.274e-05            -1.84e-12             0                     1.2764e-05           
  -0.2                  -1.6074e-05           -1.72e-12             -1e-13                1.608e-05            
  -0.25                 -1.8934e-05           -1.54e-12             2e-14                 1.8952e-05           
  -0.3                  -2.142e-05            -1.46e-12             1.2e-13               2.1408e-05           
  -0.35                 -2.3406e-05           -1.52e-12             1.2e-13               2.339e-05            
  -0.4                  -2.5126e-05           -1.28e-12             -4e-14                2.5338e-05           
  -0.45                 -2.675e-05            -1.3e-12              -4e-14                2.6818e-05           
  -0.5                  -2.8174e-05           -1.2e-12              4e-14                 2.8212e-05           
  -0.55                 -2.899e-05            -1.12e-12             1e-13                 2.9238e-05           
  -0.6                  -3.0254e-05           -1.12e-12             8e-14                 3.0318e-05           
  -0.65                 -3.1092e-05           -9.6e-13              2e-14                 3.119e-05            
  -0.7                  -3.1838e-05           -9e-13                -6e-14                3.183e-05            
  -0.75                 -3.2584e-05           -9.4e-13              2e-14                 3.2506e-05           
  -0.8                  -3.3536e-05           -8.6e-13              1.2e-13               3.3522e-05           
  -0.85                 -3.4198e-05           -9.4e-13              6e-14                 3.4222e-05           
  -0.9                  -3.4906e-05           -8.2e-13              1.4e-13               3.4896e-05           
  -0.95                 -3.548e-05            -9e-13                4e-14                 3.5584e-05           
  -1                    -3.615e-05            -8.2e-13              2e-14                 3.621e-05            
  -1.05                 -3.6594e-05           -9e-13                1.6e-13               3.6608e-05           
  -1.1                  -3.7182e-05           -7e-13                2e-14                 3.7388e-05           
  -1.15                 -3.804e-05            -7.6e-13              1.8e-13               3.8054e-05           
  -1.2                  -3.863e-05            -8.8e-13              3.2e-13               3.8678e-05           
  -1.25                 -3.9234e-05           -8e-13                3.6e-13               3.9234e-05           
  -1.3                  -3.9768e-05           -7.8e-13              4.2e-13               3.9806e-05           
  -1.35                 -4.0126e-05           -8.6e-13              1.18e-12              4.014e-05            
END_DB

BEGIN_DB
 ICCAP_VAR vg         -1.35          
 ICCAP_VAR vb         1.2            
 ICCAP_VAR vs         -0             

 #vd                    id                    ig                    ib                    is                   
  -0                    3.0864e-09            -4.72e-12             6e-14                 -5.2074e-09          
  -0.05                 -5.9508e-06           -4.38e-12             4e-14                 5.9738e-06           
  -0.1                  -1.1526e-05           -3.98e-12             0                     1.1592e-05           
  -0.15                 -1.6644e-05           -3.6e-12              -1.6e-13              1.6654e-05           
  -0.2                  -2.1264e-05           -3.34e-12             -6e-14                2.1346e-05           
  -0.25                 -2.5506e-05           -3.14e-12             4e-14                 2.5556e-05           
  -0.3                  -2.9136e-05           -2.82e-12             6e-14                 2.9296e-05           
  -0.35                 -3.2544e-05           -2.68e-12             1.2e-13               3.2406e-05           
  -0.4                  -3.5332e-05           -2.54e-12             4e-14                 3.5436e-05           
  -0.45                 -3.7802e-05           -2.34e-12             0                     3.78e-05             
  -0.5                  -3.997e-05            -2.18e-12             -6e-14                4.0008e-05           
  -0.55                 -4.188e-05            -1.96e-12             8e-14                 4.1974e-05           
  -0.6                  -4.3614e-05           -2.06e-12             8e-14                 4.3626e-05           
  -0.65                 -4.5248e-05           -1.98e-12             0                     4.5336e-05           
  -0.7                  -4.6696e-05           -1.88e-12             6e-14                 4.6696e-05           
  -0.75                 -4.7724e-05           -1.72e-12             1e-13                 4.7738e-05           
  -0.8                  -4.8802e-05           -1.86e-12             4e-14                 4.8876e-05           
  -0.85                 -4.999e-05            -1.72e-12             6e-14                 4.9902e-05           
  -0.9                  -5.0882e-05           -1.78e-12             1e-13                 5.0928e-05           
  -0.95                 -5.1852e-05           -1.72e-12             6e-14                 5.1902e-05           
  -1                    -5.271e-05            -1.66e-12             1.4e-13               5.3032e-05           
  -1.05                 -5.3576e-05           -1.62e-12             -4e-14                5.3634e-05           
  -1.1                  -5.44e-05             -1.52e-12             -2e-14                5.4312e-05           
  -1.15                 -5.5006e-05           -1.54e-12             8e-14                 5.5128e-05           
  -1.2                  -5.6182e-05           -1.64e-12             1.4e-13               5.6168e-05           
  -1.25                 -5.7054e-05           -1.6e-12              8e-14                 5.716e-05            
  -1.3                  -5.7598e-05           -1.58e-12             3.8e-13               5.7606e-05           
  -1.35                 -5.841e-05            -1.64e-12             8e-13                 5.8502e-05           
END_DB

