! VERSION = 6.00
BEGIN_HEADER
 ICCAP_INPUTS
  vd         V  D GROUND SMU1 0.1 LIN        1    -0         -1.35      28   -0.05     
  vg         V  G GROUND SMU2 0.001 LIST       2 3 -0.192 -0.392 -0.592
  vb         V  B GROUND SMU4 0.1 CON        -0
  vs         V  S GROUND SMU3 0.1 CON        -0
 ICCAP_OUTPUTS
  id         I  D GROUND SMU1 B
  ig         I  G GROUND SMU2 B
  ib         I  B GROUND SMU4 B
  is         I  S GROUND SMU3 B
 ICCAP_VALUES
  MASTER_SETUP_TYPE "~dc_idvd~"
  LINVT_VALUE ""
  LISTVT_VALUE "|idvg|100.0n|-200.0m|1.000m|3|200.0m|200.0m|"
  TYPE "-1"
  TEMP " 27.0000 "
  IS_TNOM " 1.00000 "
  MAIN.W "10.00u"
  MAIN.L "150.0n"
  MAIN.AD "3.400p"
  MAIN.AS "3.400p"
  MAIN.PD "20.68u"
  MAIN.PS "20.68u"
  MAIN.NF "1.000"
  MAIN.M "1"
  MAIN.NRD "0.000"
  MAIN.NRS "0.000"
  MAIN.LDRIFT1 "1E-06"
  MAIN.LDRIFT2 "1E-06"
  MAIN.SA "0.000"
  MAIN.SB "0.000"
  MAIN.SD "0.000"
  MAIN.SCA "0.000"
  MAIN.SCB "0.000"
  MAIN.SCC "0.000"
  MAIN.SC "0.000"
  MODULE "S548"
  PIN_D "14"
  PIN_G "7"
  PIN_S "8"
  PIN_B "13"
  PIN_E ""
  PIN_6 ""
  XY_ID ""
  FUNC "L Scale"
  STI "SA ref"
  WPE "WPE ref"
  COMMENT ""
  DIS_MEAS ""
  TypeTCI "10"
END_HEADER

BEGIN_DB
 ICCAP_VAR vg         -0.192         
 ICCAP_VAR vb         -0             
 ICCAP_VAR vs         -0             

 #vd                    id                    ig                    ib                    is                   
  -0                    1.356e-11             -1.6e-13              -1.24e-12             -4.262e-11           
  -0.05                 -1.9334e-08           -2.4e-13              -1.2e-12              1.9358e-08           
  -0.1                  -2.3504e-08           -2e-14                -1.2e-12              2.3526e-08           
  -0.15                 -2.5252e-08           -1.6e-13              -1.34e-12             2.5276e-08           
  -0.2                  -2.6588e-08           -2.4e-13              -1.26e-12             2.6602e-08           
  -0.25                 -2.7838e-08           -2.2e-13              -1.2e-12              2.7852e-08           
  -0.3                  -2.9084e-08           -8e-14                -1.24e-12             2.9104e-08           
  -0.35                 -3.0288e-08           0                     -1.2e-12              3.0308e-08           
  -0.4                  -3.1526e-08           1e-13                 -1.02e-12             3.1544e-08           
  -0.45                 -3.2768e-08           2.6e-13               -1.18e-12             3.2794e-08           
  -0.5                  -3.4014e-08           3.2e-13               -1.24e-12             3.4056e-08           
  -0.55                 -3.5254e-08           6.4e-13               -1.24e-12             3.531e-08            
  -0.6                  -3.6558e-08           6.6e-13               -1.28e-12             3.657e-08            
  -0.65                 -3.7804e-08           1.16e-12              -1.12e-12             3.7844e-08           
  -0.7                  -3.9082e-08           1.26e-12              -1.2e-12              3.912e-08            
  -0.75                 -4.0428e-08           1.42e-12              -1.16e-12             4.0466e-08           
  -0.8                  -4.1736e-08           1.56e-12              -1.14e-12             4.174e-08            
  -0.85                 -4.306e-08            2.2e-12               -1.14e-12             4.3088e-08           
  -0.9                  -4.4498e-08           2.48e-12              -1.14e-12             4.4532e-08           
  -0.95                 -4.5858e-08           3.24e-12              -1.14e-12             4.5904e-08           
  -1                    -4.7252e-08           3.82e-12              -1.14e-12             4.7292e-08           
  -1.05                 -4.8662e-08           4.54e-12              -1.02e-12             4.8682e-08           
  -1.1                  -5.0096e-08           5.4e-12               -8.8e-13              5.0122e-08           
  -1.15                 -5.155e-08            6e-12                 -9.4e-13              5.1568e-08           
  -1.2                  -5.3008e-08           6.72e-12              -6.4e-13              5.303e-08            
  -1.25                 -5.4528e-08           8.06e-12              -3.2e-13              5.4512e-08           
  -1.3                  -5.604e-08            9.22e-12              1.4e-13               5.6094e-08           
  -1.35                 -5.7648e-08           1.024e-11             7.6e-13               5.7642e-08           
END_DB

BEGIN_DB
 ICCAP_VAR vg         -0.392         
 ICCAP_VAR vb         -0             
 ICCAP_VAR vs         -0             

 #vd                    id                    ig                    ib                    is                   
  -0                    2.8436e-09            -2.06e-12             -1.06e-12             -4.235e-09           
  -0.05                 -3.9308e-06           -1.64e-12             -1.02e-12             3.9316e-06           
  -0.1                  -5.2066e-06           -1.58e-12             -1.14e-12             5.2116e-06           
  -0.15                 -5.7356e-06           -1.28e-12             -1.06e-12             5.7394e-06           
  -0.2                  -6.0792e-06           -1.38e-12             -1.06e-12             6.0802e-06           
  -0.25                 -6.3582e-06           -1.34e-12             -1.08e-12             6.358e-06            
  -0.3                  -6.6148e-06           -1.16e-12             -1.1e-12              6.6184e-06           
  -0.35                 -6.86e-06             -1.2e-12              -1.08e-12             6.862e-06            
  -0.4                  -7.092e-06            -1.24e-12             -1.18e-12             7.0936e-06           
  -0.45                 -7.3186e-06           -1.24e-12             -1.12e-12             7.325e-06            
  -0.5                  -7.5398e-06           -1.26e-12             -1.14e-12             7.5488e-06           
  -0.55                 -7.7616e-06           -1.04e-12             -1.04e-12             7.7606e-06           
  -0.6                  -7.9752e-06           -8.8e-13              -1.14e-12             7.9772e-06           
  -0.65                 -8.1894e-06           -9.4e-13              -1.14e-12             8.1912e-06           
  -0.7                  -8.3974e-06           -9.2e-13              -1.16e-12             8.4042e-06           
  -0.75                 -8.6052e-06           -7.4e-13              -1.08e-12             8.61e-06             
  -0.8                  -8.816e-06            -4.2e-13              -1.12e-12             8.8172e-06           
  -0.85                 -9.0166e-06           -2.4e-13              -1.16e-12             9.021e-06            
  -0.9                  -9.2164e-06           1.4e-13               -1.06e-12             9.2256e-06           
  -0.95                 -9.4294e-06           2.6e-13               -1.02e-12             9.4286e-06           
  -1                    -9.6286e-06           4.8e-13               -1.02e-12             9.6384e-06           
  -1.05                 -9.8338e-06           1e-12                 -8.8e-13              9.8402e-06           
  -1.1                  -1.00412e-05          1.56e-12              -5.4e-13              1.00474e-05          
  -1.15                 -1.0238e-05           2e-12                 2e-13                 1.0249e-05           
  -1.2                  -1.0446e-05           2.64e-12              1.78e-12              1.04536e-05          
  -1.25                 -1.06522e-05          3.22e-12              4.86e-12              1.06614e-05          
  -1.3                  -1.08546e-05          4.14e-12              1.038e-11             1.08584e-05          
  -1.35                 -1.1059e-05           4.94e-12              2.008e-11             1.1067e-05           
END_DB

BEGIN_DB
 ICCAP_VAR vg         -0.592         
 ICCAP_VAR vb         -0             
 ICCAP_VAR vs         -0             

 #vd                    id                    ig                    ib                    is                   
  -0                    6.378e-08             -9.84e-12             -1.02e-12             -5.8462e-08          
  -0.05                 -4.312e-05            -8.6e-12              -9.8e-13              4.3152e-05           
  -0.1                  -7.1556e-05           -7.48e-12             -1.02e-12             7.1588e-05           
  -0.15                 -8.8936e-05           -6.82e-12             -9.8e-13              8.8912e-05           
  -0.2                  -9.933e-05            -6.46e-12             -9.4e-13              9.9324e-05           
  -0.25                 -0.000105982          -6.22e-12             -1e-12                0.000106042          
  -0.3                  -0.00011092           -5.82e-12             -9.4e-13              0.000110936          
  -0.35                 -0.000114712          -5.54e-12             -9.4e-13              0.000114864          
  -0.4                  -0.00011804           -5.5e-12              -1.12e-12             0.00011834           
  -0.45                 -0.00012096           -5.5e-12              -1e-12                0.0001213            
  -0.5                  -0.00012364           -5.48e-12             -9.8e-13              0.00012406           
  -0.55                 -0.00012644           -5.48e-12             -9.4e-13              0.00012666           
  -0.6                  -0.00012886           -5.48e-12             -1.04e-12             0.00012918           
  -0.65                 -0.0001312            -5.2e-12              -1.04e-12             0.00013156           
  -0.7                  -0.00013364           -5.18e-12             -1.06e-12             0.00013402           
  -0.75                 -0.00013592           -5.16e-12             -1.02e-12             0.00013628           
  -0.8                  -0.0001382            -5.08e-12             -1.04e-12             0.00013846           
  -0.85                 -0.0001404            -4.96e-12             -9.6e-13              0.00014064           
  -0.9                  -0.0001424            -4.62e-12             -9.8e-13              0.00014272           
  -0.95                 -0.00014458           -4.78e-12             -9.6e-13              0.0001449            
  -1                    -0.00014666           -4.4e-12              -9.6e-13              0.00014706           
  -1.05                 -0.00014882           -4.14e-12             -8.4e-13              0.00014906           
  -1.1                  -0.00015078           -3.88e-12             -4.2e-13              0.00015116           
  -1.15                 -0.00015294           -3.66e-12             7.6e-13               0.00015326           
  -1.2                  -0.00015476           -3.3e-12              3.26e-12              0.00015512           
  -1.25                 -0.00015676           -2.98e-12             8.98e-12              0.00015708           
  -1.3                  -0.0001587            -2.34e-12             2.126e-11             0.00015906           
  -1.35                 -0.00016078           -1.94e-12             4.62e-11              0.00016126           
END_DB

