! VERSION = 6.00
BEGIN_HEADER
 ICCAP_INPUTS
  vd         V  D GROUND SMU1 0.1 LIN        1    -0         -1.35      28   -0.05     
  vg         V  G GROUND SMU2 0.001 LIST       2 3 -0.218 -0.418 -0.618
  vb         V  B GROUND SMU4 0.1 CON        -0
  vs         V  S GROUND SMU3 0.1 CON        -0
 ICCAP_OUTPUTS
  id         I  D GROUND SMU1 B
  ig         I  G GROUND SMU2 B
  ib         I  B GROUND SMU4 B
  is         I  S GROUND SMU3 B
 ICCAP_VALUES
  MASTER_SETUP_TYPE "~dc_idvd~"
  LINVT_VALUE ""
  LISTVT_VALUE "|idvg|100.0n|-200.0m|1.000m|3|200.0m|200.0m|"
  TYPE "-1"
  TEMP " 27.0000 "
  IS_TNOM " 1.00000 "
  MAIN.W "600.0n"
  MAIN.L "130.0n"
  MAIN.AD "204.0f"
  MAIN.AS "204.0f"
  MAIN.PD "1.880u"
  MAIN.PS "1.880u"
  MAIN.NF "1.000"
  MAIN.M "1"
  MAIN.NRD "0.000"
  MAIN.NRS "0.000"
  MAIN.LDRIFT1 "1E-06"
  MAIN.LDRIFT2 "1E-06"
  MAIN.SA "0.000"
  MAIN.SB "0.000"
  MAIN.SD "0.000"
  MAIN.SCA "0.000"
  MAIN.SCB "0.000"
  MAIN.SCC "0.000"
  MAIN.SC "0.000"
  MODULE "S551"
  PIN_D "18"
  PIN_G "3"
  PIN_S "4"
  PIN_B "17"
  PIN_E ""
  PIN_6 ""
  XY_ID ""
  FUNC "LW Scale"
  STI "SA ref"
  WPE "WPE ref"
  COMMENT ""
  DIS_MEAS ""
  TypeTCI "10"
END_HEADER

BEGIN_DB
 ICCAP_VAR vg         -0.218         
 ICCAP_VAR vb         -0             
 ICCAP_VAR vs         -0             

 #vd                    id                    ig                    ib                    is                   
  -0                    1.96e-12              0                     -1.12e-12             -3.86e-12            
  -0.05                 -1.2168e-09           1.2e-13               -1.18e-12             1.2188e-09           
  -0.1                  -1.474e-09            0                     -1.42e-12             1.4736e-09           
  -0.15                 -1.5804e-09           8e-14                 -1.16e-12             1.581e-09            
  -0.2                  -1.6628e-09           6e-14                 -1.18e-12             1.6616e-09           
  -0.25                 -1.7404e-09           2e-14                 -1.14e-12             1.7422e-09           
  -0.3                  -1.8208e-09           6e-14                 -1.14e-12             1.8216e-09           
  -0.35                 -1.901e-09            6e-14                 -1.02e-12             1.9004e-09           
  -0.4                  -1.984e-09            6e-14                 -1.16e-12             1.9842e-09           
  -0.45                 -2.0662e-09           6e-14                 -1.18e-12             2.0684e-09           
  -0.5                  -2.1558e-09           2.2e-13               -1.1e-12              2.154e-09            
  -0.55                 -2.2422e-09           4e-14                 -1.18e-12             2.2418e-09           
  -0.6                  -2.3328e-09           1.4e-13               -1.06e-12             2.333e-09            
  -0.65                 -2.4244e-09           8e-14                 -1.08e-12             2.4244e-09           
  -0.7                  -2.5212e-09           8e-14                 -1.08e-12             2.5248e-09           
  -0.75                 -2.6194e-09           3e-13                 -1.16e-12             2.6202e-09           
  -0.8                  -2.7208e-09           2e-13                 -1.02e-12             2.7206e-09           
  -0.85                 -2.8242e-09           2.6e-13               -1.26e-12             2.824e-09            
  -0.9                  -2.9334e-09           3e-13                 -1.14e-12             2.9338e-09           
  -0.95                 -3.0402e-09           4.4e-13               -1e-12                3.0454e-09           
  -1                    -3.1568e-09           4.4e-13               -1.08e-12             3.1542e-09           
  -1.05                 -3.2722e-09           4.6e-13               -1.1e-12              3.2758e-09           
  -1.1                  -3.3936e-09           5.8e-13               -1.06e-12             3.3906e-09           
  -1.15                 -3.5184e-09           6.6e-13               -1.1e-12              3.5186e-09           
  -1.2                  -3.6472e-09           8.4e-13               -1.02e-12             3.6496e-09           
  -1.25                 -3.7876e-09           1.02e-12              -9.8e-13              3.7892e-09           
  -1.3                  -3.9224e-09           1.06e-12              -9.6e-13              3.919e-09            
  -1.35                 -4.0646e-09           1.22e-12              -9e-13                4.0618e-09           
END_DB

BEGIN_DB
 ICCAP_VAR vg         -0.418         
 ICCAP_VAR vb         -0             
 ICCAP_VAR vs         -0             

 #vd                    id                    ig                    ib                    is                   
  -0                    5.8098e-10            -2.8e-13              -1.16e-12             -5.8352e-10          
  -0.05                 -2.5414e-07           -2.8e-13              -1.14e-12             2.5396e-07           
  -0.1                  -3.3616e-07           -2.8e-13              -9.8e-13              3.3666e-07           
  -0.15                 -3.7042e-07           -2.8e-13              -9.8e-13              3.7052e-07           
  -0.2                  -3.9254e-07           -2.2e-13              -9.4e-13              3.9312e-07           
  -0.25                 -4.1174e-07           -1.8e-13              -1.02e-12             4.1216e-07           
  -0.3                  -4.2948e-07           -2e-13                -1.12e-12             4.2964e-07           
  -0.35                 -4.4598e-07           -1.8e-13              -1.04e-12             4.468e-07            
  -0.4                  -4.6274e-07           -1.4e-13              -9.6e-13              4.6256e-07           
  -0.45                 -4.7964e-07           -1.2e-13              -1e-12                4.7918e-07           
  -0.5                  -4.9558e-07           -2e-13                -1e-12                4.963e-07            
  -0.55                 -5.1292e-07           -1e-13                -9.8e-13              5.1272e-07           
  -0.6                  -5.29e-07             -2.8e-13              -1.02e-12             5.2968e-07           
  -0.65                 -5.467e-07            -2.4e-13              -9.6e-13              5.4684e-07           
  -0.7                  -5.6314e-07           -2e-13                -9.4e-13              5.6282e-07           
  -0.75                 -5.7998e-07           -2e-13                -9.8e-13              5.8024e-07           
  -0.8                  -5.9766e-07           -8e-14                -8.8e-13              5.9752e-07           
  -0.85                 -6.1478e-07           -1.8e-13              -8.8e-13              6.1508e-07           
  -0.9                  -6.3302e-07           -8e-14                -9.8e-13              6.3392e-07           
  -0.95                 -6.5098e-07           4e-14                 -7.6e-13              6.511e-07            
  -1                    -6.694e-07            8e-14                 -8e-13                6.7016e-07           
  -1.05                 -6.89e-07             1e-13                 -8.4e-13              6.874e-07            
  -1.1                  -7.0718e-07           2e-13                 -9.2e-13              7.0662e-07           
  -1.15                 -7.2576e-07           2.8e-13               -8.8e-13              7.269e-07            
  -1.2                  -7.4462e-07           3e-13                 -6.8e-13              7.4148e-07           
  -1.25                 -7.611e-07            4.2e-13               -4.2e-13              7.6118e-07           
  -1.3                  -7.8552e-07           2.6e-13               -6e-14                7.858e-07            
  -1.35                 -8.0524e-07           4.8e-13               6.4e-13               8.0586e-07           
END_DB

BEGIN_DB
 ICCAP_VAR vg         -0.618         
 ICCAP_VAR vb         -0             
 ICCAP_VAR vs         -0             

 #vd                    id                    ig                    ib                    is                   
  -0                    3.1738e-09            -1.14e-12             -1.08e-12             -3.3874e-09          
  -0.05                 -3.3546e-06           -9.8e-13              -8.8e-13              3.3562e-06           
  -0.1                  -5.485e-06            -9.4e-13              -1e-12                5.4904e-06           
  -0.15                 -6.7656e-06           -8.8e-13              -9.6e-13              6.7738e-06           
  -0.2                  -7.541e-06            -7.2e-13              -8.6e-13              7.553e-06            
  -0.25                 -8.0702e-06           -6.8e-13              -9e-13                8.0832e-06           
  -0.3                  -8.457e-06            -7.8e-13              -1e-12                8.4602e-06           
  -0.35                 -8.7574e-06           -6.4e-13              -7.6e-13              8.7618e-06           
  -0.4                  -9.0264e-06           -7.6e-13              -8.6e-13              9.0242e-06           
  -0.45                 -9.2618e-06           -7.6e-13              -9e-13                9.2684e-06           
  -0.5                  -9.488e-06            -6.2e-13              -8.4e-13              9.4948e-06           
  -0.55                 -9.7954e-06           -5.8e-13              -8.6e-13              9.7074e-06           
  -0.6                  -9.9096e-06           -6e-13                -8.4e-13              9.9136e-06           
  -0.65                 -1.0111e-05           -6.2e-13              -9.4e-13              1.01206e-05          
  -0.7                  -1.03068e-05          -5e-13                -7.6e-13              1.02938e-05          
  -0.75                 -1.04666e-05          -6.8e-13              -9.2e-13              1.04724e-05          
  -0.8                  -1.0647e-05           -6.2e-13              -9.2e-13              1.06572e-05          
  -0.85                 -1.08482e-05          -5.6e-13              -8.2e-13              1.08438e-05          
  -0.9                  -1.10268e-05          -4.6e-13              -8.2e-13              1.103e-05            
  -0.95                 -1.1232e-05           -6.4e-13              -8e-13                1.12516e-05          
  -1                    -1.1426e-05           -6e-13                -8.2e-13              1.14362e-05          
  -1.05                 -1.1614e-05           -4.6e-13              -9.4e-13              1.1584e-05           
  -1.1                  -1.1738e-05           -4.6e-13              -9e-13                1.1758e-05           
  -1.15                 -1.1968e-05           -4.6e-13              -6e-13                1.1984e-05           
  -1.2                  -1.2144e-05           -6e-13                -3.6e-13              1.2166e-05           
  -1.25                 -1.233e-05            -4.6e-13              -2e-14                1.2348e-05           
  -1.3                  -1.2512e-05           -3.2e-13              1.38e-12              1.2528e-05           
  -1.35                 -1.2788e-05           -2.4e-13              3.76e-12              1.2804e-05           
END_DB

