! VERSION = 6.00
BEGIN_HEADER
 ICCAP_INPUTS
  vd         V  D GROUND SMU1 0.1 LIN        1    -0         -1.35      28   -0.05     
  vg         V  G GROUND SMU2 0.001 LIN        2    -0.454     -1.35      5    -0.224    
  vb         V  B GROUND SMU4 0.1 CON        -0
  vs         V  S GROUND SMU3 0.1 CON        -0
 ICCAP_OUTPUTS
  id         I  D GROUND SMU1 B
  ig         I  G GROUND SMU2 B
  ib         I  B GROUND SMU4 B
  is         I  S GROUND SMU3 B
 ICCAP_VALUES
  MASTER_SETUP_TYPE "~dc_idvd~"
  LINVT_VALUE "|idvg|100.0n|100.0m|1.000m|5|1.350|"
  LISTVT_VALUE ""
  TYPE "-1"
  TEMP " 27.0000 "
  IS_TNOM " 1.00000 "
  MAIN.W "10.00u"
  MAIN.L "1.200u"
  MAIN.AD "3.400p"
  MAIN.AS "3.400p"
  MAIN.PD "20.68u"
  MAIN.PS "20.68u"
  MAIN.NF "1.000"
  MAIN.M "1"
  MAIN.NRD "0.000"
  MAIN.NRS "0.000"
  MAIN.LDRIFT1 "1E-06"
  MAIN.LDRIFT2 "1E-06"
  MAIN.SA "0.000"
  MAIN.SB "0.000"
  MAIN.SD "0.000"
  MAIN.SCA "0.000"
  MAIN.SCB "0.000"
  MAIN.SCC "0.000"
  MAIN.SC "0.000"
  MODULE "S549"
  PIN_D "18"
  PIN_G "3"
  PIN_S "4"
  PIN_B "17"
  PIN_E ""
  PIN_6 ""
  XY_ID ""
  FUNC "L Scale"
  STI "SA ref"
  WPE "WPE ref"
  COMMENT ""
  DIS_MEAS ""
  TypeTCI "10"
END_HEADER

BEGIN_DB
 ICCAP_VAR vg         -0.454         
 ICCAP_VAR vb         -0             
 ICCAP_VAR vs         -0             

 #vd                    id                    ig                    ib                    is                   
  -0                    2.9328e-09            -1.592e-11            -3.12e-12             -3.6688e-09          
  -0.05                 -2.896e-06            -1.244e-11            -3.08e-12             2.8996e-06           
  -0.1                  -4.2134e-06           -1.072e-11            -2.92e-12             4.2172e-06           
  -0.15                 -4.6776e-06           -9.9e-12              -2.86e-12             4.6808e-06           
  -0.2                  -4.8466e-06           -9.8e-12              -2.94e-12             4.8512e-06           
  -0.25                 -4.9392e-06           -9.46e-12             -2.92e-12             4.9434e-06           
  -0.3                  -5.0072e-06           -9.28e-12             -2.82e-12             5.0108e-06           
  -0.35                 -5.0642e-06           -9.04e-12             -2.8e-12              5.068e-06            
  -0.4                  -5.1152e-06           -9.04e-12             -2.64e-12             5.119e-06            
  -0.45                 -5.1608e-06           -8.96e-12             -2.7e-12              5.1644e-06           
  -0.5                  -5.2012e-06           -8.96e-12             -2.66e-12             5.2048e-06           
  -0.55                 -5.239e-06            -8.9e-12              -2.74e-12             5.2432e-06           
  -0.6                  -5.2744e-06           -8.74e-12             -2.72e-12             5.278e-06            
  -0.65                 -5.3074e-06           -8.7e-12              -2.6e-12              5.3122e-06           
  -0.7                  -5.3396e-06           -8.56e-12             -2.64e-12             5.3424e-06           
  -0.75                 -5.3682e-06           -8.4e-12              -2.44e-12             5.3722e-06           
  -0.8                  -5.3964e-06           -8.26e-12             -2.42e-12             5.4002e-06           
  -0.85                 -5.4218e-06           -7.98e-12             -2.54e-12             5.425e-06            
  -0.9                  -5.4448e-06           -7.68e-12             -2.62e-12             5.4482e-06           
  -0.95                 -5.4674e-06           -7.34e-12             -2.52e-12             5.4718e-06           
  -1                    -5.4892e-06           -7.02e-12             -2.44e-12             5.4928e-06           
  -1.05                 -5.5092e-06           -6.6e-12              -2.4e-12              5.513e-06            
  -1.1                  -5.5296e-06           -6.04e-12             -2.26e-12             5.5324e-06           
  -1.15                 -5.5482e-06           -5.44e-12             -2.06e-12             5.552e-06            
  -1.2                  -5.565e-06            -4.78e-12             -1.8e-12              5.5686e-06           
  -1.25                 -5.582e-06            -4.18e-12             -1.02e-12             5.5852e-06           
  -1.3                  -5.5976e-06           -3.58e-12             5.4e-13               5.6014e-06           
  -1.35                 -5.6134e-06           -2.74e-12             3.26e-12              5.617e-06            
END_DB

BEGIN_DB
 ICCAP_VAR vg         -0.678         
 ICCAP_VAR vb         -0             
 ICCAP_VAR vs         -0             

 #vd                    id                    ig                    ib                    is                   
  -0                    1.6624e-08            -1.0078e-10           -2.36e-12             -1.6604e-08          
  -0.05                 -1.105e-05            -8.57e-11             -2.18e-12             1.1066e-05           
  -0.1                  -1.981e-05            -7.44e-11             -2.14e-12             1.9824e-05           
  -0.15                 -2.624e-05            -6.62e-11             -2.22e-12             2.6256e-05           
  -0.2                  -3.0448e-05           -6.062e-11            -2.16e-12             3.0464e-05           
  -0.25                 -3.2812e-05           -5.732e-11            -2.16e-12             3.2834e-05           
  -0.3                  -3.4006e-05           -5.578e-11            -2.14e-12             3.4022e-05           
  -0.35                 -3.4632e-05           -5.492e-11            -2.02e-12             3.465e-05            
  -0.4                  -3.5038e-05           -5.428e-11            -2.02e-12             3.506e-05            
  -0.45                 -3.5344e-05           -5.384e-11            -2.16e-12             3.5364e-05           
  -0.5                  -3.5598e-05           -5.338e-11            -2.14e-12             3.562e-05            
  -0.55                 -3.5824e-05           -5.31e-11             -2.02e-12             3.584e-05            
  -0.6                  -3.6028e-05           -5.274e-11            -2.12e-12             3.605e-05            
  -0.65                 -3.6216e-05           -5.266e-11            -1.94e-12             3.6236e-05           
  -0.7                  -3.6386e-05           -5.244e-11            -1.94e-12             3.6412e-05           
  -0.75                 -3.6554e-05           -5.22e-11             -1.96e-12             3.6574e-05           
  -0.8                  -3.6704e-05           -5.19e-11             -2.04e-12             3.672e-05            
  -0.85                 -3.6846e-05           -5.168e-11            -1.9e-12              3.6866e-05           
  -0.9                  -3.6984e-05           -5.14e-11             -1.94e-12             3.6998e-05           
  -0.95                 -3.7114e-05           -5.118e-11            -1.88e-12             3.713e-05            
  -1                    -3.7238e-05           -5.096e-11            -1.88e-12             3.7256e-05           
  -1.05                 -3.7352e-05           -5.06e-11             -1.9e-12              3.737e-05            
  -1.1                  -3.7468e-05           -5.038e-11            -1.92e-12             3.7488e-05           
  -1.15                 -3.758e-05            -4.992e-11            -1.86e-12             3.7598e-05           
  -1.2                  -3.768e-05            -4.942e-11            -1.7e-12              3.7696e-05           
  -1.25                 -3.7778e-05           -4.904e-11            -1.36e-12             3.7794e-05           
  -1.3                  -3.787e-05            -4.848e-11            -8.2e-13              3.789e-05            
  -1.35                 -3.7964e-05           -4.78e-11             4.8e-13               3.798e-05            
END_DB

BEGIN_DB
 ICCAP_VAR vg         -0.902         
 ICCAP_VAR vb         -0             
 ICCAP_VAR vs         -0             

 #vd                    id                    ig                    ib                    is                   
  -0                    2.7606e-08            -3.5634e-10           -1.84e-12             -2.6452e-08          
  -0.05                 -1.8632e-05           -3.1576e-10           -1.74e-12             1.865e-05            
  -0.1                  -3.5278e-05           -2.8174e-10           -1.86e-12             3.529e-05            
  -0.15                 -4.9822e-05           -2.5346e-10           -1.74e-12             4.9848e-05           
  -0.2                  -6.2222e-05           -2.2992e-10           -1.68e-12             6.2238e-05           
  -0.25                 -7.2396e-05           -2.1188e-10           -1.74e-12             7.2424e-05           
  -0.3                  -8.0322e-05           -1.981e-10            -1.78e-12             8.0342e-05           
  -0.35                 -8.603e-05            -1.8798e-10           -1.7e-12              8.6056e-05           
  -0.4                  -8.9796e-05           -1.8154e-10           -1.58e-12             8.9816e-05           
  -0.45                 -9.2076e-05           -1.7758e-10           -1.64e-12             9.2094e-05           
  -0.5                  -9.3458e-05           -1.7506e-10           -1.7e-12              9.3478e-05           
  -0.55                 -9.4362e-05           -1.7332e-10           -1.62e-12             9.4392e-05           
  -0.6                  -9.504e-05            -1.7246e-10           -1.74e-12             9.5056e-05           
  -0.65                 -9.5584e-05           -1.7148e-10           -1.64e-12             9.5602e-05           
  -0.7                  -9.606e-05            -1.7058e-10           -1.72e-12             9.6074e-05           
  -0.75                 -9.647e-05            -1.6988e-10           -1.72e-12             9.6498e-05           
  -0.8                  -9.6856e-05           -1.6912e-10           -1.5e-12              9.6882e-05           
  -0.85                 -9.7218e-05           -1.686e-10            -1.6e-12              9.7242e-05           
  -0.9                  -9.7552e-05           -1.6816e-10           -1.58e-12             9.7568e-05           
  -0.95                 -9.7852e-05           -1.678e-10            -1.56e-12             9.7872e-05           
  -1                    -9.8158e-05           -1.6724e-10           -1.56e-12             9.8174e-05           
  -1.05                 -9.8432e-05           -1.6664e-10           -1.58e-12             9.8452e-05           
  -1.1                  -9.8702e-05           -1.6612e-10           -1.54e-12             9.8714e-05           
  -1.15                 -9.8956e-05           -1.658e-10            -1.44e-12             9.8972e-05           
  -1.2                  -9.92e-05             -1.653e-10            -1.48e-12             9.9218e-05           
  -1.25                 -9.943e-05            -1.6486e-10           -1.46e-12             9.945e-05            
  -1.3                  -9.9658e-05           -1.644e-10            -1.34e-12             9.9676e-05           
  -1.35                 -9.986e-05            -1.6378e-10           -1.38e-12             9.9906e-05           
END_DB

BEGIN_DB
 ICCAP_VAR vg         -1.126         
 ICCAP_VAR vb         -0             
 ICCAP_VAR vs         -0             

 #vd                    id                    ig                    ib                    is                   
  -0                    3.6214e-08            -9.3306e-10           -1.14e-12             -3.3058e-08          
  -0.05                 -2.4768e-05           -8.4828e-10           -1.28e-12             2.4784e-05           
  -0.1                  -4.788e-05            -7.7342e-10           -1.36e-12             4.79e-05             
  -0.15                 -6.9238e-05           -7.0694e-10           -1.4e-12              6.9262e-05           
  -0.2                  -8.8772e-05           -6.5026e-10           -1.28e-12             8.8794e-05           
  -0.25                 -0.000106424          -6.0024e-10           -1.26e-12             0.000106452          
  -0.3                  -0.00012196           -5.5808e-10           -1.4e-12              0.00012232           
  -0.35                 -0.0001356            -5.2288e-10           -1.36e-12             0.00013598           
  -0.4                  -0.0001472            -4.9382e-10           -1.28e-12             0.00014754           
  -0.45                 -0.00015664           -4.7046e-10           -1.26e-12             0.000157             
  -0.5                  -0.00016398           -4.5348e-10           -1.36e-12             0.00016434           
  -0.55                 -0.00016934           -4.4036e-10           -1.4e-12              0.00016972           
  -0.6                  -0.00017302           -4.3156e-10           -1.34e-12             0.00017336           
  -0.65                 -0.00017546           -4.2602e-10           -1.34e-12             0.0001758            
  -0.7                  -0.00017712           -4.2214e-10           -1.38e-12             0.00017748           
  -0.75                 -0.00017832           -4.1988e-10           -1.36e-12             0.00017868           
  -0.8                  -0.00017924           -4.172e-10            -1.38e-12             0.0001796            
  -0.85                 -0.00018004           -4.1546e-10           -1.3e-12              0.00018038           
  -0.9                  -0.00018072           -4.1408e-10           -1.32e-12             0.00018108           
  -0.95                 -0.00018134           -4.128e-10            -1.24e-12             0.0001817            
  -1                    -0.00018188           -4.1168e-10           -1.24e-12             0.00018226           
  -1.05                 -0.00018242           -4.107e-10            -1.42e-12             0.00018278           
  -1.1                  -0.0001829            -4.0942e-10           -1.42e-12             0.00018328           
  -1.15                 -0.00018338           -4.088e-10            -1.24e-12             0.00018374           
  -1.2                  -0.00018384           -4.0768e-10           -1.22e-12             0.00018418           
  -1.25                 -0.00018424           -4.07e-10             -1.18e-12             0.0001846            
  -1.3                  -0.00018466           -4.0612e-10           -1.1e-12              0.000185             
  -1.35                 -0.00018502           -4.0528e-10           -1.24e-12             0.00018538           
END_DB

BEGIN_DB
 ICCAP_VAR vg         -1.35          
 ICCAP_VAR vb         -0             
 ICCAP_VAR vs         -0             

 #vd                    id                    ig                    ib                    is                   
  -0                    4.4908e-08            -2.0336e-09           1.302e-11             -4.2068e-08          
  -0.05                 -2.96e-05             -1.8782e-09           8.92e-12              2.9618e-05           
  -0.1                  -5.7838e-05           -1.7352e-09           6.32e-12              5.7856e-05           
  -0.15                 -8.4614e-05           -1.6106e-09           4.68e-12              8.4638e-05           
  -0.2                  -0.000109872          -1.4964e-09           3.56e-12              0.000109894          
  -0.25                 -0.00013342           -1.3928e-09           2.66e-12              0.00013376           
  -0.3                  -0.00015546           -1.3036e-09           2.2e-12               0.00015582           
  -0.35                 -0.0001758            -1.2244e-09           1.98e-12              0.00017616           
  -0.4                  -0.00019442           -1.1528e-09           1.72e-12              0.00019478           
  -0.45                 -0.00021118           -1.092e-09            1.4e-12               0.00021158           
  -0.5                  -0.0002261            -1.0394e-09           1.38e-12              0.00022648           
  -0.55                 -0.00023904           -9.9666e-10           1.18e-12              0.0002394            
  -0.6                  -0.00025              -9.6086e-10           1.14e-12              0.00025036           
  -0.65                 -0.00025894           -9.3222e-10           1.12e-12              0.00025932           
  -0.7                  -0.00026596           -9.0944e-10           9.6e-13               0.00026634           
  -0.75                 -0.00027118           -8.9392e-10           9.8e-13               0.00027154           
  -0.8                  -0.00027492           -8.8146e-10           9.4e-13               0.00027528           
  -0.85                 -0.00027758           -8.7342e-10           1.02e-12              0.00027796           
  -0.9                  -0.00027954           -8.6724e-10           9e-13                 0.00027988           
  -0.95                 -0.000281             -8.6266e-10           9.8e-13               0.00028138           
  -1                    -0.00028222           -8.5896e-10           9.6e-13               0.00028258           
  -1.05                 -0.00028324           -8.5548e-10           9.2e-13               0.0002836            
  -1.1                  -0.00028414           -8.5304e-10           8.2e-13               0.0002845            
  -1.15                 -0.00028494           -8.4982e-10           8.8e-13               0.0002853            
  -1.2                  -0.00028568           -8.4842e-10           9.8e-13               0.00028606           
  -1.25                 -0.00028636           -8.4446e-10           1.04e-12              0.00028674           
  -1.3                  -0.000287             -8.4328e-10           1e-12                 0.0002874            
  -1.35                 -0.00028764           -8.4146e-10           9.4e-13               0.00028796           
END_DB

