! VERSION = 6.00
BEGIN_HEADER
 ICCAP_INPUTS
  vd         V  D GROUND SMU1 0.1 LIN        1    -0         -1.35      28   -0.05     
  vg         V  G GROUND SMU2 0.001 LIN        2    -0.55      -1.35      5    -0.2      
  vb         V  B GROUND SMU4 0.1 CON        -0
  vs         V  S GROUND SMU3 0.1 CON        -0
 ICCAP_OUTPUTS
  id         I  D GROUND SMU1 B
  ig         I  G GROUND SMU2 B
  ib         I  B GROUND SMU4 B
  is         I  S GROUND SMU3 B
 ICCAP_VALUES
  MASTER_SETUP_TYPE "~dc_idvd~"
  LINVT_VALUE "|idvg|100.0n|100.0m|1.000m|5|1.350|"
  LISTVT_VALUE ""
  TYPE "-1"
  TEMP "-40.0000 "
  IS_TNOM " 0.00000 "
  MAIN.W "150.0n"
  MAIN.L "130.0n"
  MAIN.AD "100.5f"
  MAIN.AS "100.5f"
  MAIN.PD "1.340u"
  MAIN.PS "1.340u"
  MAIN.NF "1.000"
  MAIN.M "1"
  MAIN.NRD "0.000"
  MAIN.NRS "0.000"
  MAIN.LDRIFT1 "1E-06"
  MAIN.LDRIFT2 "1E-06"
  MAIN.SA "0.000"
  MAIN.SB "0.000"
  MAIN.SD "0.000"
  MAIN.SCA "0.000"
  MAIN.SCB "0.000"
  MAIN.SCC "0.000"
  MAIN.SC "0.000"
  MODULE "S554"
  PIN_D "16"
  PIN_G "5"
  PIN_S "6"
  PIN_B "15"
  PIN_E ""
  PIN_6 ""
  XY_ID ""
  FUNC "Small"
  STI "SA ref"
  WPE "WPE ref"
  COMMENT ""
  DIS_MEAS ""
  TypeTCI "10"
END_HEADER

BEGIN_DB
 ICCAP_VAR vg         -0.55          
 ICCAP_VAR vb         -0             
 ICCAP_VAR vs         -0             

 #vd                    id                    ig                    ib                    is                   
  -0                    6.498e-10             -3.6e-13              -3.8e-13              -8.2804e-10          
  -0.05                 -5.2486e-07           -6.4e-13              -1.6e-13              5.258e-07            
  -0.1                  -7.5912e-07           -2.2e-13              -2.6e-13              7.5946e-07           
  -0.15                 -8.7434e-07           -3.2e-13              -3.8e-13              8.7664e-07           
  -0.2                  -9.46e-07             -5.8e-13              -2.8e-13              9.442e-07            
  -0.25                 -9.9858e-07           4e-13                 -1.6e-13              9.9844e-07           
  -0.3                  -1.04386e-06          0                     -2.4e-13              1.04372e-06          
  -0.35                 -1.08864e-06          -1.6e-13              -3.2e-13              1.08918e-06          
  -0.4                  -1.13452e-06          -1.2e-13              -2.6e-13              1.13678e-06          
  -0.45                 -1.1734e-06           2e-14                 -2.6e-13              1.1822e-06           
  -0.5                  -1.2108e-06           2.6e-13               -1.8e-13              1.2218e-06           
  -0.55                 -1.2504e-06           -4.2e-13              -2e-13                1.254e-06            
  -0.6                  -1.2926e-06           -2.4e-13              -1.8e-13              1.301e-06            
  -0.65                 -1.3356e-06           -2e-13                -1.2e-13              1.3352e-06           
  -0.7                  -1.3718e-06           1.8e-13               -1.4e-13              1.3792e-06           
  -0.75                 -1.4116e-06           3.6e-13               -1.6e-13              1.4178e-06           
  -0.8                  -1.452e-06            -2.6e-13              -1.8e-13              1.4586e-06           
  -0.85                 -1.4962e-06           2e-13                 -2e-13                1.4974e-06           
  -0.9                  -1.5368e-06           -1e-13                -1.8e-13              1.539e-06            
  -0.95                 -1.576e-06            1.4e-13               -1.2e-13              1.582e-06            
  -1                    -1.6242e-06           -1.2e-13              -2e-13                1.6254e-06           
  -1.05                 -1.6636e-06           0                     -2.4e-13              1.6644e-06           
  -1.1                  -1.7092e-06           1.6e-13               -1.8e-13              1.7092e-06           
  -1.15                 -1.748e-06            -2e-14                -1.8e-13              1.7528e-06           
  -1.2                  -1.7936e-06           4e-14                 -2.4e-13              1.797e-06            
  -1.25                 -1.8414e-06           -2.8e-13              0                     1.845e-06            
  -1.3                  -1.8852e-06           2e-13                 1.4e-13               1.8878e-06           
  -1.35                 -1.9314e-06           1.8e-13               3.4e-13               1.9362e-06           
END_DB

BEGIN_DB
 ICCAP_VAR vg         -0.75          
 ICCAP_VAR vb         -0             
 ICCAP_VAR vs         -0             

 #vd                    id                    ig                    ib                    is                   
  -0                    2.4426e-09            -6.2e-13              -2.8e-13              -2.3992e-09          
  -0.05                 -2.679e-06            -5.2e-13              -4e-13                2.6814e-06           
  -0.1                  -4.6704e-06           -2.8e-13              -3e-13                4.6724e-06           
  -0.15                 -6.0568e-06           -6e-13                -2e-14                6.0702e-06           
  -0.2                  -7.014e-06            -3.6e-13              2e-14                 7.006e-06            
  -0.25                 -7.6696e-06           -2e-13                -2.6e-13              7.6698e-06           
  -0.3                  -8.1498e-06           -6e-14                -4.8e-13              8.1364e-06           
  -0.35                 -8.517e-06            -8e-14                -3.4e-13              8.5102e-06           
  -0.4                  -8.8236e-06           -3e-13                -2e-13                8.8194e-06           
  -0.45                 -9.0918e-06           -2.6e-13              -4e-14                9.1008e-06           
  -0.5                  -9.3354e-06           -4.4e-13              -6e-14                9.3432e-06           
  -0.55                 -9.5644e-06           -2.2e-13              -4e-14                9.5698e-06           
  -0.6                  -9.7888e-06           -3.6e-13              -2.2e-13              9.794e-06            
  -0.65                 -9.9902e-06           -5.8e-13              -1e-13                9.9956e-06           
  -0.7                  -1.01894e-05          1.8e-13               -1e-13                1.01862e-05          
  -0.75                 -1.03918e-05          -1e-13                -1e-13                1.03938e-05          
  -0.8                  -1.05854e-05          4e-14                 -8e-14                1.0578e-05           
  -0.85                 -1.07674e-05          -3.6e-13              -1.2e-13              1.07582e-05          
  -0.9                  -1.09454e-05          -3.6e-13              -1.6e-13              1.09488e-05          
  -0.95                 -1.1124e-05           -1.6e-13              -6e-14                1.11282e-05          
  -1                    -1.1298e-05           -1.8e-13              -8e-14                1.1301e-05           
  -1.05                 -1.1466e-05           -2.2e-13              -2e-13                1.14742e-05          
  -1.1                  -1.1624e-05           -1.4e-13              -2.2e-13              1.1648e-05           
  -1.15                 -1.1804e-05           -3.8e-13              -2e-14                1.1822e-05           
  -1.2                  -1.1966e-05           2e-13                 4e-14                 1.1994e-05           
  -1.25                 -1.214e-05            -3e-13                6e-14                 1.216e-05            
  -1.3                  -1.231e-05            -3.2e-13              2.4e-13               1.2326e-05           
  -1.35                 -1.2482e-05           -1.6e-13              6.2e-13               1.2502e-05           
END_DB

BEGIN_DB
 ICCAP_VAR vg         -0.95          
 ICCAP_VAR vb         -0             
 ICCAP_VAR vs         -0             

 #vd                    id                    ig                    ib                    is                   
  -0                    2.9148e-09            -1.38e-12             -1e-13                -3.4584e-09          
  -0.05                 -4.8776e-06           -1.44e-12             -4e-14                4.8858e-06           
  -0.1                  -9.0894e-06           -1.04e-12             0                     9.0954e-06           
  -0.15                 -1.254e-05            -8.8e-13              -2e-14                1.2558e-05           
  -0.2                  -1.5302e-05           -8.2e-13              -2.8e-13              1.532e-05            
  -0.25                 -1.7456e-05           -7.8e-13              -1.4e-13              1.7474e-05           
  -0.3                  -1.9112e-05           -1e-12                -1e-13                1.913e-05            
  -0.35                 -2.0376e-05           -7.8e-13              -1.4e-13              2.0394e-05           
  -0.4                  -2.1374e-05           -6.4e-13              -2.2e-13              2.1388e-05           
  -0.45                 -2.2102e-05           -4.6e-13              -3e-13                2.219e-05            
  -0.5                  -2.284e-05            -9.6e-13              -1.8e-13              2.2854e-05           
  -0.55                 -2.3416e-05           -6.8e-13              -1e-13                2.3432e-05           
  -0.6                  -2.3936e-05           -8e-13                -1.4e-13              2.3954e-05           
  -0.65                 -2.44e-05             -3.4e-13              -1.8e-13              2.4416e-05           
  -0.7                  -2.4834e-05           -6.2e-13              -6e-14                2.4852e-05           
  -0.75                 -2.5246e-05           -5.8e-13              -1.2e-13              2.5274e-05           
  -0.8                  -2.564e-05            -5.8e-13              -2e-13                2.566e-05            
  -0.85                 -2.6014e-05           -3.4e-13              -2.4e-13              2.6032e-05           
  -0.9                  -2.6376e-05           -5.4e-13              -2e-13                2.6396e-05           
  -0.95                 -2.6724e-05           -1.2e-13              -4e-14                2.674e-05            
  -1                    -2.706e-05            -8.2e-13              -6e-14                2.7086e-05           
  -1.05                 -2.7394e-05           -6e-13                -8e-14                2.7414e-05           
  -1.1                  -2.7712e-05           -6.2e-13              -1.6e-13              2.7742e-05           
  -1.15                 -2.803e-05            -4.4e-13              -1.4e-13              2.805e-05            
  -1.2                  -2.835e-05            -3e-13                1e-13                 2.8362e-05           
  -1.25                 -2.865e-05            -6.6e-13              1.8e-13               2.8672e-05           
  -1.3                  -2.8952e-05           -3.6e-13              1.6e-13               2.8972e-05           
  -1.35                 -2.9288e-05           -6.8e-13              3.6e-13               2.9294e-05           
END_DB

BEGIN_DB
 ICCAP_VAR vg         -1.15          
 ICCAP_VAR vb         -0             
 ICCAP_VAR vs         -0             

 #vd                    id                    ig                    ib                    is                   
  -0                    2.7254e-09            -2.84e-12             -1.8e-13              -4.269e-09           
  -0.05                 -6.6362e-06           -3.04e-12             0                     6.64e-06             
  -0.1                  -1.2634e-05           -2.32e-12             -1.6e-13              1.2652e-05           
  -0.15                 -1.7918e-05           -2.08e-12             -1e-13                1.7932e-05           
  -0.2                  -2.2458e-05           -1.82e-12             -4e-14                2.2476e-05           
  -0.25                 -2.6294e-05           -1.78e-12             2e-14                 2.6312e-05           
  -0.3                  -2.9486e-05           -1.44e-12             -8e-14                2.952e-05            
  -0.35                 -3.236e-05            -1.62e-12             -1.2e-13              3.2378e-05           
  -0.4                  -3.4528e-05           -1.38e-12             -6e-14                3.454e-05            
  -0.45                 -3.6052e-05           -1.5e-12              2e-14                 3.6054e-05           
  -0.5                  -3.7484e-05           -1.4e-12              -1e-13                3.7498e-05           
  -0.55                 -3.8684e-05           -1.08e-12             -8e-14                3.8694e-05           
  -0.6                  -3.9708e-05           -1.38e-12             -6e-14                3.9724e-05           
  -0.65                 -4.0596e-05           -1.36e-12             -4e-14                4.0616e-05           
  -0.7                  -4.1368e-05           -1.32e-12             -4e-14                4.1408e-05           
  -0.75                 -4.2094e-05           -1.26e-12             -1.2e-13              4.2104e-05           
  -0.8                  -4.2748e-05           -8.4e-13              -2.4e-13              4.2696e-05           
  -0.85                 -4.3276e-05           -1.64e-12             -2e-13                4.327e-05            
  -0.9                  -4.382e-05            -1.2e-12              -2.6e-13              4.3836e-05           
  -0.95                 -4.437e-05            -1.04e-12             -1.4e-13              4.4678e-05           
  -1                    -4.533e-05            -6.2e-13              -4e-14                4.5354e-05           
  -1.05                 -4.5834e-05           -9.8e-13              -8e-14                4.586e-05            
  -1.1                  -4.6106e-05           -1.22e-12             -6e-14                4.598e-05            
  -1.15                 -4.6434e-05           -1.38e-12             -1.8e-13              4.6434e-05           
  -1.2                  -4.6892e-05           -1.3e-12              -1.4e-13              4.6908e-05           
  -1.25                 -4.7722e-05           -1.18e-12             -2.2e-13              4.7736e-05           
  -1.3                  -4.8158e-05           -9.8e-13              -2e-14                4.818e-05            
  -1.35                 -4.8594e-05           -1.64e-12             2.4e-13               4.8596e-05           
END_DB

BEGIN_DB
 ICCAP_VAR vg         -1.35          
 ICCAP_VAR vb         -0             
 ICCAP_VAR vs         -0             

 #vd                    id                    ig                    ib                    is                   
  -0                    9.564e-09             -5.58e-12             -1.6e-13              -2.332e-09           
  -0.05                 -8.0674e-06           -4.64e-12             -1.6e-13              8.0698e-06           
  -0.1                  -1.5568e-05           -4.2e-12              2e-14                 1.5584e-05           
  -0.15                 -2.2392e-05           -3.58e-12             -1.4e-13              2.2408e-05           
  -0.2                  -2.8486e-05           -3.84e-12             -2.2e-13              2.85e-05             
  -0.25                 -3.3854e-05           -3.66e-12             -1e-13                3.3878e-05           
  -0.3                  -3.854e-05            -3.16e-12             -2e-13                3.8562e-05           
  -0.35                 -4.2446e-05           -3.94e-12             -1.8e-13              4.2432e-05           
  -0.4                  -4.5892e-05           -3.22e-12             -2e-14                4.5908e-05           
  -0.45                 -4.8848e-05           -2.76e-12             0                     4.885e-05            
  -0.5                  -5.1372e-05           -2.3e-12              -1.6e-13              5.13e-05             
  -0.55                 -5.353e-05            -2.8e-12              0                     5.3526e-05           
  -0.6                  -5.535e-05            -2.66e-12             4e-14                 5.559e-05            
  -0.65                 -5.7038e-05           -2.22e-12             -8e-14                5.7144e-05           
  -0.7                  -5.8432e-05           -2.22e-12             -4e-14                5.8326e-05           
  -0.75                 -5.9492e-05           -2.18e-12             2e-14                 5.9494e-05           
  -0.8                  -6.0562e-05           -2.62e-12             0                     6.0602e-05           
  -0.85                 -6.1502e-05           -2.5e-12              -6e-14                6.1714e-05           
  -0.9                  -6.2468e-05           -1.66e-12             -1e-13                6.2546e-05           
  -0.95                 -6.3466e-05           -2.24e-12             0                     6.3484e-05           
  -1                    -6.4246e-05           -2.26e-12             -4e-14                6.4108e-05           
  -1.05                 -6.4684e-05           -1.94e-12             6e-14                 6.4584e-05           
  -1.1                  -6.5518e-05           -1.92e-12             -1.2e-13              6.5538e-05           
  -1.15                 -6.607e-05            -1.82e-12             -1.2e-13              6.609e-05            
  -1.2                  -6.6704e-05           -2.12e-12             0                     6.6728e-05           
  -1.25                 -6.7264e-05           -2.22e-12             -6e-14                6.7274e-05           
  -1.3                  -6.785e-05            -2.1e-12              -2e-14                6.7874e-05           
  -1.35                 -6.8432e-05           -1.88e-12             2.4e-13               6.8452e-05           
END_DB

