! VERSION = 6.00
BEGIN_HEADER
 ICCAP_INPUTS
  vd         V  D GROUND SMU1 0.1 LIN        1    -0         -1.35      28   -0.05     
  vg         V  G GROUND SMU2 0.001 LIST       2 3 -0.143 -0.343 -0.543
  vb         V  B GROUND SMU4 0.1 CON        -0
  vs         V  S GROUND SMU3 0.1 CON        -0
 ICCAP_OUTPUTS
  id         I  D GROUND SMU1 B
  ig         I  G GROUND SMU2 B
  ib         I  B GROUND SMU4 B
  is         I  S GROUND SMU3 B
 ICCAP_VALUES
  MASTER_SETUP_TYPE "~dc_idvd~"
  LINVT_VALUE ""
  LISTVT_VALUE "|idvg|100.0n|-200.0m|1.000m|3|200.0m|200.0m|"
  TYPE "-1"
  TEMP " 27.0000 "
  IS_TNOM " 1.00000 "
  MAIN.W "2.000u"
  MAIN.L "2.000u"
  MAIN.AD "680.0f"
  MAIN.AS "680.0f"
  MAIN.PD "4.680u"
  MAIN.PS "4.680u"
  MAIN.NF "1.000"
  MAIN.M "1"
  MAIN.NRD "0.000"
  MAIN.NRS "0.000"
  MAIN.LDRIFT1 "1E-06"
  MAIN.LDRIFT2 "1E-06"
  MAIN.SA "0.000"
  MAIN.SB "0.000"
  MAIN.SD "0.000"
  MAIN.SCA "0.000"
  MAIN.SCB "0.000"
  MAIN.SCC "0.000"
  MAIN.SC "0.000"
  MODULE "S550"
  PIN_D "12"
  PIN_G "9"
  PIN_S "10"
  PIN_B "11"
  PIN_E ""
  PIN_6 ""
  XY_ID ""
  FUNC "LW Scale"
  STI "SA ref"
  WPE "WPE ref"
  COMMENT ""
  DIS_MEAS ""
  TypeTCI "10"
END_HEADER

BEGIN_DB
 ICCAP_VAR vg         -0.143         
 ICCAP_VAR vb         -0             
 ICCAP_VAR vs         -0             

 #vd                    id                    ig                    ib                    is                   
  -0                    9.4e-13               6e-14                 -1.08e-12             -1.06e-12            
  -0.05                 -2.6038e-10           1.2e-13               -1.16e-12             2.6076e-10           
  -0.1                  -3.0232e-10           2e-13                 -1.16e-12             3.0224e-10           
  -0.15                 -3.1146e-10           4e-14                 -1.2e-12              3.113e-10            
  -0.2                  -3.1536e-10           2.8e-13               -1.08e-12             3.1502e-10           
  -0.25                 -3.181e-10            1.8e-13               -1.12e-12             3.1774e-10           
  -0.3                  -3.2066e-10           1e-13                 -1.06e-12             3.2014e-10           
  -0.35                 -3.23e-10             2e-13                 -1.14e-12             3.2262e-10           
  -0.4                  -3.2488e-10           1.6e-13               -1.2e-12              3.2456e-10           
  -0.45                 -3.2686e-10           3e-13                 -9.2e-13              3.2622e-10           
  -0.5                  -3.284e-10            1.4e-13               -1.02e-12             3.2814e-10           
  -0.55                 -3.3022e-10           3.2e-13               -1e-12                3.296e-10            
  -0.6                  -3.3158e-10           1.4e-13               -9.6e-13              3.3106e-10           
  -0.65                 -3.331e-10            3e-13                 -1.06e-12             3.3268e-10           
  -0.7                  -3.3466e-10           3.4e-13               -1.06e-12             3.3388e-10           
  -0.75                 -3.356e-10            3.6e-13               -1.04e-12             3.351e-10            
  -0.8                  -3.3698e-10           5.6e-13               -1.1e-12              3.3598e-10           
  -0.85                 -3.3876e-10           6e-13                 -1.02e-12             3.3784e-10           
  -0.9                  -3.3966e-10           7.6e-13               -1e-12                3.3846e-10           
  -0.95                 -3.407e-10            7.8e-13               -1.04e-12             3.396e-10            
  -1                    -3.4202e-10           9.4e-13               -9.2e-13              3.407e-10            
  -1.05                 -3.4288e-10           1.18e-12              -9.2e-13              3.4132e-10           
  -1.1                  -3.4374e-10           1.22e-12              -9.2e-13              3.4216e-10           
  -1.15                 -3.4468e-10           1.42e-12              -9.4e-13              3.4286e-10           
  -1.2                  -3.4584e-10           1.68e-12              -9.2e-13              3.4332e-10           
  -1.25                 -3.4656e-10           1.86e-12              -7.2e-13              3.4422e-10           
  -1.3                  -3.4744e-10           2.08e-12              -7.4e-13              3.4448e-10           
  -1.35                 -3.486e-10            2.36e-12              -5.4e-13              3.4532e-10           
END_DB

BEGIN_DB
 ICCAP_VAR vg         -0.343         
 ICCAP_VAR vb         -0             
 ICCAP_VAR vs         -0             

 #vd                    id                    ig                    ib                    is                   
  -0                    2.4422e-10            -1.28e-12             -9e-13                -2.4196e-10          
  -0.05                 -7.8872e-08           -1e-12                -1.04e-12             7.8904e-08           
  -0.1                  -9.8756e-08           -7.6e-13              -1e-12                9.8772e-08           
  -0.15                 -1.03656e-07          -8.6e-13              -9.4e-13              1.03686e-07          
  -0.2                  -1.05646e-07          -8e-13                -1.02e-12             1.05732e-07          
  -0.25                 -1.07068e-07          -7e-13                -1.02e-12             1.07098e-07          
  -0.3                  -1.0816e-07           -8e-13                -9.4e-13              1.08258e-07          
  -0.35                 -1.0922e-07           -7.6e-13              -9e-13                1.0929e-07           
  -0.4                  -1.1014e-07           -8.2e-13              -8.2e-13              1.10276e-07          
  -0.45                 -1.11e-07             -7.8e-13              -8.8e-13              1.11082e-07          
  -0.5                  -1.1178e-07           -7e-13                -9e-13                1.11848e-07          
  -0.55                 -1.1244e-07           -6.6e-13              -9.2e-13              1.12564e-07          
  -0.6                  -1.1312e-07           -6.2e-13              -9.4e-13              1.13256e-07          
  -0.65                 -1.1372e-07           -6.8e-13              -1.06e-12             1.13848e-07          
  -0.7                  -1.1428e-07           -6.4e-13              -8.6e-13              1.14386e-07          
  -0.75                 -1.148e-07            -5.4e-13              -8.2e-13              1.149e-07            
  -0.8                  -1.1526e-07           -5.8e-13              -9.8e-13              1.1536e-07           
  -0.85                 -1.1566e-07           -5e-13                -9.2e-13              1.1586e-07           
  -0.9                  -1.1614e-07           -4.4e-13              -9.2e-13              1.163e-07            
  -0.95                 -1.165e-07            -3.8e-13              -7.8e-13              1.1672e-07           
  -1                    -1.1688e-07           -3.8e-13              -8e-13                1.1706e-07           
  -1.05                 -1.1722e-07           -3.4e-13              -8e-13                1.1742e-07           
  -1.1                  -1.1756e-07           -2e-13                -7.6e-13              1.1772e-07           
  -1.15                 -1.1788e-07           8e-14                 -8.8e-13              1.1806e-07           
  -1.2                  -1.1816e-07           1.6e-13               -8.6e-13              1.1834e-07           
  -1.25                 -1.1844e-07           2.4e-13               -7.8e-13              1.186e-07            
  -1.3                  -1.187e-07            5.2e-13               -6.2e-13              1.1884e-07           
  -1.35                 -1.1888e-07           5.8e-13               -4e-13                1.1904e-07           
END_DB

BEGIN_DB
 ICCAP_VAR vg         -0.543         
 ICCAP_VAR vb         -0             
 ICCAP_VAR vs         -0             

 #vd                    id                    ig                    ib                    is                   
  -0                    1.53e-09              -1.146e-11            -9.8e-13              -1.402e-09           
  -0.05                 -8.1774e-07           -9.36e-12             -9.8e-13              8.1794e-07           
  -0.1                  -1.3464e-06           -7.98e-12             -1.06e-12             1.3502e-06           
  -0.15                 -1.6266e-06           -7.26e-12             -1e-12                1.63e-06             
  -0.2                  -1.7432e-06           -7.06e-12             -8.2e-13              1.7468e-06           
  -0.25                 -1.79e-06             -6.92e-12             -8.6e-13              1.7938e-06           
  -0.3                  -1.8146e-06           -6.82e-12             -8.8e-13              1.8182e-06           
  -0.35                 -1.8322e-06           -6.76e-12             -8.4e-13              1.8362e-06           
  -0.4                  -1.8468e-06           -6.76e-12             -8e-13                1.8506e-06           
  -0.45                 -1.8598e-06           -6.64e-12             -9e-13                1.8634e-06           
  -0.5                  -1.8714e-06           -6.58e-12             -8.2e-13              1.8754e-06           
  -0.55                 -1.8824e-06           -6.5e-12              -7.6e-13              1.886e-06            
  -0.6                  -1.8926e-06           -6.52e-12             -8.8e-13              1.8962e-06           
  -0.65                 -1.9016e-06           -6.56e-12             -7.6e-13              1.9046e-06           
  -0.7                  -1.9094e-06           -6.5e-12              -7.4e-13              1.9132e-06           
  -0.75                 -1.9174e-06           -6.5e-12              -8e-13                1.921e-06            
  -0.8                  -1.9248e-06           -6.34e-12             -9e-13                1.9284e-06           
  -0.85                 -1.932e-06            -6.24e-12             -9e-13                1.9354e-06           
  -0.9                  -1.9388e-06           -6.28e-12             -8.4e-13              1.9422e-06           
  -0.95                 -1.945e-06            -6.22e-12             -7.4e-13              1.949e-06            
  -1                    -1.9512e-06           -6.18e-12             -8.4e-13              1.955e-06            
  -1.05                 -1.9568e-06           -6.16e-12             -7.8e-13              1.9602e-06           
  -1.1                  -1.9618e-06           -6.08e-12             -7.8e-13              1.9658e-06           
  -1.15                 -1.9672e-06           -5.88e-12             -7.4e-13              1.971e-06            
  -1.2                  -1.972e-06            -5.66e-12             -7.4e-13              1.9754e-06           
  -1.25                 -1.976e-06            -5.68e-12             -6.6e-13              1.9796e-06           
  -1.3                  -1.9802e-06           -5.6e-12              -3.4e-13              1.9838e-06           
  -1.35                 -1.9842e-06           -5.54e-12             -1.6e-13              1.9876e-06           
END_DB

