! VERSION = 6.00
BEGIN_HEADER
 ICCAP_INPUTS
  vg         V  G GROUND SMU2 0.001 LIN        1    0.5        -1.35      38   -0.05     
  vb         V  B GROUND SMU4 0.1 LIN        2    0          1.2        7    0.2       
  vd         V  D GROUND SMU1 0.1 LIST       3 3 -0.05 -0.6 -1.2
  vs         V  S GROUND SMU3 0.1 CON        -0
 ICCAP_OUTPUTS
  id         I  D GROUND SMU1 B
  ig         I  G GROUND SMU2 B
  ib         I  B GROUND SMU4 B
  is         I  S GROUND SMU3 B
 ICCAP_VALUES
  MASTER_SETUP_TYPE "~dc_idvg~"
  LINVT_VALUE ""
  LISTVT_VALUE ""
  TYPE "-1"
  TEMP " 27.0000 "
  IS_TNOM " 1.00000 "
  MAIN.W "2.000u"
  MAIN.L "10.00u"
  MAIN.AD "680.0f"
  MAIN.AS "680.0f"
  MAIN.PD "4.680u"
  MAIN.PS "4.680u"
  MAIN.NF "1.000"
  MAIN.M "1"
  MAIN.NRD "0.000"
  MAIN.NRS "0.000"
  MAIN.LDRIFT1 "1E-06"
  MAIN.LDRIFT2 "1E-06"
  MAIN.SA "0.000"
  MAIN.SB "0.000"
  MAIN.SD "0.000"
  MAIN.SCA "0.000"
  MAIN.SCB "0.000"
  MAIN.SCC "0.000"
  MAIN.SC "0.000"
  MODULE "S551"
  PIN_D "20"
  PIN_G "1"
  PIN_S "2"
  PIN_B "19"
  PIN_E ""
  PIN_6 ""
  XY_ID ""
  FUNC "W Scale"
  STI "SA ref"
  WPE "WPE ref"
  COMMENT ""
  DIS_MEAS ""
  TypeTCI "10"
END_HEADER

BEGIN_DB
 ICCAP_VAR vb         0              
 ICCAP_VAR vd         -0.05          
 ICCAP_VAR vs         -0             

 #vg                    id                    ig                    ib                    is                   
  0.5                   -2.2e-13              2.008e-11             -6.08e-12             -5e-13               
  0.45                  -2.2e-13              3.5e-12               -2.06e-12             -4e-13               
  0.4                   -1.6e-13              8.8e-13               -1.34e-12             -2.8e-13             
  0.35                  -1.8e-13              2.6e-13               -1.14e-12             -1.6e-13             
  0.3                   -1e-13                2e-14                 -1.28e-12             0                    
  0.25                  -1.4e-13              -8e-14                -1e-12                -4e-14               
  0.2                   -2e-14                -1.2e-13              -1.28e-12             0                    
  0.15                  -2e-14                -2.4e-13              -1.06e-12             0                    
  0.1                   -8e-14                -3.4e-13              -1.12e-12             1e-13                
  0.05                  -2e-13                -3.2e-13              -1.12e-12             2.8e-13              
  0                     -7.2e-13              -4.4e-13              -1.2e-12              9e-13                
  -0.05                 -3.44e-12             -4.2e-13              -1.12e-12             3.38e-12             
  -0.1                  -1.636e-11            -4e-13                -1.06e-12             1.632e-11            
  -0.15                 -8.066e-11            -5.8e-13              -1.1e-12              8.086e-11            
  -0.2                  -3.9522e-10           -6.2e-13              -1e-12                3.9518e-10           
  -0.25                 -1.848e-09            -8.6e-13              -1.12e-12             1.8494e-09           
  -0.3                  -7.422e-09            -2.02e-12             -9.8e-13              7.4222e-09           
  -0.35                 -2.2592e-08           -4.56e-12             -1.08e-12             2.2616e-08           
  -0.4                  -5.1022e-08           -9.8e-12              -1.04e-12             5.1054e-08           
  -0.45                 -9.066e-08            -1.826e-11            -9.8e-13              9.0698e-08           
  -0.5                  -1.3706e-07           -3.106e-11            -1.14e-12             1.3724e-07           
  -0.55                 -1.8654e-07           -4.97e-11             -1.04e-12             1.8676e-07           
  -0.6                  -2.3698e-07           -7.564e-11            -1.12e-12             2.3724e-07           
  -0.65                 -2.8706e-07           -1.1036e-10           -1.04e-12             2.873e-07            
  -0.7                  -3.36e-07             -1.5592e-10           -9.2e-13              3.3632e-07           
  -0.75                 -3.8336e-07           -2.1432e-10           -9.2e-13              3.8374e-07           
  -0.8                  -4.29e-07             -2.8796e-10           -1.06e-12             4.2946e-07           
  -0.85                 -4.7278e-07           -3.7916e-10           -9.2e-13              4.7332e-07           
  -0.9                  -5.1458e-07           -4.9088e-10           -9.6e-13              5.1524e-07           
  -0.95                 -5.5444e-07           -6.2538e-10           -1e-12                5.5526e-07           
  -1                    -5.9236e-07           -7.85e-10             -9.4e-13              5.9326e-07           
  -1.05                 -6.2826e-07           -9.7708e-10           -1e-12                6.2936e-07           
  -1.1                  -6.6234e-07           -1.1968e-09           -8.4e-13              6.6366e-07           
  -1.15                 -6.947e-07            -1.4524e-09           -5e-13                6.9632e-07           
  -1.2                  -7.253e-07            -1.7476e-09           3.4e-13               7.2726e-07           
  -1.25                 -7.5432e-07           -2.0844e-09           2.4e-12               7.5656e-07           
  -1.3                  -7.8162e-07           -2.4686e-09           6.56e-12              7.8426e-07           
  -1.35                 -8.074e-07            -2.9038e-09           1.482e-11             8.1046e-07           
END_DB

BEGIN_DB
 ICCAP_VAR vb         0.2            
 ICCAP_VAR vd         -0.05          
 ICCAP_VAR vs         -0             

 #vg                    id                    ig                    ib                    is                   
  0.5                   -1.8e-13              9.8e-13               6e-14                 -3.6e-13             
  0.45                  -4e-14                5.8e-13               0                     -3e-13               
  0.4                   -2e-14                3.6e-13               4e-14                 -2.4e-13             
  0.35                  -1.4e-13              1.4e-13               -1.2e-13              -1.2e-13             
  0.3                   -4e-14                0                     2e-14                 -1e-13               
  0.25                  0                     -1e-13                1e-13                 -8e-14               
  0.2                   4e-14                 -1.4e-13              -8e-14                -2e-14               
  0.15                  -6e-14                -2.2e-13              2e-14                 -4e-14               
  0.1                   -2e-14                -3.2e-13              -6e-14                8e-14                
  0.05                  -4e-14                -3e-13                -1.2e-13              1.4e-13              
  0                     -1.8e-13              -5.4e-13              -8e-14                1.8e-13              
  -0.05                 -1.06e-12             -4.4e-13              2e-14                 1.02e-12             
  -0.1                  -4.64e-12             -5.4e-13              -1.8e-13              4.82e-12             
  -0.15                 -2.38e-11             -5e-13                -4e-14                2.368e-11            
  -0.2                  -1.2024e-10           -5.2e-13              -2e-13                1.2044e-10           
  -0.25                 -6.023e-10            -7.6e-13              2e-14                 6.0262e-10           
  -0.3                  -2.7858e-09           -1.26e-12             -6e-14                2.7866e-09           
  -0.35                 -1.04938e-08          -3.32e-12             2e-14                 1.04932e-08          
  -0.4                  -2.9178e-08           -7.6e-12              -8e-14                2.9198e-08           
  -0.45                 -6.0546e-08           -1.544e-11            -4e-14                6.0574e-08           
  -0.5                  -1.01452e-07          -2.756e-11            -8e-14                1.01506e-07          
  -0.55                 -1.4744e-07           -4.544e-11            -1.6e-13              1.4764e-07           
  -0.6                  -1.9576e-07           -7.056e-11            0                     1.96e-07             
  -0.65                 -2.4448e-07           -1.0464e-10           6e-14                 2.4474e-07           
  -0.7                  -2.9258e-07           -1.4924e-10           -6e-14                2.9288e-07           
  -0.75                 -3.3942e-07           -2.0692e-10           0                     3.398e-07            
  -0.8                  -3.848e-07            -2.7984e-10           -8e-14                3.8522e-07           
  -0.85                 -4.2836e-07           -3.705e-10            -4e-14                4.289e-07            
  -0.9                  -4.7018e-07           -4.8312e-10           4e-14                 4.7084e-07           
  -0.95                 -5.1004e-07           -6.1602e-10           -2e-13                5.1082e-07           
  -1                    -5.481e-07            -7.7588e-10           -2e-14                5.4896e-07           
  -1.05                 -5.8416e-07           -9.635e-10            -6e-14                5.8522e-07           
  -1.1                  -6.1846e-07           -1.182e-09            2e-14                 6.1974e-07           
  -1.15                 -6.5102e-07           -1.4382e-09           3.6e-13               6.5264e-07           
  -1.2                  -6.8182e-07           -1.7304e-09           1.1e-12               6.8376e-07           
  -1.25                 -7.1106e-07           -2.0662e-09           3.12e-12              7.133e-07            
  -1.3                  -7.387e-07            -2.4486e-09           7.46e-12              7.4128e-07           
  -1.35                 -7.648e-07            -2.8854e-09           1.594e-11             7.6782e-07           
END_DB

BEGIN_DB
 ICCAP_VAR vb         0.4            
 ICCAP_VAR vd         -0.05          
 ICCAP_VAR vs         -0             

 #vg                    id                    ig                    ib                    is                   
  0.5                   -2e-13                9.4e-13               2e-14                 -3.2e-13             
  0.45                  -1.6e-13              6e-13                 1e-13                 -3.8e-13             
  0.4                   -6e-14                2.4e-13               -4e-14                -2.2e-13             
  0.35                  -4e-14                1.2e-13               0                     -1.2e-13             
  0.3                   -8e-14                4e-14                 0                     -2e-13               
  0.25                  0                     -1e-13                -1e-13                2e-14                
  0.2                   -4e-14                -1.8e-13              8e-14                 -8e-14               
  0.15                  8e-14                 -3.8e-13              0                     4e-14                
  0.1                   -8e-14                -2.8e-13              0                     1.4e-13              
  0.05                  -6e-14                -3e-13                -8e-14                1.4e-13              
  0                     -1.2e-13              -3.8e-13              -2e-14                1e-13                
  -0.05                 -3e-13                -4.2e-13              -1e-13                3e-13                
  -0.1                  -1.4e-12              -3.8e-13              -8e-14                1.62e-12             
  -0.15                 -7.62e-12             -4.6e-13              -4e-14                7.74e-12             
  -0.2                  -3.948e-11            -6.4e-13              -1.2e-13              3.96e-11             
  -0.25                 -2.0478e-10           -7e-13                -6e-14                2.0506e-10           
  -0.3                  -1.02698e-09          -1.04e-12             4e-14                 1.02716e-09          
  -0.35                 -4.5352e-09           -2.22e-12             -1e-13                4.5358e-09           
  -0.4                  -1.5466e-08           -5.66e-12             -1.4e-13              1.5492e-08           
  -0.45                 -3.8324e-08           -1.262e-11            2e-14                 3.8358e-08           
  -0.5                  -7.2728e-08           -2.384e-11            -2e-13                7.2774e-08           
  -0.55                 -1.14598e-07          -4.094e-11            2e-14                 1.14644e-07          
  -0.6                  -1.6024e-07           -6.518e-11            0                     1.6046e-07           
  -0.65                 -2.0734e-07           -9.838e-11            0                     2.0758e-07           
  -0.7                  -2.544e-07            -1.424e-10            -1.8e-13              2.5472e-07           
  -0.75                 -3.0058e-07           -1.989e-10            2e-14                 3.0094e-07           
  -0.8                  -3.4552e-07           -2.7102e-10           -8e-14                3.4594e-07           
  -0.85                 -3.889e-07            -3.6048e-10           -1e-13                3.8944e-07           
  -0.9                  -4.3056e-07           -4.7192e-10           0                     4.3118e-07           
  -0.95                 -4.7042e-07           -6.045e-10            -1.4e-13              4.7118e-07           
  -1                    -5.0848e-07           -7.6256e-10           -2e-14                5.093e-07            
  -1.05                 -5.4458e-07           -9.4984e-10           -8e-14                5.4564e-07           
  -1.1                  -5.7908e-07           -1.168e-09            6e-14                 5.8036e-07           
  -1.15                 -6.1182e-07           -1.4226e-09           3.8e-13               6.1336e-07           
  -1.2                  -6.428e-07            -1.7132e-09           1.22e-12              6.447e-07            
  -1.25                 -6.7228e-07           -2.0496e-09           3.22e-12              6.745e-07            
  -1.3                  -7.0012e-07           -2.4296e-09           7.58e-12              7.027e-07            
  -1.35                 -7.2648e-07           -2.8614e-09           1.588e-11             7.2948e-07           
END_DB

BEGIN_DB
 ICCAP_VAR vb         0.6            
 ICCAP_VAR vd         -0.05          
 ICCAP_VAR vs         -0             

 #vg                    id                    ig                    ib                    is                   
  0.5                   -6e-14                1.06e-12              1e-13                 -2.8e-13             
  0.45                  -1e-13                5.8e-13               -6e-14                -2.6e-13             
  0.4                   -1e-13                2.6e-13               -4e-14                -1.2e-13             
  0.35                  -2e-14                1.6e-13               0                     -1.4e-13             
  0.3                   -6e-14                6e-14                 -4e-14                -1.8e-13             
  0.25                  -6e-14                -1.2e-13              -4e-14                1.2e-13              
  0.2                   -4e-14                -1.6e-13              -1e-13                4e-14                
  0.15                  2e-14                 -3e-13                -2e-14                0                    
  0.1                   -2e-14                -3.4e-13              0                     2e-14                
  0.05                  -2e-14                -3.4e-13              1.2e-13               0                    
  0                     -4e-14                -3.6e-13              -1e-13                1.2e-13              
  -0.05                 -1.4e-13              -3.8e-13              8e-14                 6e-14                
  -0.1                  -3.8e-13              -3.8e-13              -1.4e-13              7e-13                
  -0.15                 -2.62e-12             -4.6e-13              1e-13                 2.6e-12              
  -0.2                  -1.366e-11            -5.6e-13              -1.4e-13              1.396e-11            
  -0.25                 -7.308e-11            -7.4e-13              0                     7.34e-11             
  -0.3                  -3.8234e-10           -9.2e-13              -2e-14                3.8282e-10           
  -0.35                 -1.8704e-09           -1.56e-12             -4e-14                1.872e-09            
  -0.4                  -7.6124e-09           -4.08e-12             8e-14                 7.6148e-09           
  -0.45                 -2.2776e-08           -9.88e-12             -2e-14                2.2804e-08           
  -0.5                  -5.0042e-08           -2.02e-11             8e-14                 5.0086e-08           
  -0.55                 -8.6934e-08           -3.644e-11            -8e-14                8.6998e-08           
  -0.6                  -1.2944e-07           -5.96e-11             -1e-13                1.2964e-07           
  -0.65                 -1.7454e-07           -9.198e-11            -6e-14                1.748e-07            
  -0.7                  -2.2036e-07           -1.3502e-10           0                     2.2066e-07           
  -0.75                 -2.6576e-07           -1.9062e-10           -1.8e-13              2.6608e-07           
  -0.8                  -3.102e-07            -2.6132e-10           4e-14                 3.1058e-07           
  -0.85                 -3.5322e-07           -3.4978e-10           -2.2e-13              3.5374e-07           
  -0.9                  -3.9472e-07           -4.5866e-10           1e-13                 3.9536e-07           
  -0.95                 -4.3452e-07           -5.8922e-10           -1.2e-13              4.353e-07            
  -1                    -4.7258e-07           -7.4624e-10           -4e-14                4.734e-07            
  -1.05                 -5.088e-07            -9.3454e-10           -2e-14                5.099e-07            
  -1.1                  -5.4336e-07           -1.1508e-09           1e-13                 5.446e-07            
  -1.15                 -5.762e-07            -1.4042e-09           3.8e-13               5.7778e-07           
  -1.2                  -6.0738e-07           -1.6958e-09           1.32e-12              6.092e-07            
  -1.25                 -6.3698e-07           -2.0292e-09           3.4e-12               6.3922e-07           
  -1.3                  -6.6496e-07           -2.4098e-09           7.58e-12              6.6752e-07           
  -1.35                 -6.9156e-07           -2.8436e-09           1.588e-11             6.9458e-07           
END_DB

BEGIN_DB
 ICCAP_VAR vb         0.8            
 ICCAP_VAR vd         -0.05          
 ICCAP_VAR vs         -0             

 #vg                    id                    ig                    ib                    is                   
  0.5                   -8e-14                9.4e-13               -2e-14                -3e-13               
  0.45                  -6e-14                5.2e-13               0                     -8e-14               
  0.4                   -2e-14                3.2e-13               2e-14                 -2.2e-13             
  0.35                  -6e-14                8e-14                 6e-14                 -1.4e-13             
  0.3                   -6e-14                8e-14                 1e-13                 -4e-14               
