! VERSION = 6.00
BEGIN_HEADER
 ICCAP_INPUTS
  vd         V  D GROUND SMU1 0.1 LIN        1    -0         -1.35      28   -0.05     
  vg         V  G GROUND SMU2 0.001 LIST       2 3 -0.203 -0.403 -0.603
  vb         V  B GROUND SMU4 0.1 CON        -0
  vs         V  S GROUND SMU3 0.1 CON        -0
 ICCAP_OUTPUTS
  id         I  D GROUND SMU1 B
  ig         I  G GROUND SMU2 B
  ib         I  B GROUND SMU4 B
  is         I  S GROUND SMU3 B
 ICCAP_VALUES
  MASTER_SETUP_TYPE "~dc_idvd~"
  LINVT_VALUE ""
  LISTVT_VALUE "|idvg|100.0n|-200.0m|1.000m|3|200.0m|200.0m|"
  TYPE "-1"
  TEMP " 27.0000 "
  IS_TNOM " 1.00000 "
  MAIN.W "10.00u"
  MAIN.L "130.0n"
  MAIN.AD "3.400p"
  MAIN.AS "3.400p"
  MAIN.PD "20.68u"
  MAIN.PS "20.68u"
  MAIN.NF "1.000"
  MAIN.M "1"
  MAIN.NRD "0.000"
  MAIN.NRS "0.000"
  MAIN.LDRIFT1 "1E-06"
  MAIN.LDRIFT2 "1E-06"
  MAIN.SA "0.000"
  MAIN.SB "0.000"
  MAIN.SD "0.000"
  MAIN.SCA "0.000"
  MAIN.SCB "0.000"
  MAIN.SCC "0.000"
  MAIN.SC "0.000"
  MODULE "S548"
  PIN_D "18"
  PIN_G "3"
  PIN_S "4"
  PIN_B "17"
  PIN_E ""
  PIN_6 ""
  XY_ID ""
  FUNC "Short"
  STI "SA ref"
  WPE "WPE ref"
  COMMENT ""
  DIS_MEAS ""
  TypeTCI "10"
END_HEADER

BEGIN_DB
 ICCAP_VAR vg         -0.203         
 ICCAP_VAR vb         -0             
 ICCAP_VAR vs         -0             

 #vd                    id                    ig                    ib                    is                   
  -0                    3.546e-11             -3.2e-13              -1.34e-12             -6.478e-11           
  -0.05                 -2.0534e-08           -1.2e-13              -1.28e-12             2.055e-08            
  -0.1                  -2.5394e-08           -1.6e-13              -1.16e-12             2.5426e-08           
  -0.15                 -2.7732e-08           -2e-13                -1.26e-12             2.7764e-08           
  -0.2                  -2.9696e-08           -1.2e-13              -1.24e-12             2.9786e-08           
  -0.25                 -3.1664e-08           -1.8e-13              -1.24e-12             3.1752e-08           
  -0.3                  -3.3666e-08           -2e-14                -1.12e-12             3.368e-08            
  -0.35                 -3.563e-08            -2e-14                -1.1e-12              3.5668e-08           
  -0.4                  -3.7624e-08           2e-14                 -1.1e-12              3.7642e-08           
  -0.45                 -3.9668e-08           1e-13                 -1.18e-12             3.969e-08            
  -0.5                  -4.1758e-08           2.6e-13               -1.2e-12              4.1744e-08           
  -0.55                 -4.3876e-08           5.6e-13               -1.12e-12             4.393e-08            
  -0.6                  -4.613e-08            6.6e-13               -1.18e-12             4.6142e-08           
  -0.65                 -4.8378e-08           9.8e-13               -1.14e-12             4.8456e-08           
  -0.7                  -5.0784e-08           1.26e-12              -1.1e-12              5.0838e-08           
  -0.75                 -5.3268e-08           1.66e-12              -1.18e-12             5.3278e-08           
  -0.8                  -5.575e-08            2.04e-12              -1.08e-12             5.5794e-08           
  -0.85                 -5.8328e-08           2.7e-12               -1.18e-12             5.8404e-08           
  -0.9                  -6.1088e-08           3.2e-12               -1.1e-12              6.1086e-08           
  -0.95                 -6.392e-08            4.08e-12              -1.04e-12             6.3934e-08           
  -1                    -6.6838e-08           4.84e-12              -1.04e-12             6.6844e-08           
  -1.05                 -6.9856e-08           5.7e-12               -8.8e-13              6.9856e-08           
  -1.1                  -7.297e-08            6.76e-12              -8.2e-13              7.298e-08            
  -1.15                 -7.6222e-08           8.16e-12              -7e-13                7.6306e-08           
  -1.2                  -7.9644e-08           9.3e-12               -4.8e-13              7.9622e-08           
  -1.25                 -8.3178e-08           1.086e-11             -1.8e-13              8.3104e-08           
  -1.3                  -8.6746e-08           1.262e-11             3.6e-13               8.6732e-08           
  -1.35                 -9.0612e-08           1.432e-11             1.52e-12              9.0548e-08           
END_DB

BEGIN_DB
 ICCAP_VAR vg         -0.403         
 ICCAP_VAR vb         -0             
 ICCAP_VAR vs         -0             

 #vd                    id                    ig                    ib                    is                   
  -0                    9.784e-09             -2.46e-12             -1.18e-12             -9.552e-09           
  -0.05                 -3.9178e-06           -2.1e-12              -1.14e-12             3.9226e-06           
  -0.1                  -5.2472e-06           -1.86e-12             -9.6e-13              5.2516e-06           
  -0.15                 -5.8684e-06           -1.62e-12             -1e-12                5.8716e-06           
  -0.2                  -6.3132e-06           -1.56e-12             -1.14e-12             6.3078e-06           
  -0.25                 -6.682e-06            -1.52e-12             -1.06e-12             6.689e-06            
  -0.3                  -7.0442e-06           -1.38e-12             -9.4e-13              7.058e-06            
  -0.35                 -7.4074e-06           -1.38e-12             -1.02e-12             7.4116e-06           
  -0.4                  -7.7628e-06           -1.36e-12             -8.6e-13              7.7674e-06           
  -0.45                 -8.1072e-06           -1.3e-12              -9.2e-13              8.0978e-06           
  -0.5                  -8.4394e-06           -1.3e-12              -1.02e-12             8.4556e-06           
  -0.55                 -8.8068e-06           -1.34e-12             -1.06e-12             8.807e-06            
  -0.6                  -9.1536e-06           -1.3e-12              -1.02e-12             9.154e-06            
  -0.65                 -9.5014e-06           -1.14e-12             -9.6e-13              9.506e-06            
  -0.7                  -9.867e-06            -9.4e-13              -9.6e-13              9.8688e-06           
  -0.75                 -1.02286e-05          -7.2e-13              -9e-13                1.02298e-05          
  -0.8                  -1.06048e-05          -5e-13                -9.8e-13              1.05972e-05          
  -0.85                 -1.09654e-05          -2.8e-13              -9.6e-13              1.09738e-05          
  -0.9                  -1.1346e-05           4e-14                 -7.6e-13              1.13532e-05          
  -0.95                 -1.1734e-05           4.4e-13               -9.6e-13              1.1744e-05           
  -1                    -1.2132e-05           9.4e-13               -7.2e-13              1.2138e-05           
  -1.05                 -1.2534e-05           1.5e-12               -4.6e-13              1.2546e-05           
  -1.1                  -1.293e-05            1.94e-12              -1e-13                1.296e-05            
  -1.15                 -1.3348e-05           2.64e-12              1.08e-12              1.3358e-05           
  -1.2                  -1.378e-05            3.52e-12              3.52e-12              1.38e-05             
  -1.25                 -1.4222e-05           4.36e-12              8.2e-12               1.4228e-05           
  -1.3                  -1.4648e-05           5.4e-12               1.684e-11             1.4676e-05           
  -1.35                 -1.5106e-05           6.64e-12              3.216e-11             1.5126e-05           
END_DB

BEGIN_DB
 ICCAP_VAR vg         -0.603         
 ICCAP_VAR vb         -0             
 ICCAP_VAR vs         -0             

 #vd                    id                    ig                    ib                    is                   
  -0                    7.962e-08             -1.056e-11            -8.6e-13              -7.2004e-08          
  -0.05                 -4.7362e-05           -9.24e-12             -1.14e-12             4.7366e-05           
  -0.1                  -7.8168e-05           -8.12e-12             -1.1e-12              7.8206e-05           
  -0.15                 -9.7238e-05           -7.34e-12             -9e-13                9.7262e-05           
  -0.2                  -0.000109124          -6.76e-12             -9e-13                0.00010914           
  -0.25                 -0.0001171            -6.5e-12              -9.4e-13              0.0001174            
  -0.3                  -0.0001232            -6.34e-12             -1e-12                0.0001235            
  -0.35                 -0.00012834           -6.12e-12             -1.06e-12             0.00012874           
  -0.4                  -0.00013306           -5.82e-12             -9.4e-13              0.00013342           
  -0.45                 -0.00013718           -5.86e-12             -9e-13                0.00013756           
  -0.5                  -0.00014128           -5.72e-12             -8.8e-13              0.00014156           
  -0.55                 -0.00014504           -5.58e-12             -9.4e-13              0.0001454            
  -0.6                  -0.00014872           -5.62e-12             -8.6e-13              0.00014912           
  -0.65                 -0.00015252           -5.6e-12              -1e-12                0.00015286           
  -0.7                  -0.00015594           -5.58e-12             -9.2e-13              0.00015634           
  -0.75                 -0.00015954           -5.4e-12              -9.2e-13              0.00015992           
  -0.8                  -0.00016292           -5.3e-12              -8.4e-13              0.0001635            
  -0.85                 -0.00016648           -5.26e-12             -8.4e-13              0.00016672           
  -0.9                  -0.00016988           -5.08e-12             -8.2e-13              0.00017016           
  -0.95                 -0.00017326           -4.82e-12             -8.2e-13              0.00017352           
  -1                    -0.0001766            -4.6e-12              -7e-13                0.00017706           
  -1.05                 -0.00018008           -4.3e-12              -4.6e-13              0.00018038           
  -1.1                  -0.0001833            -3.88e-12             3.6e-13               0.00018368           
  -1.15                 -0.00018668           -3.54e-12             2.42e-12              0.00018708           
  -1.2                  -0.00018992           -3.16e-12             6.76e-12              0.0001904            
  -1.25                 -0.00019348           -2.72e-12             1.68e-11              0.0001938            
  -1.3                  -0.00019676           -2.14e-12             3.776e-11             0.00019714           
  -1.35                 -0.00020016           -1.32e-12             7.936e-11             0.00020072           
END_DB

