! VERSION = 6.00
BEGIN_HEADER
 ICCAP_INPUTS
  vd         V  D GROUND SMU1 0.1 LIN        1    -0         -1.35      28   -0.05     
  vg         V  G GROUND SMU2 0.001 LIST       2 3 -0.307 -0.507 -0.707
  vb         V  B GROUND SMU4 0.1 CON        1.2
  vs         V  S GROUND SMU3 0.1 CON        -0
 ICCAP_OUTPUTS
  id         I  D GROUND SMU1 B
  ig         I  G GROUND SMU2 B
  ib         I  B GROUND SMU4 B
  is         I  S GROUND SMU3 B
 ICCAP_VALUES
  MASTER_SETUP_TYPE "~dc_idvd~"
  LINVT_VALUE ""
  LISTVT_VALUE "|idvg|100.0n|-200.0m|1.000m|3|200.0m|200.0m|"
  TYPE "-1"
  TEMP " 70.0000 "
  IS_TNOM " 0.00000 "
  MAIN.W "300.0n"
  MAIN.L "130.0n"
  MAIN.AD "102.0f"
  MAIN.AS "102.0f"
  MAIN.PD "1.280u"
  MAIN.PS "1.280u"
  MAIN.NF "1.000"
  MAIN.M "1"
  MAIN.NRD "0.000"
  MAIN.NRS "0.000"
  MAIN.LDRIFT1 "1E-06"
  MAIN.LDRIFT2 "1E-06"
  MAIN.SA "0.000"
  MAIN.SB "0.000"
  MAIN.SD "0.000"
  MAIN.SCA "0.000"
  MAIN.SCB "0.000"
  MAIN.SCC "0.000"
  MAIN.SC "0.000"
  MODULE "S552"
  PIN_D "18"
  PIN_G "3"
  PIN_S "4"
  PIN_B "17"
  PIN_E ""
  PIN_6 ""
  XY_ID ""
  FUNC "LW Scale"
  STI "SA ref"
  WPE "WPE ref"
  COMMENT ""
  DIS_MEAS ""
  TypeTCI "10"
END_HEADER

BEGIN_DB
 ICCAP_VAR vg         -0.307         
 ICCAP_VAR vb         1.2            
 ICCAP_VAR vs         -0             

 #vd                    id                    ig                    ib                    is                   
  -0                    7.4e-13               2e-13                 1.294e-11             -1.48e-12            
  -0.05                 -6.6482e-10           1e-13                 1.294e-11             6.6238e-10           
  -0.1                  -8.5536e-10           6e-14                 1.296e-11             8.574e-10            
  -0.15                 -9.5404e-10           1.6e-13               1.292e-11             9.558e-10            
  -0.2                  -1.0416e-09           1.6e-13               1.298e-11             1.04096e-09          
  -0.25                 -1.1224e-09           1.2e-13               1.294e-11             1.11518e-09          
  -0.3                  -1.1998e-09           1.2e-13               1.276e-11             1.197e-09            
  -0.35                 -1.2854e-09           1.2e-13               1.314e-11             1.2846e-09           
  -0.4                  -1.377e-09            -6e-14                1.292e-11             1.378e-09            
  -0.45                 -1.4712e-09           4e-14                 1.28e-11              1.4726e-09           
  -0.5                  -1.571e-09            0                     1.298e-11             1.568e-09            
  -0.55                 -1.6742e-09           -1e-13                1.274e-11             1.6746e-09           
  -0.6                  -1.7844e-09           8e-14                 1.278e-11             1.791e-09            
  -0.65                 -1.8986e-09           -2e-14                1.282e-11             1.8964e-09           
  -0.7                  -2.018e-09            6e-14                 1.284e-11             2.0166e-09           
  -0.75                 -2.1432e-09           0                     1.278e-11             2.142e-09            
  -0.8                  -2.2778e-09           2e-14                 1.284e-11             2.2832e-09           
  -0.85                 -2.4236e-09           1.8e-13               1.29e-11              2.4154e-09           
  -0.9                  -2.5586e-09           6e-14                 1.286e-11             2.5576e-09           
  -0.95                 -2.709e-09            8e-14                 1.292e-11             2.7086e-09           
  -1                    -2.869e-09            2e-13                 1.29e-11              2.8678e-09           
  -1.05                 -3.0442e-09           1e-13                 1.294e-11             3.0428e-09           
  -1.1                  -3.2254e-09           4e-14                 1.292e-11             3.2174e-09           
  -1.15                 -3.3958e-09           1e-13                 1.298e-11             3.3936e-09           
  -1.2                  -3.5838e-09           1.8e-13               1.294e-11             3.5846e-09           
  -1.25                 -3.7852e-09           6e-14                 1.302e-11             3.779e-09            
  -1.3                  -3.9918e-09           1.8e-13               1.314e-11             3.99e-09             
  -1.35                 -4.2078e-09           1.4e-13               1.34e-11              4.2084e-09           
END_DB

BEGIN_DB
 ICCAP_VAR vg         -0.507         
 ICCAP_VAR vb         1.2            
 ICCAP_VAR vs         -0             

 #vd                    id                    ig                    ib                    is                   
  -0                    1.897e-10             -2.2e-13              1.266e-11             -1.9254e-10          
  -0.05                 -1.0376e-07           -1.4e-13              1.28e-11              1.0352e-07           
  -0.1                  -1.4182e-07           -1.8e-13              1.264e-11             1.421e-07            
  -0.15                 -1.611e-07            -1.8e-13              1.28e-11              1.6108e-07           
  -0.2                  -1.749e-07            -1.4e-13              1.276e-11             1.7498e-07           
  -0.25                 -1.8716e-07           -2e-13                1.288e-11             1.8736e-07           
  -0.3                  -1.9918e-07           -1.2e-13              1.29e-11              1.9926e-07           
  -0.35                 -2.111e-07            -1.4e-13              1.276e-11             2.1102e-07           
  -0.4                  -2.2362e-07           -1.4e-13              1.274e-11             2.2368e-07           
  -0.45                 -2.3562e-07           -1e-13                1.286e-11             2.3584e-07           
  -0.5                  -2.4808e-07           -1.2e-13              1.282e-11             2.4782e-07           
  -0.55                 -2.5984e-07           0                     1.282e-11             2.5976e-07           
  -0.6                  -2.725e-07            -6e-14                1.288e-11             2.727e-07            
  -0.65                 -2.8568e-07           -1.4e-13              1.282e-11             2.8578e-07           
  -0.7                  -2.9918e-07           -2e-13                1.278e-11             2.9936e-07           
  -0.75                 -3.1296e-07           -1.2e-13              1.29e-11              3.1288e-07           
  -0.8                  -3.2686e-07           -6e-14                1.276e-11             3.2698e-07           
  -0.85                 -3.4128e-07           -6e-14                1.286e-11             3.4106e-07           
  -0.9                  -3.5602e-07           -2e-14                1.284e-11             3.5614e-07           
  -0.95                 -3.7102e-07           -8e-14                1.274e-11             3.7134e-07           
  -1                    -3.8676e-07           -1e-13                1.294e-11             3.868e-07            
  -1.05                 -4.034e-07            0                     1.288e-11             4.0254e-07           
  -1.1                  -4.1876e-07           -1.4e-13              1.284e-11             4.187e-07            
  -1.15                 -4.3534e-07           -2e-13                1.298e-11             4.3548e-07           
  -1.2                  -4.5322e-07           -4e-14                1.302e-11             4.5324e-07           
  -1.25                 -4.7084e-07           -4e-14                1.332e-11             4.7082e-07           
  -1.3                  -4.8812e-07           -8e-14                1.388e-11             4.8818e-07           
  -1.35                 -5.0624e-07           -4e-14                1.476e-11             5.066e-07            
END_DB

BEGIN_DB
 ICCAP_VAR vg         -0.707         
 ICCAP_VAR vb         1.2            
 ICCAP_VAR vs         -0             

 #vd                    id                    ig                    ib                    is                   
  -0                    1.4436e-09            -4.8e-13              1.284e-11             -1.2524e-09          
  -0.05                 -1.3424e-06           -4.8e-13              1.264e-11             1.3476e-06           
  -0.1                  -2.2374e-06           -5.8e-13              1.26e-11              2.2402e-06           
  -0.15                 -2.7986e-06           -4.6e-13              1.274e-11             2.8026e-06           
  -0.2                  -3.159e-06            -3.8e-13              1.27e-11              3.1606e-06           
  -0.25                 -3.4082e-06           -4e-13                1.276e-11             3.4118e-06           
  -0.3                  -3.606e-06            -3e-13                1.292e-11             3.6124e-06           
  -0.35                 -3.7858e-06           -3.2e-13              1.278e-11             3.7914e-06           
  -0.4                  -3.9364e-06           -3.6e-13              1.28e-11              3.9318e-06           
  -0.45                 -4.0668e-06           -3.4e-13              1.294e-11             4.0716e-06           
  -0.5                  -4.2024e-06           -3.2e-13              1.286e-11             4.2036e-06           
  -0.55                 -4.3308e-06           -3.2e-13              1.278e-11             4.3324e-06           
  -0.6                  -4.4606e-06           -3.6e-13              1.278e-11             4.4578e-06           
  -0.65                 -4.5818e-06           -2.6e-13              1.29e-11              4.5836e-06           
  -0.7                  -4.7046e-06           -3.8e-13              1.288e-11             4.7064e-06           
  -0.75                 -4.8266e-06           -4.2e-13              1.294e-11             4.83e-06             
  -0.8                  -4.9462e-06           -2.6e-13              1.28e-11              4.9494e-06           
  -0.85                 -5.0696e-06           -2.2e-13              1.282e-11             5.0704e-06           
  -0.9                  -5.1908e-06           -2.4e-13              1.278e-11             5.1964e-06           
  -0.95                 -5.3118e-06           -2.2e-13              1.29e-11              5.3138e-06           
  -1                    -5.4308e-06           -2.4e-13              1.29e-11              5.4336e-06           
  -1.05                 -5.5558e-06           -3e-13                1.292e-11             5.5592e-06           
  -1.1                  -5.6748e-06           -3.2e-13              1.294e-11             5.679e-06            
  -1.15                 -5.797e-06            -3e-13                1.31e-11              5.801e-06            
  -1.2                  -5.921e-06            -2.6e-13              1.334e-11             5.9242e-06           
  -1.25                 -6.0456e-06           -2.2e-13              1.386e-11             6.0442e-06           
  -1.3                  -6.168e-06            -1.4e-13              1.496e-11             6.1712e-06           
  -1.35                 -6.2942e-06           -3e-13                1.704e-11             6.2968e-06           
END_DB

