! VERSION = 6.00
BEGIN_HEADER
 ICCAP_INPUTS
  vd         V  D GROUND SMU1 0.1 LIN        1    -0         -1.35      28   -0.05     
  vg         V  G GROUND SMU2 0.001 LIN        2    -0.454     -1.35      5    -0.224    
  vb         V  B GROUND SMU4 0.1 CON        -0
  vs         V  S GROUND SMU3 0.1 CON        -0
 ICCAP_OUTPUTS
  id         I  D GROUND SMU1 B
  ig         I  G GROUND SMU2 B
  ib         I  B GROUND SMU4 B
  is         I  S GROUND SMU3 B
 ICCAP_VALUES
  MASTER_SETUP_TYPE "~dc_idvd~"
  LINVT_VALUE "|idvg|100.0n|100.0m|1.000m|5|1.350|"
  LISTVT_VALUE ""
  TYPE "-1"
  TEMP " 27.0000 "
  IS_TNOM " 1.00000 "
  MAIN.W "600.0n"
  MAIN.L "500.0n"
  MAIN.AD "204.0f"
  MAIN.AS "204.0f"
  MAIN.PD "1.880u"
  MAIN.PS "1.880u"
  MAIN.NF "1.000"
  MAIN.M "1"
  MAIN.NRD "0.000"
  MAIN.NRS "0.000"
  MAIN.LDRIFT1 "1E-06"
  MAIN.LDRIFT2 "1E-06"
  MAIN.SA "0.000"
  MAIN.SB "0.000"
  MAIN.SD "0.000"
  MAIN.SCA "0.000"
  MAIN.SCB "0.000"
  MAIN.SCC "0.000"
  MAIN.SC "0.000"
  MODULE "S551"
  PIN_D "14"
  PIN_G "7"
  PIN_S "8"
  PIN_B "13"
  PIN_E ""
  PIN_6 ""
  XY_ID ""
  FUNC "LW Scale"
  STI "SA ref"
  WPE "WPE ref"
  COMMENT ""
  DIS_MEAS ""
  TypeTCI "10"
END_HEADER

BEGIN_DB
 ICCAP_VAR vg         -0.454         
 ICCAP_VAR vb         -0             
 ICCAP_VAR vs         -0             

 #vd                    id                    ig                    ib                    is                   
  -0                    7.5048e-10            -5.8e-13              -3.34e-12             -8.5132e-10          
  -0.05                 -4.2462e-07           -6.4e-13              -3.36e-12             4.2506e-07           
  -0.1                  -6.0992e-07           -3.6e-13              -3.3e-12              6.1036e-07           
  -0.15                 -6.8272e-07           -2.8e-13              -3.26e-12             6.826e-07            
  -0.2                  -7.1948e-07           -2.6e-13              -3.2e-12              7.2006e-07           
  -0.25                 -7.4486e-07           -2e-13                -3.22e-12             7.453e-07            
  -0.3                  -7.6582e-07           -4.6e-13              -3.14e-12             7.657e-07            
  -0.35                 -7.8336e-07           -1.4e-13              -3.12e-12             7.843e-07            
  -0.4                  -7.9966e-07           -6e-14                -2.98e-12             7.999e-07            
  -0.45                 -8.144e-07            -3e-13                -3.06e-12             8.1452e-07           
  -0.5                  -8.2786e-07           -4e-13                -3.14e-12             8.2698e-07           
  -0.55                 -8.3938e-07           -2.4e-13              -3.1e-12              8.3934e-07           
  -0.6                  -8.5084e-07           -2.4e-13              -3.12e-12             8.5132e-07           
  -0.65                 -8.615e-07            -2.4e-13              -3.1e-12              8.6252e-07           
  -0.7                  -8.7196e-07           -2.6e-13              -2.88e-12             8.7208e-07           
  -0.75                 -8.8122e-07           -2.4e-13              -3e-12                8.8118e-07           
  -0.8                  -8.8998e-07           -6e-14                -2.88e-12             8.912e-07            
  -0.85                 -8.989e-07            -8e-14                -2.86e-12             8.994e-07            
  -0.9                  -9.0732e-07           -3.2e-13              -2.88e-12             9.0696e-07           
  -0.95                 -9.1394e-07           -2.2e-13              -2.76e-12             9.1424e-07           
  -1                    -9.2246e-07           -1.2e-13              -2.86e-12             9.2282e-07           
  -1.05                 -9.2928e-07           -1.6e-13              -2.86e-12             9.2934e-07           
  -1.1                  -9.3572e-07           -1.2e-13              -2.78e-12             9.365e-07            
  -1.15                 -9.4262e-07           -1e-13                -2.66e-12             9.4296e-07           
  -1.2                  -9.4908e-07           -2.4e-13              -2.58e-12             9.4898e-07           
  -1.25                 -9.557e-07            -8e-14                -2.44e-12             9.5582e-07           
  -1.3                  -9.6152e-07           -4e-14                -2.2e-12              9.6184e-07           
  -1.35                 -9.669e-07            -1.6e-13              -1.66e-12             9.6732e-07           
END_DB

BEGIN_DB
 ICCAP_VAR vg         -0.678         
 ICCAP_VAR vb         -0             
 ICCAP_VAR vs         -0             

 #vd                    id                    ig                    ib                    is                   
  -0                    2.4104e-09            -2.72e-12             -2.36e-12             -2.3512e-09          
  -0.05                 -1.834e-06            -2.24e-12             -2.36e-12             1.8374e-06           
  -0.1                  -3.2604e-06           -2.18e-12             -2.34e-12             3.264e-06            
  -0.15                 -4.2802e-06           -1.62e-12             -2.36e-12             4.285e-06            
  -0.2                  -4.936e-06            -1.64e-12             -2.4e-12              4.941e-06            
  -0.25                 -5.3232e-06           -1.66e-12             -2.36e-12             5.3268e-06           
  -0.3                  -5.5548e-06           -1.48e-12             -2.12e-12             5.5562e-06           
  -0.35                 -5.7068e-06           -1.26e-12             -2.3e-12              5.7104e-06           
  -0.4                  -5.8176e-06           -1.56e-12             -2.32e-12             5.8232e-06           
  -0.45                 -5.9154e-06           -1.36e-12             -2.34e-12             5.922e-06            
  -0.5                  -5.9954e-06           -1.36e-12             -2.36e-12             5.9984e-06           
  -0.55                 -6.068e-06            -1.48e-12             -2.36e-12             6.071e-06            
  -0.6                  -6.1322e-06           -1.54e-12             -2.32e-12             6.1348e-06           
  -0.65                 -6.1942e-06           -1.38e-12             -2.24e-12             6.1976e-06           
  -0.7                  -6.2516e-06           -1.44e-12             -2.32e-12             6.2594e-06           
  -0.75                 -6.3106e-06           -1.32e-12             -2.32e-12             6.3082e-06           
  -0.8                  -6.357e-06            -1.34e-12             -2.22e-12             6.3598e-06           
  -0.85                 -6.4048e-06           -1.46e-12             -2.12e-12             6.412e-06            
  -0.9                  -6.4554e-06           -1.3e-12              -2.22e-12             6.459e-06            
  -0.95                 -6.5e-06              -1.14e-12             -2.14e-12             6.5028e-06           
  -1                    -6.5422e-06           -1.46e-12             -2.14e-12             6.5458e-06           
  -1.05                 -6.5796e-06           -1.34e-12             -2.16e-12             6.5838e-06           
  -1.1                  -6.621e-06            -1e-12                -2.2e-12              6.6236e-06           
  -1.15                 -6.6576e-06           -1.12e-12             -2.06e-12             6.6616e-06           
  -1.2                  -6.694e-06            -1.38e-12             -2.06e-12             6.6974e-06           
  -1.25                 -6.7282e-06           -1.26e-12             -2e-12                6.732e-06            
  -1.3                  -6.7618e-06           -9.6e-13              -1.96e-12             6.7624e-06           
  -1.35                 -6.7938e-06           -1.2e-12              -1.7e-12              6.7982e-06           
END_DB

BEGIN_DB
 ICCAP_VAR vg         -0.902         
 ICCAP_VAR vb         -0             
 ICCAP_VAR vs         -0             

 #vd                    id                    ig                    ib                    is                   
  -0                    3.3196e-09            -8.6e-12              -1.82e-12             -3.5996e-09          
  -0.05                 -3.1778e-06           -7.86e-12             -1.96e-12             3.1804e-06           
  -0.1                  -6.002e-06            -7.1e-12              -1.94e-12             6.0096e-06           
  -0.15                 -8.4556e-06           -6.06e-12             -1.86e-12             8.4534e-06           
  -0.2                  -1.05092e-05          -5.7e-12              -1.84e-12             1.05168e-05          
  -0.25                 -1.217e-05            -5.58e-12             -1.84e-12             1.2214e-05           
  -0.3                  -1.3482e-05           -5.1e-12              -1.88e-12             1.348e-05            
  -0.35                 -1.44e-05             -5.02e-12             -1.86e-12             1.4412e-05           
  -0.4                  -1.5054e-05           -4.66e-12             -1.82e-12             1.5068e-05           
  -0.45                 -1.5504e-05           -4.56e-12             -1.98e-12             1.5518e-05           
  -0.5                  -1.5816e-05           -4.34e-12             -1.92e-12             1.584e-05            
  -0.55                 -1.6068e-05           -4.36e-12             -1.82e-12             1.6084e-05           
  -0.6                  -1.6264e-05           -4.48e-12             -1.82e-12             1.6278e-05           
  -0.65                 -1.643e-05            -4.14e-12             -1.84e-12             1.6442e-05           
  -0.7                  -1.6578e-05           -4.12e-12             -1.86e-12             1.6588e-05           
  -0.75                 -1.6706e-05           -4.2e-12              -1.82e-12             1.6712e-05           
  -0.8                  -1.6816e-05           -4.26e-12             -1.86e-12             1.684e-05            
  -0.85                 -1.6932e-05           -4.06e-12             -1.86e-12             1.6946e-05           
  -0.9                  -1.7048e-05           -4.28e-12             -1.8e-12              1.7056e-05           
  -0.95                 -1.7142e-05           -4.34e-12             -1.76e-12             1.7138e-05           
  -1                    -1.7238e-05           -4.06e-12             -1.8e-12              1.7254e-05           
  -1.05                 -1.7336e-05           -3.9e-12              -1.84e-12             1.7346e-05           
  -1.1                  -1.7434e-05           -4.02e-12             -1.7e-12              1.7438e-05           
  -1.15                 -1.7516e-05           -4.04e-12             -1.72e-12             1.7536e-05           
  -1.2                  -1.7602e-05           -4.06e-12             -1.7e-12              1.7622e-05           
  -1.25                 -1.7682e-05           -4.02e-12             -1.72e-12             1.7702e-05           
  -1.3                  -1.7756e-05           -3.86e-12             -1.62e-12             1.7762e-05           
  -1.35                 -1.7816e-05           -3.76e-12             -1.68e-12             1.7848e-05           
END_DB

BEGIN_DB
 ICCAP_VAR vg         -1.126         
 ICCAP_VAR vb         -0             
 ICCAP_VAR vs         -0             

 #vd                    id                    ig                    ib                    is                   
  -0                    3.8464e-09            -2.256e-11            -1.6e-12              -4.4452e-09          
  -0.05                 -4.2722e-06           -2.048e-11            -1.62e-12             4.2758e-06           
  -0.1                  -8.249e-06            -1.87e-11             -1.58e-12             8.2534e-06           
  -0.15                 -1.1906e-05           -1.718e-11            -1.58e-12             1.1922e-05           
  -0.2                  -1.524e-05            -1.564e-11            -1.64e-12             1.526e-05            
  -0.25                 -1.8238e-05           -1.466e-11            -1.56e-12             1.8258e-05           
  -0.3                  -2.0894e-05           -1.37e-11             -1.58e-12             2.0914e-05           
  -0.35                 -2.3182e-05           -1.294e-11            -1.62e-12             2.3212e-05           
  -0.4                  -2.5108e-05           -1.198e-11            -1.58e-12             2.5118e-05           
  -0.45                 -2.6668e-05           -1.16e-11             -1.52e-12             2.6692e-05           
  -0.5                  -2.7862e-05           -1.136e-11            -1.6e-12              2.7894e-05           
  -0.55                 -2.881e-05            -1.084e-11            -1.58e-12             2.883e-05            
  -0.6                  -2.9484e-05           -1.07e-11             -1.54e-12             2.951e-05            
  -0.65                 -2.999e-05            -1.054e-11            -1.52e-12             3.0006e-05           
  -0.7                  -3.0392e-05           -1.048e-11            -1.46e-12             3.0406e-05           
  -0.75                 -3.073e-05            -1.016e-11            -1.5e-12              3.0728e-05           
  -0.8                  -3.1e-05              -1.004e-11            -1.5e-12              3.1026e-05           
  -0.85                 -3.1212e-05           -9.86e-12             -1.48e-12             3.1224e-05           
  -0.9                  -3.1448e-05           -1.004e-11            -1.44e-12             3.1458e-05           
  -0.95                 -3.164e-05            -1e-11                -1.46e-12             3.1652e-05           
  -1                    -3.1804e-05           -1.008e-11            -1.56e-12             3.1838e-05           
  -1.05                 -3.1974e-05           -1.004e-11            -1.52e-12             3.2002e-05           
  -1.1                  -3.2154e-05           -9.74e-12             -1.48e-12             3.2164e-05           
  -1.15                 -3.2292e-05           -9.7e-12              -1.52e-12             3.2316e-05           
  -1.2                  -3.2424e-05           -1e-11                -1.48e-12             3.246e-05            
  -1.25                 -3.255e-05            -9.78e-12             -1.42e-12             3.2586e-05           
  -1.3                  -3.2706e-05           -9.64e-12             -1.54e-12             3.2688e-05           
  -1.35                 -3.2828e-05           -9.62e-12             -1.52e-12             3.2842e-05           
END_DB

BEGIN_DB
 ICCAP_VAR vg         -1.35          
 ICCAP_VAR vb         -0             
 ICCAP_VAR vs         -0             

 #vd                    id                    ig                    ib                    is                   
  -0                    3.5632e-09            -4.83e-11             -9.2e-13              -4.905e-09           
  -0.05                 -5.1322e-06           -4.478e-11            -1.1e-12              5.1364e-06           
  -0.1                  -1.002e-05            -4.17e-11             -1.16e-12             1.00274e-05          
  -0.15                 -1.465e-05            -3.884e-11            -1.2e-12              1.466e-05            
  -0.2                  -1.9004e-05           -3.612e-11            -1.28e-12             1.902e-05            
  -0.25                 -2.3088e-05           -3.368e-11            -1.24e-12             2.311e-05            
  -0.3                  -2.6878e-05           -3.174e-11            -1.18e-12             2.691e-05            
  -0.35                 -3.0368e-05           -2.984e-11            -1.24e-12             3.0382e-05           
  -0.4                  -3.3534e-05           -2.818e-11            -1.2e-12              3.3542e-05           
  -0.45                 -3.6354e-05           -2.664e-11            -1.3e-12              3.6346e-05           
  -0.5                  -3.8808e-05           -2.556e-11            -1.34e-12             3.8842e-05           
  -0.55                 -4.0954e-05           -2.446e-11            -1.36e-12             4.096e-05            
  -0.6                  -4.2762e-05           -2.36e-11             -1.36e-12             4.278e-05            
  -0.65                 -4.4252e-05           -2.292e-11            -1.3e-12              4.4278e-05           
  -0.7                  -4.543e-05            -2.246e-11            -1.34e-12             4.5458e-05           
  -0.75                 -4.638e-05            -2.196e-11            -1.3e-12              4.639e-05            
  -0.8                  -4.7112e-05           -2.164e-11            -1.28e-12             4.717e-05            
  -0.85                 -4.7718e-05           -2.132e-11            -1.38e-12             4.774e-05            
  -0.9                  -4.8196e-05           -2.092e-11            -1.26e-12             4.8188e-05           
  -0.95                 -4.8564e-05           -2.122e-11            -1.22e-12             4.8566e-05           
  -1                    -4.8926e-05           -2.104e-11            -1.18e-12             4.8884e-05           
  -1.05                 -4.9238e-05           -2.076e-11            -1.22e-12             4.924e-05            
  -1.1                  -4.9484e-05           -2.068e-11            -1.24e-12             4.9494e-05           
  -1.15                 -4.9688e-05           -2.082e-11            -1.24e-12             4.9756e-05           
  -1.2                  -4.9888e-05           -2.056e-11            -1.2e-12              4.9952e-05           
  -1.25                 -5.0162e-05           -2.04e-11             -1.18e-12             5.0182e-05           
  -1.3                  -5.038e-05            -2.048e-11            -1.26e-12             5.0404e-05           
  -1.35                 -5.0564e-05           -2.044e-11            -1.24e-12             5.0576e-05           
END_DB

