! VERSION = 6.00
BEGIN_HEADER
 ICCAP_INPUTS
  vg         V  G GROUND SMU2 0.001 LIN        1    0.5        -1.35      38   -0.05     
  vb         V  B GROUND SMU4 0.1 LIN        2    0          1.2        7    0.2       
  vd         V  D GROUND SMU1 0.1 LIST       3 3 -0.05 -0.6 -1.2
  vs         V  S GROUND SMU3 0.1 CON        -0
 ICCAP_OUTPUTS
  id         I  D GROUND SMU1 B
  ig         I  G GROUND SMU2 B
  ib         I  B GROUND SMU4 B
  is         I  S GROUND SMU3 B
 ICCAP_VALUES
  MASTER_SETUP_TYPE "~dc_idvg~"
  LINVT_VALUE ""
  LISTVT_VALUE ""
  TYPE "-1"
  TEMP " 27.0000 "
  IS_TNOM " 1.00000 "
  MAIN.W "600.0n"
  MAIN.L "1.200u"
  MAIN.AD "204.0f"
  MAIN.AS "204.0f"
  MAIN.PD "1.880u"
  MAIN.PS "1.880u"
  MAIN.NF "1.000"
  MAIN.M "1"
  MAIN.NRD "0.000"
  MAIN.NRS "0.000"
  MAIN.LDRIFT1 "1E-06"
  MAIN.LDRIFT2 "1E-06"
  MAIN.SA "0.000"
  MAIN.SB "0.000"
  MAIN.SD "0.000"
  MAIN.SCA "0.000"
  MAIN.SCB "0.000"
  MAIN.SCC "0.000"
  MAIN.SC "0.000"
  MODULE "S551"
  PIN_D "12"
  PIN_G "9"
  PIN_S "10"
  PIN_B "11"
  PIN_E ""
  PIN_6 ""
  XY_ID ""
  FUNC "LW Scale"
  STI "SA ref"
  WPE "WPE ref"
  COMMENT ""
  DIS_MEAS ""
  TypeTCI "10"
END_HEADER

BEGIN_DB
 ICCAP_VAR vb         0              
 ICCAP_VAR vd         -0.05          
 ICCAP_VAR vs         -0             

 #vg                    id                    ig                    ib                    is                   
  0.5                   -2e-13                1.946e-11             -6.32e-12             -1e-13               
  0.45                  -3e-13                3e-12                 -1.82e-12             6e-14                
  0.4                   -6e-14                7.4e-13               -1e-12                -1.6e-13             
  0.35                  -1.8e-13              2e-14                 -7.6e-13              -8e-14               
  0.3                   4e-14                 -2e-14                -8e-13                1e-13                
  0.25                  -1.4e-13              -1.4e-13              -7.4e-13              -2e-14               
  0.2                   -6e-14                -1.4e-13              -7.6e-13              1.2e-13              
  0.15                  -1.4e-13              -2e-13                -9.2e-13              -6e-14               
  0.1                   -2e-13                -3.8e-13              -7.6e-13              3e-13                
  0.05                  -2.8e-13              -2.6e-13              -7.2e-13              3.6e-13              
  0                     -1.76e-12             -4.6e-13              -8.4e-13              1.82e-12             
  -0.05                 -7.74e-12             -3.4e-13              -7.2e-13              7.78e-12             
  -0.1                  -3.692e-11            -4e-13                -6.4e-13              3.7e-11              
  -0.15                 -1.7796e-10           -4.6e-13              -8.6e-13              1.7796e-10           
  -0.2                  -8.495e-10            -5.4e-13              -7.4e-13              8.4838e-10           
  -0.25                 -3.89e-09             -4.2e-13              -8.4e-13              3.8734e-09           
  -0.3                  -1.5522e-08           -4.6e-13              -7.4e-13              1.5608e-08           
  -0.35                 -4.8736e-08           -6.6e-13              -8e-13                4.883e-08            
  -0.4                  -1.14938e-07          -7.2e-13              -6.6e-13              1.15e-07             
  -0.45                 -2.1346e-07           -1.04e-12             -8.6e-13              2.1342e-07           
  -0.5                  -3.3358e-07           -1.6e-12              -8e-13                3.3378e-07           
  -0.55                 -4.6528e-07           -2.32e-12             -7.8e-13              4.6582e-07           
  -0.6                  -6.0244e-07           -3.34e-12             -7.8e-13              6.0264e-07           
  -0.65                 -7.3934e-07           -4.52e-12             -7e-13                7.3946e-07           
  -0.7                  -8.7428e-07           -6.16e-12             -8.6e-13              8.7434e-07           
  -0.75                 -1.00542e-06          -8.18e-12             -7.6e-13              1.00546e-06          
  -0.8                  -1.13232e-06          -1.08e-11             -7.4e-13              1.13226e-06          
  -0.85                 -1.2524e-06           -1.388e-11            -6.6e-13              1.2558e-06           
  -0.9                  -1.369e-06            -1.77e-11             -8.4e-13              1.3724e-06           
  -0.95                 -1.4804e-06           -2.252e-11            -6.6e-13              1.4838e-06           
  -1                    -1.5878e-06           -2.792e-11            -7.6e-13              1.591e-06            
  -1.05                 -1.6886e-06           -3.418e-11            -7e-13                1.692e-06            
  -1.1                  -1.7854e-06           -4.176e-11            -7e-13                1.789e-06            
  -1.15                 -1.8772e-06           -5.124e-11            -8e-13                1.8798e-06           
  -1.2                  -1.9632e-06           -6.11e-11             -6.6e-13              1.967e-06            
  -1.25                 -2.045e-06            -7.232e-11            -6.6e-13              2.0484e-06           
  -1.3                  -2.1222e-06           -8.506e-11            -4.4e-13              2.1252e-06           
  -1.35                 -2.1956e-06           -1.0026e-10           -1e-13                2.1988e-06           
END_DB

BEGIN_DB
 ICCAP_VAR vb         0.2            
 ICCAP_VAR vd         -0.05          
 ICCAP_VAR vs         -0             

 #vg                    id                    ig                    ib                    is                   
  0.5                   -2.4e-13              4.8e-13               0                     8e-14                
  0.45                  0                     1.8e-13               -4e-14                2e-14                
  0.4                   -1.8e-13              4e-14                 -2e-14                -1e-13               
  0.35                  -6e-14                -8e-14                -1e-13                2.4e-13              
  0.3                   -6e-14                6e-14                 -6e-14                -1e-13               
  0.25                  4e-14                 -2.6e-13              -2e-14                1e-13                
  0.2                   -8e-14                -4e-14                -1.2e-13              0                    
  0.15                  -4e-14                -3.4e-13              4e-14                 6e-14                
  0.1                   4e-14                 -2.6e-13              0                     -6e-14               
  0.05                  -1.2e-13              -2.4e-13              -4e-14                1.2e-13              
  0                     -5e-13                -3.2e-13              -4e-14                4.6e-13              
  -0.05                 -2.2e-12              -2e-13                1e-13                 2.08e-12             
  -0.1                  -1.066e-11            -4.8e-13              -6e-14                1.084e-11            
  -0.15                 -5.354e-11            -4e-13                -6e-14                5.372e-11            
  -0.2                  -2.6498e-10           -3.8e-13              2e-14                 2.652e-10            
  -0.25                 -1.2952e-09           -2.8e-13              -1e-13                1.2976e-09           
  -0.3                  -5.9124e-09           -4e-13                2e-14                 5.9088e-09           
  -0.35                 -2.2418e-08           -3.8e-13              -6e-14                2.2456e-08           
  -0.4                  -6.4642e-08           -7.4e-13              0                     6.4584e-08           
  -0.45                 -1.397e-07            -9.4e-13              -6e-14                1.4002e-07           
  -0.5                  -2.4378e-07           -1.48e-12             -6e-14                2.4378e-07           
  -0.55                 -3.6462e-07           -2.08e-12             -1.2e-13              3.6492e-07           
  -0.6                  -4.944e-07            -3.06e-12             0                     4.9458e-07           
  -0.65                 -6.2698e-07           -4.3e-12              -1.4e-13              6.2702e-07           
  -0.7                  -7.5924e-07           -6e-12                6e-14                 7.594e-07            
  -0.75                 -8.8864e-07           -7.92e-12             -8e-14                8.8886e-07           
  -0.8                  -1.01448e-06          -1.076e-11            0                     1.01462e-06          
  -0.85                 -1.13628e-06          -1.39e-11             -1.2e-13              1.1364e-06           
  -0.9                  -1.251e-06            -1.758e-11            0                     1.2544e-06           
  -0.95                 -1.3622e-06           -2.238e-11            -1.4e-13              1.3658e-06           
  -1                    -1.4692e-06           -2.776e-11            8e-14                 1.4728e-06           
  -1.05                 -1.5708e-06           -3.424e-11            -8e-14                1.5738e-06           
  -1.1                  -1.6678e-06           -4.192e-11            -1.2e-13              1.671e-06            
  -1.15                 -1.7592e-06           -5.054e-11            2e-14                 1.7636e-06           
  -1.2                  -1.848e-06            -6.054e-11            2e-14                 1.8504e-06           
  -1.25                 -1.93e-06             -7.214e-11            8e-14                 1.933e-06            
  -1.3                  -2.0074e-06           -8.452e-11            1.8e-13               2.011e-06            
  -1.35                 -2.0822e-06           -9.94e-11             5.8e-13               2.0856e-06           
END_DB

BEGIN_DB
 ICCAP_VAR vb         0.4            
 ICCAP_VAR vd         -0.05          
 ICCAP_VAR vs         -0             

 #vg                    id                    ig                    ib                    is                   
  0.5                   -2.2e-13              4.6e-13               4e-14                 1.4e-13              
  0.45                  -4e-14                2.2e-13               1e-13                 -6e-14               
  0.4                   -2e-14                6e-14                 -1e-13                -2e-14               
  0.35                  -1.4e-13              -1.2e-13              4e-14                 0                    
  0.3                   0                     -1.6e-13              -4e-14                8e-14                
  0.25                  -6e-14                -2.2e-13              -2e-14                1.2e-13              
  0.2                   -1e-13                -2.6e-13              0                     1.4e-13              
  0.15                  6e-14                 -3.2e-13              -2e-14                8e-14                
  0.1                   -4e-14                -2e-13                4e-14                 2e-14                
  0.05                  0                     -4.4e-13              -1e-13                2e-13                
  0                     -2e-13                -2.8e-13              -6e-14                1.8e-13              
  -0.05                 -7.4e-13              -4.2e-13              -1.2e-13              8e-13                
  -0.1                  -3.58e-12             -3.8e-13              2e-14                 3.54e-12             
  -0.15                 -1.78e-11             -3.4e-13              -8e-14                1.772e-11            
  -0.2                  -9.01e-11             -3.8e-13              -1.4e-13              9.024e-11            
  -0.25                 -4.5682e-10           -3.8e-13              -4e-14                4.5654e-10           
  -0.3                  -2.2452e-09           -3.8e-13              -8e-14                2.2454e-09           
  -0.35                 -9.8044e-09           -4.6e-13              -1.4e-13              9.8208e-09           
  -0.4                  -3.4182e-08           -6.6e-13              0                     3.4202e-08           
  -0.45                 -8.7622e-08           -7.6e-13              -4e-14                8.7762e-08           
  -0.5                  -1.7274e-07           -1.42e-12             -6e-14                1.7272e-07           
  -0.55                 -2.8054e-07           -2e-12                -1e-13                2.8084e-07           
  -0.6                  -4.024e-07            -2.78e-12             -8e-14                4.026e-07            
  -0.65                 -5.2974e-07           -3.98e-12             -4e-14                5.2988e-07           
  -0.7                  -6.587e-07            -5.74e-12             0                     6.5906e-07           
  -0.75                 -7.8604e-07           -7.58e-12             -6e-14                7.856e-07            
  -0.8                  -9.101e-07            -1.012e-11            0                     9.105e-07            
  -0.85                 -1.03128e-06          -1.35e-11             -6e-14                1.0314e-06           
  -0.9                  -1.14712e-06          -1.758e-11            1e-13                 1.148e-06            
  -0.95                 -1.2576e-06           -2.182e-11            -1.4e-13              1.261e-06            
  -1                    -1.3642e-06           -2.738e-11            8e-14                 1.3682e-06           
  -1.05                 -1.4668e-06           -3.378e-11            -8e-14                1.4702e-06           
  -1.1                  -1.564e-06            -4.116e-11            -1e-13                1.5672e-06           
  -1.15                 -1.6562e-06           -5.008e-11            0                     1.6596e-06           
  -1.2                  -1.745e-06            -5.984e-11            -8e-14                1.7486e-06           
  -1.25                 -1.8286e-06           -7.172e-11            2e-13                 1.832e-06            
  -1.3                  -1.907e-06            -8.426e-11            2e-13                 1.9102e-06           
  -1.35                 -1.9818e-06           -9.852e-11            4.8e-13               1.9858e-06           
END_DB

BEGIN_DB
 ICCAP_VAR vb         0.6            
 ICCAP_VAR vd         -0.05          
 ICCAP_VAR vs         -0             

 #vg                    id                    ig                    ib                    is                   
  0.5                   -8e-14                3.6e-13               6e-14                 -1e-13               
  0.45                  -4e-14                2.2e-13               2e-14                 6e-14                
  0.4                   -4e-14                2e-14                 0                     1.6e-13              
  0.35                  -4e-14                1e-13                 0                     -6e-14               
  0.3                   -1e-13                -1.4e-13              -8e-14                3.8e-13              
  0.25                  0                     8e-14                 -2e-14                -8e-14               
  0.2                   -6e-14                6e-14                 8e-14                 4e-14                
  0.15                  1.2e-13               -3e-13                8e-14                 0                    
  0.1                   -6e-14                -1.6e-13              -1e-13                6e-14                
  0.05                  0                     -1e-13                8e-14                 0                    
  0                     -4e-14                -3.4e-13              -1e-13                1e-13                
  -0.05                 -4e-13                -3.6e-13              4e-14                 2.2e-13              
  -0.1                  -1.22e-12             -2.6e-13              -1.6e-13              1.3e-12              
  -0.15                 -6.38e-12             -4e-13                -2e-14                6.42e-12             
  -0.2                  -3.282e-11            -3.4e-13              -8e-14                3.284e-11            
  -0.25                 -1.7012e-10           -3.2e-13              0                     1.7024e-10           
  -0.3                  -8.7396e-10           -4.6e-13              2e-14                 8.7256e-10           
  -0.35                 -4.1914e-09           -4.6e-13              8e-14                 4.193e-09            
  -0.4                  -1.7062e-08           -5.2e-13              -4e-14                1.7066e-08           
  -0.45                 -5.2172e-08           -8.6e-13              -2e-14                5.2212e-08           
  -0.5                  -1.1844e-07           -1.26e-12             -4e-14                1.1878e-07           
  -0.55                 -2.122e-07            -1.82e-12             6e-14                 2.122e-07            
  -0.6                  -3.2434e-07           -2.8e-12              -1e-13                3.2424e-07           
  -0.65                 -4.4552e-07           -3.94e-12             2e-14                 4.4576e-07           
  -0.7                  -5.7054e-07           -5.42e-12             -6e-14                5.7084e-07           
  -0.75                 -6.9558e-07           -7.38e-12             -4e-14                6.956e-07            
  -0.8                  -8.1834e-07           -9.88e-12             -1.6e-13              8.1778e-07           
  -0.85                 -9.3724e-07           -1.298e-11            -2e-14                9.379e-07            
  -0.9                  -1.05352e-06          -1.668e-11            -8e-14                1.05378e-06          
  -0.95                 -1.163e-06            -2.102e-11            -6e-14                1.1672e-06           
  -1                    -1.2708e-06           -2.646e-11            -6e-14                1.2738e-06           
  -1.05                 -1.3726e-06           -3.292e-11            0                     1.376e-06            
  -1.1                  -1.4702e-06           -4.022e-11            -1.6e-13              1.4738e-06           
  -1.15                 -1.5622e-06           -4.924e-11            -4e-14                1.5664e-06           
  -1.2                  -1.651e-06            -5.93e-11             2e-14                 1.6548e-06           
  -1.25                 -1.7348e-06           -7.08e-11             1.6e-13               1.7384e-06           
  -1.3                  -1.8148e-06           -8.364e-11            2.4e-13               1.818e-06            
  -1.35                 -1.8904e-06           -9.782e-11            4.8e-13               1.8924e-06           
END_DB

BEGIN_DB
 ICCAP_VAR vb         0.8            
 ICCAP_VAR vd         -0.05          
 ICCAP_VAR vs         -0             

 #vg                    id                    ig                    ib                    is                   
  0.5                   -8e-14                5.4e-13               1.4e-13               -2e-14               
  0.45                  -1.2e-13              1.8e-13               -2e-13                2e-13                
  0.4                   -2.4e-13              1.4e-13               4e-14                 -1.8e-13             
  0.35                  6e-14                 -8e-14                2e-14                 4e-14                
  0.3                   -8e-14                -1.4e-13              -4e-14                1.2e-13              
