! VERSION = 6.00
BEGIN_HEADER
 ICCAP_INPUTS
  vg         V  G GROUND SMU2 0.001 LIN        1    0.5        -1.35      38   -0.05     
  vb         V  B GROUND SMU4 0.1 LIN        2    0          1.2        7    0.2       
  vd         V  D GROUND SMU1 0.1 LIST       3 3 -0.05 -0.6 -1.2
  vs         V  S GROUND SMU3 0.1 CON        -0
 ICCAP_OUTPUTS
  id         I  D GROUND SMU1 B
  ig         I  G GROUND SMU2 B
  ib         I  B GROUND SMU4 B
  is         I  S GROUND SMU3 B
 ICCAP_VALUES
  MASTER_SETUP_TYPE "~dc_idvg~"
  LINVT_VALUE ""
  LISTVT_VALUE ""
  TYPE "-1"
  TEMP " 70.0000 "
  IS_TNOM " 0.00000 "
  MAIN.W "10.00u"
  MAIN.L "10.00u"
  MAIN.AD "3.400p"
  MAIN.AS "3.400p"
  MAIN.PD "20.68u"
  MAIN.PS "20.68u"
  MAIN.NF "1.000"
  MAIN.M "1"
  MAIN.NRD "0.000"
  MAIN.NRS "0.000"
  MAIN.LDRIFT1 "1E-06"
  MAIN.LDRIFT2 "1E-06"
  MAIN.SA "0.000"
  MAIN.SB "0.000"
  MAIN.SD "0.000"
  MAIN.SCA "0.000"
  MAIN.SCB "0.000"
  MAIN.SCC "0.000"
  MAIN.SC "0.000"
  MODULE "S549"
  PIN_D "12"
  PIN_G "9"
  PIN_S "10"
  PIN_B "11"
  PIN_E ""
  PIN_6 ""
  XY_ID ""
  FUNC "Large"
  STI "SA ref"
  WPE "WPE ref"
  COMMENT ""
  DIS_MEAS ""
  TypeTCI "10"
END_HEADER

BEGIN_DB
 ICCAP_VAR vb         0              
 ICCAP_VAR vd         -0.05          
 ICCAP_VAR vs         -0             

 #vg                    id                    ig                    ib                    is                   
  0.5                   -2.56e-12             6.413e-10             -5.4538e-10           -1.98e-12            
  0.45                  -1.76e-12             1.224e-10             -2.486e-10            -1.32e-12            
  0.4                   -1.34e-12             2.544e-11             -1.4356e-10           -9.2e-13             
  0.35                  -8.8e-13              6.68e-12              -9.998e-11            -7e-13               
  0.3                   -7e-13                2.44e-12              -7.758e-11            -2.8e-13             
  0.25                  -5e-13                1.36e-12              -6.376e-11            -1e-13               
  0.2                   -5.4e-13              7.2e-13               -5.446e-11            -4e-14               
  0.15                  -7e-13                3e-13                 -4.75e-11             4.2e-13              
  0.1                   -1.82e-12             1.2e-13               -4.22e-11             1.68e-12             
  0.05                  -6.34e-12             -4e-14                -3.8e-11              6.4e-12              
  0                     -2.45e-11             -8e-14                -3.43e-11             2.45e-11             
  -0.05                 -9.612e-11            -3.6e-13              -3.106e-11            9.638e-11            
  -0.1                  -3.8152e-10           -6.2e-13              -2.86e-11             3.8172e-10           
  -0.15                 -1.5154e-09           -9e-13                -2.466e-11            1.5156e-09           
  -0.2                  -5.8846e-09           -1.72e-12             -2.264e-11            5.885e-09            
  -0.25                 -2.1194e-08           -4.32e-12             -2.072e-11            2.1214e-08           
  -0.3                  -6.4238e-08           -1.102e-11            -1.916e-11            6.427e-08            
  -0.35                 -1.5278e-07           -2.542e-11            -1.782e-11            1.5284e-07           
  -0.4                  -2.8926e-07           -5.094e-11            -1.656e-11            2.8936e-07           
  -0.45                 -4.6022e-07           -9.184e-11            -1.52e-11             4.6034e-07           
  -0.5                  -6.5112e-07           -1.5262e-10           -1.434e-11            6.5132e-07           
  -0.55                 -8.5042e-07           -2.388e-10            -1.322e-11            8.507e-07            
  -0.6                  -1.05214e-06          -3.5746e-10           -1.232e-11            1.05258e-06          
  -0.65                 -1.251e-06            -5.148e-10            -1.104e-11            1.2544e-06           
  -0.7                  -1.4468e-06           -7.1984e-10           -1.028e-11            1.4504e-06           
  -0.75                 -1.637e-06            -9.8148e-10           -9.4e-12              1.6408e-06           
  -0.8                  -1.8212e-06           -1.3092e-09           -8.68e-12             1.8252e-06           
  -0.85                 -1.9986e-06           -1.7136e-09           -8.06e-12             2.0032e-06           
  -0.9                  -2.1692e-06           -2.2046e-09           -7.44e-12             2.1742e-06           
  -0.95                 -2.3328e-06           -2.7926e-09           -6.86e-12             2.3382e-06           
  -1                    -2.4892e-06           -3.492e-09            -6.26e-12             2.4956e-06           
  -1.05                 -2.6388e-06           -4.3104e-09           -5.54e-12             2.6458e-06           
  -1.1                  -2.7816e-06           -5.2636e-09           -4.38e-12             2.7894e-06           
  -1.15                 -2.9178e-06           -6.3624e-09           -1.8e-12              2.9266e-06           
  -1.2                  -3.0472e-06           -7.6252e-09           4.04e-12              3.0576e-06           
  -1.25                 -3.1708e-06           -9.0654e-09           1.666e-11             3.1826e-06           
  -1.3                  -3.288e-06            -1.06944e-08          4.174e-11             3.3014e-06           
  -1.35                 -3.4e-06              -1.2546e-08           8.876e-11             3.415e-06            
END_DB

BEGIN_DB
 ICCAP_VAR vb         0.2            
 ICCAP_VAR vd         -0.05          
 ICCAP_VAR vs         -0             

 #vg                    id                    ig                    ib                    is                   
  0.5                   -2.24e-12             5.6e-12               1.37e-11              -2.04e-12            
  0.45                  -1.78e-12             3.7e-12               1.41e-11              -1.48e-12            
  0.4                   -1.38e-12             2.56e-12              1.406e-11             -1.22e-12            
  0.35                  -1.22e-12             2e-12                 1.432e-11             -1.12e-12            
  0.3                   -1e-12                1.1e-12               1.414e-11             -6.8e-13             
  0.25                  -7.6e-13              7e-13                 1.414e-11             -5e-13               
  0.2                   -6.8e-13              5.2e-13               1.416e-11             -4e-13               
  0.15                  -5.8e-13              2.2e-13               1.42e-11              -1.2e-13             
  0.1                   -7.4e-13              -4e-14                1.398e-11             3.4e-13              
  0.05                  -2e-12                -2.8e-13              1.39e-11              1.86e-12             
  0                     -7.46e-12             -4e-13                1.396e-11             7.52e-12             
  -0.05                 -2.972e-11            -5.2e-13              1.392e-11             2.984e-11            
  -0.1                  -1.2176e-10           -8.4e-13              1.388e-11             1.22e-10             
  -0.15                 -4.9928e-10           -9.4e-13              1.396e-11             4.994e-10            
  -0.2                  -2.032e-09            -1.36e-12             1.376e-11             2.0328e-09           
  -0.25                 -8.0052e-09           -3.04e-12             1.384e-11             8.0066e-09           
  -0.3                  -2.831e-08            -7.7e-12              1.366e-11             2.8332e-08           
  -0.35                 -8.1268e-08           -1.908e-11            1.38e-11              8.1294e-08           
  -0.4                  -1.8134e-07           -4.15e-11             1.386e-11             1.8142e-07           
  -0.45                 -3.2478e-07           -7.91e-11             1.378e-11             3.249e-07            
  -0.5                  -4.975e-07            -1.3686e-10           1.376e-11             4.9768e-07           
  -0.55                 -6.8534e-07           -2.1982e-10           1.384e-11             6.8564e-07           
  -0.6                  -8.7972e-07           -3.3502e-10           1.374e-11             8.8008e-07           
  -0.65                 -1.07482e-06          -4.891e-10            1.366e-11             1.07536e-06          
  -0.7                  -1.2664e-06           -6.9098e-10           1.372e-11             1.27e-06             
  -0.75                 -1.4546e-06           -9.484e-10            1.36e-11              1.4582e-06           
  -0.8                  -1.6374e-06           -1.2722e-09           1.37e-11              1.6416e-06           
  -0.85                 -1.8142e-06           -1.6726e-09           1.366e-11             1.8186e-06           
  -0.9                  -1.9842e-06           -2.1594e-09           1.378e-11             1.9894e-06           
  -0.95                 -2.1476e-06           -2.7442e-09           1.37e-11              2.1532e-06           
  -1                    -2.3044e-06           -3.438e-09            1.386e-11             2.3106e-06           
  -1.05                 -2.454e-06            -4.2524e-09           1.418e-11             2.461e-06            
  -1.1                  -2.5972e-06           -5.2014e-09           1.506e-11             2.605e-06            
  -1.15                 -2.7338e-06           -6.2958e-09           1.714e-11             2.7428e-06           
  -1.2                  -2.864e-06            -7.5516e-09           2.272e-11             2.8742e-06           
  -1.25                 -2.9884e-06           -8.9926e-09           3.49e-11              3e-06                
  -1.3                  -3.1064e-06           -1.06178e-08          5.966e-11             3.1198e-06           
  -1.35                 -3.219e-06            -1.2462e-08           1.0632e-10            3.2338e-06           
END_DB

BEGIN_DB
 ICCAP_VAR vb         0.4            
 ICCAP_VAR vd         -0.05          
 ICCAP_VAR vs         -0             

 #vg                    id                    ig                    ib                    is                   
  0.5                   -2.28e-12             4.48e-12              1.53e-11              -2.02e-12            
  0.45                  -1.78e-12             3.3e-12               1.526e-11             -1.48e-12            
  0.4                   -1.44e-12             2.48e-12              1.524e-11             -1.18e-12            
  0.35                  -1.12e-12             1.82e-12              1.516e-11             -9.4e-13             
  0.3                   -1e-12                1.32e-12              1.522e-11             -6.6e-13             
  0.25                  -7.6e-13              7.4e-13               1.526e-11             -3.8e-13             
  0.2                   -4.8e-13              4e-13                 1.512e-11             -3e-13               
  0.15                  -5.8e-13              2e-13                 1.518e-11             -3.6e-13             
  0.1                   -4.4e-13              -4e-14                1.514e-11             0                    
  0.05                  -8.6e-13              -1.6e-13              1.494e-11             5.4e-13              
  0                     -2.56e-12             -2.8e-13              1.508e-11             2.4e-12              
  -0.05                 -1.024e-11            -5e-13                1.492e-11             1.036e-11            
  -0.1                  -4.274e-11            -6.8e-13              1.488e-11             4.286e-11            
  -0.15                 -1.786e-10            -7.2e-13              1.494e-11             1.7884e-10           
  -0.2                  -7.4672e-10           -1.38e-12             1.498e-11             7.4732e-10           
  -0.25                 -3.0862e-09           -2.22e-12             1.486e-11             3.0874e-09           
  -0.3                  -1.2048e-08           -5.22e-12             1.486e-11             1.207e-08            
  -0.35                 -4.0514e-08           -1.358e-11            1.488e-11             4.054e-08            
  -0.4                  -1.07324e-07          -3.22e-11             1.486e-11             1.07366e-07          
  -0.45                 -2.2058e-07           -6.608e-11            1.492e-11             2.2066e-07           
  -0.5                  -3.7176e-07           -1.2016e-10           1.494e-11             3.719e-07            
  -0.55                 -5.4574e-07           -1.9962e-10           1.496e-11             5.4592e-07           
  -0.6                  -7.3126e-07           -3.1124e-10           1.486e-11             7.316e-07            
  -0.65                 -9.2062e-07           -4.6186e-10           1.492e-11             9.2108e-07           
  -0.7                  -1.1096e-06           -6.5956e-10           1.49e-11              1.11026e-06          
  -0.75                 -1.2938e-06           -9.1366e-10           1.486e-11             1.2976e-06           
  -0.8                  -1.475e-06            -1.2322e-09           1.484e-11             1.4792e-06           
  -0.85                 -1.6506e-06           -1.6284e-09           1.478e-11             1.6552e-06           
  -0.9                  -1.8202e-06           -2.1114e-09           1.492e-11             1.8252e-06           
  -0.95                 -1.9832e-06           -2.6902e-09           1.504e-11             1.9888e-06           
  -1                    -2.14e-06             -3.38e-09             1.51e-11              2.1462e-06           
  -1.05                 -2.2898e-06           -4.1894e-09           1.54e-11              2.2968e-06           
  -1.1                  -2.4332e-06           -5.134e-09            1.636e-11             2.441e-06            
  -1.15                 -2.5702e-06           -6.2256e-09           1.852e-11             2.5792e-06           
  -1.2                  -2.7008e-06           -7.4756e-09           2.406e-11             2.711e-06            
  -1.25                 -2.8258e-06           -8.9076e-09           3.624e-11             2.8374e-06           
  -1.3                  -2.9444e-06           -1.05288e-08          6.124e-11             2.9574e-06           
  -1.35                 -3.0576e-06           -1.2376e-08           1.079e-10             3.0724e-06           
END_DB

BEGIN_DB
 ICCAP_VAR vb         0.6            
 ICCAP_VAR vd         -0.05          
 ICCAP_VAR vs         -0             

 #vg                    id                    ig                    ib                    is                   
  0.5                   -2.3e-12              4.3e-12               1.552e-11             -2.08e-12            
  0.45                  -1.8e-12              3.26e-12              1.542e-11             -1.52e-12            
  0.4                   -1.56e-12             2.48e-12              1.542e-11             -1.4e-12             
  0.35                  -1.14e-12             1.64e-12              1.544e-11             -9.4e-13             
  0.3                   -9.4e-13              1.18e-12              1.538e-11             -7e-13               
  0.25                  -7.8e-13              8e-13                 1.532e-11             -6.6e-13             
  0.2                   -5.6e-13              3.2e-13               1.538e-11             -2.6e-13             
  0.15                  -5e-13                1.6e-13               1.538e-11             -3e-13               
  0.1                   -4.4e-13              -6e-14                1.534e-11             -1.4e-13             
  0.05                  -4.2e-13              -3.2e-13              1.534e-11             3.2e-13              
  0                     -1.1e-12              -3.4e-13              1.52e-11              1e-12                
  -0.05                 -3.84e-12             -5.4e-13              1.514e-11             3.9e-12              
  -0.1                  -1.61e-11             -6.2e-13              1.514e-11             1.61e-11             
  -0.15                 -6.808e-11            -8.2e-13              1.514e-11             6.828e-11            
  -0.2                  -2.8976e-10           -1.3e-12              1.518e-11             2.9086e-10           
  -0.25                 -1.2318e-09           -1.94e-12             1.508e-11             1.2328e-09           
  -0.3                  -5.0948e-09           -3.92e-12             1.514e-11             5.0972e-09           
  -0.35                 -1.9208e-08           -9.58e-12             1.498e-11             1.9234e-08           
  -0.4                  -5.972e-08            -2.428e-11            1.51e-11              5.9752e-08           
  -0.45                 -1.4282e-07           -5.346e-11            1.512e-11             1.429e-07            
  -0.5                  -2.6956e-07           -1.0342e-10           1.502e-11             2.6968e-07           
  -0.55                 -4.2696e-07           -1.7884e-10           1.502e-11             4.2718e-07           
  -0.6                  -6.0188e-07           -2.864e-10            1.516e-11             6.022e-07            
  -0.65                 -7.845e-07            -4.3286e-10           1.504e-11             7.8492e-07           
  -0.7                  -9.6898e-07           -6.2684e-10           1.524e-11             9.6966e-07           
  -0.75                 -1.1502e-06           -8.7628e-10           1.508e-11             1.154e-06            
  -0.8                  -1.3294e-06           -1.1916e-09           1.508e-11             1.3336e-06           
  -0.85                 -1.5038e-06           -1.5824e-09           1.52e-11              1.5084e-06           
  -0.9                  -1.6726e-06           -2.06e-09             1.518e-11             1.6776e-06           
  -0.95                 -1.8352e-06           -2.6344e-09           1.522e-11             1.8406e-06           
  -1                    -1.9916e-06           -3.3198e-09           1.538e-11             1.9978e-06           
  -1.05                 -2.1412e-06           -4.124e-09            1.572e-11             2.1482e-06           
  -1.1                  -2.285e-06            -5.0618e-09           1.676e-11             2.2928e-06           
  -1.15                 -2.4222e-06           -6.1496e-09           1.894e-11             2.4312e-06           
  -1.2                  -2.5534e-06           -7.3924e-09           2.454e-11             2.5632e-06           
  -1.25                 -2.6784e-06           -8.8246e-09           3.694e-11             2.6898e-06           
  -1.3                  -2.7976e-06           -1.04402e-08          6.172e-11             2.8106e-06           
  -1.35                 -2.9114e-06           -1.2272e-08           1.0846e-10            2.9258e-06           
END_DB

BEGIN_DB
 ICCAP_VAR vb         0.8            
 ICCAP_VAR vd         -0.05          
 ICCAP_VAR vs         -0             

 #vg                    id                    ig                    ib                    is                   
  0.5                   -2.42e-12             4.3e-12               1.568e-11             -1.9e-12             
  0.45                  -1.78e-12             3.18e-12              1.568e-11             -1.62e-12            
  0.4                   -1.36e-12             2.42e-12              1.566e-11             -1.14e-12            
  0.35                  -1.16e-12             1.64e-12              1.558e-11             -7.6e-13             
  0.3                   -8.6e-13              1.2e-12               1.562e-11             -6.8e-13             
