! VERSION = 6.00
BEGIN_HEADER
 ICCAP_INPUTS
  vd         V  D GROUND SMU1 0.1 LIN        1    -0         -1.35      28   -0.05     
  vg         V  G GROUND SMU2 0.001 LIST       2 3 -0.291 -0.491 -0.691
  vb         V  B GROUND SMU4 0.1 CON        1.2
  vs         V  S GROUND SMU3 0.1 CON        -0
 ICCAP_OUTPUTS
  id         I  D GROUND SMU1 B
  ig         I  G GROUND SMU2 B
  ib         I  B GROUND SMU4 B
  is         I  S GROUND SMU3 B
 ICCAP_VALUES
  MASTER_SETUP_TYPE "~dc_idvd~"
  LINVT_VALUE ""
  LISTVT_VALUE "|idvg|100.0n|-200.0m|1.000m|3|200.0m|200.0m|"
  TYPE "-1"
  TEMP " 27.0000 "
  IS_TNOM " 1.00000 "
  MAIN.W "150.0n"
  MAIN.L "500.0n"
  MAIN.AD "100.5f"
  MAIN.AS "100.5f"
  MAIN.PD "1.340u"
  MAIN.PS "1.340u"
  MAIN.NF "1.000"
  MAIN.M "1"
  MAIN.NRD "0.000"
  MAIN.NRS "0.000"
  MAIN.LDRIFT1 "1E-06"
  MAIN.LDRIFT2 "1E-06"
  MAIN.SA "0.000"
  MAIN.SB "0.000"
  MAIN.SD "0.000"
  MAIN.SCA "0.000"
  MAIN.SCB "0.000"
  MAIN.SCC "0.000"
  MAIN.SC "0.000"
  MODULE "S555"
  PIN_D "18"
  PIN_G "3"
  PIN_S "4"
  PIN_B "17"
  PIN_E ""
  PIN_6 ""
  XY_ID ""
  FUNC "LW Scale"
  STI "SA ref"
  WPE "WPE ref"
  COMMENT ""
  DIS_MEAS ""
  TypeTCI "10"
END_HEADER

BEGIN_DB
 ICCAP_VAR vg         -0.291         
 ICCAP_VAR vb         1.2            
 ICCAP_VAR vs         -0             

 #vd                    id                    ig                    ib                    is                   
  -0                    3.2e-13               1.2e-13               2.4e-13               -4e-14               
  -0.05                 -5.05e-11             1.4e-13               1e-13                 5.032e-11            
  -0.1                  -6.048e-11            2.8e-13               3e-13                 6.034e-11            
  -0.15                 -6.404e-11            4e-14                 1.2e-13               6.382e-11            
  -0.2                  -6.664e-11            2e-13                 2e-13                 6.642e-11            
  -0.25                 -6.866e-11            8e-14                 1.8e-13               6.69e-11             
  -0.3                  -7.066e-11            2.6e-13               2.2e-13               7.018e-11            
  -0.35                 -7.016e-11            1.6e-13               2e-14                 6.97e-11             
  -0.4                  -7.152e-11            8e-14                 1.6e-13               7.376e-11            
  -0.45                 -7.474e-11            2.4e-13               4e-14                 7.536e-11            
  -0.5                  -7.712e-11            8e-14                 8e-14                 7.684e-11            
  -0.55                 -7.6e-11              1.6e-13               0                     7.75e-11             
  -0.6                  -8.032e-11            2.4e-13               1e-13                 7.984e-11            
  -0.65                 -8.152e-11            2e-13                 0                     8.104e-11            
  -0.7                  -8.248e-11            2.6e-13               4e-14                 8.194e-11            
  -0.75                 -8.342e-11            1.8e-13               2e-14                 8.324e-11            
  -0.8                  -8.478e-11            2.4e-13               1e-13                 8.362e-11            
  -0.85                 -8.576e-11            1.8e-13               -8e-14                8.19e-11             
  -0.9                  -8.336e-11            2.6e-13               2.2e-13               8.578e-11            
  -0.95                 -8.468e-11            2.6e-13               4e-14                 8.332e-11            
  -1                    -8.81e-11             2.4e-13               -6e-14                8.76e-11             
  -1.05                 -8.91e-11             3e-13                 1e-13                 8.828e-11            
  -1.1                  -8.982e-11            3.8e-13               1.6e-13               8.898e-11            
  -1.15                 -9.066e-11            3.2e-13               8e-14                 8.604e-11            
  -1.2                  -9.134e-11            3.4e-13               2e-14                 8.818e-11            
  -1.25                 -8.81e-11             4e-13                 2e-14                 8.946e-11            
  -1.3                  -9.26e-11             4.8e-13               8e-14                 9.136e-11            
  -1.35                 -9.308e-11            5.2e-13               2e-14                 9.228e-11            
END_DB

BEGIN_DB
 ICCAP_VAR vg         -0.491         
 ICCAP_VAR vb         1.2            
 ICCAP_VAR vs         -0             

 #vd                    id                    ig                    ib                    is                   
  -0                    6.114e-11             -1.6e-13              4e-14                 -6.056e-11           
  -0.05                 -2.0814e-08           -2e-14                0                     2.084e-08            
  -0.1                  -2.647e-08            -8e-14                1e-13                 2.6508e-08           
  -0.15                 -2.8474e-08           -4e-14                2.6e-13               2.8494e-08           
  -0.2                  -2.968e-08            -1.2e-13              8e-14                 2.941e-08            
  -0.25                 -3.0664e-08           -1.4e-13              0                     3.0704e-08           
  -0.3                  -3.1566e-08           -6e-14                8e-14                 3.1064e-08           
  -0.35                 -3.1722e-08           0                     4e-14                 3.2268e-08           
  -0.4                  -3.3154e-08           -2e-14                2e-14                 3.3164e-08           
  -0.45                 -3.3852e-08           -4e-14                1.2e-13               3.3898e-08           
  -0.5                  -3.4528e-08           0                     -1.2e-13              3.456e-08            
  -0.55                 -3.5146e-08           -2e-14                6e-14                 3.4402e-08           
  -0.6                  -3.5748e-08           1.4e-13               1.8e-13               3.5376e-08           
  -0.65                 -3.615e-08            -4e-14                2e-14                 3.6342e-08           
  -0.7                  -3.6836e-08           -2e-14                -2e-14                3.682e-08            
  -0.75                 -3.7304e-08           1e-13                 0                     3.7338e-08           
  -0.8                  -3.7748e-08           0                     1e-13                 3.7788e-08           
  -0.85                 -3.8194e-08           1.4e-13               8e-14                 3.821e-08            
  -0.9                  -3.862e-08            8e-14                 -2e-14                3.8642e-08           
  -0.95                 -3.8768e-08           -2e-14                4e-14                 3.9018e-08           
  -1                    -3.936e-08            6e-14                 0                     3.9388e-08           
  -1.05                 -3.9728e-08           1e-13                 -2e-14                3.9728e-08           
  -1.1                  -4.0076e-08           6e-14                 8e-14                 3.9934e-08           
  -1.15                 -4.0392e-08           1.8e-13               2e-14                 4.0412e-08           
  -1.2                  -4.0672e-08           1.8e-13               -1.4e-13              4.0688e-08           
  -1.25                 -4.0954e-08           3.6e-13               2e-14                 4.0992e-08           
  -1.3                  -4.1236e-08           3.2e-13               4e-14                 4.1274e-08           
  -1.35                 -4.1516e-08           2e-13                 6e-14                 4.1462e-08           
END_DB

BEGIN_DB
 ICCAP_VAR vg         -0.691         
 ICCAP_VAR vb         1.2            
 ICCAP_VAR vs         -0             

 #vd                    id                    ig                    ib                    is                   
  -0                    4.5782e-10            -5.2e-13              -2e-14                -4.735e-10           
  -0.05                 -2.5768e-07           -4.2e-13              0                     2.579e-07            
  -0.1                  -4.2564e-07           -3.4e-13              0                     4.2592e-07           
  -0.15                 -5.182e-07            -3.4e-13              -4e-14                5.1854e-07           
  -0.2                  -5.6294e-07           -2.6e-13              8e-14                 5.6328e-07           
  -0.25                 -5.8592e-07           -2.4e-13              6e-14                 5.8632e-07           
  -0.3                  -6.1028e-07           -2.4e-13              -1e-13                6.1006e-07           
  -0.35                 -6.2176e-07           -3e-13                -2e-14                6.2208e-07           
  -0.4                  -6.3236e-07           -2.6e-13              6e-14                 6.3242e-07           
  -0.45                 -6.4128e-07           -2.2e-13              2e-14                 6.4158e-07           
  -0.5                  -6.5e-07              -3.2e-13              -8e-14                6.5062e-07           
  -0.55                 -6.5808e-07           -3e-13                -6e-14                6.5848e-07           
  -0.6                  -6.6414e-07           -3e-13                -8e-14                6.662e-07            
  -0.65                 -6.7346e-07           -4.4e-13              6e-14                 6.7338e-07           
  -0.7                  -6.802e-07            -1.8e-13              -2e-14                6.8052e-07           
  -0.75                 -6.8688e-07           -3e-13                -1e-13                6.8712e-07           
  -0.8                  -6.9328e-07           -2.2e-13              2e-14                 6.9324e-07           
  -0.85                 -6.9926e-07           -1e-13                1e-13                 6.9944e-07           
  -0.9                  -7.0524e-07           -1.8e-13              8e-14                 7.0546e-07           
  -0.95                 -7.1092e-07           -2.4e-13              8e-14                 7.1124e-07           
  -1                    -7.1632e-07           -1.4e-13              2e-14                 7.1688e-07           
  -1.05                 -7.2192e-07           -2e-13                0                     7.2182e-07           
  -1.1                  -7.266e-07            -1.8e-13              1.4e-13               7.2762e-07           
  -1.15                 -7.3376e-07           -2e-13                6e-14                 7.3418e-07           
  -1.2                  -7.3866e-07           -1.8e-13              6e-14                 7.386e-07            
  -1.25                 -7.4278e-07           -1.4e-13              2e-14                 7.4308e-07           
  -1.3                  -7.4726e-07           -1e-13                -2e-14                7.4752e-07           
  -1.35                 -7.5176e-07           -1e-13                8e-14                 7.5176e-07           
END_DB

