! VERSION = 6.00
BEGIN_HEADER
 ICCAP_INPUTS
  vd         V  D GROUND SMU1 0.1 LIN        1    -0         -1.35      28   -0.05     
  vg         V  G GROUND SMU2 0.001 LIN        2    -0.47      -1.35      5    -0.22     
  vb         V  B GROUND SMU4 0.1 CON        -0
  vs         V  S GROUND SMU3 0.1 CON        -0
 ICCAP_OUTPUTS
  id         I  D GROUND SMU1 B
  ig         I  G GROUND SMU2 B
  ib         I  B GROUND SMU4 B
  is         I  S GROUND SMU3 B
 ICCAP_VALUES
  MASTER_SETUP_TYPE "~dc_idvd~"
  LINVT_VALUE "|idvg|100.0n|100.0m|1.000m|5|1.350|"
  LISTVT_VALUE ""
  TYPE "-1"
  TEMP " 70.0000 "
  IS_TNOM " 0.00000 "
  MAIN.W "10.00u"
  MAIN.L "130.0n"
  MAIN.AD "3.400p"
  MAIN.AS "3.400p"
  MAIN.PD "20.68u"
  MAIN.PS "20.68u"
  MAIN.NF "1.000"
  MAIN.M "1"
  MAIN.NRD "0.000"
  MAIN.NRS "0.000"
  MAIN.LDRIFT1 "1E-06"
  MAIN.LDRIFT2 "1E-06"
  MAIN.SA "0.000"
  MAIN.SB "0.000"
  MAIN.SD "0.000"
  MAIN.SCA "0.000"
  MAIN.SCB "0.000"
  MAIN.SCC "0.000"
  MAIN.SC "0.000"
  MODULE "S548"
  PIN_D "18"
  PIN_G "3"
  PIN_S "4"
  PIN_B "17"
  PIN_E ""
  PIN_6 ""
  XY_ID ""
  FUNC "Short"
  STI "SA ref"
  WPE "WPE ref"
  COMMENT ""
  DIS_MEAS ""
  TypeTCI "10"
END_HEADER

BEGIN_DB
 ICCAP_VAR vg         -0.47          
 ICCAP_VAR vb         -0             
 ICCAP_VAR vs         -0             

 #vd                    id                    ig                    ib                    is                   
  -0                    2.8486e-08            -4.58e-12             -6.006e-11            -3.258e-08           
  -0.05                 -1.7476e-05           -3.9e-12              -5.61e-11             1.7472e-05           
  -0.1                  -2.6238e-05           -3.44e-12             -5.428e-11            2.6284e-05           
  -0.15                 -3.0722e-05           -3.22e-12             -5.242e-11            3.0694e-05           
  -0.2                  -3.3362e-05           -3e-12                -5.05e-11             3.3404e-05           
  -0.25                 -3.5328e-05           -2.82e-12             -4.848e-11            3.533e-05            
  -0.3                  -3.6934e-05           -2.72e-12             -4.644e-11            3.6952e-05           
  -0.35                 -3.8416e-05           -2.72e-12             -4.468e-11            3.8422e-05           
  -0.4                  -3.9826e-05           -2.66e-12             -4.274e-11            3.9848e-05           
  -0.45                 -4.1222e-05           -2.56e-12             -4.086e-11            4.1262e-05           
  -0.5                  -4.2554e-05           -2.62e-12             -3.9e-11              4.257e-05            
  -0.55                 -4.3878e-05           -2.58e-12             -3.748e-11            4.3886e-05           
  -0.6                  -4.5182e-05           -2.5e-12              -3.572e-11            4.5192e-05           
  -0.65                 -4.6472e-05           -2.32e-12             -3.408e-11            4.65e-05             
  -0.7                  -4.777e-05            -2.26e-12             -3.254e-11            4.777e-05            
  -0.75                 -4.9028e-05           -2.08e-12             -3.092e-11            4.9024e-05           
  -0.8                  -5.0312e-05           -1.82e-12             -2.952e-11            5.0328e-05           
  -0.85                 -5.1586e-05           -1.66e-12             -2.814e-11            5.16e-05             
  -0.9                  -5.286e-05            -1.66e-12             -2.676e-11            5.2892e-05           
  -0.95                 -5.4138e-05           -1.26e-12             -2.514e-11            5.4128e-05           
  -1                    -5.5438e-05           -8.6e-13              -2.354e-11            5.5374e-05           
  -1.05                 -5.6668e-05           -4.2e-13              -2.106e-11            5.665e-05            
  -1.1                  -5.7964e-05           1.6e-13               -1.728e-11            5.7968e-05           
  -1.15                 -5.9294e-05           8e-13                 -1.136e-11            5.9326e-05           
  -1.2                  -6.0632e-05           1.4e-12               -3e-13                6.0632e-05           
  -1.25                 -6.199e-05            2.2e-12               1.922e-11             6.1968e-05           
  -1.3                  -6.331e-05            3.12e-12              5.364e-11             6.3368e-05           
  -1.35                 -6.4714e-05           4.14e-12              1.1218e-10            6.472e-05            
END_DB

BEGIN_DB
 ICCAP_VAR vg         -0.69          
 ICCAP_VAR vb         -0             
 ICCAP_VAR vs         -0             

 #vd                    id                    ig                    ib                    is                   
  -0                    1.14564e-07           -1.962e-11            -1.55e-11             -1.06144e-07         
  -0.05                 -7.774e-05            -1.716e-11            -1.4e-11              7.7762e-05           
  -0.1                  -0.00013798           -1.524e-11            -1.296e-11            0.0001383            
  -0.15                 -0.00018264           -1.378e-11            -1.222e-11            0.00018302           
  -0.2                  -0.0002147            -1.266e-11            -1.148e-11            0.00021498           
  -0.25                 -0.00023718           -1.188e-11            -1.084e-11            0.00023756           
  -0.3                  -0.00025368           -1.128e-11            -1.028e-11            0.00025414           
  -0.35                 -0.00026638           -1.092e-11            -9.62e-12             0.00026666           
  -0.4                  -0.00027642           -1.054e-11            -8.66e-12             0.0002767            
  -0.45                 -0.00028488           -1.04e-11             -8.28e-12             0.00028522           
  -0.5                  -0.00029264           -1.036e-11            -7.82e-12             0.00029286           
  -0.55                 -0.00029978           -1.006e-11            -7.14e-12             0.00030014           
  -0.6                  -0.00030662           -9.96e-12             -6.7e-12              0.00030686           
  -0.65                 -0.00031296           -1.002e-11            -6.22e-12             0.0003133            
  -0.7                  -0.00031922           -9.98e-12             -5.6e-12              0.00031964           
  -0.75                 -0.00032528           -9.84e-12             -5.22e-12             0.00032568           
  -0.8                  -0.0003312            -9.66e-12             -4.86e-12             0.00033144           
  -0.85                 -0.00033702           -9.6e-12              -4.38e-12             0.00033724           
  -0.9                  -0.00034264           -9.38e-12             -3.8e-12              0.00034294           
  -0.95                 -0.00034806           -9.2e-12              -3.4e-12              0.00034842           
  -1                    -0.00035386           -9.08e-12             -2.78e-12             0.00035404           
  -1.05                 -0.00035938           -8.9e-12              -1.68e-12             0.00035944           
  -1.1                  -0.00036446           -8.6e-12              4e-13                 0.00036474           
  -1.15                 -0.00036974           -8.4e-12              4.86e-12              0.00037024           
  -1.2                  -0.0003755            -7.94e-12             1.438e-11             0.00037568           
  -1.25                 -0.00038072           -7.54e-12             3.378e-11             0.00038128           
  -1.3                  -0.00038612           -7.02e-12             7.206e-11             0.0003866            
  -1.35                 -0.00039176           -6.44e-12             1.4578e-10            0.00039206           
END_DB

BEGIN_DB
 ICCAP_VAR vg         -0.91          
 ICCAP_VAR vb         -0             
 ICCAP_VAR vs         -0             

 #vd                    id                    ig                    ib                    is                   
  -0                    3.76e-07              -5.908e-11            -6.06e-12             -1.409e-07           
  -0.05                 -0.00013976           -5.3e-11              -5.7e-12              0.00014002           
  -0.1                  -0.00026336           -4.802e-11            -5.22e-12             0.00026368           
  -0.15                 -0.00037008           -4.368e-11            -4.86e-12             0.0003705            
  -0.2                  -0.00046038           -4.008e-11            -4.52e-12             0.00046092           
  -0.25                 -0.00053524           -3.728e-11            -4.14e-12             0.00053584           
  -0.3                  -0.00059608           -3.464e-11            -3.84e-12             0.00059638           
  -0.35                 -0.0006447            -3.294e-11            -3.5e-12              0.0006452            
  -0.4                  -0.00068342           -3.154e-11            -3.16e-12             0.0006839            
  -0.45                 -0.0007149            -3.054e-11            -2.78e-12             0.00071518           
  -0.5                  -0.0007404            -2.946e-11            -2.4e-12              0.00074074           
  -0.55                 -0.00076192           -2.888e-11            -2.1e-12              0.00076246           
  -0.6                  -0.00078096           -2.83e-11             -1.9e-12              0.00078124           
  -0.65                 -0.00079794           -2.78e-11             -1.52e-12             0.00079842           
  -0.7                  -0.00081318           -2.756e-11            -1.3e-12              0.00081386           
  -0.75                 -0.00082798           -2.73e-11             -1.04e-12             0.00082774           
  -0.8                  -0.00084104           -2.704e-11            -7.8e-13              0.00084146           
  -0.85                 -0.0008539            -2.682e-11            -6e-13                0.00085428           
  -0.9                  -0.000866             -2.66e-11             -2.2e-13              0.00086642           
  -0.95                 -0.0008783            -2.646e-11            1e-13                 0.00087848           
  -1                    -0.00088966           -2.63e-11             3.8e-13               0.00089016           
  -1.05                 -0.000901             -2.614e-11            9.8e-13               0.00090178           
  -1.1                  -0.00091226           -2.59e-11             2.06e-12              0.00091248           
  -1.15                 -0.000923             -2.574e-11            4.1e-12               0.00092338           
  -1.2                  -0.0009338            -2.55e-11             8.94e-12              0.00093384           
  -1.25                 -0.00094414           -2.522e-11            1.934e-11             0.00094452           
  -1.3                  -0.00095468           -2.498e-11            4.078e-11             0.00095488           
  -1.35                 -0.00096482           -2.446e-11            8.432e-11             0.00096496           
END_DB

BEGIN_DB
 ICCAP_VAR vg         -1.13          
 ICCAP_VAR vb         -0             
 ICCAP_VAR vs         -0             

 #vd                    id                    ig                    ib                    is                   
  -0                    5.3422e-07            -1.4052e-10           -3.32e-12             -1.8414e-07          
  -0.05                 -0.00019022           -1.3174e-10           -3.16e-12             0.0001905            
  -0.1                  -0.00036668           -1.218e-10            -2.92e-12             0.00036708           
  -0.15                 -0.0005284            -1.097e-10            -2.5e-12              0.0005288            
  -0.2                  -0.00067484           -1.0166e-10           -2.36e-12             0.00067532           
  -0.25                 -0.00080628           -9.458e-11            -2.14e-12             0.00080672           
  -0.3                  -0.0009219            -8.86e-11             -1.76e-12             0.0009223            
  -0.35                 -0.00102246           -8.332e-11            -1.5e-12              0.00102278           
  -0.4                  -0.00110848           -7.864e-11            -1.36e-12             0.00110916           
  -0.45                 -0.001182             -7.502e-11            -9.2e-13              0.0011824            
  -0.5                  -0.0012442            -7.206e-11            -7.4e-13              0.001245             
  -0.55                 -0.0012968            -6.962e-11            -5.2e-13              0.0012974            
  -0.6                  -0.0013412            -6.754e-11            -2.8e-13              0.0013424            
  -0.65                 -0.0013802            -6.6e-11              -2e-14                0.0013802            
  -0.7                  -0.001413             -6.478e-11            1.6e-13               0.001414             
  -0.75                 -0.0014432            -6.368e-11            4e-13                 0.0014438            
  -0.8                  -0.00147              -6.268e-11            5.4e-13               0.0014702            
  -0.85                 -0.001494             -6.208e-11            6.8e-13               0.0014942            
  -0.9                  -0.0015164            -6.134e-11            1e-12                 0.0015178            
  -0.95                 -0.001537             -6.082e-11            1.22e-12              0.0015382            
  -1                    -0.001557             -6.032e-11            1.4e-12               0.0015578            
  -1.05                 -0.001576             -5.99e-11             1.76e-12              0.0015764            
  -1.1                  -0.0015944            -5.942e-11            2.2e-12               0.001595             
  -1.15                 -0.0016114            -5.926e-11            3.3e-12               0.0016116            
  -1.2                  -0.0016282            -5.89e-11             5.7e-12               0.0016286            
  -1.25                 -0.001645             -5.908e-11            1.058e-11             0.0016454            
  -1.3                  -0.0016608            -5.808e-11            2.11e-11              0.0016614            
  -1.35                 -0.0016768            -5.764e-11            4.264e-11             0.001677             
END_DB

BEGIN_DB
 ICCAP_VAR vg         -1.35          
 ICCAP_VAR vb         -0             
 ICCAP_VAR vs         -0             

 #vd                    id                    ig                    ib                    is                   
  -0                    5.7438e-07            -2.9356e-10           1.22e-12              -2.1806e-07          
  -0.05                 -0.00022976           -2.7186e-10           6e-13                 0.00022994           
  -0.1                  -0.00044784           -2.5362e-10           1.8e-13               0.00044826           
  -0.15                 -0.00065372           -2.3676e-10           -1e-13                0.00065424           
  -0.2                  -0.00084592           -2.2096e-10           -1.4e-13              0.00084648           
  -0.25                 -0.0010246            -2.0712e-10           -6e-14                0.00102518           
  -0.3                  -0.0011886            -1.9104e-10           1.6e-13               0.0011892            
  -0.35                 -0.001338             -1.8012e-10           2.4e-13               0.0013384            
  -0.4                  -0.0014732            -1.7038e-10           3.4e-13               0.001474             
  -0.45                 -0.0015944            -1.6252e-10           4.6e-13               0.0015948            
  -0.5                  -0.0017022            -1.5476e-10           6.6e-13               0.001703             
  -0.55                 -0.0017972            -1.4854e-10           9e-13                 0.0017986            
  -0.6                  -0.0018808            -1.4334e-10           1.04e-12              0.001881             
  -0.65                 -0.0019538            -1.3894e-10           1.14e-12              0.0019542            
  -0.7                  -0.0020168            -1.3514e-10           1.32e-12              0.0020166            
  -0.75                 -0.0020722            -1.3184e-10           1.68e-12              0.0020724            
  -0.8                  -0.0021226            -1.2898e-10           1.8e-12               0.0021222            
  -0.85                 -0.0021648            -1.2694e-10           1.9e-12               0.0021652            
  -0.9                  -0.0022048            -1.2522e-10           2.08e-12              0.0022052            
  -0.95                 -0.0022406            -1.2344e-10           2.18e-12              0.0022412            
  -1                    -0.0022724            -1.2196e-10           2.54e-12              0.002273             
  -1.05                 -0.0023016            -1.2052e-10           2.66e-12              0.0023022            
  -1.1                  -0.002328             -1.1952e-10           3e-12                 0.0023294            
  -1.15                 -0.0023556            -1.1924e-10           3.46e-12              0.0023564            
  -1.2                  -0.0023806            -1.1778e-10           4.64e-12              0.0023812            
  -1.25                 -0.002404             -1.1706e-10           7.06e-12              0.0024058            
  -1.3                  -0.002427             -1.164e-10            1.218e-11             0.0024286            
  -1.35                 -0.0024506            -1.1548e-10           2.27e-11              0.0024516            
END_DB

