! VERSION = 6.00
BEGIN_HEADER
 ICCAP_INPUTS
  vg         V  G GROUND SMU2 0.001 LIN        1    0.5        -1.35      38   -0.05     
  vb         V  B GROUND SMU4 0.1 LIN        2    0          1.2        7    0.2       
  vd         V  D GROUND SMU1 0.1 LIST       3 3 -0.05 -0.6 -1.2
  vs         V  S GROUND SMU3 0.1 CON        -0
 ICCAP_OUTPUTS
  id         I  D GROUND SMU1 B
  ig         I  G GROUND SMU2 B
  ib         I  B GROUND SMU4 B
  is         I  S GROUND SMU3 B
 ICCAP_VALUES
  MASTER_SETUP_TYPE "~dc_idvg~"
  LINVT_VALUE ""
  LISTVT_VALUE ""
  TYPE "-1"
  TEMP " 27.0000 "
  IS_TNOM " 1.00000 "
  MAIN.W "150.0n"
  MAIN.L "10.00u"
  MAIN.AD "100.5f"
  MAIN.AS "100.5f"
  MAIN.PD "1.340u"
  MAIN.PS "1.340u"
  MAIN.NF "1.000"
  MAIN.M "1"
  MAIN.NRD "0.000"
  MAIN.NRS "0.000"
  MAIN.LDRIFT1 "1E-06"
  MAIN.LDRIFT2 "1E-06"
  MAIN.SA "0.000"
  MAIN.SB "0.000"
  MAIN.SD "0.000"
  MAIN.SCA "0.000"
  MAIN.SCB "0.000"
  MAIN.SCC "0.000"
  MAIN.SC "0.000"
  MODULE "S555"
  PIN_D "16"
  PIN_G "5"
  PIN_S "6"
  PIN_B "15"
  PIN_E ""
  PIN_6 ""
  XY_ID ""
  FUNC "Narrow"
  STI "SA ref"
  WPE "WPE ref"
  COMMENT ""
  DIS_MEAS ""
  TypeTCI "10"
END_HEADER

BEGIN_DB
 ICCAP_VAR vb         0              
 ICCAP_VAR vd         -0.05          
 ICCAP_VAR vs         -0             

 #vg                    id                    ig                    ib                    is                   
  0.5                   -1.4e-13              1.864e-11             -1.794e-11            -2e-14               
  0.45                  0                     3.02e-12              -1.376e-11            2.4e-13              
  0.4                   -4e-14                5.4e-13               -1.246e-11            -2e-14               
  0.35                  0                     1.6e-13               -1.184e-11            1.4e-13              
  0.3                   2e-14                 4e-14                 -1.116e-11            0                    
  0.25                  -6e-14                4e-14                 -1.07e-11             1.2e-13              
  0.2                   0                     -1.4e-13              -1.036e-11            2e-14                
  0.15                  -6e-14                -1e-13                -9.82e-12             1.8e-13              
  0.1                   0                     -3e-13                -9.54e-12             -2e-14               
  0.05                  -1e-13                -3.2e-13              -9.24e-12             2e-13                
  0                     -4e-14                -2.4e-13              -8.78e-12             2.4e-13              
  -0.05                 -6e-13                -2.8e-13              -8.54e-12             7e-13                
  -0.1                  -2.76e-12             -3e-13                -8.16e-12             3.06e-12             
  -0.15                 -1.46e-11             -4e-13                -8.02e-12             1.468e-11            
  -0.2                  -7.174e-11            -3.2e-13              -7.7e-12              7.17e-11             
  -0.25                 -3.227e-10            -3.8e-13              -7.54e-12             3.2306e-10           
  -0.3                  -1.1678e-09           -4e-13                -7.12e-12             1.1694e-09           
  -0.35                 -3.1108e-09           -8e-13                -6.8e-12              3.113e-09            
  -0.4                  -6.2608e-09           -9.4e-13              -6.58e-12             6.2606e-09           
  -0.45                 -1.0268e-08           -1.68e-12             -6.6e-12              1.02692e-08          
  -0.5                  -1.4754e-08           -2.3e-12              -6.1e-12              1.4778e-08           
  -0.55                 -1.947e-08            -3.54e-12             -6.34e-12             1.9502e-08           
  -0.6                  -2.4294e-08           -5.18e-12             -6.02e-12             2.4328e-08           
  -0.65                 -2.9094e-08           -7.16e-12             -5.74e-12             2.9124e-08           
  -0.7                  -3.3832e-08           -9.92e-12             -5.7e-12              3.3874e-08           
  -0.75                 -3.8472e-08           -1.354e-11            -5.54e-12             3.8518e-08           
  -0.8                  -4.2986e-08           -1.77e-11             -5.4e-12              4.3012e-08           
  -0.85                 -4.7344e-08           -2.332e-11            -5.36e-12             4.739e-08            
  -0.9                  -5.1532e-08           -2.97e-11             -5.14e-12             5.1582e-08           
  -0.95                 -5.554e-08            -3.772e-11            -5.04e-12             5.5624e-08           
  -1                    -5.9418e-08           -4.676e-11            -4.84e-12             5.9492e-08           
  -1.05                 -6.309e-08            -5.768e-11            -4.8e-12              6.3172e-08           
  -1.1                  -6.6584e-08           -7.022e-11            -4.7e-12              6.6688e-08           
  -1.15                 -6.9936e-08           -8.486e-11            -4.54e-12             7.006e-08            
  -1.2                  -7.312e-08            -1.0154e-10           -4.4e-12              7.3238e-08           
  -1.25                 -7.6114e-08           -1.208e-10            -4.16e-12             7.6256e-08           
  -1.3                  -7.8964e-08           -1.422e-10            -3.9e-12              7.9122e-08           
  -1.35                 -8.1682e-08           -1.6656e-10           -3.26e-12             8.1854e-08           
END_DB

BEGIN_DB
 ICCAP_VAR vb         0.2            
 ICCAP_VAR vd         -0.05          
 ICCAP_VAR vs         -0             

 #vg                    id                    ig                    ib                    is                   
  0.5                   -6e-14                5e-13                 1.6e-13               6e-14                
  0.45                  -6e-14                2.4e-13               1e-13                 1.4e-13              
  0.4                   6e-14                 1.6e-13               6e-14                 -2e-14               
  0.35                  0                     8e-14                 1.4e-13               8e-14                
  0.3                   0                     -4e-14                0                     2.8e-13              
  0.25                  2e-14                 -2e-14                2e-14                 1.6e-13              
  0.2                   -6e-14                0                     2e-14                 1.2e-13              
  0.15                  4e-14                 -2.6e-13              -4e-14                2e-13                
  0.1                   0                     -2.2e-13              1.2e-13               8e-14                
  0.05                  6e-14                 -2.8e-13              -6e-14                1.6e-13              
  0                     4e-14                 -2.4e-13              -2e-14                1.6e-13              
  -0.05                 -2e-13                -2e-13                -4e-14                3e-13                
  -0.1                  -8.8e-13              -3.8e-13              2e-14                 1.06e-12             
  -0.15                 -4.68e-12             -2.4e-13              0                     4.74e-12             
  -0.2                  -2.396e-11            -3.4e-13              6e-14                 2.41e-11             
  -0.25                 -1.1824e-10           -3.8e-13              2e-14                 1.1826e-10           
  -0.3                  -5.0954e-10           -4.4e-13              1.6e-13               5.1028e-10           
  -0.35                 -1.6692e-09           -6e-13                2e-14                 1.67e-09             
  -0.4                  -4.0006e-09           -8.2e-13              0                     4.002e-09            
  -0.45                 -7.406e-09            -1.42e-12             -2e-14                7.405e-09            
  -0.5                  -1.1488e-08           -2.06e-12             -4e-14                1.1516e-08           
  -0.55                 -1.5946e-08           -3.28e-12             2e-14                 1.5974e-08           
  -0.6                  -2.0578e-08           -4.84e-12             -1e-13                2.0612e-08           
  -0.65                 -2.5264e-08           -6.96e-12             2e-14                 2.5286e-08           
  -0.7                  -2.9928e-08           -9.64e-12             0                     2.9954e-08           
  -0.75                 -3.4504e-08           -1.306e-11            2e-14                 3.4532e-08           
  -0.8                  -3.897e-08            -1.744e-11            2e-14                 3.901e-08            
  -0.85                 -4.333e-08            -2.284e-11            4e-14                 4.3368e-08           
  -0.9                  -4.7532e-08           -2.918e-11            0                     4.7586e-08           
  -0.95                 -5.1568e-08           -3.712e-11            0                     5.1636e-08           
  -1                    -5.5432e-08           -4.612e-11            0                     5.55e-08             
  -1.05                 -5.915e-08            -5.708e-11            0                     5.921e-08            
  -1.1                  -6.2666e-08           -6.962e-11            8e-14                 6.2752e-08           
  -1.15                 -6.6034e-08           -8.42e-11             2e-14                 6.6144e-08           
  -1.2                  -6.9232e-08           -1.007e-10            1e-13                 6.9358e-08           
  -1.25                 -7.2276e-08           -1.1992e-10           1.2e-13               7.2426e-08           
  -1.3                  -7.519e-08            -1.412e-10            4.8e-13               7.5308e-08           
  -1.35                 -7.7894e-08           -1.6568e-10           9.4e-13               7.8104e-08           
END_DB

BEGIN_DB
 ICCAP_VAR vb         0.4            
 ICCAP_VAR vd         -0.05          
 ICCAP_VAR vs         -0             

 #vg                    id                    ig                    ib                    is                   
  0.5                   -2e-14                3.4e-13               8e-14                 1.4e-13              
  0.45                  -1.4e-13              2.6e-13               -2e-14                1.6e-13              
  0.4                   0                     -2e-14                6e-14                 1.2e-13              
  0.35                  1.4e-13               8e-14                 0                     1.4e-13              
  0.3                   4e-14                 0                     4e-14                 6e-14                
  0.25                  2e-14                 2e-14                 0                     1.4e-13              
  0.2                   -4e-14                -1.4e-13              4e-14                 4e-14                
  0.15                  0                     -1.2e-13              1e-13                 1.6e-13              
  0.1                   -4e-14                -1.2e-13              1.4e-13               0                    
  0.05                  8e-14                 -1.6e-13              2e-14                 2.2e-13              
  0                     8e-14                 -2e-13                1.2e-13               4e-14                
  -0.05                 -1e-13                -1.8e-13              2e-14                 4e-14                
  -0.1                  -2.2e-13              -2.6e-13              1e-13                 3.8e-13              
  -0.15                 -1.58e-12             -3e-13                6e-14                 1.8e-12              
  -0.2                  -8.48e-12             -4e-13                6e-14                 8.58e-12             
  -0.25                 -4.422e-11            -3.8e-13              0                     4.46e-11             
  -0.3                  -2.1446e-10           -5e-13                4e-14                 2.1452e-10           
  -0.35                 -8.4336e-10           -5e-13                -8e-14                8.4368e-10           
  -0.4                  -2.4322e-09           -6.4e-13              8e-14                 2.4328e-09           
  -0.45                 -5.1726e-09           -1.28e-12             8e-14                 5.1726e-09           
  -0.5                  -8.809e-09            -2.12e-12             0                     8.8156e-09           
  -0.55                 -1.2952e-08           -3.06e-12             4e-14                 1.2978e-08           
  -0.6                  -1.7376e-08           -4.6e-12              -4e-14                1.7406e-08           
  -0.65                 -2.192e-08            -6.72e-12             8e-14                 2.1942e-08           
  -0.7                  -2.6472e-08           -9.32e-12             -6e-14                2.6504e-08           
  -0.75                 -3.098e-08            -1.276e-11            6e-14                 3.101e-08            
  -0.8                  -3.542e-08            -1.69e-11             -4e-14                3.5456e-08           
  -0.85                 -3.9752e-08           -2.234e-11            2e-14                 3.9786e-08           
  -0.9                  -4.394e-08            -2.87e-11             -4e-14                4.3986e-08           
  -0.95                 -4.7968e-08           -3.652e-11            -2e-14                4.8026e-08           
  -1                    -5.1866e-08           -4.558e-11            6e-14                 5.1948e-08           
  -1.05                 -5.5606e-08           -5.634e-11            -2e-14                5.5666e-08           
  -1.1                  -5.9142e-08           -6.89e-11             4e-14                 5.9218e-08           
  -1.15                 -6.2528e-08           -8.342e-11            1.4e-13               6.2636e-08           
  -1.2                  -6.5762e-08           -9.996e-11            1.6e-13               6.5878e-08           
  -1.25                 -6.883e-08            -1.1916e-10           3e-13                 6.8976e-08           
  -1.3                  -7.1736e-08           -1.4066e-10           4.8e-13               7.1914e-08           
  -1.35                 -7.454e-08            -1.6472e-10           8.4e-13               7.4736e-08           
END_DB

BEGIN_DB
 ICCAP_VAR vb         0.6            
 ICCAP_VAR vd         -0.05          
 ICCAP_VAR vs         -0             

 #vg                    id                    ig                    ib                    is                   
  0.5                   -2e-14                4.6e-13               6e-14                 1e-13                
  0.45                  -6e-14                3.2e-13               8e-14                 2e-14                
  0.4                   0                     0                     1.2e-13               -6e-14               
  0.35                  0                     8e-14                 1e-13                 0                    
  0.3                   0                     2e-14                 8e-14                 0                    
  0.25                  0                     -4e-14                0                     8e-14                
  0.2                   2e-14                 -1.4e-13              1e-13                 -6e-14               
  0.15                  2e-14                 -8e-14                2e-14                 6e-14                
  0.1                   2e-14                 -8e-14                -6e-14                6e-14                
  0.05                  1e-13                 -1.8e-13              -4e-14                2.4e-13              
  0                     -4e-14                -3e-13                4e-14                 6e-14                
  -0.05                 4e-14                 -2.2e-13              8e-14                 2.2e-13              
  -0.1                  -2e-14                -2.8e-13              -2e-14                1.8e-13              
  -0.15                 -5.4e-13              -3e-13                -2e-14                7.8e-13              
  -0.2                  -3.26e-12             -3e-13                6e-14                 3.16e-12             
  -0.25                 -1.722e-11            -4.4e-13              6e-14                 1.758e-11            
  -0.3                  -8.944e-11            -3.8e-13              0                     8.938e-11            
  -0.35                 -4.044e-10            -4.8e-13              -8e-14                4.0448e-10           
  -0.4                  -1.3958e-09           -5.2e-13              -2e-14                1.3972e-09           
  -0.45                 -3.4696e-09           -1.1e-12              2e-14                 3.471e-09            
  -0.5                  -6.5864e-09           -1.88e-12             2e-14                 6.5884e-09           
  -0.55                 -1.03882e-08          -3.02e-12             -4e-14                1.03904e-08          
  -0.6                  -1.4552e-08           -4.3e-12              6e-14                 1.4582e-08           
  -0.65                 -1.8924e-08           -6.28e-12             0                     1.8948e-08           
  -0.7                  -2.3352e-08           -8.92e-12             1e-13                 2.3386e-08           
  -0.75                 -2.7768e-08           -1.244e-11            8e-14                 2.7828e-08           
  -0.8                  -3.2182e-08           -1.662e-11            8e-14                 3.2218e-08           
  -0.85                 -3.6492e-08           -2.184e-11            6e-14                 3.6534e-08           
  -0.9                  -4.0658e-08           -2.822e-11            2e-14                 4.0706e-08           
  -0.95                 -4.4678e-08           -3.58e-11             1e-13                 4.4756e-08           
  -1                    -4.8576e-08           -4.504e-11            -2e-14                4.8636e-08           
  -1.05                 -5.2296e-08           -5.57e-11             6e-14                 5.2384e-08           
  -1.1                  -5.5902e-08           -6.822e-11            0                     5.5998e-08           
  -1.15                 -5.9294e-08           -8.28e-11             8e-14                 5.941e-08            
  -1.2                  -6.2576e-08           -9.904e-11            4e-14                 6.2698e-08           
  -1.25                 -6.5698e-08           -1.1816e-10           4e-14                 6.5834e-08           
  -1.3                  -6.8646e-08           -1.398e-10            5.2e-13               6.8808e-08           
  -1.35                 -7.1454e-08           -1.6392e-10           9e-13                 7.1636e-08           
END_DB

BEGIN_DB
 ICCAP_VAR vb         0.8            
 ICCAP_VAR vd         -0.05          
 ICCAP_VAR vs         -0             

 #vg                    id                    ig                    ib                    is                   
  0.5                   -4e-14                4.2e-13               1e-13                 -2.6e-13             
  0.45                  -2e-14                3e-13                 8e-14                 4e-14                
  0.4                   2e-14                 1.4e-13               0                     8e-14                
  0.35                  2e-14                 8e-14                 8e-14                 1.4e-13              
  0.3                   8e-14                 2e-14                 1.4e-13               -1e-13               
