! VERSION = 6.00
BEGIN_HEADER
 ICCAP_INPUTS
  vg         V  G GROUND SMU2 0.001 LIN        1    0.5        -1.35      38   -0.05     
  vb         V  B GROUND SMU4 0.1 LIN        2    0          1.2        7    0.2       
  vd         V  D GROUND SMU1 0.1 LIST       3 3 -0.05 -0.6 -1.2
  vs         V  S GROUND SMU3 0.1 CON        -0
 ICCAP_OUTPUTS
  id         I  D GROUND SMU1 B
  ig         I  G GROUND SMU2 B
  ib         I  B GROUND SMU4 B
  is         I  S GROUND SMU3 B
 ICCAP_VALUES
  MASTER_SETUP_TYPE "~dc_idvg~"
  LINVT_VALUE ""
  LISTVT_VALUE ""
  TYPE "-1"
  TEMP " 27.0000 "
  IS_TNOM " 1.00000 "
  MAIN.W "300.0n"
  MAIN.L "500.0n"
  MAIN.AD "102.0f"
  MAIN.AS "102.0f"
  MAIN.PD "1.280u"
  MAIN.PS "1.280u"
  MAIN.NF "1.000"
  MAIN.M "1"
  MAIN.NRD "0.000"
  MAIN.NRS "0.000"
  MAIN.LDRIFT1 "1E-06"
  MAIN.LDRIFT2 "1E-06"
  MAIN.SA "0.000"
  MAIN.SB "0.000"
  MAIN.SD "0.000"
  MAIN.SCA "0.000"
  MAIN.SCB "0.000"
  MAIN.SCC "0.000"
  MAIN.SC "0.000"
  MODULE "S553"
  PIN_D "20"
  PIN_G "1"
  PIN_S "2"
  PIN_B "19"
  PIN_E ""
  PIN_6 ""
  XY_ID ""
  FUNC "LW Scale"
  STI "SA ref"
  WPE "WPE ref"
  COMMENT ""
  DIS_MEAS ""
  TypeTCI "10"
END_HEADER

BEGIN_DB
 ICCAP_VAR vb         0              
 ICCAP_VAR vd         -0.05          
 ICCAP_VAR vs         -0             

 #vg                    id                    ig                    ib                    is                   
  0.5                   -1e-13                1.988e-11             -6.48e-12             0                    
  0.45                  -1.8e-13              3.04e-12              -1.82e-12             -4e-14               
  0.4                   -8e-14                5e-13                 -1.04e-12             2e-14                
  0.35                  -2e-14                2e-14                 -8.2e-13              -2e-14               
  0.3                   -1.2e-13              -1.6e-13              -1.04e-12             6e-14                
  0.25                  -1.2e-13              -2e-13                -7.6e-13              -4e-14               
  0.2                   -8e-14                -2e-13                -9e-13                0                    
  0.15                  -8e-14                -3.6e-13              -9.8e-13              6e-14                
  0.1                   -1.8e-13              -4.2e-13              -8.4e-13              1e-13                
  0.05                  -2e-13                -3.6e-13              -9.8e-13              3.2e-13              
  0                     -1.42e-12             -3.4e-13              -8.8e-13              1.26e-12             
  -0.05                 -5.7e-12              -4e-13                -9.2e-13              5.68e-12             
  -0.1                  -2.704e-11            -4.2e-13              -8.6e-13              2.702e-11            
  -0.15                 -1.2848e-10           -4.4e-13              -7.8e-13              1.286e-10            
  -0.2                  -6.0534e-10           -6.2e-13              -9.4e-13              6.0498e-10           
  -0.25                 -2.766e-09            -3e-13                -9.2e-13              2.7652e-09           
  -0.3                  -1.1438e-08           -4.8e-13              -8.8e-13              1.14342e-08          
  -0.35                 -3.8702e-08           -4.4e-13              -9.8e-13              3.8692e-08           
  -0.4                  -1.0084e-07           -6e-13                -8.2e-13              1.00828e-07          
  -0.45                 -2.047e-07            -6.6e-13              -9.4e-13              2.049e-07            
  -0.5                  -3.4256e-07           -8e-13                -8e-13                3.4248e-07           
  -0.55                 -4.9964e-07           -8.8e-13              -8.2e-13              5.0064e-07           
  -0.6                  -6.6864e-07           -1.2e-12              -9e-13                6.6772e-07           
  -0.65                 -8.3826e-07           -1.36e-12             -8.4e-13              8.3874e-07           
  -0.7                  -1.00796e-06          -1.76e-12             -7.8e-13              1.00862e-06          
  -0.75                 -1.1708e-06           -2.12e-12             -8.4e-13              1.1738e-06           
  -0.8                  -1.332e-06            -2.8e-12              -9.6e-13              1.3354e-06           
  -0.85                 -1.4874e-06           -3.56e-12             -7.6e-13              1.4914e-06           
  -0.9                  -1.6374e-06           -4.28e-12             -9e-13                1.639e-06            
  -0.95                 -1.7774e-06           -5.48e-12             -8.2e-13              1.7814e-06           
  -1                    -1.9148e-06           -6.7e-12              -7.6e-13              1.9188e-06           
  -1.05                 -2.0478e-06           -8.22e-12             -9e-13                2.0514e-06           
  -1.1                  -2.1692e-06           -9.94e-12             -7.8e-13              2.1726e-06           
  -1.15                 -2.2878e-06           -1.206e-11            -7.8e-13              2.2924e-06           
  -1.2                  -2.402e-06            -1.454e-11            -8e-13                2.4046e-06           
  -1.25                 -2.5054e-06           -1.728e-11            -6.8e-13              2.5098e-06           
  -1.3                  -2.6054e-06           -2.056e-11            -8e-13                2.6104e-06           
  -1.35                 -2.7028e-06           -2.434e-11            -5.6e-13              2.7044e-06           
END_DB

BEGIN_DB
 ICCAP_VAR vb         0.2            
 ICCAP_VAR vd         -0.05          
 ICCAP_VAR vs         -0             

 #vg                    id                    ig                    ib                    is                   
  0.5                   -1.8e-13              3.6e-13               1e-13                 0                    
  0.45                  -2e-14                6e-14                 2e-14                 -4e-14               
  0.4                   -1e-13                8e-14                 6e-14                 1e-13                
  0.35                  4e-14                 -6e-14                4e-14                 2e-14                
  0.3                   -1e-13                -1.6e-13              -4e-14                1e-13                
  0.25                  -6e-14                -2e-13                0                     4e-14                
  0.2                   -1.4e-13              -1.8e-13              0                     2e-14                
  0.15                  -4e-14                -1.8e-13              4e-14                 2e-14                
  0.1                   -4e-14                -3.6e-13              -1.2e-13              8e-14                
  0.05                  -4e-14                -3e-13                -4e-14                4e-14                
  0                     -4.2e-13              -2.8e-13              0                     4e-13                
  -0.05                 -1.7e-12              -4.8e-13              -1.2e-13              1.8e-12              
  -0.1                  -8.4e-12              -4.4e-13              -6e-14                8.36e-12             
  -0.15                 -4.106e-11            -4.8e-13              2e-14                 4.116e-11            
  -0.2                  -2.0186e-10           -4.2e-13              -1.8e-13              2.0184e-10           
  -0.25                 -9.7652e-10           -5.4e-13              2e-14                 9.7584e-10           
  -0.3                  -4.4638e-09           -3.8e-13              -4e-14                4.4618e-09           
  -0.35                 -1.762e-08            -4.4e-13              -1.2e-13              1.7642e-08           
  -0.4                  -5.5058e-08           -6e-13                0                     5.5098e-08           
  -0.45                 -1.3054e-07           -6e-13                -1.6e-13              1.3078e-07           
  -0.5                  -2.4426e-07           -7.2e-13              -6e-14                2.4452e-07           
  -0.55                 -3.867e-07            -9e-13                -1e-13                3.8662e-07           
  -0.6                  -5.4464e-07           -1.08e-12             -2e-13                5.4494e-07           
  -0.65                 -7.0968e-07           -1.38e-12             -4e-14                7.0952e-07           
  -0.7                  -8.7518e-07           -1.72e-12             0                     8.7536e-07           
  -0.75                 -1.03842e-06          -2.22e-12             -3.2e-13              1.039e-06            
  -0.8                  -1.1946e-06           -2.64e-12             -1.2e-13              1.1972e-06           
  -0.85                 -1.35e-06             -3.38e-12             -8e-14                1.3536e-06           
  -0.9                  -1.4986e-06           -4.34e-12             -4e-14                1.5004e-06           
  -0.95                 -1.6418e-06           -5.46e-12             0                     1.6454e-06           
  -1                    -1.78e-06             -6.56e-12             -8e-14                1.7834e-06           
  -1.05                 -1.9112e-06           -8.2e-12              -6e-14                1.9154e-06           
  -1.1                  -2.0346e-06           -9.94e-12             -1.4e-13              2.0384e-06           
  -1.15                 -2.1552e-06           -1.204e-11            4e-14                 2.1594e-06           
  -1.2                  -2.2716e-06           -1.43e-11             -8e-14                2.2748e-06           
  -1.25                 -2.3786e-06           -1.716e-11            -2e-14                2.382e-06            
  -1.3                  -2.4814e-06           -2.048e-11            8e-14                 2.483e-06            
  -1.35                 -2.5722e-06           -2.426e-11            -8e-14                2.576e-06            
END_DB

BEGIN_DB
 ICCAP_VAR vb         0.4            
 ICCAP_VAR vd         -0.05          
 ICCAP_VAR vs         -0             

 #vg                    id                    ig                    ib                    is                   
  0.5                   2e-14                 3.6e-13               0                     1.2e-13              
  0.45                  -4e-14                1.4e-13               4e-14                 8e-14                
  0.4                   4e-14                 -2e-14                0                     1.2e-13              
  0.35                  -4e-14                -1.6e-13              -2e-14                1.4e-13              
  0.3                   -4e-14                -4e-14                6e-14                 -1.2e-13             
  0.25                  4e-14                 -2.6e-13              -4e-14                1.6e-13              
  0.2                   -2e-14                -1e-13                2e-14                 -1e-13               
  0.15                  0                     -2.6e-13              4e-14                 6e-14                
  0.1                   0                     -3e-13                -1.2e-13              2e-14                
  0.05                  -1e-13                -2.8e-13              -6e-14                2e-14                
  0                     -8e-14                -3.2e-13              4e-14                 1.4e-13              
  -0.05                 -6.2e-13              -3.4e-13              0                     5.6e-13              
  -0.1                  -2.84e-12             -4.6e-13              -2e-14                2.94e-12             
  -0.15                 -1.43e-11             -5e-13                4e-14                 1.428e-11            
  -0.2                  -7.222e-11            -4.8e-13              -8e-14                7.242e-11            
  -0.25                 -3.6342e-10           -4e-13                -1e-13                3.6334e-10           
  -0.3                  -1.7658e-09           -3.6e-13              8e-14                 1.7688e-09           
  -0.35                 -7.8352e-09           -6e-13                -4e-14                7.8472e-09           
  -0.4                  -2.8638e-08           -5.2e-13              -1e-13                2.866e-08            
  -0.45                 -7.98e-08             -5.8e-13              6e-14                 7.9844e-08           
  -0.5                  -1.704e-07            -7.4e-13              -6e-14                1.7062e-07           
  -0.55                 -2.9476e-07           -8.8e-13              -6e-14                2.9496e-07           
  -0.6                  -4.406e-07            -1.1e-12              0                     4.4108e-07           
  -0.65                 -5.9754e-07           -1.34e-12             -1e-13                5.9778e-07           
  -0.7                  -7.5702e-07           -1.76e-12             -1.2e-13              7.5798e-07           
  -0.75                 -9.1682e-07           -2.16e-12             -2e-14                9.1816e-07           
  -0.8                  -1.07596e-06          -2.72e-12             -2.4e-13              1.0765e-06           
  -0.85                 -1.2268e-06           -3.38e-12             -6e-14                1.2308e-06           
  -0.9                  -1.376e-06            -4.2e-12              -2e-14                1.379e-06            
  -0.95                 -1.519e-06            -5.3e-12              -8e-14                1.5196e-06           
  -1                    -1.6562e-06           -6.54e-12             -6e-14                1.6598e-06           
  -1.05                 -1.7916e-06           -8.06e-12             -1.2e-13              1.7956e-06           
  -1.1                  -1.9178e-06           -9.8e-12              -1.6e-13              1.922e-06            
  -1.15                 -2.0398e-06           -1.182e-11            -1.6e-13              2.0428e-06           
  -1.2                  -2.1528e-06           -1.418e-11            0                     2.157e-06            
  -1.25                 -2.26e-06             -1.706e-11            -6e-14                2.262e-06            
  -1.3                  -2.3634e-06           -2.02e-11             6e-14                 2.3662e-06           
  -1.35                 -2.4572e-06           -2.41e-11             1.2e-13               2.4604e-06           
END_DB

BEGIN_DB
 ICCAP_VAR vb         0.6            
 ICCAP_VAR vd         -0.05          
 ICCAP_VAR vs         -0             

 #vg                    id                    ig                    ib                    is                   
  0.5                   4e-14                 4.4e-13               6e-14                 1e-13                
  0.45                  2e-14                 1.2e-13               6e-14                 1.6e-13              
  0.4                   -6e-14                6e-14                 0                     1e-13                
  0.35                  0                     -1e-13                -6e-14                8e-14                
  0.3                   8e-14                 -1e-13                2e-14                 2.2e-13              
  0.25                  -1e-13                -2.2e-13              -6e-14                6e-14                
  0.2                   -2e-14                -2.4e-13              -2e-14                -2e-14               
  0.15                  0                     -3.4e-13              -4e-14                4e-14                
  0.1                   -2e-14                -4.4e-13              -4e-14                1e-13                
  0.05                  -6e-14                -3.2e-13              -8e-14                1.6e-13              
  0                     -8e-14                -4e-13                6e-14                 6e-14                
  -0.05                 -2.2e-13              -4e-13                -1.2e-13              3e-13                
  -0.1                  -1.14e-12             -4e-13                4e-14                 1.04e-12             
  -0.15                 -5.26e-12             -4.2e-13              2e-14                 5.3e-12              
  -0.2                  -2.728e-11            -4.6e-13              6e-14                 2.732e-11            
  -0.25                 -1.4058e-10           -5.4e-13              2e-14                 1.404e-10            
  -0.3                  -7.1052e-10           -4.4e-13              0                     7.0974e-10           
  -0.35                 -3.4046e-09           -3.4e-13              -4e-14                3.4054e-09           
  -0.4                  -1.4204e-08           -5.2e-13              -4e-14                1.4194e-08           
  -0.45                 -4.6296e-08           -6e-13                4e-14                 4.6356e-08           
  -0.5                  -1.14166e-07          -7.6e-13              -8e-14                1.1422e-07           
  -0.55                 -2.1908e-07           -7.6e-13              -4e-14                2.1938e-07           
  -0.6                  -3.521e-07            -1.02e-12             1.4e-13               3.5228e-07           
  -0.65                 -5.0012e-07           -1.26e-12             -1.4e-13              5.004e-07            
  -0.7                  -6.562e-07            -1.66e-12             8e-14                 6.5658e-07           
  -0.75                 -8.1266e-07           -2.12e-12             -6e-14                8.1294e-07           
  -0.8                  -9.673e-07            -2.66e-12             -6e-14                9.6756e-07           
  -0.85                 -1.11894e-06          -3.36e-12             0                     1.11946e-06          
  -0.9                  -1.2654e-06           -4.08e-12             -6e-14                1.2704e-06           
  -0.95                 -1.4084e-06           -5.18e-12             -1e-13                1.4128e-06           
  -1                    -1.5468e-06           -6.42e-12             -6e-14                1.55e-06             
  -1.05                 -1.6792e-06           -7.96e-12             -1e-13                1.683e-06            
  -1.1                  -1.804e-06            -9.7e-12              -1e-13                1.808e-06            
  -1.15                 -1.9252e-06           -1.178e-11            -1.6e-13              1.9296e-06           
  -1.2                  -2.0418e-06           -1.41e-11             6e-14                 2.046e-06            
  -1.25                 -2.1522e-06           -1.682e-11            -6e-14                2.153e-06            
  -1.3                  -2.2544e-06           -2e-11                2e-14                 2.2558e-06           
  -1.35                 -2.3506e-06           -2.39e-11             4e-14                 2.3548e-06           
END_DB

BEGIN_DB
 ICCAP_VAR vb         0.8            
 ICCAP_VAR vd         -0.05          
 ICCAP_VAR vs         -0             

 #vg                    id                    ig                    ib                    is                   
  0.5                   8e-14                 4.4e-13               -1e-13                8e-14                
  0.45                  0                     1.8e-13               -2e-14                1e-13                
  0.4                   0                     -2e-14                4e-14                 6e-14                
  0.35                  -2e-14                -1.4e-13              8e-14                 1e-13                
  0.3                   -4e-14                -1.6e-13              2e-14                 4e-14                
