! VERSION = 6.00
BEGIN_HEADER
 ICCAP_INPUTS
  vg         V  G GROUND SMU2 0.001 LIN        1    0.5        -1.35      38   -0.05     
  vb         V  B GROUND SMU4 0.1 LIN        2    0          1.2        7    0.2       
  vd         V  D GROUND SMU1 0.1 LIST       3 3 -0.05 -0.6 -1.2
  vs         V  S GROUND SMU3 0.1 CON        -0
 ICCAP_OUTPUTS
  id         I  D GROUND SMU1 B
  ig         I  G GROUND SMU2 B
  ib         I  B GROUND SMU4 B
  is         I  S GROUND SMU3 B
 ICCAP_VALUES
  MASTER_SETUP_TYPE "~dc_idvg~"
  LINVT_VALUE ""
  LISTVT_VALUE ""
  TYPE "-1"
  TEMP "-40.0000 "
  IS_TNOM " 0.00000 "
  MAIN.W "300.0n"
  MAIN.L "130.0n"
  MAIN.AD "102.0f"
  MAIN.AS "102.0f"
  MAIN.PD "1.280u"
  MAIN.PS "1.280u"
  MAIN.NF "1.000"
  MAIN.M "1"
  MAIN.NRD "0.000"
  MAIN.NRS "0.000"
  MAIN.LDRIFT1 "1E-06"
  MAIN.LDRIFT2 "1E-06"
  MAIN.SA "0.000"
  MAIN.SB "0.000"
  MAIN.SD "0.000"
  MAIN.SCA "0.000"
  MAIN.SCB "0.000"
  MAIN.SCC "0.000"
  MAIN.SC "0.000"
  MODULE "S552"
  PIN_D "18"
  PIN_G "3"
  PIN_S "4"
  PIN_B "17"
  PIN_E ""
  PIN_6 ""
  XY_ID ""
  FUNC "LW Scale"
  STI "SA ref"
  WPE "WPE ref"
  COMMENT ""
  DIS_MEAS ""
  TypeTCI "10"
END_HEADER

BEGIN_DB
 ICCAP_VAR vb         0              
 ICCAP_VAR vd         -0.05          
 ICCAP_VAR vs         -0             

 #vg                    id                    ig                    ib                    is                   
  0.5                   -1e-13                6e-13                 0                     -1.2e-13             
  0.45                  -2e-14                2.2e-13               0                     -6e-14               
  0.4                   6e-14                 1.2e-13               -1.2e-13              -2e-14               
  0.35                  0                     0                     0                     -4e-14               
  0.3                   4e-14                 -1e-13                -1.4e-13              1.2e-13              
  0.25                  -1.2e-13              -1.6e-13              -8e-14                2.4e-13              
  0.2                   -1e-13                -2.2e-13              -2e-14                -4e-14               
  0.15                  6e-14                 -1.2e-13              2e-14                 2e-14                
  0.1                   6e-14                 -2e-13                -6e-14                6e-14                
  0.05                  8e-14                 -2.4e-13              0                     1.2e-13              
  0                     -4e-14                -3e-13                -8e-14                1.2e-13              
  -0.05                 -1.4e-13              -1.8e-13              2e-14                 2e-14                
  -0.1                  -5.2e-13              -3e-13                -4e-14                7.4e-13              
  -0.15                 -4.34e-12             -1.8e-13              1e-13                 4.42e-12             
  -0.2                  -3.008e-11            -3e-13                -2e-14                3.026e-11            
  -0.25                 -2.093e-10            -2.4e-13              -1e-13                2.0946e-10           
  -0.3                  -1.424e-09            -3e-13                0                     1.4228e-09           
  -0.35                 -8.9342e-09           -4e-13                -2e-14                8.9416e-09           
  -0.4                  -4.6604e-08           -3.8e-13              4e-14                 4.661e-08            
  -0.45                 -1.764e-07            -2.8e-13              0                     1.7646e-07           
  -0.5                  -4.7574e-07           -3.8e-13              4e-14                 4.7652e-07           
  -0.55                 -9.8078e-07           -5.4e-13              -2e-14                9.8098e-07           
  -0.6                  -1.656e-06            -6.6e-13              0                     1.6592e-06           
  -0.65                 -2.4292e-06           -4.8e-13              6e-14                 2.4328e-06           
  -0.7                  -3.2394e-06           -8e-13                -6e-14                3.243e-06            
  -0.75                 -4.0494e-06           -8e-13                2e-14                 4.0528e-06           
  -0.8                  -4.841e-06            -1.12e-12             2e-14                 4.8444e-06           
  -0.85                 -5.6018e-06           -1.24e-12             -8e-14                5.594e-06            
  -0.9                  -6.3172e-06           -1.48e-12             4e-14                 6.3164e-06           
  -0.95                 -7.0016e-06           -1.78e-12             -1e-13                7.0048e-06           
  -1                    -7.6552e-06           -2.12e-12             -4e-14                7.6592e-06           
  -1.05                 -8.2802e-06           -2.54e-12             -6e-14                8.2816e-06           
  -1.1                  -8.8448e-06           -3e-12                -6e-14                8.8484e-06           
  -1.15                 -9.3824e-06           -3.74e-12             -8e-14                9.3874e-06           
  -1.2                  -9.8918e-06           -4.58e-12             -4e-14                9.8946e-06           
  -1.25                 -1.03448e-05          -5.56e-12             -4e-14                1.03524e-05          
  -1.3                  -1.0756e-05           -6.42e-12             -2e-14                1.07582e-05          
  -1.35                 -1.1173e-05           -7.68e-12             1e-13                 1.11736e-05          
END_DB

BEGIN_DB
 ICCAP_VAR vb         0.2            
 ICCAP_VAR vd         -0.05          
 ICCAP_VAR vs         -0             

 #vg                    id                    ig                    ib                    is                   
  0.5                   0                     3.8e-13               4e-14                 -2e-14               
  0.45                  -8e-14                0                     4e-14                 6e-14                
  0.4                   -1e-13                0                     0                     0                    
  0.35                  4e-14                 -8e-14                0                     1.2e-13              
  0.3                   2e-14                 -2e-14                -6e-14                0                    
  0.25                  -2e-14                -1.2e-13              4e-14                 8e-14                
  0.2                   -4e-14                -1.4e-13              -4e-14                1e-13                
  0.15                  8e-14                 -2.4e-13              -6e-14                8e-14                
  0.1                   0                     -2.2e-13              -6e-14                1.2e-13              
  0.05                  -1e-13                -2e-13                0                     2e-14                
  0                     0                     -2.6e-13              -1.4e-13              1.4e-13              
  -0.05                 2e-14                 -2.2e-13              8e-14                 0                    
  -0.1                  -1.6e-13              -2e-13                -6e-14                3e-13                
  -0.15                 -1.08e-12             -2.2e-13              4e-14                 1.14e-12             
  -0.2                  -7.44e-12             -2.2e-13              0                     7.62e-12             
  -0.25                 -5.404e-11            -4e-13                2e-14                 5.412e-11            
  -0.3                  -3.8656e-10           -3.4e-13              -6e-14                3.8638e-10           
  -0.35                 -2.6502e-09           -3.2e-13              6e-14                 2.6526e-09           
  -0.4                  -1.622e-08            -2.6e-13              2e-14                 1.6244e-08           
  -0.45                 -7.72e-08             -5.2e-13              -4e-14                7.7236e-08           
  -0.5                  -2.5974e-07           -4.4e-13              1e-13                 2.5986e-07           
  -0.55                 -6.305e-07            -4.2e-13              2e-14                 6.3e-07              
  -0.6                  -1.1974e-06           -4e-13                -6e-14                1.2008e-06           
  -0.65                 -1.9084e-06           -5.8e-13              1e-13                 1.912e-06            
  -0.7                  -2.6878e-06           -6e-13                -2e-14                2.6924e-06           
  -0.75                 -3.4844e-06           -9.2e-13              2e-14                 3.4878e-06           
  -0.8                  -4.2726e-06           -1.1e-12              -1.2e-13              4.277e-06            
  -0.85                 -5.037e-06            -1.12e-12             -8e-14                5.0292e-06           
  -0.9                  -5.7578e-06           -1.48e-12             -2e-14                5.761e-06            
  -0.95                 -6.4556e-06           -1.72e-12             -2e-14                6.4586e-06           
  -1                    -7.1132e-06           -2.08e-12             -6e-14                7.1106e-06           
  -1.05                 -7.7296e-06           -2.46e-12             0                     7.728e-06            
  -1.1                  -8.3146e-06           -2.94e-12             -2.4e-13              8.3276e-06           
  -1.15                 -8.8758e-06           -3.58e-12             -2e-14                8.8796e-06           
  -1.2                  -9.379e-06            -4.44e-12             -1e-13                9.3804e-06           
  -1.25                 -9.8618e-06           -5.4e-12              -2e-14                9.8634e-06           
  -1.3                  -1.03062e-05          -6.42e-12             2e-14                 1.02978e-05          
  -1.35                 -1.07092e-05          -7.66e-12             -1.2e-13              1.07044e-05          
END_DB

BEGIN_DB
 ICCAP_VAR vb         0.4            
 ICCAP_VAR vd         -0.05          
 ICCAP_VAR vs         -0             

 #vg                    id                    ig                    ib                    is                   
  0.5                   -2e-14                2.8e-13               4e-14                 -1.4e-13             
  0.45                  0                     2.4e-13               1e-13                 -8e-14               
  0.4                   -2e-14                6e-14                 0                     -8e-14               
  0.35                  -1.6e-13              6e-14                 0                     -2e-14               
  0.3                   2e-14                 -4e-14                6e-14                 8e-14                
  0.25                  4e-14                 -2e-13                -4e-14                0                    
  0.2                   0                     -8e-14                0                     1.2e-13              
  0.15                  8e-14                 -2.2e-13              0                     -2e-14               
  0.1                   6e-14                 -2.4e-13              -2e-14                1.6e-13              
  0.05                  8e-14                 -1.6e-13              1.8e-13               -4e-14               
  0                     6e-14                 -4e-13                -1.2e-13              6e-14                
  -0.05                 1e-13                 -2.2e-13              -6e-14                8e-14                
  -0.1                  -1e-13                -3e-13                2e-14                 2e-14                
  -0.15                 -1.4e-13              -3.2e-13              -4e-14                4e-13                
  -0.2                  -2.06e-12             -2.6e-13              0                     2.16e-12             
  -0.25                 -1.608e-11            -3.4e-13              -6e-14                1.62e-11             
  -0.3                  -1.1822e-10           -3.6e-13              -6e-14                1.184e-10            
  -0.35                 -8.5168e-10           -3.6e-13              0                     8.5128e-10           
  -0.4                  -5.7238e-09           -3e-13                0                     5.733e-09            
  -0.45                 -3.2078e-08           -2.6e-13              -4e-14                3.2096e-08           
  -0.5                  -1.3134e-07           -4e-13                -6e-14                1.3174e-07           
  -0.55                 -3.8176e-07           -4.2e-13              -1.6e-13              3.8194e-07           
  -0.6                  -8.3128e-07           -5.2e-13              2e-14                 8.3178e-07           
  -0.65                 -1.4574e-06           -5.6e-13              -2e-14                1.4612e-06           
  -0.7                  -2.193e-06            -7.2e-13              -1.8e-13              2.1954e-06           
  -0.75                 -2.9682e-06           -7.4e-13              2e-14                 2.9732e-06           
  -0.8                  -3.7518e-06           -1.06e-12             -4e-14                3.7552e-06           
  -0.85                 -4.5176e-06           -1.2e-12              -2e-13                4.5206e-06           
  -0.9                  -5.2542e-06           -1.28e-12             -1e-13                5.259e-06            
  -0.95                 -5.9592e-06           -1.76e-12             0                     5.9586e-06           
  -1                    -6.6208e-06           -1.94e-12             -6e-14                6.6296e-06           
  -1.05                 -7.258e-06            -2.34e-12             4e-14                 7.2542e-06           
  -1.1                  -7.8466e-06           -2.9e-12              -4e-14                7.8352e-06           
  -1.15                 -8.4012e-06           -3.42e-12             -2e-14                8.4062e-06           
  -1.2                  -8.9312e-06           -4.3e-12              4e-14                 8.9284e-06           
  -1.25                 -9.42e-06             -5.44e-12             -2e-14                9.3992e-06           
  -1.3                  -9.8326e-06           -6.36e-12             -6e-14                9.84e-06             
  -1.35                 -1.02484e-05          -7.46e-12             0                     1.02478e-05          
END_DB

BEGIN_DB
 ICCAP_VAR vb         0.6            
 ICCAP_VAR vd         -0.05          
 ICCAP_VAR vs         -0             

 #vg                    id                    ig                    ib                    is                   
  0.5                   -8e-14                4.4e-13               2e-14                 -6e-14               
  0.45                  -2e-14                0                     2e-14                 -8e-14               
  0.4                   6e-14                 4e-14                 -8e-14                6e-14                
  0.35                  6e-14                 -4e-14                -4e-14                1.6e-13              
  0.3                   6e-14                 -4e-14                -8e-14                2e-14                
  0.25                  8e-14                 -1e-13                -4e-14                6e-14                
  0.2                   -4e-14                -1.4e-13              -6e-14                0                    
  0.15                  2e-14                 -2e-13                -2e-14                1.8e-13              
  0.1                   0                     -1.6e-13              1.2e-13               2e-14                
  0.05                  -1.2e-13              -2.8e-13              -8e-14                1.6e-13              
  0                     0                     -1.2e-13              0                     4e-14                
  -0.05                 2e-14                 -1.8e-13              6e-14                 -2e-14               
  -0.1                  4e-14                 -2e-13                -4e-14                8e-14                
  -0.15                 6e-14                 -2.8e-13              1e-13                 6e-14                
  -0.2                  -6.2e-13              -3.2e-13              2e-14                 7e-13                
  -0.25                 -5.48e-12             -2.8e-13              -2e-14                5.64e-12             
  -0.3                  -4.15e-11             -4.2e-13              -2e-14                4.168e-11            
  -0.35                 -3.0972e-10           -3.4e-13              2e-14                 3.0954e-10           
  -0.4                  -2.2206e-09           -2.6e-13              2e-14                 2.2266e-09           
  -0.45                 -1.4142e-08           -3.4e-13              -1.6e-13              1.4118e-08           
  -0.5                  -6.986e-08            -3.8e-13              1e-13                 6.9948e-08           
  -0.55                 -2.3982e-07           -5.6e-13              -6e-14                2.3992e-07           
  -0.6                  -5.91e-07             -6e-13                1e-13                 5.9108e-07           
  -0.65                 -1.13242e-06          -7e-13                0                     1.13278e-06          
  -0.7                  -1.8118e-06           -6e-13                -8e-14                1.8154e-06           
  -0.75                 -2.5586e-06           -7.4e-13              8e-14                 2.5618e-06           
  -0.8                  -3.3254e-06           -8.6e-13              4e-14                 3.3284e-06           
  -0.85                 -4.0788e-06           -1.18e-12             -2e-14                4.0916e-06           
  -0.9                  -4.8296e-06           -1.48e-12             0                     4.8332e-06           
  -0.95                 -5.5404e-06           -1.66e-12             -1.2e-13              5.5358e-06           
  -1                    -6.2068e-06           -2.02e-12             0                     6.2172e-06           
  -1.05                 -6.8298e-06           -2.36e-12             -2e-14                6.826e-06            
  -1.1                  -7.4232e-06           -2.98e-12             -2e-14                7.427e-06            
  -1.15                 -8.0024e-06           -3.52e-12             -4e-14                8.0156e-06           
  -1.2                  -8.52e-06             -4.38e-12             -1e-13                8.5174e-06           
  -1.25                 -9.0114e-06           -5.36e-12             -2e-14                9.014e-06            
  -1.3                  -9.4498e-06           -6.46e-12             0                     9.46e-06             
  -1.35                 -9.8848e-06           -7.38e-12             -6e-14                9.89e-06             
END_DB

BEGIN_DB
 ICCAP_VAR vb         0.8            
 ICCAP_VAR vd         -0.05          
 ICCAP_VAR vs         -0             

 #vg                    id                    ig                    ib                    is                   
  0.5                   0                     4.4e-13               1.6e-13               -6e-14               
  0.45                  4e-14                 2.4e-13               -1e-13                -1.2e-13             
  0.4                   -6e-14                1.4e-13               2e-13                 2e-14                
  0.35                  1e-13                 -6e-14                4e-14                 2e-14                
  0.3                   4e-14                 4e-14                 6e-14                 4e-14                
