! VERSION = 6.00
BEGIN_HEADER
 ICCAP_INPUTS
  vd         V  D GROUND SMU1 0.1 LIN        1    -0         -1.35      28   -0.05     
  vg         V  G GROUND SMU2 0.001 LIST       2 3 -0.329 -0.529 -0.729
  vb         V  B GROUND SMU4 0.1 CON        1.2
  vs         V  S GROUND SMU3 0.1 CON        -0
 ICCAP_OUTPUTS
  id         I  D GROUND SMU1 B
  ig         I  G GROUND SMU2 B
  ib         I  B GROUND SMU4 B
  is         I  S GROUND SMU3 B
 ICCAP_VALUES
  MASTER_SETUP_TYPE "~dc_idvd~"
  LINVT_VALUE ""
  LISTVT_VALUE "|idvg|100.0n|-200.0m|1.000m|3|200.0m|200.0m|"
  TYPE "-1"
  TEMP " 27.0000 "
  IS_TNOM " 1.00000 "
  MAIN.W "300.0n"
  MAIN.L "140.0n"
  MAIN.AD "102.0f"
  MAIN.AS "102.0f"
  MAIN.PD "1.280u"
  MAIN.PS "1.280u"
  MAIN.NF "1.000"
  MAIN.M "1"
  MAIN.NRD "0.000"
  MAIN.NRS "0.000"
  MAIN.LDRIFT1 "1E-06"
  MAIN.LDRIFT2 "1E-06"
  MAIN.SA "0.000"
  MAIN.SB "0.000"
  MAIN.SD "0.000"
  MAIN.SCA "0.000"
  MAIN.SCB "0.000"
  MAIN.SCC "0.000"
  MAIN.SC "0.000"
  MODULE "S552"
  PIN_D "16"
  PIN_G "5"
  PIN_S "6"
  PIN_B "15"
  PIN_E ""
  PIN_6 ""
  XY_ID ""
  FUNC "LW Scale"
  STI "SA ref"
  WPE "WPE ref"
  COMMENT ""
  DIS_MEAS ""
  TypeTCI "10"
END_HEADER

BEGIN_DB
 ICCAP_VAR vg         -0.329         
 ICCAP_VAR vb         1.2            
 ICCAP_VAR vs         -0             

 #vd                    id                    ig                    ib                    is                   
  -0                    1.04e-12              2e-14                 2.2e-13               -1.38e-12            
  -0.05                 -3.5946e-10           1.8e-13               4e-14                 3.5918e-10           
  -0.1                  -4.5214e-10           2.8e-13               2e-14                 4.5214e-10           
  -0.15                 -5.02e-10             6e-14                 1.2e-13               5.0238e-10           
  -0.2                  -5.4564e-10           1.4e-13               1.4e-13               5.459e-10            
  -0.25                 -5.8876e-10           1.8e-13               1.6e-13               5.8752e-10           
  -0.3                  -6.337e-10            1.6e-13               2e-14                 6.332e-10            
  -0.35                 -6.782e-10            -2e-14                -6e-14                6.787e-10            
  -0.4                  -7.2758e-10           1e-13                 0                     7.2698e-10           
  -0.45                 -7.788e-10            1.8e-13               2e-14                 7.7854e-10           
  -0.5                  -8.2954e-10           1e-13                 2.4e-13               8.301e-10            
  -0.55                 -8.8414e-10           4e-14                 1.4e-13               8.834e-10            
  -0.6                  -9.3824e-10           8e-14                 -1.8e-13              9.3796e-10           
  -0.65                 -9.966e-10            6e-14                 -1e-13                9.9742e-10           
  -0.7                  -1.0556e-09           8e-14                 4e-14                 1.0572e-09           
  -0.75                 -1.1202e-09           6e-14                 4e-14                 1.12156e-09          
  -0.8                  -1.1876e-09           6e-14                 -6e-14                1.1874e-09           
  -0.85                 -1.2536e-09           1.8e-13               1.2e-13               1.254e-09            
  -0.9                  -1.3252e-09           1.6e-13               6e-14                 1.326e-09            
  -0.95                 -1.3984e-09           8e-14                 8e-14                 1.3984e-09           
  -1                    -1.4722e-09           3e-13                 1.8e-13               1.47e-09             
  -1.05                 -1.5532e-09           8e-14                 0                     1.5538e-09           
  -1.1                  -1.6366e-09           1.2e-13               2e-14                 1.637e-09            
  -1.15                 -1.7218e-09           2.8e-13               -2e-14                1.7214e-09           
  -1.2                  -1.8072e-09           2e-14                 1.4e-13               1.8088e-09           
  -1.25                 -1.9038e-09           2.2e-13               8e-14                 1.902e-09            
  -1.3                  -1.998e-09            2.8e-13               -1.6e-13              1.999e-09            
  -1.35                 -2.096e-09            2e-13                 0                     2.0964e-09           
END_DB

BEGIN_DB
 ICCAP_VAR vg         -0.529         
 ICCAP_VAR vb         1.2            
 ICCAP_VAR vs         -0             

 #vd                    id                    ig                    ib                    is                   
  -0                    2.6504e-10            -1.4e-13              6e-14                 -2.558e-10           
  -0.05                 -9.6894e-08           -2e-14                0                     9.7034e-08           
  -0.1                  -1.3324e-07           -1.4e-13              -2e-14                1.3356e-07           
  -0.15                 -1.5242e-07           -4e-14                -6e-14                1.527e-07            
  -0.2                  -1.6684e-07           -1.4e-13              -6e-14                1.6696e-07           
  -0.25                 -1.7922e-07           -8e-14                6e-14                 1.7952e-07           
  -0.3                  -1.9144e-07           -8e-14                0                     1.9164e-07           
  -0.35                 -2.0314e-07           -8e-14                0                     2.0306e-07           
  -0.4                  -2.148e-07            -4e-14                2e-14                 2.152e-07            
  -0.45                 -2.2692e-07           -2e-14                2e-14                 2.2704e-07           
  -0.5                  -2.3866e-07           0                     -4e-14                2.388e-07            
  -0.55                 -2.5056e-07           0                     2e-14                 2.508e-07            
  -0.6                  -2.6262e-07           0                     -4e-14                2.629e-07            
  -0.65                 -2.7498e-07           -1.2e-13              -8e-14                2.7498e-07           
  -0.7                  -2.875e-07            0                     8e-14                 2.874e-07            
  -0.75                 -2.9946e-07           -1.6e-13              2e-14                 2.9974e-07           
  -0.8                  -3.1294e-07           -6e-14                2e-14                 3.1306e-07           
  -0.85                 -3.2606e-07           -4e-14                0                     3.2622e-07           
  -0.9                  -3.392e-07            0                     -2e-14                3.3908e-07           
  -0.95                 -3.5182e-07           0                     2e-14                 3.5222e-07           
  -1                    -3.6526e-07           0                     -2e-14                3.6598e-07           
  -1.05                 -3.8024e-07           -2e-14                -2e-14                3.794e-07            
  -1.1                  -3.9388e-07           6e-14                 1.2e-13               3.945e-07            
  -1.15                 -4.0876e-07           1.4e-13               1.2e-13               4.0874e-07           
  -1.2                  -4.2314e-07           6e-14                 1.4e-13               4.235e-07            
  -1.25                 -4.3814e-07           0                     3.4e-13               4.3782e-07           
  -1.3                  -4.521e-07            1.6e-13               5e-13                 4.5276e-07           
  -1.35                 -4.684e-07            2.8e-13               7.8e-13               4.6864e-07           
END_DB

BEGIN_DB
 ICCAP_VAR vg         -0.729         
 ICCAP_VAR vb         1.2            
 ICCAP_VAR vs         -0             

 #vd                    id                    ig                    ib                    is                   
  -0                    2.1068e-09            -6e-13                0                     -1.9562e-09          
  -0.05                 -1.3292e-06           -4.4e-13              -1.2e-13              1.333e-06            
  -0.1                  -2.201e-06            -4.4e-13              -4e-14                2.2052e-06           
  -0.15                 -2.7586e-06           -2.8e-13              2e-14                 2.76e-06             
  -0.2                  -3.1338e-06           -3.6e-13              -6e-14                3.1374e-06           
  -0.25                 -3.4088e-06           -3e-13                -6e-14                3.412e-06            
  -0.3                  -3.631e-06            -1.6e-13              0                     3.6342e-06           
  -0.35                 -3.82e-06             -2e-13                -2e-14                3.8238e-06           
  -0.4                  -3.9884e-06           -2e-13                -2e-14                3.9918e-06           
  -0.45                 -4.1446e-06           -3.2e-13              0                     4.1482e-06           
  -0.5                  -4.2896e-06           -2.4e-13              0                     4.2928e-06           
  -0.55                 -4.4336e-06           -2.2e-13              8e-14                 4.4388e-06           
  -0.6                  -4.5726e-06           -2.8e-13              0                     4.5744e-06           
  -0.65                 -4.7066e-06           -2.2e-13              0                     4.6842e-06           
  -0.7                  -4.7996e-06           -1.4e-13              8e-14                 4.8034e-06           
  -0.75                 -4.9278e-06           -1.4e-13              1e-13                 4.9338e-06           
  -0.8                  -5.0574e-06           -2.4e-13              1.4e-13               5.059e-06            
  -0.85                 -5.1826e-06           -2.4e-13              -4e-14                5.1862e-06           
  -0.9                  -5.3086e-06           -2e-13                2e-14                 5.3068e-06           
  -0.95                 -5.4284e-06           -2.8e-13              8e-14                 5.4346e-06           
  -1                    -5.552e-06            -1.4e-13              -1.2e-13              5.5556e-06           
  -1.05                 -5.6756e-06           -2.8e-13              -2e-14                5.678e-06            
  -1.1                  -5.7994e-06           -2.8e-13              1.6e-13               5.804e-06            
  -1.15                 -5.9232e-06           -1.6e-13              1.6e-13               5.9264e-06           
  -1.2                  -6.0434e-06           -2e-13                2.4e-13               6.049e-06            
  -1.25                 -6.1668e-06           -1.6e-13              4e-13                 6.173e-06            
  -1.3                  -6.2896e-06           -4e-14                8.8e-13               6.2922e-06           
  -1.35                 -6.4124e-06           -1.8e-13              1.82e-12              6.4164e-06           
END_DB

