! VERSION = 6.00
BEGIN_HEADER
 ICCAP_INPUTS
  vd         V  D GROUND SMU1 0.1 LIN        1    -0         -1.35      28   -0.05     
  vg         V  G GROUND SMU2 0.001 LIN        2    -0.626     -1.35      5    -0.181    
  vb         V  B GROUND SMU4 0.1 CON        1.2
  vs         V  S GROUND SMU3 0.1 CON        -0
 ICCAP_OUTPUTS
  id         I  D GROUND SMU1 B
  ig         I  G GROUND SMU2 B
  ib         I  B GROUND SMU4 B
  is         I  S GROUND SMU3 B
 ICCAP_VALUES
  MASTER_SETUP_TYPE "~dc_idvd~"
  LINVT_VALUE "|idvg|100.0n|100.0m|1.000m|5|1.350|"
  LISTVT_VALUE ""
  TYPE "-1"
  TEMP " 27.0000 "
  IS_TNOM " 1.00000 "
  MAIN.W "180.0n"
  MAIN.L "140.0n"
  MAIN.AD "102.6f"
  MAIN.AS "102.6f"
  MAIN.PD "1.340u"
  MAIN.PS "1.340u"
  MAIN.NF "1.000"
  MAIN.M "1"
  MAIN.NRD "0.000"
  MAIN.NRS "0.000"
  MAIN.LDRIFT1 "1E-06"
  MAIN.LDRIFT2 "1E-06"
  MAIN.SA "0.000"
  MAIN.SB "0.000"
  MAIN.SD "0.000"
  MAIN.SCA "0.000"
  MAIN.SCB "0.000"
  MAIN.SCC "0.000"
  MAIN.SC "0.000"
  MODULE "S553"
  PIN_D "14"
  PIN_G "7"
  PIN_S "8"
  PIN_B "13"
  PIN_E ""
  PIN_6 ""
  XY_ID ""
  FUNC "LW Scale"
  STI "SA ref"
  WPE "WPE ref"
  COMMENT ""
  DIS_MEAS ""
  TypeTCI "10"
END_HEADER

BEGIN_DB
 ICCAP_VAR vg         -0.626         
 ICCAP_VAR vb         1.2            
 ICCAP_VAR vs         -0             

 #vd                    id                    ig                    ib                    is                   
  -0                    5.5868e-10            -2.6e-13              4e-13                 -7.0774e-10          
  -0.05                 -3.6244e-07           -2e-13                2.4e-13               3.6276e-07           
  -0.1                  -5.3832e-07           -3.8e-13              1.8e-13               5.3848e-07           
  -0.15                 -6.3162e-07           -2e-13                1.8e-13               6.3272e-07           
  -0.2                  -6.9384e-07           -1.8e-13              2.6e-13               6.943e-07            
  -0.25                 -7.4636e-07           -2.4e-13              2.4e-13               7.4714e-07           
  -0.3                  -7.9516e-07           -3.6e-13              2.2e-13               7.952e-07            
  -0.35                 -8.3962e-07           -2.2e-13              2e-14                 8.404e-07            
  -0.4                  -8.8668e-07           -2.4e-13              0                     8.8492e-07           
  -0.45                 -9.2934e-07           -1e-13                8e-14                 9.298e-07            
  -0.5                  -9.7484e-07           -2e-14                1e-13                 9.7582e-07           
  -0.55                 -1.01644e-06          -2.8e-13              1e-13                 1.01896e-06          
  -0.6                  -1.0609e-06           -2e-13                2e-13                 1.06266e-06          
  -0.65                 -1.10728e-06          -1e-13                1.8e-13               1.10728e-06          
  -0.7                  -1.149e-06            0                     -2e-14                1.1536e-06           
  -0.75                 -1.1928e-06           -4.4e-13              6e-14                 1.192e-06            
  -0.8                  -1.2314e-06           -2e-13                1.2e-13               1.2392e-06           
  -0.85                 -1.2816e-06           -2.6e-13              -4e-14                1.2874e-06           
  -0.9                  -1.3304e-06           -2e-13                4e-14                 1.3334e-06           
  -0.95                 -1.3792e-06           -1.8e-13              -2e-14                1.3842e-06           
  -1                    -1.428e-06            -2.8e-13              -8e-14                1.4324e-06           
  -1.05                 -1.4752e-06           -1.4e-13              8e-14                 1.4774e-06           
  -1.1                  -1.5256e-06           -1e-13                6e-14                 1.5282e-06           
  -1.15                 -1.5762e-06           -2.6e-13              0                     1.5792e-06           
  -1.2                  -1.6272e-06           -2.4e-13              4e-14                 1.6308e-06           
  -1.25                 -1.6816e-06           0                     2.8e-13               1.6846e-06           
  -1.3                  -1.7336e-06           -2.2e-13              7.6e-13               1.733e-06            
  -1.35                 -1.7858e-06           -3.2e-13              1.58e-12              1.7922e-06           
END_DB

BEGIN_DB
 ICCAP_VAR vg         -0.807         
 ICCAP_VAR vb         1.2            
 ICCAP_VAR vs         -0             

 #vd                    id                    ig                    ib                    is                   
  -0                    2.1914e-09            -7.2e-13              0                     -1.8904e-09          
  -0.05                 -1.5778e-06           -8.2e-13              -2e-14                1.5816e-06           
  -0.1                  -2.7658e-06           -6.8e-13              0                     2.7716e-06           
  -0.15                 -3.6112e-06           -6.8e-13              -1e-13                3.6186e-06           
  -0.2                  -4.2002e-06           -7.4e-13              -4e-14                4.2018e-06           
  -0.25                 -4.6086e-06           -4.2e-13              -2e-14                4.615e-06            
  -0.3                  -4.918e-06            -5.4e-13              0                     4.9232e-06           
  -0.35                 -5.1662e-06           -5e-13                -4e-14                5.1664e-06           
  -0.4                  -5.3792e-06           -3.6e-13              0                     5.3876e-06           
  -0.45                 -5.5798e-06           -4.4e-13              -6e-14                5.5888e-06           
  -0.5                  -5.7634e-06           -3.4e-13              0                     5.7652e-06           
  -0.55                 -5.9342e-06           -5.2e-13              2e-14                 5.9374e-06           
  -0.6                  -6.1068e-06           -4.2e-13              -2e-14                6.11e-06             
  -0.65                 -6.2704e-06           -3.2e-13              -2e-14                6.274e-06            
  -0.7                  -6.4304e-06           -3.4e-13              -1e-13                6.4358e-06           
  -0.75                 -6.5926e-06           -4.2e-13              -4e-14                6.5992e-06           
  -0.8                  -6.7504e-06           -4.8e-13              -6e-14                6.7494e-06           
  -0.85                 -6.9e-06              -4.2e-13              -8e-14                6.9056e-06           
  -0.9                  -7.0552e-06           -4.8e-13              -4e-14                7.0588e-06           
  -0.95                 -7.2072e-06           -4e-13                -6e-14                7.2096e-06           
  -1                    -7.3628e-06           -4.2e-13              -1e-13                7.3658e-06           
  -1.05                 -7.5148e-06           -3.8e-13              -1.6e-13              7.516e-06            
  -1.1                  -7.6676e-06           -4.2e-13              -1e-13                7.6714e-06           
  -1.15                 -7.824e-06            -4.8e-13              2e-14                 7.8292e-06           
  -1.2                  -7.9704e-06           -2.6e-13              1e-13                 7.9752e-06           
  -1.25                 -8.1242e-06           -2.4e-13              1.6e-13               8.1286e-06           
  -1.3                  -8.2872e-06           -3.8e-13              5.6e-13               8.2908e-06           
  -1.35                 -8.4388e-06           -3.6e-13              1.32e-12              8.4436e-06           
END_DB

BEGIN_DB
 ICCAP_VAR vg         -0.988         
 ICCAP_VAR vb         1.2            
 ICCAP_VAR vs         -0             

 #vd                    id                    ig                    ib                    is                   
  -0                    3.1876e-09            -1.86e-12             4e-14                 -3.0682e-09          
  -0.05                 -2.9164e-06           -1.62e-12             2e-14                 2.9204e-06           
  -0.1                  -5.4386e-06           -1.62e-12             -4e-14                5.4414e-06           
  -0.15                 -7.555e-06            -1.46e-12             -4e-14                7.5628e-06           
  -0.2                  -9.288e-06            -1.18e-12             -4e-14                9.2884e-06           
  -0.25                 -1.06662e-05          -1.06e-12             2e-14                 1.06738e-05          
  -0.3                  -1.1718e-05           -1.38e-12             4e-14                 1.1718e-05           
  -0.35                 -1.2536e-05           -1.02e-12             -8e-14                1.255e-05            
  -0.4                  -1.3206e-05           -1.12e-12             -1.6e-13              1.3218e-05           
  -0.45                 -1.3748e-05           -9.8e-13              0                     1.3766e-05           
  -0.5                  -1.4212e-05           -9.8e-13              -4e-14                1.4226e-05           
  -0.55                 -1.4618e-05           -1.14e-12             -1.2e-13              1.464e-05            
  -0.6                  -1.4996e-05           -1.04e-12             -4e-14                1.5016e-05           
  -0.65                 -1.5338e-05           -1.06e-12             -1e-13                1.5356e-05           
  -0.7                  -1.5668e-05           -9.4e-13              -8e-14                1.5686e-05           
  -0.75                 -1.5974e-05           -6.8e-13              -4e-14                1.5982e-05           
  -0.8                  -1.6276e-05           -1.14e-12             -8e-14                1.6282e-05           
  -0.85                 -1.657e-05            -1.14e-12             0                     1.6586e-05           
  -0.9                  -1.6848e-05           -8.2e-13              -1.6e-13              1.687e-05            
  -0.95                 -1.716e-05            -8.8e-13              -1.8e-13              1.7202e-05           
  -1                    -1.7462e-05           -1.04e-12             -1e-13                1.7478e-05           
  -1.05                 -1.7738e-05           -1.08e-12             -8e-14                1.7748e-05           
  -1.1                  -1.801e-05            -8e-13                -6e-14                1.801e-05            
  -1.15                 -1.827e-05            -8.4e-13              2e-14                 1.829e-05            
  -1.2                  -1.8538e-05           -1.02e-12             -2e-14                1.8558e-05           
  -1.25                 -1.88e-05             -8.6e-13              4e-14                 1.8818e-05           
  -1.3                  -1.9066e-05           -8.2e-13              1.8e-13               1.9084e-05           
  -1.35                 -1.9326e-05           -1.02e-12             8.4e-13               1.9336e-05           
END_DB

BEGIN_DB
 ICCAP_VAR vg         -1.169         
 ICCAP_VAR vb         1.2            
 ICCAP_VAR vs         -0             

 #vd                    id                    ig                    ib                    is                   
  -0                    3.7128e-09            -3.5e-12              -4e-14                -4.0008e-09          
  -0.05                 -4.0978e-06           -3.26e-12             1e-13                 4.1014e-06           
  -0.1                  -7.8334e-06           -3.22e-12             0                     7.8402e-06           
  -0.15                 -1.11728e-05          -3.02e-12             -1.6e-13              1.11824e-05          
  -0.2                  -1.4112e-05           -2.9e-12              -4e-14                1.4114e-05           
  -0.25                 -1.663e-05            -2.82e-12             -4e-14                1.6652e-05           
  -0.3                  -1.8786e-05           -2.44e-12             -4e-14                1.8838e-05           
  -0.35                 -2.0598e-05           -2.64e-12             -4e-14                2.0606e-05           
  -0.4                  -2.2088e-05           -2.54e-12             -1.2e-13              2.2098e-05           
  -0.45                 -2.3316e-05           -2.3e-12              -1e-13                2.3342e-05           
  -0.5                  -2.436e-05            -2.12e-12             -8e-14                2.4426e-05           
  -0.55                 -2.5274e-05           -2.22e-12             8e-14                 2.5304e-05           
  -0.6                  -2.603e-05            -2.28e-12             -6e-14                2.6042e-05           
  -0.65                 -2.6678e-05           -1.98e-12             -8e-14                2.67e-05             
  -0.7                  -2.7274e-05           -1.98e-12             -8e-14                2.729e-05            
  -0.75                 -2.7808e-05           -2.24e-12             -1e-13                2.7832e-05           
  -0.8                  -2.83e-05             -2e-12                -2e-14                2.8312e-05           
  -0.85                 -2.8766e-05           -1.82e-12             0                     2.8782e-05           
  -0.9                  -2.9206e-05           -2.08e-12             -1.6e-13              2.9214e-05           
  -0.95                 -2.9634e-05           -2.08e-12             -1.8e-13              2.966e-05            
  -1                    -3.0068e-05           -1.86e-12             -1e-13                3.008e-05            
  -1.05                 -3.0474e-05           -2.06e-12             -1.2e-13              3.0498e-05           
  -1.1                  -3.0874e-05           -2.26e-12             -1.2e-13              3.0876e-05           
  -1.15                 -3.1256e-05           -2.02e-12             -2e-14                3.1264e-05           
  -1.2                  -3.1626e-05           -1.9e-12              -1.2e-13              3.1644e-05           
  -1.25                 -3.2014e-05           -2.06e-12             2e-14                 3.2036e-05           
  -1.3                  -3.2394e-05           -1.96e-12             1e-13                 3.241e-05            
  -1.35                 -3.2762e-05           -1.94e-12             3.8e-13               3.2778e-05           
END_DB

BEGIN_DB
 ICCAP_VAR vg         -1.35          
 ICCAP_VAR vb         1.2            
 ICCAP_VAR vs         -0             

 #vd                    id                    ig                    ib                    is                   
  -0                    3.66e-09              -6.82e-12             4e-14                 -4.4832e-09          
  -0.05                 -5.0802e-06           -6.2e-12              1e-13                 5.0784e-06           
  -0.1                  -9.8414e-06           -6e-12                2e-14                 9.8436e-06           
  -0.15                 -1.4244e-05           -5.84e-12             -2e-14                1.4254e-05           
  -0.2                  -1.8234e-05           -5.46e-12             -6e-14                1.8266e-05           
  -0.25                 -2.1854e-05           -5.26e-12             -2e-14                2.1878e-05           
  -0.3                  -2.5084e-05           -5.1e-12              -2e-14                2.5102e-05           
  -0.35                 -2.7882e-05           -4.66e-12             0                     2.7904e-05           
  -0.4                  -3.036e-05            -4.6e-12              -4e-14                3.0392e-05           
  -0.45                 -3.2522e-05           -4.62e-12             -4e-14                3.2534e-05           
  -0.5                  -3.4376e-05           -4.62e-12             -6e-14                3.4372e-05           
  -0.55                 -3.5884e-05           -4.4e-12              -1.2e-13              3.5926e-05           
  -0.6                  -3.7264e-05           -4.1e-12              -8e-14                3.7272e-05           
  -0.65                 -3.8442e-05           -4.18e-12             0                     3.8466e-05           
  -0.7                  -3.9474e-05           -4.06e-12             2e-14                 3.9472e-05           
  -0.75                 -4.0358e-05           -3.78e-12             -2e-14                4.0382e-05           
  -0.8                  -4.117e-05            -3.9e-12              -1.2e-13              4.1202e-05           
  -0.85                 -4.1914e-05           -4.12e-12             -8e-14                4.1892e-05           
  -0.9                  -4.2548e-05           -3.98e-12             -8e-14                4.2578e-05           
  -0.95                 -4.3184e-05           -3.82e-12             -6e-14                4.3208e-05           
  -1                    -4.3776e-05           -3.92e-12             2e-14                 4.379e-05            
  -1.05                 -4.435e-05            -3.86e-12             -8e-14                4.4364e-05           
  -1.1                  -4.475e-05            -4e-12                -1.2e-13              4.4884e-05           
  -1.15                 -4.5386e-05           -3.84e-12             -6e-14                4.5388e-05           
  -1.2                  -4.5822e-05           -3.96e-12             6e-14                 4.5834e-05           
  -1.25                 -4.6388e-05           -3.88e-12             -4e-14                4.641e-05            
  -1.3                  -4.6788e-05           -3.74e-12             4e-14                 4.6824e-05           
  -1.35                 -4.733e-05            -3.74e-12             6e-14                 4.7372e-05           
END_DB

