! VERSION = 6.00
BEGIN_HEADER
 ICCAP_INPUTS
  vg         V  G GROUND SMU2 0.001 LIN        1    0.5        -1.35      38   -0.05     
  vb         V  B GROUND SMU4 0.1 LIN        2    0          1.2        7    0.2       
  vd         V  D GROUND SMU1 0.1 LIST       3 3 -0.05 -0.6 -1.2
  vs         V  S GROUND SMU3 0.1 CON        -0
 ICCAP_OUTPUTS
  id         I  D GROUND SMU1 B
  ig         I  G GROUND SMU2 B
  ib         I  B GROUND SMU4 B
  is         I  S GROUND SMU3 B
 ICCAP_VALUES
  MASTER_SETUP_TYPE "~dc_idvg~"
  LINVT_VALUE ""
  LISTVT_VALUE ""
  TYPE "-1"
  TEMP " 70.0000 "
  IS_TNOM " 0.00000 "
  MAIN.W "300.0n"
  MAIN.L "10.00u"
  MAIN.AD "102.0f"
  MAIN.AS "102.0f"
  MAIN.PD "1.280u"
  MAIN.PS "1.280u"
  MAIN.NF "1.000"
  MAIN.M "1"
  MAIN.NRD "0.000"
  MAIN.NRS "0.000"
  MAIN.LDRIFT1 "1E-06"
  MAIN.LDRIFT2 "1E-06"
  MAIN.SA "0.000"
  MAIN.SB "0.000"
  MAIN.SD "0.000"
  MAIN.SCA "0.000"
  MAIN.SCB "0.000"
  MAIN.SCC "0.000"
  MAIN.SC "0.000"
  MODULE "S553"
  PIN_D "18"
  PIN_G "3"
  PIN_S "4"
  PIN_B "17"
  PIN_E ""
  PIN_6 ""
  XY_ID ""
  FUNC "W Scale"
  STI "SA ref"
  WPE "WPE ref"
  COMMENT ""
  DIS_MEAS ""
  TypeTCI "10"
END_HEADER

BEGIN_DB
 ICCAP_VAR vb         0              
 ICCAP_VAR vd         -0.05          
 ICCAP_VAR vs         -0             

 #vg                    id                    ig                    ib                    is                   
  0.5                   -5.4e-13              6.4274e-10            -5.4356e-10           -2e-13               
  0.45                  -2e-14                1.1986e-10            -2.4816e-10           2e-13                
  0.4                   1.4e-13               2.27e-11              -1.4248e-10           6e-14                
  0.35                  1.2e-13               4.44e-12              -9.936e-11            2.8e-13              
  0.3                   8e-14                 8.8e-13               -7.678e-11            2.2e-13              
  0.25                  1.6e-13               1e-13                 -6.314e-11            1e-13                
  0.2                   2.2e-13               2e-14                 -5.396e-11            2.8e-13              
  0.15                  4e-14                 -1.2e-13              -4.694e-11            2.4e-13              
  0.1                   2e-14                 -1.6e-13              -4.17e-11             3.4e-13              
  0.05                  -2.8e-13              -2.2e-13              -3.748e-11            6e-13                
  0                     -1.28e-12             -2.4e-13              -3.382e-11            1.54e-12             
  -0.05                 -5.4e-12              -2.6e-13              -3.08e-11             5.72e-12             
  -0.1                  -2.176e-11            -2.2e-13              -2.808e-11            2.192e-11            
  -0.15                 -8.718e-11            -3.6e-13              -2.596e-11            8.736e-11            
  -0.2                  -3.3594e-10           -4e-13                -2.366e-11            3.3606e-10           
  -0.25                 -1.162e-09            -4.8e-13              -2.056e-11            1.1614e-09           
  -0.3                  -3.2636e-09           -8.2e-13              -1.92e-11             3.264e-09            
  -0.35                 -7.145e-09            -1.4e-12              -1.76e-11             7.1472e-09           
  -0.4                  -1.2666e-08           -2.14e-12             -1.636e-11            1.2684e-08           
  -0.45                 -1.927e-08            -3.74e-12             -1.516e-11            1.9292e-08           
  -0.5                  -2.6474e-08           -5.98e-12             -1.402e-11            2.6488e-08           
  -0.55                 -3.3936e-08           -9.12e-12             -1.324e-11            3.3962e-08           
  -0.6                  -4.1474e-08           -1.302e-11            -1.216e-11            4.1492e-08           
  -0.65                 -4.8934e-08           -1.856e-11            -1.136e-11            4.8972e-08           
  -0.7                  -5.6292e-08           -2.57e-11             -1.06e-11             5.6328e-08           
  -0.75                 -6.3448e-08           -3.496e-11            -9.86e-12             6.3506e-08           
  -0.8                  -7.0412e-08           -4.646e-11            -9.1e-12              7.0458e-08           
  -0.85                 -7.714e-08            -6.108e-11            -8.58e-12             7.722e-08            
  -0.9                  -8.3654e-08           -7.84e-11             -7.9e-12              8.3736e-08           
  -0.95                 -8.9892e-08           -9.926e-11            -7.32e-12             9.0008e-08           
  -1                    -9.5916e-08           -1.2398e-10           -6.76e-12             9.604e-08            
  -1.05                 -1.01652e-07          -1.5248e-10           -6.32e-12             1.01808e-07          
  -1.1                  -1.07156e-07          -1.859e-10            -5.88e-12             1.07368e-07          
  -1.15                 -1.1243e-07           -2.2532e-10           -5.34e-12             1.12676e-07          
  -1.2                  -1.1744e-07           -2.6946e-10           -4.74e-12             1.1776e-07           
  -1.25                 -1.223e-07            -3.189e-10            -3.86e-12             1.2266e-07           
  -1.3                  -1.269e-07            -3.7608e-10           -2.58e-12             1.2732e-07           
  -1.35                 -1.3128e-07           -4.4124e-10           -6.6e-13              1.3174e-07           
END_DB

BEGIN_DB
 ICCAP_VAR vb         0.2            
 ICCAP_VAR vd         -0.05          
 ICCAP_VAR vs         -0             

 #vg                    id                    ig                    ib                    is                   
  0.5                   -1.8e-13              1.3e-12               1.19e-11              2e-14                
  0.45                  -2e-13                4.6e-13               1.216e-11             4e-14                
  0.4                   0                     8e-14                 1.21e-11              0                    
  0.35                  -1.4e-13              0                     1.19e-11              6e-14                
  0.3                   0                     -1.8e-13              1.21e-11              8e-14                
  0.25                  -4e-14                -2.2e-13              1.196e-11             1.4e-13              
  0.2                   -8e-14                -6e-14                1.214e-11             8e-14                
  0.15                  2e-14                 -2.2e-13              1.21e-11              2.2e-13              
  0.1                   -2e-14                -3e-13                1.202e-11             1e-13                
  0.05                  -1.4e-13              -1.4e-13              1.2e-11               2e-13                
  0                     -4.4e-13              -3e-13                1.206e-11             4.8e-13              
  -0.05                 -1.84e-12             -2.6e-13              1.21e-11              1.86e-12             
  -0.1                  -7.42e-12             -3.8e-13              1.212e-11             7.3e-12              
  -0.15                 -3.042e-11            -4.6e-13              1.192e-11             3.056e-11            
  -0.2                  -1.2396e-10           -4e-13                1.2e-11               1.2402e-10           
  -0.25                 -4.7828e-10           -5.8e-13              1.202e-11             4.7834e-10           
  -0.3                  -1.5892e-09           -6.8e-13              1.192e-11             1.59e-09             
  -0.35                 -4.1586e-09           -1.18e-12             1.204e-11             4.1572e-09           
  -0.4                  -8.4902e-09           -2.12e-12             1.2e-11               8.4884e-09           
  -0.45                 -1.4238e-08           -3.5e-12              1.198e-11             1.4254e-08           
  -0.5                  -2.087e-08            -5.52e-12             1.192e-11             2.0886e-08           
  -0.55                 -2.7966e-08           -8.36e-12             1.196e-11             2.799e-08            
  -0.6                  -3.5258e-08           -1.252e-11            1.204e-11             3.5288e-08           
  -0.65                 -4.2572e-08           -1.78e-11             1.194e-11             4.2596e-08           
  -0.7                  -4.9808e-08           -2.49e-11             1.196e-11             4.9834e-08           
  -0.75                 -5.688e-08            -3.402e-11            1.186e-11             5.6928e-08           
  -0.8                  -6.379e-08            -4.54e-11             1.206e-11             6.385e-08            
  -0.85                 -7.049e-08            -5.984e-11            1.174e-11             7.0552e-08           
  -0.9                  -7.696e-08            -7.706e-11            1.198e-11             7.706e-08            
  -0.95                 -8.323e-08            -9.798e-11            1.182e-11             8.3346e-08           
  -1                    -8.926e-08            -1.2232e-10           1.2e-11               8.939e-08            
  -1.05                 -9.5026e-08           -1.5092e-10           1.182e-11             9.5198e-08           
  -1.1                  -1.00584e-07          -1.8412e-10           1.192e-11             1.0077e-07           
  -1.15                 -1.05868e-07          -2.2256e-10           1.21e-11              1.06102e-07          
  -1.2                  -1.1097e-07           -2.664e-10            1.224e-11             1.11234e-07          
  -1.25                 -1.1582e-07           -3.167e-10            1.262e-11             1.1618e-07           
  -1.3                  -1.204e-07            -3.744e-10            1.352e-11             1.2082e-07           
  -1.35                 -1.248e-07            -4.391e-10            1.516e-11             1.2528e-07           
END_DB

BEGIN_DB
 ICCAP_VAR vb         0.4            
 ICCAP_VAR vd         -0.05          
 ICCAP_VAR vs         -0             

 #vg                    id                    ig                    ib                    is                   
  0.5                   0                     4.2e-13               1.298e-11             0                    
  0.45                  -2e-14                1.2e-13               1.292e-11             2e-14                
  0.4                   -1.4e-13              1.2e-13               1.296e-11             1e-13                
  0.35                  -1.2e-13              8e-14                 1.3e-11               6e-14                
  0.3                   -2e-14                -8e-14                1.298e-11             0                    
  0.25                  -1e-13                -1.2e-13              1.32e-11              -4e-14               
  0.2                   -2e-14                -2.2e-13              1.3e-11               1.8e-13              
  0.15                  -6e-14                -1.6e-13              1.298e-11             8e-14                
  0.1                   -6e-14                -1.8e-13              1.312e-11             0                    
  0.05                  0                     -3e-13                1.292e-11             2.6e-13              
  0                     -2.8e-13              -2.6e-13              1.306e-11             1.8e-13              
  -0.05                 -7.2e-13              -3.6e-13              1.292e-11             7.2e-13              
  -0.1                  -2.74e-12             -3.8e-13              1.284e-11             2.82e-12             
  -0.15                 -1.138e-11            -3.8e-13              1.294e-11             1.148e-11            
  -0.2                  -4.814e-11            -3.8e-13              1.294e-11             4.828e-11            
  -0.25                 -1.9802e-10           -4.6e-13              1.292e-11             1.98e-10             
  -0.3                  -7.4268e-10           -7e-13                1.29e-11              7.4236e-10           
  -0.35                 -2.2884e-09           -8e-13                1.296e-11             2.2892e-09           
  -0.4                  -5.4534e-09           -1.74e-12             1.288e-11             5.4518e-09           
  -0.45                 -1.02512e-08          -3.06e-12             1.284e-11             1.0249e-08           
  -0.5                  -1.6228e-08           -4.88e-12             1.294e-11             1.6254e-08           
  -0.55                 -2.2882e-08           -7.9e-12              1.276e-11             2.2906e-08           
  -0.6                  -2.9886e-08           -1.172e-11            1.29e-11              2.9902e-08           
  -0.65                 -3.698e-08            -1.708e-11            1.28e-11              3.7024e-08           
  -0.7                  -4.4082e-08           -2.386e-11            1.28e-11              4.4122e-08           
  -0.75                 -5.1068e-08           -3.29e-11             1.294e-11             5.1128e-08           
  -0.8                  -5.7918e-08           -4.446e-11            1.282e-11             5.7976e-08           
  -0.85                 -6.459e-08            -5.828e-11            1.292e-11             6.4664e-08           
  -0.9                  -7.1036e-08           -7.564e-11            1.298e-11             7.1136e-08           
  -0.95                 -7.7284e-08           -9.636e-11            1.3e-11               7.7394e-08           
  -1                    -8.329e-08            -1.206e-10            1.29e-11              8.3438e-08           
  -1.05                 -8.909e-08            -1.4902e-10           1.304e-11             8.9248e-08           
  -1.1                  -9.4672e-08           -1.82e-10             1.306e-11             9.487e-08            
  -1.15                 -1.00004e-07          -2.2058e-10           1.31e-11              1.00242e-07          
  -1.2                  -1.05102e-07          -2.6412e-10           1.324e-11             1.05366e-07          
  -1.25                 -1.09964e-07          -3.142e-10            1.388e-11             1.10294e-07          
  -1.3                  -1.1461e-07           -3.7124e-10           1.45e-11              1.14964e-07          
  -1.35                 -1.1902e-07           -4.3552e-10           1.646e-11             1.195e-07            
END_DB

BEGIN_DB
 ICCAP_VAR vb         0.6            
 ICCAP_VAR vd         -0.05          
 ICCAP_VAR vs         -0             

 #vg                    id                    ig                    ib                    is                   
  0.5                   -8e-14                4.8e-13               1.316e-11             8e-14                
  0.45                  -1.8e-13              2.6e-13               1.33e-11              -1.4e-13             
  0.4                   0                     -4e-14                1.326e-11             0                    
  0.35                  -2e-14                -1.8e-13              1.32e-11              2e-14                
  0.3                   -4e-14                -1.8e-13              1.32e-11              -1e-13               
  0.25                  -4e-14                -2.2e-13              1.326e-11             4e-14                
  0.2                   -1e-13                -1.8e-13              1.318e-11             -4e-14               
  0.15                  0                     -2.8e-13              1.32e-11              2e-13                
  0.1                   6e-14                 -4.2e-13              1.318e-11             1.4e-13              
  0.05                  -1e-13                -4e-13                1.328e-11             6e-14                
  0                     -4e-14                -3e-13                1.316e-11             1.6e-13              
  -0.05                 -4e-13                -3e-13                1.312e-11             2.8e-13              
  -0.1                  -1.12e-12             -4.6e-13              1.314e-11             1.16e-12             
  -0.15                 -4.62e-12             -3.2e-13              1.324e-11             4.68e-12             
  -0.2                  -1.978e-11            -3.2e-13              1.318e-11             1.984e-11            
  -0.25                 -8.38e-11             -3.8e-13              1.328e-11             8.38e-11             
  -0.3                  -3.3908e-10           -5.4e-13              1.32e-11              3.3916e-10           
  -0.35                 -1.1966e-09           -8.4e-13              1.318e-11             1.1962e-09           
  -0.4                  -3.3308e-09           -1.5e-12              1.31e-11              3.33e-09             
  -0.45                 -7.13e-09             -2.6e-12              1.308e-11             7.1262e-09           
  -0.5                  -1.2356e-08           -4.38e-12             1.312e-11             1.2372e-08           
  -0.55                 -1.85e-08             -7.24e-12             1.324e-11             1.853e-08            
  -0.6                  -2.517e-08            -1.098e-11            1.298e-11             2.5194e-08           
  -0.65                 -3.206e-08            -1.592e-11            1.33e-11              3.2082e-08           
  -0.7                  -3.8998e-08           -2.3e-11              1.31e-11              3.903e-08            
  -0.75                 -4.5866e-08           -3.184e-11            1.32e-11              4.5914e-08           
  -0.8                  -5.2638e-08           -4.298e-11            1.318e-11             5.2686e-08           
  -0.85                 -5.9246e-08           -5.714e-11            1.322e-11             5.931e-08            
  -0.9                  -6.5676e-08           -7.412e-11            1.314e-11             6.5758e-08           
  -0.95                 -7.1902e-08           -9.476e-11            1.328e-11             7.2002e-08           
  -1                    -7.791e-08            -1.1888e-10           1.32e-11              7.805e-08            
  -1.05                 -8.369e-08            -1.4714e-10           1.322e-11             8.3862e-08           
  -1.1                  -8.9256e-08           -1.8034e-10           1.338e-11             8.9452e-08           
  -1.15                 -9.4614e-08           -2.1832e-10           1.336e-11             9.4854e-08           
  -1.2                  -9.9692e-08           -2.618e-10            1.356e-11             1.00002e-07          
  -1.25                 -1.04626e-07          -3.121e-10            1.398e-11             1.04964e-07          
  -1.3                  -1.093e-07            -3.6864e-10           1.488e-11             1.09662e-07          
  -1.35                 -1.13752e-07          -4.329e-10            1.666e-11             1.14196e-07          
END_DB

BEGIN_DB
 ICCAP_VAR vb         0.8            
 ICCAP_VAR vd         -0.05          
 ICCAP_VAR vs         -0             

 #vg                    id                    ig                    ib                    is                   
  0.5                   0                     4.4e-13               1.33e-11              -4e-14               
  0.45                  -8e-14                1.8e-13               1.328e-11             -6e-14               
  0.4                   -1.4e-13              8e-14                 1.334e-11             1e-13                
  0.35                  8e-14                 -2e-14                1.34e-11              -2e-14               
  0.3                   2e-14                 -4e-14                1.318e-11             1.6e-13              
