! VERSION = 6.00
BEGIN_HEADER
 ICCAP_INPUTS
  vd         V  D GROUND SMU1 0.1 LIN        1    -0         -1.35      28   -0.05     
  vg         V  G GROUND SMU2 0.001 LIST       2 3 -0.364 -0.564 -0.764
  vb         V  B GROUND SMU4 0.1 CON        1.2
  vs         V  S GROUND SMU3 0.1 CON        -0
 ICCAP_OUTPUTS
  id         I  D GROUND SMU1 B
  ig         I  G GROUND SMU2 B
  ib         I  B GROUND SMU4 B
  is         I  S GROUND SMU3 B
 ICCAP_VALUES
  MASTER_SETUP_TYPE "~dc_idvd~"
  LINVT_VALUE ""
  LISTVT_VALUE "|idvg|100.0n|-200.0m|1.000m|3|200.0m|200.0m|"
  TYPE "-1"
  TEMP "-40.0000 "
  IS_TNOM " 0.00000 "
  MAIN.W "10.00u"
  MAIN.L "10.00u"
  MAIN.AD "3.400p"
  MAIN.AS "3.400p"
  MAIN.PD "20.68u"
  MAIN.PS "20.68u"
  MAIN.NF "1.000"
  MAIN.M "1"
  MAIN.NRD "0.000"
  MAIN.NRS "0.000"
  MAIN.LDRIFT1 "1E-06"
  MAIN.LDRIFT2 "1E-06"
  MAIN.SA "0.000"
  MAIN.SB "0.000"
  MAIN.SD "0.000"
  MAIN.SCA "0.000"
  MAIN.SCB "0.000"
  MAIN.SCC "0.000"
  MAIN.SC "0.000"
  MODULE "S549"
  PIN_D "12"
  PIN_G "9"
  PIN_S "10"
  PIN_B "11"
  PIN_E ""
  PIN_6 ""
  XY_ID ""
  FUNC "Large"
  STI "SA ref"
  WPE "WPE ref"
  COMMENT ""
  DIS_MEAS ""
  TypeTCI "10"
END_HEADER

BEGIN_DB
 ICCAP_VAR vg         -0.364         
 ICCAP_VAR vb         1.2            
 ICCAP_VAR vs         -0             

 #vd                    id                    ig                    ib                    is                   
  -0                    1.22e-12              -2.2e-12              0                     1.1e-12              
  -0.05                 -4.576e-11            -1.86e-12             1e-13                 4.766e-11            
  -0.1                  -5.004e-11            -1.86e-12             0                     5.178e-11            
  -0.15                 -5.056e-11            -1.72e-12             1.2e-13               5.24e-11             
  -0.2                  -5.084e-11            -1.72e-12             0                     5.242e-11            
  -0.25                 -5.094e-11            -1.7e-12              6e-14                 5.264e-11            
  -0.3                  -5.108e-11            -1.72e-12             0                     5.28e-11             
  -0.35                 -5.118e-11            -1.54e-12             6e-14                 5.256e-11            
  -0.4                  -5.132e-11            -1.54e-12             2e-14                 5.282e-11            
  -0.45                 -5.142e-11            -1.58e-12             8e-14                 5.304e-11            
  -0.5                  -5.162e-11            -1.42e-12             6e-14                 5.284e-11            
  -0.55                 -5.172e-11            -1.4e-12              8e-14                 5.306e-11            
  -0.6                  -5.186e-11            -1.32e-12             8e-14                 5.302e-11            
  -0.65                 -5.21e-11             -1.12e-12             0                     5.29e-11             
  -0.7                  -5.224e-11            -1.08e-12             4e-14                 5.328e-11            
  -0.75                 -5.26e-11             -8.6e-13              0                     5.296e-11            
  -0.8                  -5.284e-11            -7e-13                0                     5.322e-11            
  -0.85                 -5.324e-11            -3.4e-13              1e-13                 5.318e-11            
  -0.9                  -5.352e-11            4e-14                 6e-14                 5.326e-11            
  -0.95                 -5.394e-11            4e-13                 -8e-14                5.33e-11             
  -1                    -5.462e-11            8.8e-13               -6e-14                5.338e-11            
  -1.05                 -5.504e-11            1.24e-12              4e-14                 5.372e-11            
  -1.1                  -5.57e-11             1.94e-12              -2e-14                5.334e-11            
  -1.15                 -5.654e-11            2.8e-12               -2e-14                5.332e-11            
  -1.2                  -5.74e-11             3.62e-12              -4e-14                5.354e-11            
  -1.25                 -5.848e-11            4.68e-12              -4e-14                5.35e-11             
  -1.3                  -5.97e-11             5.86e-12              0                     5.348e-11            
  -1.35                 -6.108e-11            7.26e-12              0                     5.348e-11            
END_DB

BEGIN_DB
 ICCAP_VAR vg         -0.564         
 ICCAP_VAR vb         1.2            
 ICCAP_VAR vs         -0             

 #vd                    id                    ig                    ib                    is                   
  -0                    3.0694e-10            -9.666e-11            -1.4e-13              -2.173e-10           
  -0.05                 -8.8346e-08           -6.984e-11            -1.8e-13              8.8434e-08           
  -0.1                  -1.0629e-07           -6.236e-11            -6e-14                1.06388e-07          
  -0.15                 -1.087e-07            -6.096e-11            -1.6e-13              1.08876e-07          
  -0.2                  -1.093e-07            -6.052e-11            -4e-14                1.09462e-07          
  -0.25                 -1.0962e-07           -6.038e-11            0                     1.09798e-07          
  -0.3                  -1.099e-07            -6.004e-11            -1e-13                1.10064e-07          
  -0.35                 -1.1012e-07           -5.98e-11             -4e-14                1.10298e-07          
  -0.4                  -1.1032e-07           -5.988e-11            -1e-13                1.10496e-07          
  -0.45                 -1.105e-07            -5.968e-11            -2e-14                1.10664e-07          
  -0.5                  -1.1064e-07           -5.96e-11             -2e-14                1.10822e-07          
  -0.55                 -1.1078e-07           -5.942e-11            -4e-14                1.10962e-07          
  -0.6                  -1.1092e-07           -5.932e-11            0                     1.11078e-07          
  -0.65                 -1.1102e-07           -5.924e-11            -2e-14                1.11196e-07          
  -0.7                  -1.1112e-07           -5.91e-11             -8e-14                1.11298e-07          
  -0.75                 -1.1122e-07           -5.91e-11             -6e-14                1.11384e-07          
  -0.8                  -1.113e-07            -5.912e-11            -6e-14                1.11472e-07          
  -0.85                 -1.1138e-07           -5.886e-11            -6e-14                1.11546e-07          
  -0.9                  -1.1144e-07           -5.86e-11             -6e-14                1.11622e-07          
  -0.95                 -1.1152e-07           -5.848e-11            6e-14                 1.117e-07            
  -1                    -1.1158e-07           -5.81e-11             -4e-14                1.11742e-07          
  -1.05                 -1.1164e-07           -5.782e-11            -2e-14                1.11812e-07          
  -1.1                  -1.117e-07            -5.748e-11            4e-14                 1.11862e-07          
  -1.15                 -1.1174e-07           -5.706e-11            -6e-14                1.11914e-07          
  -1.2                  -1.1178e-07           -5.644e-11            0                     1.11956e-07          
  -1.25                 -1.1184e-07           -5.594e-11            0                     1.1199e-07           
  -1.3                  -1.1188e-07           -5.52e-11             1.4e-13               1.12042e-07          
  -1.35                 -1.1192e-07           -5.46e-11             -6e-14                1.12078e-07          
END_DB

BEGIN_DB
 ICCAP_VAR vg         -0.764         
 ICCAP_VAR vb         1.2            
 ICCAP_VAR vs         -0             

 #vd                    id                    ig                    ib                    is                   
  -0                    1.8956e-09            -7.5658e-10           -4e-14                -1.106e-09           
  -0.05                 -8.8596e-07           -6.3138e-10           -1.2e-13              8.8678e-07           
  -0.1                  -1.4982e-06           -5.4054e-10           2e-14                 1.5022e-06           
  -0.15                 -1.8588e-06           -4.8338e-10           2e-14                 1.863e-06            
  -0.2                  -2.018e-06            -4.5608e-10           6e-14                 2.022e-06            
  -0.25                 -2.065e-06            -4.4694e-10           2e-14                 2.069e-06            
  -0.3                  -2.0778e-06           -4.4448e-10           -2e-14                2.0818e-06           
  -0.35                 -2.084e-06            -4.4296e-10           0                     2.0882e-06           
  -0.4                  -2.0886e-06           -4.422e-10            2e-14                 2.0928e-06           
  -0.45                 -2.0922e-06           -4.4114e-10           -1e-13                2.0962e-06           
  -0.5                  -2.0956e-06           -4.4048e-10           0                     2.0994e-06           
  -0.55                 -2.0982e-06           -4.4012e-10           0                     2.1022e-06           
  -0.6                  -2.1006e-06           -4.3966e-10           6e-14                 2.1046e-06           
  -0.65                 -2.1028e-06           -4.3898e-10           0                     2.1066e-06           
  -0.7                  -2.1048e-06           -4.386e-10            -4e-14                2.1088e-06           
  -0.75                 -2.1066e-06           -4.3836e-10           -4e-14                2.1104e-06           
  -0.8                  -2.1082e-06           -4.382e-10            -1e-13                2.1122e-06           
  -0.85                 -2.1096e-06           -4.3762e-10           0                     2.1136e-06           
  -0.9                  -2.111e-06            -4.3734e-10           -4e-14                2.1148e-06           
  -0.95                 -2.1122e-06           -4.3694e-10           -2e-14                2.116e-06            
  -1                    -2.1134e-06           -4.3668e-10           6e-14                 2.1172e-06           
  -1.05                 -2.1144e-06           -4.3636e-10           2e-14                 2.1184e-06           
  -1.1                  -2.1154e-06           -4.3598e-10           2e-14                 2.1192e-06           
  -1.15                 -2.1164e-06           -4.3576e-10           -8e-14                2.1204e-06           
  -1.2                  -2.1174e-06           -4.3526e-10           -4e-14                2.1212e-06           
  -1.25                 -2.118e-06            -4.3468e-10           -2e-14                2.1218e-06           
  -1.3                  -2.1188e-06           -4.3438e-10           -2e-14                2.1226e-06           
  -1.35                 -2.1194e-06           -4.337e-10            4e-14                 2.1236e-06           
END_DB

