! VERSION = 6.00
BEGIN_HEADER
 ICCAP_INPUTS
  vd         V  D GROUND SMU1 0.1 LIN        1    -0         -1.35      28   -0.05     
  vg         V  G GROUND SMU2 0.001 LIST       2 3 -0.155 -0.355 -0.555
  vb         V  B GROUND SMU4 0.1 CON        -0
  vs         V  S GROUND SMU3 0.1 CON        -0
 ICCAP_OUTPUTS
  id         I  D GROUND SMU1 B
  ig         I  G GROUND SMU2 B
  ib         I  B GROUND SMU4 B
  is         I  S GROUND SMU3 B
 ICCAP_VALUES
  MASTER_SETUP_TYPE "~dc_idvd~"
  LINVT_VALUE ""
  LISTVT_VALUE "|idvg|100.0n|-200.0m|1.000m|3|200.0m|200.0m|"
  TYPE "-1"
  TEMP " 27.0000 "
  IS_TNOM " 1.00000 "
  MAIN.W "300.0n"
  MAIN.L "500.0n"
  MAIN.AD "102.0f"
  MAIN.AS "102.0f"
  MAIN.PD "1.280u"
  MAIN.PS "1.280u"
  MAIN.NF "1.000"
  MAIN.M "1"
  MAIN.NRD "0.000"
  MAIN.NRS "0.000"
  MAIN.LDRIFT1 "1E-06"
  MAIN.LDRIFT2 "1E-06"
  MAIN.SA "0.000"
  MAIN.SB "0.000"
  MAIN.SD "0.000"
  MAIN.SCA "0.000"
  MAIN.SCB "0.000"
  MAIN.SCC "0.000"
  MAIN.SC "0.000"
  MODULE "S553"
  PIN_D "20"
  PIN_G "1"
  PIN_S "2"
  PIN_B "19"
  PIN_E ""
  PIN_6 ""
  XY_ID ""
  FUNC "LW Scale"
  STI "SA ref"
  WPE "WPE ref"
  COMMENT ""
  DIS_MEAS ""
  TypeTCI "10"
END_HEADER

BEGIN_DB
 ICCAP_VAR vg         -0.155         
 ICCAP_VAR vb         -0             
 ICCAP_VAR vs         -0             

 #vd                    id                    ig                    ib                    is                   
  -0                    4.8e-13               3e-13                 -1.2e-12              -4e-13               
  -0.05                 -1.4292e-10           2.2e-13               -1.12e-12             1.428e-10            
  -0.1                  -1.6926e-10           1.8e-13               -1.34e-12             1.6888e-10           
  -0.15                 -1.773e-10            1.4e-13               -1e-12                1.793e-10            
  -0.2                  -1.8498e-10           1e-13                 -1.22e-12             1.8448e-10           
  -0.25                 -1.8894e-10           1.8e-13               -1.02e-12             1.887e-10            
  -0.3                  -1.9252e-10           1e-13                 -1.22e-12             1.9186e-10           
  -0.35                 -1.9566e-10           2e-14                 -1.1e-12              1.9516e-10           
  -0.4                  -1.9886e-10           1.6e-13               -1.04e-12             1.9826e-10           
  -0.45                 -2.0168e-10           2e-14                 -1.12e-12             2.0128e-10           
  -0.5                  -2.0456e-10           1e-13                 -1.14e-12             2.0386e-10           
  -0.55                 -2.0716e-10           8e-14                 -1.04e-12             2.063e-10            
  -0.6                  -2.0948e-10           0                     -1.16e-12             2.09e-10             
  -0.65                 -2.1182e-10           2e-14                 -1.1e-12              2.1116e-10           
  -0.7                  -2.1414e-10           1e-13                 -1.18e-12             2.13e-10             
  -0.75                 -2.1586e-10           1e-13                 -1.02e-12             2.151e-10            
  -0.8                  -2.1786e-10           8e-14                 -1.1e-12              2.1718e-10           
  -0.85                 -2.199e-10            2e-13                 -1.16e-12             2.1926e-10           
  -0.9                  -2.217e-10            4e-14                 -9.8e-13              2.2074e-10           
  -0.95                 -2.2364e-10           1.2e-13               -1.14e-12             2.225e-10            
  -1                    -2.2514e-10           1e-13                 -1.06e-12             2.2428e-10           
  -1.05                 -2.2668e-10           8e-14                 -1e-12                2.2568e-10           
  -1.1                  -2.2818e-10           2e-13                 -1.06e-12             2.2738e-10           
  -1.15                 -2.2968e-10           2.6e-13               -9.2e-13              2.2836e-10           
  -1.2                  -2.3106e-10           1.8e-13               -1.1e-12              2.301e-10            
  -1.25                 -2.325e-10            1.8e-13               -9.6e-13              2.3134e-10           
  -1.3                  -2.34e-10             1.6e-13               -1.06e-12             2.3256e-10           
  -1.35                 -2.3512e-10           2.4e-13               -9e-13                2.3404e-10           
END_DB

BEGIN_DB
 ICCAP_VAR vg         -0.355         
 ICCAP_VAR vb         -0             
 ICCAP_VAR vs         -0             

 #vd                    id                    ig                    ib                    is                   
  -0                    1.0954e-10            -6e-14                -1.1e-12              -1.0876e-10          
  -0.05                 -4.2302e-08           -1.4e-13              -1.08e-12             4.2316e-08           
  -0.1                  -5.3418e-08           -8e-14                -1.02e-12             5.3478e-08           
  -0.15                 -5.7094e-08           -2e-14                -1.08e-12             5.708e-08            
  -0.2                  -5.9106e-08           -6e-14                -1e-12                5.9142e-08           
  -0.25                 -6.0694e-08           -1.4e-13              -9e-13                6.0736e-08           
  -0.3                  -6.2134e-08           -1.4e-13              -9.4e-13              6.2116e-08           
  -0.35                 -6.3408e-08           -1e-13                -1.06e-12             6.347e-08            
  -0.4                  -6.456e-08            2e-14                 -1.04e-12             6.4522e-08           
  -0.45                 -6.557e-08            -8e-14                -1e-12                6.5586e-08           
  -0.5                  -6.6566e-08           -6e-14                -1.06e-12             6.6584e-08           
  -0.55                 -6.7506e-08           -1.2e-13              -1.12e-12             6.7476e-08           
  -0.6                  -6.8328e-08           -4e-14                -1.02e-12             6.841e-08            
  -0.65                 -6.9314e-08           -6e-14                -1.02e-12             6.9376e-08           
  -0.7                  -7.0046e-08           -8e-14                -9.4e-13              6.9948e-08           
  -0.75                 -7.0648e-08           -2e-14                -9.8e-13              7.066e-08            
  -0.8                  -7.1568e-08           -1e-13                -1e-12                7.162e-08            
  -0.85                 -7.2272e-08           -1.2e-13              -1e-12                7.2256e-08           
  -0.9                  -7.2824e-08           0                     -1e-12                7.2718e-08           
  -0.95                 -7.3316e-08           4e-14                 -8.4e-13              7.3354e-08           
  -1                    -7.3866e-08           -1e-13                -9.8e-13              7.3884e-08           
  -1.05                 -7.4498e-08           8e-14                 -9.6e-13              7.4422e-08           
  -1.1                  -7.4878e-08           -1.4e-13              -1e-12                7.503e-08            
  -1.15                 -7.5444e-08           -4e-14                -8.8e-13              7.546e-08            
  -1.2                  -7.5902e-08           -2e-14                -9.8e-13              7.5886e-08           
  -1.25                 -7.6408e-08           -4e-14                -1e-12                7.6412e-08           
  -1.3                  -7.683e-08            -6e-14                -8.4e-13              7.685e-08            
  -1.35                 -7.7308e-08           -6e-14                -7.2e-13              7.728e-08            
END_DB

BEGIN_DB
 ICCAP_VAR vg         -0.555         
 ICCAP_VAR vb         -0             
 ICCAP_VAR vs         -0             

 #vd                    id                    ig                    ib                    is                   
  -0                    8.5054e-10            -5.6e-13              -9.8e-13              -8.7822e-10          
  -0.05                 -5.1464e-07           -4.6e-13              -8.2e-13              5.1538e-07           
  -0.1                  -8.4374e-07           -4.2e-13              -9.8e-13              8.4376e-07           
  -0.15                 -1.0202e-06           -2.8e-13              -1.02e-12             1.0204e-06           
  -0.2                  -1.10404e-06          -4e-13                -8.4e-13              1.10408e-06          
  -0.25                 -1.14766e-06          -4e-13                -1.02e-12             1.14856e-06          
  -0.3                  -1.175e-06            -3e-13                -9.4e-13              1.1786e-06           
  -0.35                 -1.197e-06            -3.6e-13              -1.06e-12             1.2006e-06           
  -0.4                  -1.215e-06            -3.4e-13              -1.08e-12             1.2188e-06           
  -0.45                 -1.2322e-06           -2.8e-13              -7e-13                1.2356e-06           
  -0.5                  -1.2466e-06           -4.4e-13              -9e-13                1.2498e-06           
  -0.55                 -1.2606e-06           -3.6e-13              -9.6e-13              1.2646e-06           
  -0.6                  -1.2738e-06           -3.6e-13              -9e-13                1.2772e-06           
  -0.65                 -1.286e-06            -4.6e-13              -9.6e-13              1.2898e-06           
  -0.7                  -1.297e-06            -3e-13                -9.2e-13              1.301e-06            
  -0.75                 -1.3084e-06           -3.2e-13              -9e-13                1.3128e-06           
  -0.8                  -1.3188e-06           -2.8e-13              -7.6e-13              1.3226e-06           
  -0.85                 -1.3292e-06           -3.4e-13              -8.4e-13              1.3328e-06           
  -0.9                  -1.3382e-06           -3.6e-13              -1e-12                1.3424e-06           
  -0.95                 -1.348e-06            -2.4e-13              -9.6e-13              1.3518e-06           
  -1                    -1.3566e-06           -3e-13                -7.6e-13              1.361e-06            
  -1.05                 -1.3656e-06           -3e-13                -8.4e-13              1.3694e-06           
  -1.1                  -1.3748e-06           -2.8e-13              -8.4e-13              1.3786e-06           
  -1.15                 -1.3828e-06           -3.2e-13              -7.2e-13              1.3862e-06           
  -1.2                  -1.3908e-06           -2.6e-13              -7.6e-13              1.3946e-06           
  -1.25                 -1.398e-06            -3.6e-13              -9.2e-13              1.4022e-06           
  -1.3                  -1.4052e-06           -3e-13                -7.6e-13              1.408e-06            
  -1.35                 -1.4124e-06           -2e-13                -3.2e-13              1.4174e-06           
END_DB

