! VERSION = 6.00
BEGIN_HEADER
 ICCAP_INPUTS
  vd         V  D GROUND SMU1 0.1 LIN        1    -0         -1.35      28   -0.05     
  vg         V  G GROUND SMU2 0.001 LIN        2    -0.462     -1.35      5    -0.222    
  vb         V  B GROUND SMU4 0.1 CON        -0
  vs         V  S GROUND SMU3 0.1 CON        -0
 ICCAP_OUTPUTS
  id         I  D GROUND SMU1 B
  ig         I  G GROUND SMU2 B
  ib         I  B GROUND SMU4 B
  is         I  S GROUND SMU3 B
 ICCAP_VALUES
  MASTER_SETUP_TYPE "~dc_idvd~"
  LINVT_VALUE "|idvg|100.0n|100.0m|1.000m|5|1.350|"
  LISTVT_VALUE ""
  TYPE "-1"
  TEMP " 70.0000 "
  IS_TNOM " 0.00000 "
  MAIN.W "150.0n"
  MAIN.L "130.0n"
  MAIN.AD "100.5f"
  MAIN.AS "100.5f"
  MAIN.PD "1.340u"
  MAIN.PS "1.340u"
  MAIN.NF "1.000"
  MAIN.M "1"
  MAIN.NRD "0.000"
  MAIN.NRS "0.000"
  MAIN.LDRIFT1 "1E-06"
  MAIN.LDRIFT2 "1E-06"
  MAIN.SA "0.000"
  MAIN.SB "0.000"
  MAIN.SD "0.000"
  MAIN.SCA "0.000"
  MAIN.SCB "0.000"
  MAIN.SCC "0.000"
  MAIN.SC "0.000"
  MODULE "S554"
  PIN_D "16"
  PIN_G "5"
  PIN_S "6"
  PIN_B "15"
  PIN_E ""
  PIN_6 ""
  XY_ID ""
  FUNC "Small"
  STI "SA ref"
  WPE "WPE ref"
  COMMENT ""
  DIS_MEAS ""
  TypeTCI "10"
END_HEADER

BEGIN_DB
 ICCAP_VAR vg         -0.462         
 ICCAP_VAR vb         -0             
 ICCAP_VAR vs         -0             

 #vd                    id                    ig                    ib                    is                   
  -0                    5.75e-10              -1.6e-13              -5.656e-11            -6.8448e-10          
  -0.05                 -3.6934e-07           -1e-13                -5.458e-11            3.6936e-07           
  -0.1                  -5.4006e-07           -2e-14                -5.322e-11            5.3952e-07           
  -0.15                 -6.1794e-07           -8e-14                -5.182e-11            6.179e-07            
  -0.2                  -6.6128e-07           -8e-14                -5.034e-11            6.6278e-07           
  -0.25                 -6.9476e-07           -4e-14                -4.88e-11             6.9474e-07           
  -0.3                  -7.2242e-07           0                     -4.732e-11            7.2232e-07           
  -0.35                 -7.4802e-07           0                     -4.574e-11            7.4708e-07           
  -0.4                  -7.7128e-07           -1.8e-13              -4.402e-11            7.7298e-07           
  -0.45                 -7.9744e-07           2e-14                 -4.236e-11            7.9736e-07           
  -0.5                  -8.215e-07            -1.2e-13              -4.05e-11             8.2082e-07           
  -0.55                 -8.4328e-07           -8e-14                -3.886e-11            8.446e-07            
  -0.6                  -8.6822e-07           -1.6e-13              -3.704e-11            8.6758e-07           
  -0.65                 -8.9116e-07           -6e-14                -3.526e-11            8.9192e-07           
  -0.7                  -9.1526e-07           -2e-14                -3.338e-11            9.1456e-07           
  -0.75                 -9.3756e-07           -1e-13                -3.164e-11            9.3816e-07           
  -0.8                  -9.6176e-07           1e-13                 -2.99e-11             9.6144e-07           
  -0.85                 -9.858e-07            -8e-14                -2.834e-11            9.8688e-07           
  -0.9                  -1.0108e-06           -8e-14                -2.674e-11            1.00894e-06          
  -0.95                 -1.03338e-06          -2e-14                -2.52e-11             1.03414e-06          
  -1                    -1.05788e-06          -4e-14                -2.386e-11            1.05814e-06          
  -1.05                 -1.08318e-06          6e-14                 -2.242e-11            1.08318e-06          
  -1.1                  -1.10946e-06          2e-14                 -2.1e-11              1.1094e-06           
  -1.15                 -1.13496e-06          -6e-14                -1.972e-11            1.13454e-06          
  -1.2                  -1.1578e-06           2e-14                 -1.716e-11            1.161e-06            
  -1.25                 -1.1842e-06           1e-13                 -1.588e-11            1.1878e-06           
  -1.3                  -1.2096e-06           -2e-14                -1.404e-11            1.2116e-06           
  -1.35                 -1.2366e-06           2e-14                 -1.194e-11            1.2402e-06           
END_DB

BEGIN_DB
 ICCAP_VAR vg         -0.684         
 ICCAP_VAR vb         -0             
 ICCAP_VAR vs         -0             

 #vd                    id                    ig                    ib                    is                   
  -0                    2.4094e-09            -6.4e-13              -1.516e-11            -2.1416e-09          
  -0.05                 -1.9432e-06           -4.8e-13              -1.382e-11            1.9458e-06           
  -0.1                  -3.4214e-06           -4.6e-13              -1.33e-11             3.424e-06            
  -0.15                 -4.5002e-06           -4.6e-13              -1.262e-11            4.5056e-06           
  -0.2                  -5.2452e-06           -3.8e-13              -1.186e-11            5.2518e-06           
  -0.25                 -5.7608e-06           -3.6e-13              -1.124e-11            5.761e-06            
  -0.3                  -6.1238e-06           -2.8e-13              -1.06e-11             6.124e-06            
  -0.35                 -6.3954e-06           -3e-13                -1.006e-11            6.4092e-06           
  -0.4                  -6.6242e-06           -3.6e-13              -9.4e-12              6.627e-06            
  -0.45                 -6.8122e-06           -3.8e-13              -8.88e-12             6.8146e-06           
  -0.5                  -6.9926e-06           -3.6e-13              -8.26e-12             6.998e-06            
  -0.55                 -7.1594e-06           -3e-13                -7.78e-12             7.162e-06            
  -0.6                  -7.3032e-06           -1.4e-13              -7.34e-12             7.3088e-06           
  -0.65                 -7.4482e-06           -2.2e-13              -6.8e-12              7.4536e-06           
  -0.7                  -7.6008e-06           -1.8e-13              -6.48e-12             7.6024e-06           
  -0.75                 -7.7306e-06           -2.2e-13              -5.96e-12             7.7246e-06           
  -0.8                  -7.8588e-06           -1.8e-13              -5.52e-12             7.8616e-06           
  -0.85                 -7.9908e-06           -2e-13                -5.1e-12              7.9904e-06           
  -0.9                  -8.1092e-06           -1e-13                -4.92e-12             8.122e-06            
  -0.95                 -8.2366e-06           -3.4e-13              -4.52e-12             8.2568e-06           
  -1                    -8.3744e-06           -2.2e-13              -4.16e-12             8.38e-06             
  -1.05                 -8.504e-06            -3.2e-13              -3.82e-12             8.5032e-06           
  -1.1                  -8.6182e-06           -3e-13                -3.44e-12             8.6236e-06           
  -1.15                 -8.7286e-06           -1.4e-13              -3.06e-12             8.7314e-06           
  -1.2                  -8.853e-06            -2.2e-13              -2.48e-12             8.858e-06            
  -1.25                 -8.9902e-06           -1.8e-13              -1.76e-12             8.9884e-06           
  -1.3                  -9.114e-06            -2.6e-13              -3.8e-13              9.1136e-06           
  -1.35                 -9.2264e-06           -2e-13                1.86e-12              9.229e-06            
END_DB

BEGIN_DB
 ICCAP_VAR vg         -0.906         
 ICCAP_VAR vb         -0             
 ICCAP_VAR vs         -0             

 #vd                    id                    ig                    ib                    is                   
  -0                    3.0806e-09            -1.32e-12             -6.56e-12             -3.3796e-09          
  -0.05                 -3.6256e-06           -1.14e-12             -6e-12                3.6324e-06           
  -0.1                  -6.7798e-06           -1.1e-12              -5.76e-12             6.7794e-06           
  -0.15                 -9.4642e-06           -1e-12                -5.48e-12             9.4744e-06           
  -0.2                  -1.1704e-05           -9.4e-13              -5.02e-12             1.1692e-05           
  -0.25                 -1.361e-05            -8.8e-13              -4.7e-12              1.362e-05            
  -0.3                  -1.5048e-05           -5.8e-13              -4.2e-12              1.4956e-05           
  -0.35                 -1.6052e-05           -7.6e-13              -4.04e-12             1.6182e-05           
  -0.4                  -1.706e-05            -7.2e-13              -3.76e-12             1.708e-05            
  -0.45                 -1.778e-05            -6.6e-13              -3.48e-12             1.7826e-05           
  -0.5                  -1.8354e-05           -5.8e-13              -3.28e-12             1.837e-05            
  -0.55                 -1.8844e-05           -8.2e-13              -3.04e-12             1.884e-05            
  -0.6                  -1.9334e-05           -7e-13                -2.7e-12              1.9338e-05           
  -0.65                 -1.9726e-05           -6.4e-13              -2.3e-12              1.9714e-05           
  -0.7                  -2.0054e-05           -6e-13                -2.14e-12             2.0076e-05           
  -0.75                 -2.042e-05            -5.4e-13              -1.78e-12             2.0396e-05           
  -0.8                  -2.068e-05            -6.6e-13              -1.58e-12             2.075e-05            
  -0.85                 -2.0996e-05           -6.8e-13              -1.38e-12             2.0992e-05           
  -0.9                  -2.126e-05            -6e-13                -1.1e-12              2.1276e-05           
  -0.95                 -2.161e-05            -5.6e-13              -9.6e-13              2.1638e-05           
  -1                    -2.19e-05             -5.4e-13              -8.2e-13              2.1826e-05           
  -1.05                 -2.2138e-05           -5.4e-13              -5.2e-13              2.2054e-05           
  -1.1                  -2.2382e-05           -5.6e-13              -2.4e-13              2.2388e-05           
  -1.15                 -2.2582e-05           -6.4e-13              -4e-14                2.2644e-05           
  -1.2                  -2.2906e-05           -4.6e-13              3.6e-13               2.2842e-05           
  -1.25                 -2.3224e-05           -4.6e-13              8.4e-13               2.3284e-05           
  -1.3                  -2.3464e-05           -5.8e-13              1.64e-12              2.348e-05            
  -1.35                 -2.3752e-05           -5.6e-13              3.16e-12              2.3778e-05           
END_DB

BEGIN_DB
 ICCAP_VAR vg         -1.128         
 ICCAP_VAR vb         -0             
 ICCAP_VAR vs         -0             

 #vd                    id                    ig                    ib                    is                   
  -0                    3.118e-09             -2.78e-12             -3.86e-12             -4.2844e-09          
  -0.05                 -5.0516e-06           -2.56e-12             -3.74e-12             5.0664e-06           
  -0.1                  -9.7062e-06           -2.38e-12             -3.5e-12              9.6938e-06           
  -0.15                 -1.3924e-05           -2.26e-12             -3.3e-12              1.3954e-05           
  -0.2                  -1.7728e-05           -2.06e-12             -2.94e-12             1.7718e-05           
  -0.25                 -2.1062e-05           -1.9e-12              -2.68e-12             2.1102e-05           
  -0.3                  -2.388e-05            -1.76e-12             -2.46e-12             2.382e-05            
  -0.35                 -2.6234e-05           -1.64e-12             -2.08e-12             2.6166e-05           
  -0.4                  -2.8264e-05           -1.56e-12             -1.92e-12             2.8264e-05           
  -0.45                 -2.9852e-05           -1.46e-12             -1.68e-12             2.9958e-05           
  -0.5                  -3.1388e-05           -1.32e-12             -1.46e-12             3.1422e-05           
  -0.55                 -3.2598e-05           -1.52e-12             -1.28e-12             3.2624e-05           
  -0.6                  -3.3656e-05           -1.5e-12              -1e-12                3.372e-05            
  -0.65                 -3.4604e-05           -1.26e-12             -7.8e-13              3.4538e-05           
  -0.7                  -3.5246e-05           -1.26e-12             -5.2e-13              3.5248e-05           
  -0.75                 -3.587e-05            -1.5e-12              -4e-13                3.59e-05             
  -0.8                  -3.6548e-05           -1.28e-12             -2.8e-13              3.6538e-05           
  -0.85                 -3.707e-05            -1.36e-12             -1.6e-13              3.713e-05            
  -0.9                  -3.7728e-05           -1.24e-12             1e-13                 3.7692e-05           
  -0.95                 -3.8382e-05           -1.26e-12             2.8e-13               3.8282e-05           
  -1                    -3.884e-05            -1.26e-12             3.8e-13               3.8846e-05           
  -1.05                 -3.9126e-05           -1.28e-12             5.8e-13               3.9248e-05           
  -1.1                  -3.956e-05            -1.24e-12             8.6e-13               3.9698e-05           
  -1.15                 -4.0064e-05           -1.32e-12             1.16e-12              4.0108e-05           
  -1.2                  -4.0464e-05           -1.22e-12             1.24e-12              4.0442e-05           
  -1.25                 -4.0816e-05           -1.06e-12             1.68e-12              4.0808e-05           
  -1.3                  -4.1166e-05           -1.26e-12             2.12e-12              4.1174e-05           
  -1.35                 -4.1576e-05           -1.08e-12             3e-12                 4.1746e-05           
END_DB

BEGIN_DB
 ICCAP_VAR vg         -1.35          
 ICCAP_VAR vb         -0             
 ICCAP_VAR vs         -0             

 #vd                    id                    ig                    ib                    is                   
  -0                    2.8916e-09            -5.54e-12             -2.9e-12              -4.8836e-09          
  -0.05                 -6.2174e-06           -5.14e-12             -2.66e-12             6.1946e-06           
  -0.1                  -1.2038e-05           -4.84e-12             -2.46e-12             1.2038e-05           
  -0.15                 -1.7492e-05           -4.44e-12             -2.3e-12              1.7542e-05           
  -0.2                  -2.2604e-05           -4.14e-12             -2.12e-12             2.2624e-05           
  -0.25                 -2.712e-05            -3.9e-12              -1.94e-12             2.7118e-05           
  -0.3                  -3.1306e-05           -3.72e-12             -1.66e-12             3.1234e-05           
  -0.35                 -3.4898e-05           -3.38e-12             -1.4e-12              3.4894e-05           
  -0.4                  -3.817e-05            -3.26e-12             -1.16e-12             3.8208e-05           
  -0.45                 -4.1136e-05           -3.22e-12             -9.6e-13              4.1012e-05           
  -0.5                  -4.3616e-05           -2.98e-12             -7.6e-13              4.354e-05            
  -0.55                 -4.5822e-05           -3e-12                -5.6e-13              4.5726e-05           
  -0.6                  -4.7832e-05           -2.92e-12             -3.4e-13              4.7704e-05           
  -0.65                 -4.921e-05            -2.64e-12             -1.2e-13              4.9234e-05           
  -0.7                  -5.0654e-05           -2.72e-12             -8e-14                5.0688e-05           
  -0.75                 -5.184e-05            -2.58e-12             1.8e-13               5.1952e-05           
  -0.8                  -5.3068e-05           -2.5e-12              3.8e-13               5.3114e-05           
  -0.85                 -5.4154e-05           -2.58e-12             5e-13                 5.4064e-05           
  -0.9                  -5.4902e-05           -2.56e-12             7.2e-13               5.5012e-05           
  -0.95                 -5.5722e-05           -2.4e-12              8.6e-13               5.581e-05            
  -1                    -5.6482e-05           -2.46e-12             1.06e-12              5.6384e-05           
  -1.05                 -5.7328e-05           -2.48e-12             1.12e-12              5.7318e-05           
  -1.1                  -5.7984e-05           -2.28e-12             1.44e-12              5.7988e-05           
  -1.15                 -5.8746e-05           -2.36e-12             1.48e-12              5.8528e-05           
  -1.2                  -5.9234e-05           -2.38e-12             1.64e-12              5.9124e-05           
  -1.25                 -5.9834e-05           -2.34e-12             1.94e-12              5.9762e-05           
  -1.3                  -6.034e-05            -2.3e-12              2.32e-12              6.0308e-05           
  -1.35                 -6.0912e-05           -2.3e-12              2.92e-12              6.0918e-05           
END_DB

