! VERSION = 6.00
BEGIN_HEADER
 ICCAP_INPUTS
  vd         V  D GROUND SMU1 0.1 LIN        1    -0         -1.35      28   -0.05     
  vg         V  G GROUND SMU2 0.001 LIN        2    -0.47      -1.35      5    -0.22     
  vb         V  B GROUND SMU4 0.1 CON        -0
  vs         V  S GROUND SMU3 0.1 CON        -0
 ICCAP_OUTPUTS
  id         I  D GROUND SMU1 B
  ig         I  G GROUND SMU2 B
  ib         I  B GROUND SMU4 B
  is         I  S GROUND SMU3 B
 ICCAP_VALUES
  MASTER_SETUP_TYPE "~dc_idvd~"
  LINVT_VALUE "|idvg|100.0n|100.0m|1.000m|5|1.350|"
  LISTVT_VALUE ""
  TYPE "-1"
  TEMP " 27.0000 "
  IS_TNOM " 1.00000 "
  MAIN.W "10.00u"
  MAIN.L "500.0n"
  MAIN.AD "3.400p"
  MAIN.AS "3.400p"
  MAIN.PD "20.68u"
  MAIN.PS "20.68u"
  MAIN.NF "1.000"
  MAIN.M "1"
  MAIN.NRD "0.000"
  MAIN.NRS "0.000"
  MAIN.LDRIFT1 "1E-06"
  MAIN.LDRIFT2 "1E-06"
  MAIN.SA "0.000"
  MAIN.SB "0.000"
  MAIN.SD "0.000"
  MAIN.SCA "0.000"
  MAIN.SCB "0.000"
  MAIN.SCC "0.000"
  MAIN.SC "0.000"
  MODULE "S549"
  PIN_D "20"
  PIN_G "1"
  PIN_S "2"
  PIN_B "19"
  PIN_E ""
  PIN_6 ""
  XY_ID ""
  FUNC "L Scale"
  STI "SA ref"
  WPE "WPE ref"
  COMMENT ""
  DIS_MEAS ""
  TypeTCI "10"
END_HEADER

BEGIN_DB
 ICCAP_VAR vg         -0.47          
 ICCAP_VAR vb         -0             
 ICCAP_VAR vs         -0             

 #vd                    id                    ig                    ib                    is                   
  -0                    1.1036e-08            -1.012e-11            -3.38e-12             -1.2734e-08          
  -0.05                 -6.6804e-06           -8.24e-12             -3.34e-12             6.684e-06            
  -0.1                  -9.7948e-06           -7.2e-12              -3.3e-12              9.7976e-06           
  -0.15                 -1.10286e-05          -6.74e-12             -3.24e-12             1.10308e-05          
  -0.2                  -1.1582e-05           -6.5e-12              -3.24e-12             1.16e-05             
  -0.25                 -1.1928e-05           -6.42e-12             -3.12e-12             1.1944e-05           
  -0.3                  -1.2192e-05           -6.22e-12             -3.14e-12             1.2212e-05           
  -0.35                 -1.2426e-05           -6.12e-12             -3.06e-12             1.2444e-05           
  -0.4                  -1.263e-05            -6.12e-12             -3.08e-12             1.2644e-05           
  -0.45                 -1.2818e-05           -5.96e-12             -3.08e-12             1.2834e-05           
  -0.5                  -1.2988e-05           -5.92e-12             -3.06e-12             1.3008e-05           
  -0.55                 -1.3156e-05           -5.86e-12             -3.02e-12             1.3168e-05           
  -0.6                  -1.3306e-05           -5.82e-12             -2.94e-12             1.3324e-05           
  -0.65                 -1.3452e-05           -5.76e-12             -2.86e-12             1.3472e-05           
  -0.7                  -1.359e-05            -5.58e-12             -2.96e-12             1.3606e-05           
  -0.75                 -1.372e-05            -5.38e-12             -2.96e-12             1.3738e-05           
  -0.8                  -1.3842e-05           -5.22e-12             -2.8e-12              1.3864e-05           
  -0.85                 -1.3966e-05           -4.96e-12             -2.76e-12             1.3986e-05           
  -0.9                  -1.4078e-05           -4.84e-12             -2.68e-12             1.4098e-05           
  -0.95                 -1.4186e-05           -4.54e-12             -2.7e-12              1.4204e-05           
  -1                    -1.429e-05            -4.18e-12             -2.8e-12              1.43e-05             
  -1.05                 -1.4388e-05           -3.78e-12             -2.68e-12             1.4406e-05           
  -1.1                  -1.4484e-05           -3.36e-12             -2.26e-12             1.4504e-05           
  -1.15                 -1.4578e-05           -2.84e-12             -1.96e-12             1.4596e-05           
  -1.2                  -1.4664e-05           -2.42e-12             -1.1e-12              1.4686e-05           
  -1.25                 -1.4752e-05           -1.78e-12             6.6e-13               1.477e-05            
  -1.3                  -1.484e-05            -1.18e-12             4.22e-12              1.4858e-05           
  -1.35                 -1.4918e-05           -3.2e-13              1.058e-11             1.4938e-05           
END_DB

BEGIN_DB
 ICCAP_VAR vg         -0.69          
 ICCAP_VAR vb         -0             
 ICCAP_VAR vs         -0             

 #vd                    id                    ig                    ib                    is                   
  -0                    3.9804e-08            -5.34e-11             -2.4e-12              -3.739e-08           
  -0.05                 -2.5644e-05           -4.618e-11            -2.3e-12              2.5668e-05           
  -0.1                  -4.5824e-05           -4.08e-11             -2.3e-12              4.5848e-05           
  -0.15                 -6.0566e-05           -3.658e-11            -2.32e-12             6.0598e-05           
  -0.2                  -7.0324e-05           -3.4e-11              -2.28e-12             7.0342e-05           
  -0.25                 -7.6216e-05           -3.224e-11            -2.36e-12             7.625e-05            
  -0.3                  -7.9638e-05           -3.118e-11            -2.36e-12             7.9648e-05           
  -0.35                 -8.1776e-05           -3.05e-11             -2.26e-12             8.1786e-05           
  -0.4                  -8.329e-05            -2.998e-11            -2.16e-12             8.3314e-05           
  -0.45                 -8.4506e-05           -2.96e-11             -2.2e-12              8.4536e-05           
  -0.5                  -8.5564e-05           -2.924e-11            -2.26e-12             8.5572e-05           
  -0.55                 -8.6472e-05           -2.908e-11            -2.2e-12              8.6484e-05           
  -0.6                  -8.7306e-05           -2.884e-11            -2.28e-12             8.7318e-05           
  -0.65                 -8.808e-05            -2.866e-11            -2.18e-12             8.8092e-05           
  -0.7                  -8.8816e-05           -2.858e-11            -2.1e-12              8.8828e-05           
  -0.75                 -8.95e-05             -2.836e-11            -2.08e-12             8.952e-05            
  -0.8                  -9.014e-05            -2.824e-11            -2.16e-12             9.0162e-05           
  -0.85                 -9.076e-05            -2.802e-11            -2.06e-12             9.0786e-05           
  -0.9                  -9.1376e-05           -2.78e-11             -1.94e-12             9.139e-05            
  -0.95                 -9.1956e-05           -2.758e-11            -2.04e-12             9.1948e-05           
  -1                    -9.2492e-05           -2.744e-11            -2.1e-12              9.2508e-05           
  -1.05                 -9.3034e-05           -2.72e-11             -2.08e-12             9.3044e-05           
  -1.1                  -9.3532e-05           -2.67e-11             -1.9e-12              9.3566e-05           
  -1.15                 -9.4038e-05           -2.642e-11            -1.84e-12             9.4042e-05           
  -1.2                  -9.45e-05             -2.61e-11             -1.52e-12             9.4542e-05           
  -1.25                 -9.4984e-05           -2.568e-11            -8.4e-13              9.499e-05            
  -1.3                  -9.5444e-05           -2.52e-11             7e-13                 9.5438e-05           
  -1.35                 -9.5862e-05           -2.47e-11             4.24e-12              9.5896e-05           
END_DB

BEGIN_DB
 ICCAP_VAR vg         -0.91          
 ICCAP_VAR vb         -0             
 ICCAP_VAR vs         -0             

 #vd                    id                    ig                    ib                    is                   
  -0                    6.6488e-08            -1.7668e-10           -1.78e-12             -6.2022e-08          
  -0.05                 -4.35e-05             -1.5788e-10           -1.82e-12             4.3522e-05           
  -0.1                  -8.2236e-05           -1.4242e-10           -1.94e-12             8.2258e-05           
  -0.15                 -0.0001158            -1.2918e-10           -1.82e-12             0.00011616           
  -0.2                  -0.00014436           -1.184e-10            -1.86e-12             0.00014476           
  -0.25                 -0.00016772           -1.1002e-10           -1.78e-12             0.00016812           
  -0.3                  -0.00018592           -1.0348e-10           -1.84e-12             0.00018628           
  -0.35                 -0.00019926           -9.88e-11             -1.76e-12             0.00019968           
  -0.4                  -0.00020866           -9.532e-11            -1.82e-12             0.000209             
  -0.45                 -0.000215             -9.308e-11            -1.78e-12             0.00021538           
  -0.5                  -0.00021944           -9.14e-11             -1.82e-12             0.00021982           
  -0.55                 -0.00022276           -9.018e-11            -1.72e-12             0.00022316           
  -0.6                  -0.0002254            -8.934e-11            -1.64e-12             0.00022576           
  -0.65                 -0.0002276            -8.854e-11            -1.72e-12             0.00022794           
  -0.7                  -0.0002295            -8.786e-11            -1.56e-12             0.00022988           
  -0.75                 -0.00023126           -8.73e-11             -1.62e-12             0.00023168           
  -0.8                  -0.00023288           -8.69e-11             -1.68e-12             0.00023326           
  -0.85                 -0.00023442           -8.652e-11            -1.76e-12             0.00023476           
  -0.9                  -0.0002358            -8.598e-11            -1.78e-12             0.00023618           
  -0.95                 -0.0002371            -8.564e-11            -1.68e-12             0.0002375            
  -1                    -0.00023838           -8.526e-11            -1.64e-12             0.00023876           
  -1.05                 -0.00023958           -8.5e-11              -1.58e-12             0.00023998           
  -1.1                  -0.00024078           -8.46e-11             -1.62e-12             0.00024108           
  -1.15                 -0.00024188           -8.42e-11             -1.56e-12             0.00024224           
  -1.2                  -0.00024294           -8.372e-11            -1.54e-12             0.00024334           
  -1.25                 -0.00024402           -8.342e-11            -1.42e-12             0.0002444            
  -1.3                  -0.00024504           -8.3e-11              -1.26e-12             0.00024542           
  -1.35                 -0.00024602           -8.242e-11            -8.8e-13              0.00024636           
END_DB

BEGIN_DB
 ICCAP_VAR vg         -1.13          
 ICCAP_VAR vb         -0             
 ICCAP_VAR vs         -0             

 #vd                    id                    ig                    ib                    is                   
  -0                    8.7808e-08            -4.4596e-10           -1.42e-12             -8.1858e-08          
  -0.05                 -5.796e-05            -4.0838e-10           -1.38e-12             5.798e-05            
  -0.1                  -0.00011196           -3.7374e-10           -1.42e-12             0.00011197           
  -0.15                 -0.00016156           -3.4376e-10           -1.52e-12             0.00016194           
  -0.2                  -0.00020696           -3.1746e-10           -1.42e-12             0.0002073            
  -0.25                 -0.00024778           -2.9522e-10           -1.5e-12              0.00024816           
  -0.3                  -0.00028394           -2.7584e-10           -1.4e-12              0.00028438           
  -0.35                 -0.00031528           -2.6004e-10           -1.54e-12             0.00031568           
  -0.4                  -0.0003418            -2.4704e-10           -1.46e-12             0.00034216           
  -0.45                 -0.00036342           -2.3664e-10           -1.42e-12             0.00036384           
  -0.5                  -0.00038048           -2.2868e-10           -1.3e-12              0.0003809            
  -0.55                 -0.00039348           -2.2252e-10           -1.38e-12             0.00039398           
  -0.6                  -0.00040324           -2.1722e-10           -1.42e-12             0.0004036            
  -0.65                 -0.00041048           -2.1396e-10           -1.44e-12             0.00041084           
  -0.7                  -0.00041598           -2.1138e-10           -1.5e-12              0.00041636           
  -0.75                 -0.00042044           -2.095e-10            -1.36e-12             0.0004208            
  -0.8                  -0.00042412           -2.0786e-10           -1.38e-12             0.00042448           
  -0.85                 -0.0004273            -2.061e-10            -1.4e-12              0.00042778           
  -0.9                  -0.00043014           -2.0546e-10           -1.42e-12             0.00043042           
  -0.95                 -0.00043266           -2.0414e-10           -1.38e-12             0.00043298           
  -1                    -0.00043506           -2.034e-10            -1.24e-12             0.0004354            
  -1.05                 -0.0004372            -2.0246e-10           -1.32e-12             0.00043762           
  -1.1                  -0.00043932           -2.0168e-10           -1.16e-12             0.00043976           
  -1.15                 -0.00044136           -2.0062e-10           -1.24e-12             0.00044168           
  -1.2                  -0.00044322           -2.0022e-10           -1.34e-12             0.00044352           
  -1.25                 -0.00044496           -1.9944e-10           -1.32e-12             0.00044538           
  -1.3                  -0.00044678           -1.9872e-10           -1.3e-12              0.00044712           
  -1.35                 -0.0004485            -1.982e-10            -1.24e-12             0.00044888           
END_DB

BEGIN_DB
 ICCAP_VAR vg         -1.35          
 ICCAP_VAR vb         -0             
 ICCAP_VAR vs         -0             

 #vd                    id                    ig                    ib                    is                   
  -0                    1.03972e-07           -9.4652e-10           5.84e-12              -9.4604e-08          
  -0.05                 -6.934e-05            -8.7548e-10           4e-12                 6.935e-05            
  -0.1                  -0.00013524           -8.1526e-10           2.74e-12              0.0001356            
  -0.15                 -0.00019778           -7.5796e-10           2.02e-12              0.00019814           
  -0.2                  -0.00025664           -7.0736e-10           1.32e-12              0.00025698           
  -0.25                 -0.00031174           -6.6126e-10           9.2e-13               0.0003121            
  -0.3                  -0.00036284           -6.223e-10            7e-13                 0.00036324           
  -0.35                 -0.00040988           -5.8658e-10           4.2e-13               0.00041028           
  -0.4                  -0.00045264           -5.5476e-10           3.4e-13               0.00045306           
  -0.45                 -0.0004911            -5.277e-10            3.6e-13               0.00049142           
  -0.5                  -0.00052496           -5.0488e-10           6e-14                 0.00052524           
  -0.55                 -0.00055428           -4.8352e-10           -2e-14                0.00055472           
  -0.6                  -0.00057924           -4.6734e-10           1.2e-13               0.00057958           
  -0.65                 -0.00059988           -4.5514e-10           1.2e-13               0.00060024           
  -0.7                  -0.0006164            -4.441e-10            -2e-14                0.00061686           
  -0.75                 -0.00062948           -4.3606e-10           8e-14                 0.00062986           
  -0.8                  -0.00063964           -4.2922e-10           8e-14                 0.00064006           
  -0.85                 -0.00064772           -4.2444e-10           -8e-14                0.00064818           
  -0.9                  -0.0006544            -4.2006e-10           -1.2e-13              0.00065476           
  -0.95                 -0.00065976           -4.1698e-10           2e-14                 0.00066016           
  -1                    -0.00066444           -4.149e-10            0                     0.0006647            
  -1.05                 -0.00066848           -4.124e-10            0                     0.00066884           
  -1.1                  -0.00067212           -4.1144e-10           8e-14                 0.00067248           
  -1.15                 -0.0006754            -4.0938e-10           2e-14                 0.0006757            
  -1.2                  -0.00067854           -4.0688e-10           -2e-14                0.0006789            
  -1.25                 -0.00068142           -4.0484e-10           -8e-14                0.00068168           
  -1.3                  -0.00068406           -4.0422e-10           8e-14                 0.00068452           
  -1.35                 -0.00068676           -4.0224e-10           0                     0.00068714           
END_DB

