! VERSION = 6.00
BEGIN_HEADER
 ICCAP_INPUTS
  vd         V  D GROUND SMU1 0.1 LIN        1    -0         -1.35      28   -0.05     
  vg         V  G GROUND SMU2 0.001 LIST       2 3 -0.349 -0.549 -0.749
  vb         V  B GROUND SMU4 0.1 CON        1.2
  vs         V  S GROUND SMU3 0.1 CON        -0
 ICCAP_OUTPUTS
  id         I  D GROUND SMU1 B
  ig         I  G GROUND SMU2 B
  ib         I  B GROUND SMU4 B
  is         I  S GROUND SMU3 B
 ICCAP_VALUES
  MASTER_SETUP_TYPE "~dc_idvd~"
  LINVT_VALUE ""
  LISTVT_VALUE "|idvg|100.0n|-200.0m|1.000m|3|200.0m|200.0m|"
  TYPE "-1"
  TEMP " 27.0000 "
  IS_TNOM " 1.00000 "
  MAIN.W "600.0n"
  MAIN.L "130.0n"
  MAIN.AD "204.0f"
  MAIN.AS "204.0f"
  MAIN.PD "1.880u"
  MAIN.PS "1.880u"
  MAIN.NF "1.000"
  MAIN.M "1"
  MAIN.NRD "0.000"
  MAIN.NRS "0.000"
  MAIN.LDRIFT1 "1E-06"
  MAIN.LDRIFT2 "1E-06"
  MAIN.SA "0.000"
  MAIN.SB "0.000"
  MAIN.SD "0.000"
  MAIN.SCA "0.000"
  MAIN.SCB "0.000"
  MAIN.SCC "0.000"
  MAIN.SC "0.000"
  MODULE "S551"
  PIN_D "18"
  PIN_G "3"
  PIN_S "4"
  PIN_B "17"
  PIN_E ""
  PIN_6 ""
  XY_ID ""
  FUNC "LW Scale"
  STI "SA ref"
  WPE "WPE ref"
  COMMENT ""
  DIS_MEAS ""
  TypeTCI "10"
END_HEADER

BEGIN_DB
 ICCAP_VAR vg         -0.349         
 ICCAP_VAR vb         1.2            
 ICCAP_VAR vs         -0             

 #vd                    id                    ig                    ib                    is                   
  -0                    1.06e-12              0                     8e-14                 -1.86e-12            
  -0.05                 -6.986e-10            -6e-14                1e-13                 6.9846e-10           
  -0.1                  -8.7702e-10           -2e-14                1.4e-13               8.7598e-10           
  -0.15                 -9.7388e-10           -6e-14                2.2e-13               9.7382e-10           
  -0.2                  -1.0602e-09           -4e-14                6e-14                 1.06108e-09          
  -0.25                 -1.153e-09            0                     1.8e-13               1.1524e-09           
  -0.3                  -1.2432e-09           0                     1.4e-13               1.2458e-09           
  -0.35                 -1.3434e-09           -1.2e-13              2e-13                 1.3446e-09           
  -0.4                  -1.4502e-09           1e-13                 1e-13                 1.4524e-09           
  -0.45                 -1.565e-09            0                     1.4e-13               1.577e-09            
  -0.5                  -1.7002e-09           -1e-13                2e-14                 1.6992e-09           
  -0.55                 -1.8298e-09           -2e-14                1.8e-13               1.8316e-09           
  -0.6                  -1.9688e-09           0                     -4e-14                1.969e-09            
  -0.65                 -2.1174e-09           -2e-14                6e-14                 2.1154e-09           
  -0.7                  -2.2712e-09           -2e-14                4e-14                 2.2728e-09           
  -0.75                 -2.4426e-09           2e-14                 2e-14                 2.4394e-09           
  -0.8                  -2.6246e-09           8e-14                 -4e-14                2.6196e-09           
  -0.85                 -2.8152e-09           0                     -4e-14                2.8144e-09           
  -0.9                  -3.0186e-09           8e-14                 4e-14                 3.014e-09            
  -0.95                 -3.2346e-09           6e-14                 -1.4e-13              3.2358e-09           
  -1                    -3.4668e-09           1.8e-13               1.4e-13               3.4638e-09           
  -1.05                 -3.7168e-09           2.8e-13               -1.4e-13              3.7134e-09           
  -1.1                  -3.9794e-09           3.6e-13               1.4e-13               3.98e-09             
  -1.15                 -4.2658e-09           3.8e-13               -2e-14                4.2674e-09           
  -1.2                  -4.5728e-09           4.8e-13               4e-14                 4.5686e-09           
  -1.25                 -4.8926e-09           8e-13                 1.2e-13               4.893e-09            
  -1.3                  -5.233e-09            5.8e-13               -8e-14                5.2332e-09           
  -1.35                 -5.6024e-09           7.6e-13               2.4e-13               5.607e-09            
END_DB

BEGIN_DB
 ICCAP_VAR vg         -0.549         
 ICCAP_VAR vb         1.2            
 ICCAP_VAR vs         -0             

 #vd                    id                    ig                    ib                    is                   
  -0                    4.2972e-10            -6.4e-13              4e-14                 -4.336e-10           
  -0.05                 -1.9672e-07           -4.8e-13              -1.2e-13              1.9656e-07           
  -0.1                  -2.6822e-07           -4.4e-13              -4e-14                2.6876e-07           
  -0.15                 -3.057e-07            -4e-13                1.6e-13               3.0584e-07           
  -0.2                  -3.332e-07            -4.6e-13              4e-14                 3.3342e-07           
  -0.25                 -3.5806e-07           -4.6e-13              0                     3.5854e-07           
  -0.3                  -3.8366e-07           -3.2e-13              6e-14                 3.8418e-07           
  -0.35                 -4.093e-07            -4.2e-13              2e-14                 4.0924e-07           
  -0.4                  -4.3518e-07           -5.2e-13              4e-14                 4.3512e-07           
  -0.45                 -4.6152e-07           -4e-13                -6e-14                4.6164e-07           
  -0.5                  -4.8846e-07           -5e-13                0                     4.8876e-07           
  -0.55                 -5.1612e-07           -5e-13                6e-14                 5.1606e-07           
  -0.6                  -5.4546e-07           -4e-13                -8e-14                5.454e-07            
  -0.65                 -5.7544e-07           -4.6e-13              -1.8e-13              5.7562e-07           
  -0.7                  -6.0646e-07           -3.4e-13              0                     6.0622e-07           
  -0.75                 -6.3884e-07           -3.2e-13              2e-14                 6.3844e-07           
  -0.8                  -6.7202e-07           -3.6e-13              1e-13                 6.7106e-07           
  -0.85                 -7.0584e-07           -1.8e-13              0                     7.0624e-07           
  -0.9                  -7.413e-07            -2e-13                1e-13                 7.414e-07            
  -0.95                 -7.7708e-07           -2.4e-13              1.2e-13               7.7792e-07           
  -1                    -8.1504e-07           -3e-13                1.2e-13               8.141e-07            
  -1.05                 -8.5458e-07           -1.6e-13              0                     8.5462e-07           
  -1.1                  -8.9516e-07           -2.8e-13              -2e-14                8.9556e-07           
  -1.15                 -9.3686e-07           -1e-13                1e-13                 9.3688e-07           
  -1.2                  -9.8034e-07           -1e-13                1.8e-13               9.7874e-07           
  -1.25                 -1.02544e-06          -1.4e-13              3.8e-13               1.02544e-06          
  -1.3                  -1.06816e-06          2e-14                 7.2e-13               1.06746e-06          
  -1.35                 -1.11494e-06          -4e-14                1.52e-12              1.11518e-06          
END_DB

BEGIN_DB
 ICCAP_VAR vg         -0.749         
 ICCAP_VAR vb         1.2            
 ICCAP_VAR vs         -0             

 #vd                    id                    ig                    ib                    is                   
  -0                    2.9314e-09            -1.9e-12              -6e-14                -3.0864e-09          
  -0.05                 -2.9482e-06           -1.66e-12             1e-13                 2.9512e-06           
  -0.1                  -4.899e-06            -1.54e-12             -2e-14                4.905e-06            
  -0.15                 -6.1372e-06           -1.42e-12             -6e-14                6.1396e-06           
  -0.2                  -6.9522e-06           -1.3e-12              -2e-14                6.9592e-06           
  -0.25                 -7.5314e-06           -1.3e-12              4e-14                 7.5198e-06           
  -0.3                  -7.973e-06            -1.3e-12              -2e-14                7.9744e-06           
  -0.35                 -8.3574e-06           -1.14e-12             2e-14                 8.3592e-06           
  -0.4                  -8.7052e-06           -1.24e-12             -2e-14                8.7128e-06           
  -0.45                 -9.041e-06            -1.12e-12             -6e-14                9.0434e-06           
  -0.5                  -9.3518e-06           -1.14e-12             6e-14                 9.3558e-06           
  -0.55                 -9.6558e-06           -1.08e-12             -6e-14                9.668e-06            
  -0.6                  -9.9576e-06           -1.08e-12             -6e-14                9.9628e-06           
  -0.65                 -1.02572e-05          -1.1e-12              -2e-14                1.02572e-05          
  -0.7                  -1.0553e-05           -1.02e-12             8e-14                 1.05468e-05          
  -0.75                 -1.08422e-05          -1.14e-12             -8e-14                1.08468e-05          
  -0.8                  -1.1126e-05           -1.16e-12             -8e-14                1.1118e-05           
  -0.85                 -1.14e-05             -1.22e-12             -2e-14                1.14112e-05          
  -0.9                  -1.1696e-05           -1.1e-12              2e-14                 1.172e-05            
  -0.95                 -1.1998e-05           -1.04e-12             6e-14                 1.2016e-05           
  -1                    -1.2292e-05           -1.06e-12             -1e-13                1.2304e-05           
  -1.05                 -1.2586e-05           -1.02e-12             -1.4e-13              1.2606e-05           
  -1.1                  -1.288e-05            -9.8e-13              1e-13                 1.2896e-05           
  -1.15                 -1.3176e-05           -9e-13                2.6e-13               1.3194e-05           
  -1.2                  -1.3492e-05           -9.4e-13              3e-13                 1.3506e-05           
  -1.25                 -1.3792e-05           -8.6e-13              7.8e-13               1.3816e-05           
  -1.3                  -1.4214e-05           -8.8e-13              1.48e-12              1.4128e-05           
  -1.35                 -1.4424e-05           -8.6e-13              3.28e-12              1.4438e-05           
END_DB

