! VERSION = 6.00
BEGIN_HEADER
 ICCAP_INPUTS
  vg         V  G GROUND SMU2 0.001 LIN        1    0.5        -1.35      38   -0.05     
  vb         V  B GROUND SMU4 0.1 LIN        2    0          1.2        7    0.2       
  vd         V  D GROUND SMU1 0.1 LIST       3 3 -0.05 -0.6 -1.2
  vs         V  S GROUND SMU3 0.1 CON        -0
 ICCAP_OUTPUTS
  id         I  D GROUND SMU1 B
  ig         I  G GROUND SMU2 B
  ib         I  B GROUND SMU4 B
  is         I  S GROUND SMU3 B
 ICCAP_VALUES
  MASTER_SETUP_TYPE "~dc_idvg~"
  LINVT_VALUE ""
  LISTVT_VALUE ""
  TYPE "-1"
  TEMP " 70.0000 "
  IS_TNOM " 0.00000 "
  MAIN.W "10.00u"
  MAIN.L "130.0n"
  MAIN.AD "3.400p"
  MAIN.AS "3.400p"
  MAIN.PD "20.68u"
  MAIN.PS "20.68u"
  MAIN.NF "1.000"
  MAIN.M "1"
  MAIN.NRD "0.000"
  MAIN.NRS "0.000"
  MAIN.LDRIFT1 "1E-06"
  MAIN.LDRIFT2 "1E-06"
  MAIN.SA "0.000"
  MAIN.SB "0.000"
  MAIN.SD "0.000"
  MAIN.SCA "0.000"
  MAIN.SCB "0.000"
  MAIN.SCC "0.000"
  MAIN.SC "0.000"
  MODULE "S548"
  PIN_D "18"
  PIN_G "3"
  PIN_S "4"
  PIN_B "17"
  PIN_E ""
  PIN_6 ""
  XY_ID ""
  FUNC "Short"
  STI "SA ref"
  WPE "WPE ref"
  COMMENT ""
  DIS_MEAS ""
  TypeTCI "10"
END_HEADER

BEGIN_DB
 ICCAP_VAR vb         0              
 ICCAP_VAR vd         -0.05          
 ICCAP_VAR vs         -0             

 #vg                    id                    ig                    ib                    is                   
  0.5                   -2.8e-12              6.6426e-10            -5.824e-10            -3.54e-12            
  0.45                  -1.74e-12             1.2702e-10            -2.5894e-10           -2.54e-12            
  0.4                   -1.32e-12             2.64e-11              -1.474e-10            -1.94e-12            
  0.35                  -1.04e-12             6.94e-12              -1.0242e-10           -1.18e-12            
  0.3                   -1e-12                2.64e-12              -7.912e-11            -5.2e-13             
  0.25                  -1.62e-12             1.3e-12               -6.498e-11            5e-13                
  0.2                   -4.08e-12             7.6e-13               -5.54e-11             3.6e-12              
  0.15                  -1.308e-11            4e-13                 -4.812e-11            1.282e-11            
  0.1                   -4.492e-11            2.4e-13               -4.266e-11            4.492e-11            
  0.05                  -1.5644e-10           -2e-14                -3.802e-11            1.566e-10            
  0                     -5.5122e-10           -2.2e-13              -3.44e-11             5.5176e-10           
  -0.05                 -1.9548e-09           -1.8e-13              -2.882e-11            1.9534e-09           
  -0.1                  -6.9732e-09           -4.6e-13              -2.636e-11            6.9736e-09           
  -0.15                 -2.4844e-08           -4.2e-13              -2.388e-11            2.4872e-08           
  -0.2                  -8.7536e-08           -7.4e-13              -2.2e-11              8.7548e-08           
  -0.25                 -3.0026e-07           -1.08e-12             -2.03e-11             3.0032e-07           
  -0.3                  -9.6652e-07           -1.3e-12              -1.868e-11            9.671e-07            
  -0.35                 -2.779e-06            -1.7e-12              -1.622e-11            2.777e-06            
  -0.4                  -6.8004e-06           -2.6e-12              -1.53e-11             6.8066e-06           
  -0.45                 -1.3892e-05           -3.5e-12              -1.352e-11            1.3896e-05           
  -0.5                  -2.4188e-05           -5.24e-12             -1.264e-11            2.4154e-05           
  -0.55                 -3.688e-05            -7.42e-12             -1.168e-11            3.689e-05            
  -0.6                  -5.1138e-05           -1.018e-11            -1.1e-11              5.1096e-05           
  -0.65                 -6.6072e-05           -1.396e-11            -1.016e-11            6.6084e-05           
  -0.7                  -8.121e-05            -1.874e-11            -9.2e-12              8.1202e-05           
  -0.75                 -9.608e-05            -2.458e-11            -8.82e-12             9.6088e-05           
  -0.8                  -0.000110544          -3.174e-11            -8.14e-12             0.000110524          
  -0.85                 -0.00012432           -4.07e-11             -7.08e-12             0.00012464           
  -0.9                  -0.00013768           -5.122e-11            -6.68e-12             0.000138             
  -0.95                 -0.00015048           -6.384e-11            -6.18e-12             0.0001507            
  -1                    -0.00016246           -7.898e-11            -5.48e-12             0.00016282           
  -1.05                 -0.0001739            -9.618e-11            -5.28e-12             0.00017418           
  -1.1                  -0.0001847            -1.1618e-10           -4.76e-12             0.000185             
  -1.15                 -0.00019492           -1.3948e-10           -4.22e-12             0.00019522           
  -1.2                  -0.00020458           -1.657e-10            -3.58e-12             0.00020476           
  -1.25                 -0.00021374           -1.9872e-10           -2.98e-12             0.0002139            
  -1.3                  -0.00022222           -2.3246e-10           -1.8e-12              0.00022254           
  -1.35                 -0.00023048           -2.7328e-10           -2.4e-13              0.00023066           
END_DB

BEGIN_DB
 ICCAP_VAR vb         0.2            
 ICCAP_VAR vd         -0.05          
 ICCAP_VAR vs         -0             

 #vg                    id                    ig                    ib                    is                   
  0.5                   -2.22e-12             6.84e-12              1.258e-11             -3.52e-12            
  0.45                  -1.8e-12              4.66e-12              1.28e-11              -2.72e-12            
  0.4                   -1.28e-12             3.32e-12              1.268e-11             -2.06e-12            
  0.35                  -1.08e-12             2.4e-12               1.274e-11             -1.4e-12             
  0.3                   -8.4e-13              1.68e-12              1.28e-11              -1e-12               
  0.25                  -7.6e-13              1.24e-12              1.278e-11             -3.6e-13             
  0.2                   -1.36e-12             6.2e-13               1.266e-11             6e-13                
  0.15                  -3.96e-12             3.2e-13               1.272e-11             3.46e-12             
  0.1                   -1.352e-11            -4e-14                1.272e-11             1.338e-11            
  0.05                  -4.972e-11            -8e-14                1.26e-11              4.928e-11            
  0                     -1.8178e-10           -2.2e-13              1.268e-11             1.8142e-10           
  -0.05                 -6.6734e-10           -5.4e-13              1.262e-11             6.6776e-10           
  -0.1                  -2.4716e-09           -3.2e-13              1.26e-11              2.4704e-09           
  -0.15                 -9.1162e-09           -6e-13                1.272e-11             9.1118e-09           
  -0.2                  -3.3342e-08           -7e-13                1.244e-11             3.3368e-08           
  -0.25                 -1.2012e-07           -9e-13                1.266e-11             1.2018e-07           
  -0.3                  -4.1726e-07           -1.46e-12             1.264e-11             4.1666e-07           
  -0.35                 -1.3236e-06           -1.74e-12             1.25e-11              1.3262e-06           
  -0.4                  -3.6834e-06           -2.58e-12             1.252e-11             3.6892e-06           
  -0.45                 -8.5596e-06           -3.68e-12             1.256e-11             8.5694e-06           
  -0.5                  -1.6646e-05           -5.02e-12             1.238e-11             1.6628e-05           
  -0.55                 -2.7606e-05           -7.18e-12             1.262e-11             2.7626e-05           
  -0.6                  -4.0736e-05           -9.98e-12             1.242e-11             4.0714e-05           
  -0.65                 -5.5034e-05           -1.354e-11            1.262e-11             5.5012e-05           
  -0.7                  -6.9792e-05           -1.832e-11            1.256e-11             6.9756e-05           
  -0.75                 -8.4526e-05           -2.404e-11            1.268e-11             8.4524e-05           
  -0.8                  -9.8998e-05           -3.122e-11            1.248e-11             9.8974e-05           
  -0.85                 -0.000112968          -4.004e-11            1.246e-11             0.000112918          
  -0.9                  -0.00012626           -5.064e-11            1.24e-11              0.00012648           
  -0.95                 -0.00013906           -6.322e-11            1.258e-11             0.00013934           
  -1                    -0.00015128           -7.786e-11            1.254e-11             0.00015154           
  -1.05                 -0.00016278           -9.552e-11            1.256e-11             0.00016304           
  -1.1                  -0.00017374           -1.1576e-10           1.25e-11              0.00017398           
  -1.15                 -0.00018404           -1.3884e-10           1.256e-11             0.00018424           
  -1.2                  -0.00019384           -1.6564e-10           1.29e-11              0.00019404           
  -1.25                 -0.00020312           -2.002e-10            1.306e-11             0.0002034            
  -1.3                  -0.00021198           -2.3584e-10           1.394e-11             0.00021224           
  -1.35                 -0.00022028           -2.7524e-10           1.502e-11             0.00022058           
END_DB

BEGIN_DB
 ICCAP_VAR vb         0.4            
 ICCAP_VAR vd         -0.05          
 ICCAP_VAR vs         -0             

 #vg                    id                    ig                    ib                    is                   
  0.5                   -2.2e-12              5.86e-12              1.376e-11             -3.44e-12            
  0.45                  -1.66e-12             4.44e-12              1.346e-11             -2.78e-12            
  0.4                   -1.22e-12             3.32e-12              1.358e-11             -1.92e-12            
  0.35                  -9.6e-13              2.36e-12              1.362e-11             -1.48e-12            
  0.3                   -7.8e-13              1.72e-12              1.35e-11              -9e-13               
  0.25                  -6.2e-13              1.02e-12              1.366e-11             -6e-13               
  0.2                   -6.2e-13              5.2e-13               1.356e-11             -4e-14               
  0.15                  -1.74e-12             2.6e-13               1.348e-11             1.16e-12             
  0.1                   -5.26e-12             0                     1.34e-11              5e-12                
  0.05                  -1.908e-11            -6e-14                1.354e-11             1.898e-11            
  0                     -7.172e-11            -2.8e-13              1.356e-11             7.16e-11             
  -0.05                 -2.7024e-10           -2.8e-13              1.346e-11             2.7052e-10           
  -0.1                  -1.0236e-09           -4e-13                1.366e-11             1.02452e-09          
  -0.15                 -3.8728e-09           -5e-13                1.342e-11             3.8768e-09           
  -0.2                  -1.4566e-08           -8e-13                1.342e-11             1.4584e-08           
  -0.25                 -5.4232e-08           -9.2e-13              1.356e-11             5.42e-08             
  -0.3                  -1.9616e-07           -1.4e-12              1.352e-11             1.9624e-07           
  -0.35                 -6.6736e-07           -1.82e-12             1.34e-11              6.682e-07            
  -0.4                  -2.0426e-06           -2.42e-12             1.332e-11             2.0426e-06           
  -0.45                 -5.295e-06            -3.54e-12             1.346e-11             5.2936e-06           
  -0.5                  -1.1427e-05           -5.02e-12             1.344e-11             1.14256e-05          
  -0.55                 -2.0696e-05           -6.92e-12             1.348e-11             2.0684e-05           
  -0.6                  -3.257e-05            -9.7e-12              1.35e-11              3.2562e-05           
  -0.65                 -4.6064e-05           -1.332e-11            1.334e-11             4.605e-05            
  -0.7                  -6.0362e-05           -1.788e-11            1.348e-11             6.0372e-05           
  -0.75                 -7.492e-05            -2.38e-11             1.352e-11             7.4918e-05           
  -0.8                  -8.9328e-05           -3.094e-11            1.34e-11              8.9326e-05           
  -0.85                 -0.000103354          -3.97e-11             1.362e-11             0.000103298          
  -0.9                  -0.00011666           -5.012e-11            1.35e-11              0.00011696           
  -0.95                 -0.0001296            -6.288e-11            1.336e-11             0.00012986           
  -1                    -0.00014192           -7.764e-11            1.346e-11             0.0001422            
  -1.05                 -0.0001536            -9.502e-11            1.354e-11             0.00015388           
  -1.1                  -0.00016478           -1.1496e-10           1.35e-11              0.00016498           
  -1.15                 -0.00017522           -1.3816e-10           1.36e-11              0.0001754            
  -1.2                  -0.00018504           -1.648e-10            1.374e-11             0.0001853            
  -1.25                 -0.00019446           -1.9442e-10           1.424e-11             0.00019472           
  -1.3                  -0.00020336           -2.2972e-10           1.488e-11             0.00020366           
  -1.35                 -0.00021188           -2.6852e-10           1.622e-11             0.00021216           
END_DB

BEGIN_DB
 ICCAP_VAR vb         0.6            
 ICCAP_VAR vd         -0.05          
 ICCAP_VAR vs         -0             

 #vg                    id                    ig                    ib                    is                   
  0.5                   -2.04e-12             5.8e-12               1.386e-11             -3.44e-12            
  0.45                  -1.66e-12             4.42e-12              1.378e-11             -2.64e-12            
  0.4                   -1.3e-12              3.22e-12              1.376e-11             -1.98e-12            
  0.35                  -1.04e-12             2.3e-12               1.376e-11             -1.4e-12             
  0.3                   -7.2e-13              1.64e-12              1.376e-11             -1e-12               
  0.25                  -5.8e-13              1.02e-12              1.364e-11             -5.8e-13             
  0.2                   -5.8e-13              6.8e-13               1.38e-11              -2.4e-13             
  0.15                  -7.6e-13              2e-13                 1.376e-11             3.4e-13              
  0.1                   -2.36e-12             0                     1.37e-11              2.06e-12             
  0.05                  -8.48e-12             -8e-14                1.382e-11             8.28e-12             
  0                     -3.232e-11            -3.4e-13              1.372e-11             3.23e-11             
  -0.05                 -1.2414e-10           -4e-13                1.388e-11             1.2416e-10           
  -0.1                  -4.7818e-10           -4.8e-13              1.384e-11             4.781e-10            
  -0.15                 -1.8432e-09           -5.6e-13              1.37e-11              1.844e-09            
  -0.2                  -7.0634e-09           -7e-13                1.376e-11             7.0564e-09           
  -0.25                 -2.6836e-08           -9.2e-13              1.37e-11              2.685e-08            
  -0.3                  -9.9954e-08           -1.36e-12             1.384e-11             1.00072e-07          
  -0.35                 -3.5658e-07           -1.8e-12              1.388e-11             3.5668e-07           
  -0.4                  -1.1666e-06           -2.46e-12             1.374e-11             1.1686e-06           
  -0.45                 -3.3216e-06           -3.48e-12             1.38e-11              3.3224e-06           
  -0.5                  -7.8836e-06           -4.82e-12             1.372e-11             7.8958e-06           
  -0.55                 -1.5534e-05           -6.62e-12             1.372e-11             1.5506e-05           
  -0.6                  -2.6064e-05           -9.4e-12              1.378e-11             2.6056e-05           
  -0.65                 -3.8724e-05           -1.304e-11            1.368e-11             3.869e-05            
  -0.7                  -5.2534e-05           -1.762e-11            1.372e-11             5.2522e-05           
  -0.75                 -6.6838e-05           -2.342e-11            1.352e-11             6.682e-05            
  -0.8                  -8.1144e-05           -3.044e-11            1.378e-11             8.1102e-05           
  -0.85                 -9.514e-05            -3.908e-11            1.38e-11              9.516e-05            
  -0.9                  -0.000108656          -4.964e-11            1.356e-11             0.000108624          
  -0.95                 -0.00012142           -6.2e-11              1.366e-11             0.00012166           
  -1                    -0.0001338            -7.706e-11            1.366e-11             0.000134             
  -1.05                 -0.0001456            -9.416e-11            1.366e-11             0.00014588           
  -1.1                  -0.00015676           -1.1422e-10           1.372e-11             0.00015698           
  -1.15                 -0.0001674            -1.3718e-10           1.394e-11             0.00016764           
  -1.2                  -0.00017748           -1.6342e-10           1.41e-11              0.00017776           
  -1.25                 -0.00018692           -1.9386e-10           1.438e-11             0.00018716           
  -1.3                  -0.00019594           -2.2814e-10           1.522e-11             0.0001962            
  -1.35                 -0.00020442           -2.6754e-10           1.644e-11             0.00020468           
END_DB

BEGIN_DB
 ICCAP_VAR vb         0.8            
 ICCAP_VAR vd         -0.05          
 ICCAP_VAR vs         -0             

 #vg                    id                    ig                    ib                    is                   
  0.5                   -2e-12                5.82e-12              1.396e-11             -3.46e-12            
  0.45                  -1.68e-12             4.3e-12               1.404e-11             -2.64e-12            
  0.4                   -1.28e-12             3.16e-12              1.386e-11             -1.96e-12            
  0.35                  -1.1e-12              2.44e-12              1.402e-11             -1.52e-12            
  0.3                   -6.8e-13              1.66e-12              1.396e-11             -1.02e-12            
