! VERSION = 6.00
BEGIN_HEADER
 ICCAP_INPUTS
  vd         V  D GROUND SMU1 0.1 LIN        1    -0         -1.35      28   -0.05     
  vg         V  G GROUND SMU2 0.001 LIN        2    -0.446     -1.35      5    -0.226    
  vb         V  B GROUND SMU4 0.1 CON        -0
  vs         V  S GROUND SMU3 0.1 CON        -0
 ICCAP_OUTPUTS
  id         I  D GROUND SMU1 B
  ig         I  G GROUND SMU2 B
  ib         I  B GROUND SMU4 B
  is         I  S GROUND SMU3 B
 ICCAP_VALUES
  MASTER_SETUP_TYPE "~dc_idvd~"
  LINVT_VALUE "|idvg|100.0n|100.0m|1.000m|5|1.350|"
  LISTVT_VALUE ""
  TYPE "-1"
  TEMP " 27.0000 "
  IS_TNOM " 1.00000 "
  MAIN.W "2.000u"
  MAIN.L "2.000u"
  MAIN.AD "680.0f"
  MAIN.AS "680.0f"
  MAIN.PD "4.680u"
  MAIN.PS "4.680u"
  MAIN.NF "1.000"
  MAIN.M "1"
  MAIN.NRD "0.000"
  MAIN.NRS "0.000"
  MAIN.LDRIFT1 "1E-06"
  MAIN.LDRIFT2 "1E-06"
  MAIN.SA "0.000"
  MAIN.SB "0.000"
  MAIN.SD "0.000"
  MAIN.SCA "0.000"
  MAIN.SCB "0.000"
  MAIN.SCC "0.000"
  MAIN.SC "0.000"
  MODULE "S550"
  PIN_D "12"
  PIN_G "9"
  PIN_S "10"
  PIN_B "11"
  PIN_E ""
  PIN_6 ""
  XY_ID ""
  FUNC "LW Scale"
  STI "SA ref"
  WPE "WPE ref"
  COMMENT ""
  DIS_MEAS ""
  TypeTCI "10"
END_HEADER

BEGIN_DB
 ICCAP_VAR vg         -0.446         
 ICCAP_VAR vb         -0             
 ICCAP_VAR vs         -0             

 #vd                    id                    ig                    ib                    is                   
  -0                    7.564e-10             -4.66e-12             -2.96e-12             -8.615e-10           
  -0.05                 -3.781e-07            -3.68e-12             -2.82e-12             3.7828e-07           
  -0.1                  -5.4878e-07           -3.34e-12             -2.84e-12             5.4908e-07           
  -0.15                 -6.0666e-07           -3.1e-12              -2.86e-12             6.0682e-07           
  -0.2                  -6.2622e-07           -3.04e-12             -2.74e-12             6.2638e-07           
  -0.25                 -6.361e-07            -2.92e-12             -2.7e-12              6.3648e-07           
  -0.3                  -6.4364e-07           -2.92e-12             -2.66e-12             6.437e-07            
  -0.35                 -6.4958e-07           -2.92e-12             -2.66e-12             6.4986e-07           
  -0.4                  -6.552e-07            -2.86e-12             -2.64e-12             6.5546e-07           
  -0.45                 -6.6014e-07           -2.76e-12             -2.62e-12             6.6054e-07           
  -0.5                  -6.6478e-07           -2.78e-12             -2.58e-12             6.6508e-07           
  -0.55                 -6.6918e-07           -2.66e-12             -2.58e-12             6.6938e-07           
  -0.6                  -6.73e-07             -2.74e-12             -2.46e-12             6.7316e-07           
  -0.65                 -6.7648e-07           -2.72e-12             -2.58e-12             6.7694e-07           
  -0.7                  -6.799e-07            -2.68e-12             -2.64e-12             6.801e-07            
  -0.75                 -6.829e-07            -2.72e-12             -2.46e-12             6.8318e-07           
  -0.8                  -6.8588e-07           -2.62e-12             -2.4e-12              6.8606e-07           
  -0.85                 -6.8854e-07           -2.66e-12             -2.34e-12             6.8876e-07           
  -0.9                  -6.9104e-07           -2.34e-12             -2.42e-12             6.9124e-07           
  -0.95                 -6.9344e-07           -2.62e-12             -2.4e-12              6.9378e-07           
  -1                    -6.9566e-07           -2.52e-12             -2.44e-12             6.9598e-07           
  -1.05                 -6.9762e-07           -2.26e-12             -2.34e-12             6.9782e-07           
  -1.1                  -6.9956e-07           -2.32e-12             -2.26e-12             6.9974e-07           
  -1.15                 -7.015e-07            -2.1e-12              -2.24e-12             7.017e-07            
  -1.2                  -7.032e-07            -2.02e-12             -2.14e-12             7.034e-07            
  -1.25                 -7.0454e-07           -1.98e-12             -2.12e-12             7.0486e-07           
  -1.3                  -7.0634e-07           -1.8e-12              -1.88e-12             7.0658e-07           
  -1.35                 -7.078e-07            -1.62e-12             -1.42e-12             7.0808e-07           
END_DB

BEGIN_DB
 ICCAP_VAR vg         -0.672         
 ICCAP_VAR vb         -0             
 ICCAP_VAR vs         -0             

 #vd                    id                    ig                    ib                    is                   
  -0                    2.3902e-09            -3.002e-11            -2.12e-12             -2.1128e-09          
  -0.05                 -1.443e-06            -2.57e-11             -2.2e-12              1.4464e-06           
  -0.1                  -2.5908e-06           -2.218e-11            -2.1e-12              2.5948e-06           
  -0.15                 -3.4376e-06           -1.982e-11            -2e-12                3.4418e-06           
  -0.2                  -3.993e-06            -1.808e-11            -1.92e-12             3.9968e-06           
  -0.25                 -4.2984e-06           -1.724e-11            -2.1e-12              4.302e-06            
  -0.3                  -4.4428e-06           -1.68e-11             -2.06e-12             4.4468e-06           
  -0.35                 -4.514e-06            -1.648e-11            -2.04e-12             4.518e-06            
  -0.4                  -4.5582e-06           -1.626e-11            -1.96e-12             4.5618e-06           
  -0.45                 -4.5906e-06           -1.628e-11            -1.92e-12             4.5936e-06           
  -0.5                  -4.6184e-06           -1.61e-11             -1.98e-12             4.6222e-06           
  -0.55                 -4.6434e-06           -1.59e-11             -1.9e-12              4.6462e-06           
  -0.6                  -4.6656e-06           -1.596e-11            -1.86e-12             4.6694e-06           
  -0.65                 -4.686e-06            -1.592e-11            -1.74e-12             4.6892e-06           
  -0.7                  -4.7056e-06           -1.586e-11            -1.9e-12              4.7094e-06           
  -0.75                 -4.722e-06            -1.588e-11            -2.04e-12             4.726e-06            
  -0.8                  -4.7394e-06           -1.572e-11            -1.88e-12             4.7434e-06           
  -0.85                 -4.755e-06            -1.566e-11            -1.88e-12             4.7586e-06           
  -0.9                  -4.7706e-06           -1.568e-11            -1.76e-12             4.7732e-06           
  -0.95                 -4.7838e-06           -1.57e-11             -1.7e-12              4.7876e-06           
  -1                    -4.7972e-06           -1.556e-11            -1.82e-12             4.8006e-06           
  -1.05                 -4.809e-06            -1.548e-11            -1.82e-12             4.8126e-06           
  -1.1                  -4.8208e-06           -1.548e-11            -1.68e-12             4.8238e-06           
  -1.15                 -4.832e-06            -1.54e-11             -1.84e-12             4.8356e-06           
  -1.2                  -4.843e-06            -1.53e-11             -1.76e-12             4.8468e-06           
  -1.25                 -4.8534e-06           -1.51e-11             -1.76e-12             4.857e-06            
  -1.3                  -4.8616e-06           -1.512e-11            -1.5e-12              4.8648e-06           
  -1.35                 -4.8708e-06           -1.492e-11            -1.36e-12             4.8744e-06           
END_DB

BEGIN_DB
 ICCAP_VAR vg         -0.898         
 ICCAP_VAR vb         -0             
 ICCAP_VAR vs         -0             

 #vd                    id                    ig                    ib                    is                   
  -0                    3.2522e-09            -1.0814e-10           -1.78e-12             -3.097e-09           
  -0.05                 -2.4374e-06           -9.584e-11            -1.82e-12             2.441e-06            
  -0.1                  -4.618e-06            -8.55e-11             -1.7e-12              4.6222e-06           
  -0.15                 -6.5278e-06           -7.694e-11            -1.62e-12             6.5312e-06           
  -0.2                  -8.1562e-06           -6.998e-11            -1.64e-12             8.1612e-06           
  -0.25                 -9.5018e-06           -6.436e-11            -1.72e-12             9.5044e-06           
  -0.3                  -1.05506e-05          -6.004e-11            -1.58e-12             1.0556e-05           
  -0.35                 -1.13096e-05          -5.704e-11            -1.6e-12              1.1314e-05           
  -0.4                  -1.1794e-05           -5.512e-11            -1.58e-12             1.1812e-05           
  -0.45                 -1.2078e-05           -5.394e-11            -1.54e-12             1.2096e-05           
  -0.5                  -1.2238e-05           -5.342e-11            -1.56e-12             1.2254e-05           
  -0.55                 -1.2336e-05           -5.296e-11            -1.58e-12             1.2352e-05           
  -0.6                  -1.2406e-05           -5.252e-11            -1.62e-12             1.2422e-05           
  -0.65                 -1.2462e-05           -5.228e-11            -1.5e-12              1.2478e-05           
  -0.7                  -1.2512e-05           -5.208e-11            -1.48e-12             1.253e-05            
  -0.75                 -1.2554e-05           -5.196e-11            -1.48e-12             1.2574e-05           
  -0.8                  -1.2596e-05           -5.19e-11             -1.54e-12             1.2612e-05           
  -0.85                 -1.2634e-05           -5.186e-11            -1.62e-12             1.265e-05            
  -0.9                  -1.2668e-05           -5.144e-11            -1.46e-12             1.2684e-05           
  -0.95                 -1.27e-05             -5.142e-11            -1.36e-12             1.2716e-05           
  -1                    -1.2732e-05           -5.136e-11            -1.48e-12             1.2748e-05           
  -1.05                 -1.2762e-05           -5.116e-11            -1.54e-12             1.2778e-05           
  -1.1                  -1.279e-05            -5.104e-11            -1.4e-12              1.2804e-05           
  -1.15                 -1.2814e-05           -5.104e-11            -1.32e-12             1.2832e-05           
  -1.2                  -1.284e-05            -5.092e-11            -1.44e-12             1.2858e-05           
  -1.25                 -1.2864e-05           -5.08e-11             -1.44e-12             1.2882e-05           
  -1.3                  -1.2888e-05           -5.068e-11            -1.38e-12             1.2904e-05           
  -1.35                 -1.291e-05            -5.064e-11            -1.36e-12             1.2926e-05           
END_DB

BEGIN_DB
 ICCAP_VAR vg         -1.124         
 ICCAP_VAR vb         -0             
 ICCAP_VAR vs         -0             

 #vd                    id                    ig                    ib                    is                   
  -0                    3.6536e-09            -2.8164e-10           -1.34e-12             -3.6974e-09          
  -0.05                 -3.2428e-06           -2.5696e-10           -1.24e-12             3.2464e-06           
  -0.1                  -6.2722e-06           -2.346e-10            -1.32e-12             6.2762e-06           
  -0.15                 -9.0734e-06           -2.1516e-10           -1.22e-12             9.0774e-06           
  -0.2                  -1.163e-05            -1.9796e-10           -1.4e-12              1.1648e-05           
  -0.25                 -1.3952e-05           -1.8322e-10           -1.3e-12              1.3972e-05           
  -0.3                  -1.6022e-05           -1.704e-10            -1.32e-12             1.604e-05            
  -0.35                 -1.7826e-05           -1.5988e-10           -1.26e-12             1.7844e-05           
  -0.4                  -1.936e-05            -1.511e-10            -1.44e-12             1.9376e-05           
  -0.45                 -2.0614e-05           -1.4414e-10           -1.46e-12             2.0636e-05           
  -0.5                  -2.1594e-05           -1.389e-10            -1.36e-12             2.1616e-05           
  -0.55                 -2.2302e-05           -1.352e-10            -1.2e-12              2.2316e-05           
  -0.6                  -2.2766e-05           -1.3264e-10           -1.2e-12              2.2788e-05           
  -0.65                 -2.3064e-05           -1.31e-10             -1.34e-12             2.3078e-05           
  -0.7                  -2.3248e-05           -1.3006e-10           -1.28e-12             2.3264e-05           
  -0.75                 -2.3374e-05           -1.2944e-10           -1.2e-12              2.3392e-05           
  -0.8                  -2.3472e-05           -1.29e-10             -1.14e-12             2.3492e-05           
  -0.85                 -2.3556e-05           -1.2858e-10           -1.2e-12              2.3572e-05           
  -0.9                  -2.3626e-05           -1.2808e-10           -1.3e-12              2.3646e-05           
  -0.95                 -2.369e-05            -1.278e-10            -1.28e-12             2.3704e-05           
  -1                    -2.3748e-05           -1.2768e-10           -1.2e-12              2.3764e-05           
  -1.05                 -2.3804e-05           -1.2722e-10           -1.08e-12             2.3822e-05           
  -1.1                  -2.3856e-05           -1.2724e-10           -1.3e-12              2.3872e-05           
  -1.15                 -2.39e-05             -1.2684e-10           -1.26e-12             2.3918e-05           
  -1.2                  -2.3946e-05           -1.2652e-10           -1.32e-12             2.3966e-05           
  -1.25                 -2.399e-05            -1.2638e-10           -1.18e-12             2.4012e-05           
  -1.3                  -2.4034e-05           -1.2622e-10           -1.22e-12             2.405e-05            
  -1.35                 -2.4074e-05           -1.259e-10            -1.22e-12             2.4092e-05           
END_DB

BEGIN_DB
 ICCAP_VAR vg         -1.35          
 ICCAP_VAR vb         -0             
 ICCAP_VAR vs         -0             

 #vd                    id                    ig                    ib                    is                   
  -0                    4.0042e-09            -6.0596e-10           3.22e-12              -4.1212e-09          
  -0.05                 -3.877e-06            -5.6162e-10           1.98e-12              3.8812e-06           
  -0.1                  -7.5788e-06           -5.216e-10            1.14e-12              7.5826e-06           
  -0.15                 -1.109e-05            -4.8478e-10           6.4e-13               1.1094e-05           
  -0.2                  -1.4398e-05           -4.5134e-10           1.8e-13               1.4416e-05           
  -0.25                 -1.7512e-05           -4.2156e-10           6e-14                 1.753e-05            
  -0.3                  -2.0416e-05           -3.95e-10             -4e-14                2.0434e-05           
  -0.35                 -2.3096e-05           -3.7164e-10           -8e-14                2.3114e-05           
  -0.4                  -2.5548e-05           -3.5092e-10           -2.2e-13              2.5564e-05           
  -0.45                 -2.7768e-05           -3.328e-10            -3.6e-13              2.7788e-05           
  -0.5                  -2.9744e-05           -3.1722e-10           -5e-13                2.9766e-05           
  -0.55                 -3.1464e-05           -3.0458e-10           -4.8e-13              3.1486e-05           
  -0.6                  -3.293e-05            -2.9368e-10           -2.4e-13              3.2946e-05           
  -0.65                 -3.4126e-05           -2.8482e-10           -4e-13                3.4144e-05           
  -0.7                  -3.5058e-05           -2.7818e-10           -5.4e-13              3.5074e-05           
  -0.75                 -3.5738e-05           -2.7338e-10           -5e-13                3.576e-05            
  -0.8                  -3.6214e-05           -2.7e-10              -4.2e-13              3.6228e-05           
  -0.85                 -3.6524e-05           -2.6804e-10           -5e-13                3.6544e-05           
  -0.9                  -3.6748e-05           -2.6634e-10           -5.4e-13              3.6766e-05           
  -0.95                 -3.69e-05             -2.6524e-10           -4.6e-13              3.6918e-05           
  -1                    -3.7024e-05           -2.646e-10            -4.6e-13              3.7044e-05           
  -1.05                 -3.7126e-05           -2.639e-10            -5e-13                3.7144e-05           
  -1.1                  -3.721e-05            -2.632e-10            -5.4e-13              3.7236e-05           
  -1.15                 -3.7304e-05           -2.6266e-10           -4.6e-13              3.7322e-05           
  -1.2                  -3.7374e-05           -2.6208e-10           -3.6e-13              3.7388e-05           
  -1.25                 -3.7446e-05           -2.6156e-10           -4.4e-13              3.746e-05            
  -1.3                  -3.7512e-05           -2.6116e-10           -3.8e-13              3.7534e-05           
  -1.35                 -3.7578e-05           -2.6106e-10           -5.6e-13              3.7596e-05           
END_DB

