! VERSION = 6.00
BEGIN_HEADER
 ICCAP_INPUTS
  vd         V  D GROUND SMU1 0.1 LIN        1    -0         -1.35      28   -0.05     
  vg         V  G GROUND SMU2 0.001 LIN        2    -0.594     -1.35      5    -0.189    
  vb         V  B GROUND SMU4 0.1 CON        1.2
  vs         V  S GROUND SMU3 0.1 CON        -0
 ICCAP_OUTPUTS
  id         I  D GROUND SMU1 B
  ig         I  G GROUND SMU2 B
  ib         I  B GROUND SMU4 B
  is         I  S GROUND SMU3 B
 ICCAP_VALUES
  MASTER_SETUP_TYPE "~dc_idvd~"
  LINVT_VALUE "|idvg|100.0n|100.0m|1.000m|5|1.350|"
  LISTVT_VALUE ""
  TYPE "-1"
  TEMP " 27.0000 "
  IS_TNOM " 1.00000 "
  MAIN.W "180.0n"
  MAIN.L "130.0n"
  MAIN.AD "102.6f"
  MAIN.AS "102.6f"
  MAIN.PD "1.340u"
  MAIN.PS "1.340u"
  MAIN.NF "1.000"
  MAIN.M "1"
  MAIN.NRD "0.000"
  MAIN.NRS "0.000"
  MAIN.LDRIFT1 "1E-06"
  MAIN.LDRIFT2 "1E-06"
  MAIN.SA "0.000"
  MAIN.SB "0.000"
  MAIN.SD "0.000"
  MAIN.SCA "0.000"
  MAIN.SCB "0.000"
  MAIN.SCC "0.000"
  MAIN.SC "0.000"
  MODULE "S553"
  PIN_D "16"
  PIN_G "5"
  PIN_S "6"
  PIN_B "15"
  PIN_E ""
  PIN_6 ""
  XY_ID ""
  FUNC "LW Scale"
  STI "SA ref"
  WPE "WPE ref"
  COMMENT ""
  DIS_MEAS ""
  TypeTCI "10"
END_HEADER

BEGIN_DB
 ICCAP_VAR vg         -0.594         
 ICCAP_VAR vb         1.2            
 ICCAP_VAR vs         -0             

 #vd                    id                    ig                    ib                    is                   
  -0                    4.8656e-10            -2.4e-13              4e-13                 -6.0264e-10          
  -0.05                 -2.9068e-07           -3.6e-13              3.6e-13               2.907e-07            
  -0.1                  -4.4076e-07           -2.8e-13              3.6e-13               4.3998e-07           
  -0.15                 -5.2824e-07           -2.4e-13              4e-13                 5.2856e-07           
  -0.2                  -5.9504e-07           -1.2e-13              4.4e-13               5.9546e-07           
  -0.25                 -6.5222e-07           -2e-13                3.4e-13               6.5122e-07           
  -0.3                  -7.0438e-07           -2.2e-13              4e-13                 7.0442e-07           
  -0.35                 -7.554e-07            -1.4e-13              3.4e-13               7.5532e-07           
  -0.4                  -8.0498e-07           -1.8e-13              3.4e-13               8.0658e-07           
  -0.45                 -8.5492e-07           -1.2e-13              3.8e-13               8.5526e-07           
  -0.5                  -9.049e-07            -2.6e-13              2.6e-13               9.0492e-07           
  -0.55                 -9.5516e-07           -1.6e-13              2.4e-13               9.5554e-07           
  -0.6                  -1.00582e-06          -8e-14                4e-13                 1.00624e-06          
  -0.65                 -1.0588e-06           -4e-14                3.4e-13               1.05794e-06          
  -0.7                  -1.11048e-06          1.2e-13               3.8e-13               1.11028e-06          
  -0.75                 -1.1618e-06           -2e-14                3e-13                 1.1654e-06           
  -0.8                  -1.216e-06            8e-14                 2.4e-13               1.2196e-06           
  -0.85                 -1.2722e-06           6e-14                 1.8e-13               1.2754e-06           
  -0.9                  -1.328e-06            2e-14                 2.4e-13               1.3324e-06           
  -0.95                 -1.3878e-06           -2e-14                2e-13                 1.3902e-06           
  -1                    -1.4444e-06           -4e-14                1.6e-13               1.4484e-06           
  -1.05                 -1.505e-06            -2e-14                2.6e-13               1.5084e-06           
  -1.1                  -1.5658e-06           2e-14                 2e-13                 1.5704e-06           
  -1.15                 -1.6288e-06           6e-14                 1.4e-13               1.6324e-06           
  -1.2                  -1.6928e-06           -6e-14                4.4e-13               1.6966e-06           
  -1.25                 -1.7584e-06           1.2e-13               6.6e-13               1.7618e-06           
  -1.3                  -1.8252e-06           1e-13                 1.1e-12               1.828e-06            
  -1.35                 -1.8934e-06           2e-14                 2e-12                 1.8966e-06           
END_DB

BEGIN_DB
 ICCAP_VAR vg         -0.783         
 ICCAP_VAR vb         1.2            
 ICCAP_VAR vs         -0             

 #vd                    id                    ig                    ib                    is                   
  -0                    2.197e-09             -5.8e-13              -2e-14                -1.9356e-09          
  -0.05                 -1.4888e-06           -4.6e-13              2e-14                 1.4904e-06           
  -0.1                  -2.575e-06            -4e-13                1.2e-13               2.5826e-06           
  -0.15                 -3.348e-06            -3.8e-13              8e-14                 3.3536e-06           
  -0.2                  -3.9104e-06           -3.6e-13              1.8e-13               3.9144e-06           
  -0.25                 -4.3226e-06           -3e-13                1.2e-13               4.3246e-06           
  -0.3                  -4.6542e-06           -2.2e-13              1.4e-13               4.6568e-06           
  -0.35                 -4.9386e-06           -1.4e-13              1e-13                 4.938e-06            
  -0.4                  -5.1874e-06           -3e-13                1.2e-13               5.1878e-06           
  -0.45                 -5.4068e-06           -2.4e-13              1.4e-13               5.419e-06            
  -0.5                  -5.6202e-06           -1.8e-13              4e-14                 5.6214e-06           
  -0.55                 -5.8276e-06           -2.8e-13              8e-14                 5.8292e-06           
  -0.6                  -6.024e-06            -2.4e-13              2.4e-13               6.0224e-06           
  -0.65                 -6.2186e-06           -2.8e-13              1.4e-13               6.2242e-06           
  -0.7                  -6.4054e-06           -2e-13                1e-13                 6.4118e-06           
  -0.75                 -6.597e-06            -2.4e-13              1.2e-13               6.601e-06            
  -0.8                  -6.786e-06            -3e-13                6e-14                 6.7868e-06           
  -0.85                 -6.971e-06            -1.8e-13              1.2e-13               6.981e-06            
  -0.9                  -7.1688e-06           -3.2e-13              1.6e-13               7.1684e-06           
  -0.95                 -7.3522e-06           -1.8e-13              1.4e-13               7.3526e-06           
  -1                    -7.537e-06            -2.2e-13              2e-14                 7.5454e-06           
  -1.05                 -7.732e-06            -2e-13                0                     7.7398e-06           
  -1.1                  -7.924e-06            -2.2e-13              1e-13                 7.9276e-06           
  -1.15                 -8.1186e-06           -2.4e-13              1.8e-13               8.1178e-06           
  -1.2                  -8.313e-06            -1.4e-13              2.6e-13               8.3142e-06           
  -1.25                 -8.5076e-06           -2e-13                5.4e-13               8.5186e-06           
  -1.3                  -8.7146e-06           -1.2e-13              1.06e-12              8.7154e-06           
  -1.35                 -8.9122e-06           -1.2e-13              2.18e-12              8.911e-06            
END_DB

BEGIN_DB
 ICCAP_VAR vg         -0.972         
 ICCAP_VAR vb         1.2            
 ICCAP_VAR vs         -0             

 #vd                    id                    ig                    ib                    is                   
  -0                    3.1686e-09            -1.26e-12             -8e-14                -3.3228e-09          
  -0.05                 -3.043e-06            -1.12e-12             2e-14                 3.0432e-06           
  -0.1                  -5.6166e-06           -9e-13                6e-14                 5.6252e-06           
  -0.15                 -7.7518e-06           -9.2e-13              0                     7.7548e-06           
  -0.2                  -9.464e-06            -8.8e-13              -4e-14                9.4646e-06           
  -0.25                 -1.08266e-05          -8.8e-13              -4e-14                1.08326e-05          
  -0.3                  -1.1878e-05           -6e-13                1.4e-13               1.1904e-05           
  -0.35                 -1.2756e-05           -7.6e-13              8e-14                 1.2782e-05           
  -0.4                  -1.3468e-05           -7.8e-13              8e-14                 1.349e-05            
  -0.45                 -1.407e-05            -6e-13                0                     1.4098e-05           
  -0.5                  -1.4608e-05           -7e-13                0                     1.464e-05            
  -0.55                 -1.5058e-05           -6.6e-13              8e-14                 1.5076e-05           
  -0.6                  -1.5494e-05           -5.6e-13              2e-14                 1.5528e-05           
  -0.65                 -1.5922e-05           -5.4e-13              6e-14                 1.594e-05            
  -0.7                  -1.6294e-05           -6e-13                2e-14                 1.6326e-05           
  -0.75                 -1.6672e-05           -6e-13                6e-14                 1.6698e-05           
  -0.8                  -1.7042e-05           -5.6e-13              0                     1.706e-05            
  -0.85                 -1.74e-05             -6e-13                2e-14                 1.7414e-05           
  -0.9                  -1.7758e-05           -5.2e-13              8e-14                 1.7774e-05           
  -0.95                 -1.8104e-05           -4.8e-13              1.2e-13               1.8112e-05           
  -1                    -1.8428e-05           -5.4e-13              0                     1.846e-05            
  -1.05                 -1.878e-05            -5.8e-13              1.2e-13               1.8818e-05           
  -1.1                  -1.9094e-05           -5.4e-13              8e-14                 1.912e-05            
  -1.15                 -1.9446e-05           -5e-13                8e-14                 1.9464e-05           
  -1.2                  -1.9796e-05           -2.8e-13              1.8e-13               1.9796e-05           
  -1.25                 -2.012e-05            -4.8e-13              4.4e-13               2.0148e-05           
  -1.3                  -2.0484e-05           -5.6e-13              8.2e-13               2.049e-05            
  -1.35                 -2.0804e-05           -4.6e-13              1.6e-12               2.0836e-05           
END_DB

BEGIN_DB
 ICCAP_VAR vg         -1.161         
 ICCAP_VAR vb         1.2            
 ICCAP_VAR vs         -0             

 #vd                    id                    ig                    ib                    is                   
  -0                    3.451e-09             -2.46e-12             -4e-14                -4.0582e-09          
  -0.05                 -4.4672e-06           -2.18e-12             0                     4.4684e-06           
  -0.1                  -8.5074e-06           -2.12e-12             -6e-14                8.5102e-06           
  -0.15                 -1.2076e-05           -2.04e-12             0                     1.2102e-05           
  -0.2                  -1.5184e-05           -1.9e-12              8e-14                 1.5202e-05           
  -0.25                 -1.783e-05            -1.74e-12             1.2e-13               1.7864e-05           
  -0.3                  -2.0056e-05           -1.52e-12             1.4e-13               2.0096e-05           
  -0.35                 -2.1942e-05           -1.62e-12             1.2e-13               2.1956e-05           
  -0.4                  -2.3514e-05           -1.52e-12             4e-14                 2.347e-05            
  -0.45                 -2.4764e-05           -1.46e-12             8e-14                 2.4794e-05           
  -0.5                  -2.5888e-05           -1.32e-12             1e-13                 2.5952e-05           
  -0.55                 -2.6906e-05           -1.32e-12             -6e-14                2.6912e-05           
  -0.6                  -2.7706e-05           -1.38e-12             -2e-14                2.775e-05            
  -0.65                 -2.8484e-05           -1.48e-12             0                     2.8508e-05           
  -0.7                  -2.9192e-05           -1.4e-12              2e-14                 2.9196e-05           
  -0.75                 -2.9814e-05           -1.4e-12              0                     2.9826e-05           
  -0.8                  -3.0392e-05           -1.34e-12             8e-14                 3.0406e-05           
  -0.85                 -3.0956e-05           -1.18e-12             1e-13                 3.0964e-05           
  -0.9                  -3.147e-05            -1.28e-12             6e-14                 3.1504e-05           
  -0.95                 -3.2008e-05           -1.38e-12             1e-13                 3.2026e-05           
  -1                    -3.253e-05            -1.12e-12             1.6e-13               3.2544e-05           
  -1.05                 -3.3012e-05           -1.26e-12             4e-14                 3.302e-05            
  -1.1                  -3.3482e-05           -1.2e-12              4e-14                 3.3512e-05           
  -1.15                 -3.3912e-05           -1.16e-12             4e-14                 3.399e-05            
  -1.2                  -3.4442e-05           -1.2e-12              1.8e-13               3.4458e-05           
  -1.25                 -3.4914e-05           -1.28e-12             2.4e-13               3.4962e-05           
  -1.3                  -3.5412e-05           -1.28e-12             5.4e-13               3.5414e-05           
  -1.35                 -3.5872e-05           -1.14e-12             1.04e-12              3.5906e-05           
END_DB

BEGIN_DB
 ICCAP_VAR vg         -1.35          
 ICCAP_VAR vb         1.2            
 ICCAP_VAR vs         -0             

 #vd                    id                    ig                    ib                    is                   
  -0                    3.7726e-09            -5.3e-12              6e-14                 -4.9222e-09          
  -0.05                 -5.6422e-06           -4.94e-12             8e-14                 5.64e-06             
  -0.1                  -1.09066e-05          -4.9e-12              6e-14                 1.09152e-05          
  -0.15                 -1.574e-05            -4.56e-12             0                     1.5758e-05           
  -0.2                  -2.0122e-05           -4.3e-12              0                     2.0144e-05           
  -0.25                 -2.4006e-05           -3.98e-12             -2e-14                2.405e-05            
  -0.3                  -2.7476e-05           -3.88e-12             1e-13                 2.7456e-05           
  -0.35                 -3.046e-05            -3.82e-12             1.2e-13               3.0472e-05           
  -0.4                  -3.3088e-05           -3.72e-12             0                     3.3072e-05           
  -0.45                 -3.536e-05            -3.64e-12             1e-13                 3.534e-05            
  -0.5                  -3.7256e-05           -3.44e-12             1e-13                 3.7362e-05           
  -0.55                 -3.904e-05            -3.4e-12              -6e-14                3.9044e-05           
  -0.6                  -4.0468e-05           -3.42e-12             -4e-14                4.054e-05            
  -0.65                 -4.1848e-05           -3.2e-12              0                     4.1872e-05           
  -0.7                  -4.3006e-05           -3.18e-12             0                     4.303e-05            
  -0.75                 -4.3996e-05           -3.18e-12             8e-14                 4.4066e-05           
  -0.8                  -4.5032e-05           -3.24e-12             1.6e-13               4.4994e-05           
  -0.85                 -4.5904e-05           -3.1e-12              1e-13                 4.5912e-05           
  -0.9                  -4.6688e-05           -3.16e-12             2e-14                 4.6712e-05           
  -0.95                 -4.7472e-05           -3.16e-12             6e-14                 4.7474e-05           
  -1                    -4.8144e-05           -3.02e-12             1e-13                 4.8116e-05           
  -1.05                 -4.8852e-05           -3e-12                4e-14                 4.8862e-05           
  -1.1                  -4.9492e-05           -3.02e-12             6e-14                 4.9526e-05           
  -1.15                 -5.0148e-05           -3e-12                1.4e-13               5.018e-05            
  -1.2                  -5.067e-05            -3e-12                1.4e-13               5.073e-05            
  -1.25                 -5.1388e-05           -3e-12                3e-13                 5.1444e-05           
  -1.3                  -5.1982e-05           -3.02e-12             2.8e-13               5.2006e-05           
  -1.35                 -5.263e-05            -2.88e-12             6.8e-13               5.2652e-05           
END_DB

