! VERSION = 6.00
BEGIN_HEADER
 ICCAP_INPUTS
  vd         V  D GROUND SMU1 0.1 LIN        1    -0         -1.35      28   -0.05     
  vg         V  G GROUND SMU2 0.001 LIN        2    -0.506     -1.35      5    -0.211    
  vb         V  B GROUND SMU4 0.1 CON        -0
  vs         V  S GROUND SMU3 0.1 CON        -0
 ICCAP_OUTPUTS
  id         I  D GROUND SMU1 B
  ig         I  G GROUND SMU2 B
  ib         I  B GROUND SMU4 B
  is         I  S GROUND SMU3 B
 ICCAP_VALUES
  MASTER_SETUP_TYPE "~dc_idvd~"
  LINVT_VALUE "|idvg|100.0n|100.0m|1.000m|5|1.350|"
  LISTVT_VALUE ""
  TYPE "-1"
  TEMP " 27.0000 "
  IS_TNOM " 1.00000 "
  MAIN.W "300.0n"
  MAIN.L "150.0n"
  MAIN.AD "102.0f"
  MAIN.AS "102.0f"
  MAIN.PD "1.280u"
  MAIN.PS "1.280u"
  MAIN.NF "1.000"
  MAIN.M "1"
  MAIN.NRD "0.000"
  MAIN.NRS "0.000"
  MAIN.LDRIFT1 "1E-06"
  MAIN.LDRIFT2 "1E-06"
  MAIN.SA "0.000"
  MAIN.SB "0.000"
  MAIN.SD "0.000"
  MAIN.SCA "0.000"
  MAIN.SCB "0.000"
  MAIN.SCC "0.000"
  MAIN.SC "0.000"
  MODULE "S552"
  PIN_D "14"
  PIN_G "7"
  PIN_S "8"
  PIN_B "13"
  PIN_E ""
  PIN_6 ""
  XY_ID ""
  FUNC "LW Scale"
  STI "SA ref"
  WPE "WPE ref"
  COMMENT ""
  DIS_MEAS ""
  TypeTCI "10"
END_HEADER

BEGIN_DB
 ICCAP_VAR vg         -0.506         
 ICCAP_VAR vb         -0             
 ICCAP_VAR vs         -0             

 #vd                    id                    ig                    ib                    is                   
  -0                    1.1092e-09            -1.954e-11            -2.78e-12             -1.1744e-09          
  -0.05                 -6.723e-07            -1.948e-11            -2.76e-12             6.7276e-07           
  -0.1                  -9.9744e-07           -1.924e-11            -2.74e-12             9.9848e-07           
  -0.15                 -1.14782e-06          -1.924e-11            -2.72e-12             1.1485e-06           
  -0.2                  -1.2208e-06           -1.948e-11            -2.68e-12             1.2248e-06           
  -0.25                 -1.2728e-06           -1.906e-11            -2.7e-12              1.2766e-06           
  -0.3                  -1.3148e-06           -1.878e-11            -2.64e-12             1.3182e-06           
  -0.35                 -1.35e-06             -1.904e-11            -2.54e-12             1.3528e-06           
  -0.4                  -1.3822e-06           -1.924e-11            -2.54e-12             1.386e-06            
  -0.45                 -1.4112e-06           -1.912e-11            -2.6e-12              1.4164e-06           
  -0.5                  -1.4416e-06           -1.9e-11              -2.62e-12             1.4466e-06           
  -0.55                 -1.4718e-06           -1.912e-11            -2.42e-12             1.4756e-06           
  -0.6                  -1.4988e-06           -1.932e-11            -2.52e-12             1.5038e-06           
  -0.65                 -1.5264e-06           -1.886e-11            -2.52e-12             1.5302e-06           
  -0.7                  -1.5526e-06           -1.914e-11            -2.44e-12             1.5564e-06           
  -0.75                 -1.5776e-06           -1.918e-11            -2.42e-12             1.5826e-06           
  -0.8                  -1.6034e-06           -1.918e-11            -2.44e-12             1.606e-06            
  -0.85                 -1.6292e-06           -1.904e-11            -2.46e-12             1.6322e-06           
  -0.9                  -1.6542e-06           -1.908e-11            -2.44e-12             1.6578e-06           
  -0.95                 -1.6786e-06           -1.898e-11            -2.44e-12             1.6826e-06           
  -1                    -1.7028e-06           -1.902e-11            -2.4e-12              1.7068e-06           
  -1.05                 -1.7272e-06           -1.914e-11            -2.32e-12             1.7316e-06           
  -1.1                  -1.752e-06            -1.908e-11            -2.26e-12             1.7564e-06           
  -1.15                 -1.7754e-06           -1.894e-11            -2.32e-12             1.7806e-06           
  -1.2                  -1.7992e-06           -1.914e-11            -2.32e-12             1.8046e-06           
  -1.25                 -1.825e-06            -1.912e-11            -2e-12                1.8272e-06           
  -1.3                  -1.848e-06            -1.904e-11            -1.6e-12              1.8528e-06           
  -1.35                 -1.8732e-06           -1.884e-11            -9.6e-13              1.8778e-06           
END_DB

BEGIN_DB
 ICCAP_VAR vg         -0.717         
 ICCAP_VAR vb         -0             
 ICCAP_VAR vs         -0             

 #vd                    id                    ig                    ib                    is                   
  -0                    3.5188e-09            -4.342e-11            -1.98e-12             -3.3484e-09          
  -0.05                 -2.8442e-06           -4.336e-11            -1.98e-12             2.8496e-06           
  -0.1                  -5.0464e-06           -4.29e-11             -2.1e-12              5.0512e-06           
  -0.15                 -6.6526e-06           -4.288e-11            -2.02e-12             6.6576e-06           
  -0.2                  -7.7654e-06           -4.276e-11            -2.04e-12             7.7736e-06           
  -0.25                 -8.5192e-06           -4.28e-11             -2.04e-12             8.5214e-06           
  -0.3                  -9.0318e-06           -4.252e-11            -2.12e-12             9.0336e-06           
  -0.35                 -9.398e-06            -4.252e-11            -2.08e-12             9.3968e-06           
  -0.4                  -9.681e-06            -4.258e-11            -2.1e-12              9.681e-06            
  -0.45                 -9.9072e-06           -4.272e-11            -1.94e-12             9.9098e-06           
  -0.5                  -1.01086e-05          -4.254e-11            -1.92e-12             1.01038e-05          
  -0.55                 -1.02886e-05          -4.252e-11            -2e-12                1.02884e-05          
  -0.6                  -1.04534e-05          -4.248e-11            -1.94e-12             1.04548e-05          
  -0.65                 -1.06048e-05          -4.238e-11            -2.06e-12             1.06102e-05          
  -0.7                  -1.07598e-05          -4.24e-11             -1.9e-12              1.07584e-05          
  -0.75                 -1.08972e-05          -4.262e-11            -1.92e-12             1.0905e-05           
  -0.8                  -1.10324e-05          -4.246e-11            -1.88e-12             1.1029e-05           
  -0.85                 -1.1162e-05           -4.26e-11             -1.8e-12              1.11748e-05          
  -0.9                  -1.1292e-05           -4.26e-11             -1.94e-12             1.12998e-05          
  -0.95                 -1.142e-05            -4.226e-11            -1.92e-12             1.14332e-05          
  -1                    -1.1546e-05           -4.224e-11            -1.8e-12              1.1564e-05           
  -1.05                 -1.1662e-05           -4.254e-11            -1.82e-12             1.1668e-05           
  -1.1                  -1.1774e-05           -4.258e-11            -1.84e-12             1.1796e-05           
  -1.15                 -1.1886e-05           -4.224e-11            -1.9e-12              1.1916e-05           
  -1.2                  -1.2014e-05           -4.25e-11             -1.82e-12             1.203e-05            
  -1.25                 -1.2132e-05           -4.252e-11            -1.56e-12             1.2148e-05           
  -1.3                  -1.224e-05            -4.224e-11            -1.2e-12              1.2264e-05           
  -1.35                 -1.2362e-05           -4.218e-11            -5.8e-13              1.2376e-05           
END_DB

BEGIN_DB
 ICCAP_VAR vg         -0.928         
 ICCAP_VAR vb         -0             
 ICCAP_VAR vs         -0             

 #vd                    id                    ig                    ib                    is                   
  -0                    3.7098e-09            -1.029e-10            -1.68e-12             -5.0396e-09          
  -0.05                 -5.0194e-06           -1.0228e-10           -1.56e-12             5.0196e-06           
  -0.1                  -9.4232e-06           -1.015e-10            -1.78e-12             9.4302e-06           
  -0.15                 -1.3178e-05           -1.0082e-10           -1.62e-12             1.3192e-05           
  -0.2                  -1.63e-05             -1.0034e-10           -1.68e-12             1.6322e-05           
  -0.25                 -1.883e-05            -9.996e-11            -1.7e-12              1.8842e-05           
  -0.3                  -2.0824e-05           -9.962e-11            -1.58e-12             2.0832e-05           
  -0.35                 -2.233e-05            -9.954e-11            -1.6e-12              2.2366e-05           
  -0.4                  -2.3502e-05           -9.942e-11            -1.8e-12              2.353e-05            
  -0.45                 -2.4404e-05           -9.932e-11            -1.66e-12             2.4432e-05           
  -0.5                  -2.5116e-05           -9.924e-11            -1.64e-12             2.5132e-05           
  -0.55                 -2.5702e-05           -9.924e-11            -1.62e-12             2.5694e-05           
  -0.6                  -2.617e-05            -9.9e-11              -1.66e-12             2.6208e-05           
  -0.65                 -2.6606e-05           -9.886e-11            -1.68e-12             2.6614e-05           
  -0.7                  -2.699e-05            -9.918e-11            -1.7e-12              2.6996e-05           
  -0.75                 -2.7338e-05           -9.898e-11            -1.7e-12              2.7324e-05           
  -0.8                  -2.767e-05            -9.88e-11             -1.6e-12              2.767e-05            
  -0.85                 -2.7952e-05           -9.88e-11             -1.56e-12             2.7984e-05           
  -0.9                  -2.8238e-05           -9.884e-11            -1.56e-12             2.8276e-05           
  -0.95                 -2.8526e-05           -9.868e-11            -1.62e-12             2.853e-05            
  -1                    -2.8776e-05           -9.866e-11            -1.62e-12             2.8812e-05           
  -1.05                 -2.9068e-05           -9.868e-11            -1.58e-12             2.9078e-05           
  -1.1                  -2.9298e-05           -9.85e-11             -1.54e-12             2.9318e-05           
  -1.15                 -2.9566e-05           -9.85e-11             -1.42e-12             2.9566e-05           
  -1.2                  -2.9806e-05           -9.864e-11            -1.52e-12             2.9822e-05           
  -1.25                 -3.0048e-05           -9.864e-11            -1.42e-12             3.0042e-05           
  -1.3                  -3.024e-05            -9.848e-11            -1.2e-12              3.0254e-05           
  -1.35                 -3.0478e-05           -9.836e-11            -8.8e-13              3.0506e-05           
END_DB

BEGIN_DB
 ICCAP_VAR vg         -1.139         
 ICCAP_VAR vb         -0             
 ICCAP_VAR vs         -0             

 #vd                    id                    ig                    ib                    is                   
  -0                    1.1436e-08            -2.5876e-10           -1.32e-12             -1.0646e-08          
  -0.05                 -6.7982e-06           -2.5656e-10           -1.42e-12             6.8044e-06           
  -0.1                  -1.3068e-05           -2.5448e-10           -1.36e-12             1.3088e-05           
  -0.15                 -1.8758e-05           -2.529e-10            -1.42e-12             1.8772e-05           
  -0.2                  -2.3836e-05           -2.51e-10             -1.48e-12             2.3852e-05           
  -0.25                 -2.8286e-05           -2.4966e-10           -1.34e-12             2.8306e-05           
  -0.3                  -3.213e-05            -2.4874e-10           -1.34e-12             3.214e-05            
  -0.35                 -3.5384e-05           -2.4772e-10           -1.4e-12              3.5398e-05           
  -0.4                  -3.8074e-05           -2.4664e-10           -1.44e-12             3.8122e-05           
  -0.45                 -4.0338e-05           -2.4606e-10           -1.36e-12             4.036e-05            
  -0.5                  -4.2168e-05           -2.4554e-10           -1.48e-12             4.2166e-05           
  -0.55                 -4.3624e-05           -2.4524e-10           -1.5e-12              4.3584e-05           
  -0.6                  -4.4832e-05           -2.4498e-10           -1.48e-12             4.4864e-05           
  -0.65                 -4.586e-05            -2.4476e-10           -1.42e-12             4.59e-05             
  -0.7                  -4.672e-05            -2.444e-10            -1.4e-12              4.6728e-05           
  -0.75                 -4.7452e-05           -2.4394e-10           -1.48e-12             4.7482e-05           
  -0.8                  -4.8156e-05           -2.4398e-10           -1.4e-12              4.8168e-05           
  -0.85                 -4.8734e-05           -2.4388e-10           -1.36e-12             4.8756e-05           
  -0.9                  -4.9274e-05           -2.433e-10            -1.38e-12             4.9294e-05           
  -0.95                 -4.9776e-05           -2.4344e-10           -1.42e-12             4.9778e-05           
  -1                    -5.0224e-05           -2.4364e-10           -1.36e-12             5.0238e-05           
  -1.05                 -5.068e-05            -2.4334e-10           -1.38e-12             5.0688e-05           
  -1.1                  -5.1088e-05           -2.4314e-10           -1.38e-12             5.1106e-05           
  -1.15                 -5.1502e-05           -2.4324e-10           -1.26e-12             5.153e-05            
  -1.2                  -5.1916e-05           -2.431e-10            -1.3e-12              5.1922e-05           
  -1.25                 -5.228e-05            -2.4286e-10           -1.28e-12             5.2296e-05           
  -1.3                  -5.265e-05            -2.4294e-10           -1.28e-12             5.27e-05             
  -1.35                 -5.3018e-05           -2.4298e-10           -1.06e-12             5.3034e-05           
END_DB

BEGIN_DB
 ICCAP_VAR vg         -1.35          
 ICCAP_VAR vb         -0             
 ICCAP_VAR vs         -0             

 #vd                    id                    ig                    ib                    is                   
  -0                    1.3346e-08            -5.3922e-10           -1e-12                -1.229e-08           
  -0.05                 -8.1806e-06           -5.3538e-10           -1.1e-12              8.1858e-06           
  -0.1                  -1.5932e-05           -5.316e-10            -1.1e-12              1.5968e-05           
  -0.15                 -2.3194e-05           -5.2826e-10           -1.1e-12              2.325e-05            
  -0.2                  -2.9864e-05           -5.25e-10             -1.12e-12             2.994e-05            
  -0.25                 -3.6018e-05           -5.2214e-10           -1.02e-12             3.6068e-05           
  -0.3                  -4.1536e-05           -5.1964e-10           -1.18e-12             4.1596e-05           
  -0.35                 -4.6522e-05           -5.176e-10            -1.08e-12             4.6546e-05           
  -0.4                  -5.0808e-05           -5.1544e-10           -1.12e-12             5.0874e-05           
  -0.45                 -5.4686e-05           -5.135e-10            -1.1e-12              5.4708e-05           
  -0.5                  -5.7904e-05           -5.1216e-10           -1.12e-12             5.7894e-05           
  -0.55                 -6.077e-05            -5.112e-10            -1.1e-12              6.0756e-05           
  -0.6                  -6.3064e-05           -5.099e-10            -9.4e-13              6.3196e-05           
  -0.65                 -6.515e-05            -5.0912e-10           -1.12e-12             6.5134e-05           
  -0.7                  -6.6882e-05           -5.084e-10            -1.12e-12             6.6928e-05           
  -0.75                 -6.8408e-05           -5.0768e-10           -1.2e-12              6.847e-05            
  -0.8                  -6.9712e-05           -5.0698e-10           -1.16e-12             6.969e-05            
  -0.85                 -7.0838e-05           -5.0688e-10           -1.16e-12             7.0716e-05           
  -0.9                  -7.18e-05             -5.0654e-10           -9.6e-13              7.1808e-05           
  -0.95                 -7.2622e-05           -5.0616e-10           -1.02e-12             7.257e-05            
  -1                    -7.344e-05            -5.059e-10            -1.08e-12             7.3528e-05           
  -1.05                 -7.4188e-05           -5.0542e-10           -1.02e-12             7.4166e-05           
  -1.1                  -7.4794e-05           -5.0526e-10           -1.04e-12             7.4852e-05           
  -1.15                 -7.5468e-05           -5.0494e-10           -1.18e-12             7.5364e-05           
  -1.2                  -7.5598e-05           -5.0474e-10           -9.6e-13              7.5626e-05           
  -1.25                 -7.6308e-05           -5.0486e-10           -1.02e-12             7.6278e-05           
  -1.3                  -7.6886e-05           -5.045e-10            -1.04e-12             7.6908e-05           
  -1.35                 -7.737e-05            -5.0438e-10           -1.04e-12             7.744e-05            
END_DB

