! VERSION = 6.00
BEGIN_HEADER
 ICCAP_INPUTS
  vd         V  D GROUND SMU1 0.1 LIN        1    -0         -1.35      28   -0.05     
  vg         V  G GROUND SMU2 0.001 LIN        2    -0.666     -1.35      5    -0.171    
  vb         V  B GROUND SMU4 0.1 CON        1.2
  vs         V  S GROUND SMU3 0.1 CON        -0
 ICCAP_OUTPUTS
  id         I  D GROUND SMU1 B
  ig         I  G GROUND SMU2 B
  ib         I  B GROUND SMU4 B
  is         I  S GROUND SMU3 B
 ICCAP_VALUES
  MASTER_SETUP_TYPE "~dc_idvd~"
  LINVT_VALUE "|idvg|100.0n|100.0m|1.000m|5|1.350|"
  LISTVT_VALUE ""
  TYPE "-1"
  TEMP "-40.0000 "
  IS_TNOM " 0.00000 "
  MAIN.W "10.00u"
  MAIN.L "10.00u"
  MAIN.AD "3.400p"
  MAIN.AS "3.400p"
  MAIN.PD "20.68u"
  MAIN.PS "20.68u"
  MAIN.NF "1.000"
  MAIN.M "1"
  MAIN.NRD "0.000"
  MAIN.NRS "0.000"
  MAIN.LDRIFT1 "1E-06"
  MAIN.LDRIFT2 "1E-06"
  MAIN.SA "0.000"
  MAIN.SB "0.000"
  MAIN.SD "0.000"
  MAIN.SCA "0.000"
  MAIN.SCB "0.000"
  MAIN.SCC "0.000"
  MAIN.SC "0.000"
  MODULE "S549"
  PIN_D "12"
  PIN_G "9"
  PIN_S "10"
  PIN_B "11"
  PIN_E ""
  PIN_6 ""
  XY_ID ""
  FUNC "Large"
  STI "SA ref"
  WPE "WPE ref"
  COMMENT ""
  DIS_MEAS ""
  TypeTCI "10"
END_HEADER

BEGIN_DB
 ICCAP_VAR vg         -0.666         
 ICCAP_VAR vb         1.2            
 ICCAP_VAR vs         -0             

 #vd                    id                    ig                    ib                    is                   
  -0                    9.496e-10             -3.3452e-10           2.2e-13               -7.1802e-10          
  -0.05                 -4.2882e-07           -2.6492e-10           2.2e-13               4.2934e-07           
  -0.1                  -6.3828e-07           -2.256e-10            1.8e-13               6.3876e-07           
  -0.15                 -7.0558e-07           -2.1066e-10           1e-13                 7.0604e-07           
  -0.2                  -7.196e-07            -2.07e-10             2.6e-13               7.2004e-07           
  -0.25                 -7.2342e-07           -2.057e-10            2.8e-13               7.2388e-07           
  -0.3                  -7.2558e-07           -2.0506e-10           2.4e-13               7.2608e-07           
  -0.35                 -7.2724e-07           -2.046e-10            2e-13                 7.2766e-07           
  -0.4                  -7.2858e-07           -2.0406e-10           1.4e-13               7.2906e-07           
  -0.45                 -7.2984e-07           -2.038e-10            1.6e-13               7.3028e-07           
  -0.5                  -7.3092e-07           -2.0334e-10           6e-14                 7.3136e-07           
  -0.55                 -7.3186e-07           -2.0316e-10           1.8e-13               7.3228e-07           
  -0.6                  -7.3266e-07           -2.0292e-10           1.8e-13               7.3314e-07           
  -0.65                 -7.334e-07            -2.0278e-10           1.8e-13               7.339e-07            
  -0.7                  -7.3412e-07           -2.025e-10            1.2e-13               7.3458e-07           
  -0.75                 -7.3474e-07           -2.0224e-10           1e-13                 7.3518e-07           
  -0.8                  -7.3534e-07           -2.022e-10            1.6e-13               7.3574e-07           
  -0.85                 -7.3582e-07           -2.0198e-10           1.6e-13               7.3622e-07           
  -0.9                  -7.3634e-07           -2.0182e-10           8e-14                 7.3674e-07           
  -0.95                 -7.3668e-07           -2.0156e-10           1.2e-13               7.3712e-07           
  -1                    -7.3714e-07           -2.014e-10            8e-14                 7.3754e-07           
  -1.05                 -7.375e-07            -2.011e-10            1.6e-13               7.3796e-07           
  -1.1                  -7.3782e-07           -2.0068e-10           2e-13                 7.383e-07            
  -1.15                 -7.3816e-07           -2.0038e-10           8e-14                 7.3866e-07           
  -1.2                  -7.385e-07            -1.9996e-10           1.2e-13               7.3894e-07           
  -1.25                 -7.3878e-07           -1.9934e-10           1.2e-13               7.392e-07            
  -1.3                  -7.3904e-07           -1.9884e-10           2e-13                 7.3952e-07           
  -1.35                 -7.393e-07            -1.9824e-10           1.4e-13               7.3972e-07           
END_DB

BEGIN_DB
 ICCAP_VAR vg         -0.837         
 ICCAP_VAR vb         1.2            
 ICCAP_VAR vs         -0             

 #vd                    id                    ig                    ib                    is                   
  -0                    2.5496e-09            -1.2316e-09           2e-14                 -1.3592e-09          
  -0.05                 -1.2364e-06           -1.0546e-09           -4e-14                1.241e-06            
  -0.1                  -2.199e-06            -9.1708e-10           0                     2.2036e-06           
  -0.15                 -2.8862e-06           -8.1538e-10           0                     2.8908e-06           
  -0.2                  -3.3134e-06           -7.4966e-10           2e-14                 3.3178e-06           
  -0.25                 -3.5214e-06           -7.157e-10            -4e-14                3.526e-06            
  -0.3                  -3.5928e-06           -7.0332e-10           0                     3.5972e-06           
  -0.35                 -3.6142e-06           -6.9898e-10           0                     3.6188e-06           
  -0.4                  -3.6244e-06           -6.9706e-10           4e-14                 3.629e-06            
  -0.45                 -3.6318e-06           -6.9576e-10           2e-14                 3.6362e-06           
  -0.5                  -3.6374e-06           -6.9462e-10           1.2e-13               3.6418e-06           
  -0.55                 -3.6424e-06           -6.9362e-10           0                     3.647e-06            
  -0.6                  -3.647e-06            -6.928e-10            4e-14                 3.651e-06            
  -0.65                 -3.6506e-06           -6.9218e-10           2e-14                 3.6548e-06           
  -0.7                  -3.654e-06            -6.9138e-10           8e-14                 3.6582e-06           
  -0.75                 -3.6568e-06           -6.9072e-10           2e-14                 3.6612e-06           
  -0.8                  -3.6598e-06           -6.9048e-10           2e-14                 3.664e-06            
  -0.85                 -3.6624e-06           -6.8984e-10           -6e-14                3.6666e-06           
  -0.9                  -3.6646e-06           -6.8964e-10           2e-14                 3.6688e-06           
  -0.95                 -3.667e-06            -6.8884e-10           2e-14                 3.6712e-06           
  -1                    -3.6688e-06           -6.8854e-10           0                     3.6732e-06           
  -1.05                 -3.6708e-06           -6.8816e-10           8e-14                 3.675e-06            
  -1.1                  -3.6724e-06           -6.8794e-10           8e-14                 3.6768e-06           
  -1.15                 -3.6742e-06           -6.8706e-10           2e-14                 3.6786e-06           
  -1.2                  -3.6758e-06           -6.8692e-10           2e-14                 3.68e-06             
  -1.25                 -3.677e-06            -6.8652e-10           -4e-14                3.6814e-06           
  -1.3                  -3.6784e-06           -6.8604e-10           8e-14                 3.6826e-06           
  -1.35                 -3.6796e-06           -6.854e-10            6e-14                 3.6838e-06           
END_DB

BEGIN_DB
 ICCAP_VAR vg         -1.008         
 ICCAP_VAR vb         1.2            
 ICCAP_VAR vs         -0             

 #vd                    id                    ig                    ib                    is                   
  -0                    4.0582e-09            -3.0826e-09           6e-14                 -1.2882e-09          
  -0.05                 -1.9972e-06           -2.7386e-09           -6e-14                2.0036e-06           
  -0.1                  -3.7494e-06           -2.4466e-09           1e-13                 3.7556e-06           
  -0.15                 -5.242e-06            -2.203e-09            0                     5.248e-06            
  -0.2                  -6.4666e-06           -2.0072e-09           4e-14                 6.4726e-06           
  -0.25                 -7.42e-06             -1.8554e-09           -2e-14                7.4258e-06           
  -0.3                  -8.1022e-06           -1.7456e-09           2e-14                 8.1078e-06           
  -0.35                 -8.528e-06            -1.6762e-09           2e-14                 8.5334e-06           
  -0.4                  -8.7402e-06           -1.6398e-09           -4e-14                8.7456e-06           
  -0.45                 -8.8218e-06           -1.6264e-09           0                     8.8268e-06           
  -0.5                  -8.8528e-06           -1.6202e-09           1e-13                 8.8582e-06           
  -0.55                 -8.8704e-06           -1.617e-09            8e-14                 8.8754e-06           
  -0.6                  -8.8832e-06           -1.6152e-09           -2e-14                8.8882e-06           
  -0.65                 -8.8936e-06           -1.6124e-09           6e-14                 8.8988e-06           
  -0.7                  -8.9026e-06           -1.611e-09            4e-14                 8.9082e-06           
  -0.75                 -8.9108e-06           -1.6098e-09           8e-14                 8.916e-06            
  -0.8                  -8.9178e-06           -1.6078e-09           0                     8.923e-06            
  -0.85                 -8.9244e-06           -1.607e-09            0                     8.9298e-06           
  -0.9                  -8.9304e-06           -1.6052e-09           1e-13                 8.9356e-06           
  -0.95                 -8.936e-06            -1.6048e-09           -2e-14                8.9412e-06           
  -1                    -8.9408e-06           -1.6038e-09           8e-14                 8.9458e-06           
  -1.05                 -8.9454e-06           -1.6032e-09           0                     8.9506e-06           
  -1.1                  -8.95e-06             -1.6024e-09           0                     8.9552e-06           
  -1.15                 -8.954e-06            -1.6018e-09           2e-14                 8.9592e-06           
  -1.2                  -8.958e-06            -1.6006e-09           -2e-14                8.9634e-06           
  -1.25                 -8.9618e-06           -1.5996e-09           4e-14                 8.9668e-06           
  -1.3                  -8.965e-06            -1.5996e-09           4e-14                 8.97e-06             
  -1.35                 -8.9684e-06           -1.5988e-09           4e-14                 8.9734e-06           
END_DB

BEGIN_DB
 ICCAP_VAR vg         -1.179         
 ICCAP_VAR vb         1.2            
 ICCAP_VAR vs         -0             

 #vd                    id                    ig                    ib                    is                   
  -0                    5.6716e-09            -6.339e-09            2.48e-12              -8.612e-10           
  -0.05                 -2.6356e-06           -5.7604e-09           1.52e-12              2.6448e-06           
  -0.1                  -5.0648e-06           -5.2438e-09           1.06e-12              5.0738e-06           
  -0.15                 -7.27e-06             -4.7972e-09           7.6e-13               7.2786e-06           
  -0.2                  -9.2406e-06           -4.4124e-09           5.4e-13               9.2486e-06           
  -0.25                 -1.09674e-05          -4.0778e-09           4.6e-13               1.09754e-05          
  -0.3                  -1.2434e-05           -3.8028e-09           4.2e-13               1.2456e-05           
  -0.35                 -1.3644e-05           -3.5794e-09           4e-13                 1.3666e-05           
  -0.4                  -1.4592e-05           -3.4058e-09           3.6e-13               1.4612e-05           
  -0.45                 -1.5274e-05           -3.2822e-09           3.8e-13               1.5294e-05           
  -0.5                  -1.5704e-05           -3.2018e-09           4.2e-13               1.5724e-05           
  -0.55                 -1.5926e-05           -3.1626e-09           3.4e-13               1.5948e-05           
  -0.6                  -1.6022e-05           -3.1444e-09           3.8e-13               1.6042e-05           
  -0.65                 -1.6066e-05           -3.1356e-09           3.4e-13               1.6086e-05           
  -0.7                  -1.609e-05            -3.1318e-09           4e-13                 1.611e-05            
  -0.75                 -1.6108e-05           -3.1264e-09           3.4e-13               1.613e-05            
  -0.8                  -1.6124e-05           -3.123e-09            3.6e-13               1.6146e-05           
  -0.85                 -1.6138e-05           -3.1198e-09           3.8e-13               1.6158e-05           
  -0.9                  -1.615e-05            -3.1182e-09           4.2e-13               1.617e-05            
  -0.95                 -1.616e-05            -3.118e-09            4e-13                 1.6182e-05           
  -1                    -1.617e-05            -3.1146e-09           2.6e-13               1.6192e-05           
  -1.05                 -1.618e-05            -3.112e-09            3.4e-13               1.62e-05             
  -1.1                  -1.6188e-05           -3.1096e-09           3.4e-13               1.6208e-05           
  -1.15                 -1.6196e-05           -3.109e-09            4.2e-13               1.6216e-05           
  -1.2                  -1.6204e-05           -3.1082e-09           4.2e-13               1.6224e-05           
  -1.25                 -1.621e-05            -3.1074e-09           3.2e-13               1.623e-05            
  -1.3                  -1.6216e-05           -3.1056e-09           3.4e-13               1.6236e-05           
  -1.35                 -1.6222e-05           -3.105e-09            4.4e-13               1.6242e-05           
END_DB

BEGIN_DB
 ICCAP_VAR vg         -1.35          
 ICCAP_VAR vb         1.2            
 ICCAP_VAR vs         -0             

 #vd                    id                    ig                    ib                    is                   
  -0                    1.106e-08             -1.1514e-08           5.486e-11             4.413e-10            
  -0.05                 -3.1556e-06           -1.0618e-08           3.876e-11             3.1694e-06           
  -0.1                  -6.1412e-06           -9.815e-09            2.832e-11             6.1548e-06           
  -0.15                 -8.9368e-06           -9.0922e-09           2.172e-11             8.9498e-06           
  -0.2                  -1.1526e-05           -8.4384e-09           1.744e-11             1.1552e-05           
  -0.25                 -1.3914e-05           -7.8604e-09           1.466e-11             1.394e-05            
  -0.3                  -1.6084e-05           -7.3566e-09           1.27e-11              1.611e-05            
  -0.35                 -1.8024e-05           -6.912e-09            1.14e-11              1.8048e-05           
  -0.4                  -1.9728e-05           -6.5332e-09           1.052e-11             1.9754e-05           
  -0.45                 -2.1186e-05           -6.216e-09            9.84e-12              2.121e-05            
  -0.5                  -2.2388e-05           -5.9618e-09           9.24e-12              2.2412e-05           
  -0.55                 -2.3332e-05           -5.758e-09            8.88e-12              2.3356e-05           
  -0.6                  -2.4018e-05           -5.6152e-09           8.72e-12              2.4042e-05           
  -0.65                 -2.4458e-05           -5.5222e-09           8.62e-12              2.4482e-05           
  -0.7                  -2.4696e-05           -5.4702e-09           8.44e-12              2.472e-05            
  -0.75                 -2.481e-05            -5.4412e-09           8.5e-12               2.4832e-05           
  -0.8                  -2.4862e-05           -5.4382e-09           8.38e-12              2.4886e-05           
  -0.85                 -2.4896e-05           -5.4284e-09           8.38e-12              2.492e-05            
  -0.9                  -2.4922e-05           -5.4252e-09           8.36e-12              2.4944e-05           
  -0.95                 -2.4942e-05           -5.4198e-09           8.48e-12              2.4964e-05           
  -1                    -2.496e-05            -5.4148e-09           8.4e-12               2.4982e-05           
  -1.05                 -2.4976e-05           -5.4126e-09           8.42e-12              2.4998e-05           
  -1.1                  -2.499e-05            -5.407e-09            8.36e-12              2.5012e-05           
  -1.15                 -2.5004e-05           -5.4048e-09           8.34e-12              2.5026e-05           
  -1.2                  -2.5016e-05           -5.4074e-09           8.38e-12              2.5038e-05           
  -1.25                 -2.5028e-05           -5.401e-09            8.34e-12              2.505e-05            
  -1.3                  -2.5038e-05           -5.4044e-09           8.38e-12              2.506e-05            
  -1.35                 -2.5048e-05           -5.3974e-09           8.36e-12              2.507e-05            
END_DB

