! VERSION = 6.00
BEGIN_HEADER
 ICCAP_INPUTS
  vd         V  D GROUND SMU1 0.1 LIN        1    -0         -1.35      28   -0.05     
  vg         V  G GROUND SMU2 0.001 LIST       2 3 -0.238 -0.438 -0.638
  vb         V  B GROUND SMU4 0.1 CON        -0
  vs         V  S GROUND SMU3 0.1 CON        -0
 ICCAP_OUTPUTS
  id         I  D GROUND SMU1 B
  ig         I  G GROUND SMU2 B
  ib         I  B GROUND SMU4 B
  is         I  S GROUND SMU3 B
 ICCAP_VALUES
  MASTER_SETUP_TYPE "~dc_idvd~"
  LINVT_VALUE ""
  LISTVT_VALUE "|idvg|100.0n|-200.0m|1.000m|3|200.0m|200.0m|"
  TYPE "-1"
  TEMP "-40.0000 "
  IS_TNOM " 0.00000 "
  MAIN.W "300.0n"
  MAIN.L "130.0n"
  MAIN.AD "102.0f"
  MAIN.AS "102.0f"
  MAIN.PD "1.280u"
  MAIN.PS "1.280u"
  MAIN.NF "1.000"
  MAIN.M "1"
  MAIN.NRD "0.000"
  MAIN.NRS "0.000"
  MAIN.LDRIFT1 "1E-06"
  MAIN.LDRIFT2 "1E-06"
  MAIN.SA "0.000"
  MAIN.SB "0.000"
  MAIN.SD "0.000"
  MAIN.SCA "0.000"
  MAIN.SCB "0.000"
  MAIN.SCC "0.000"
  MAIN.SC "0.000"
  MODULE "S552"
  PIN_D "18"
  PIN_G "3"
  PIN_S "4"
  PIN_B "17"
  PIN_E ""
  PIN_6 ""
  XY_ID ""
  FUNC "LW Scale"
  STI "SA ref"
  WPE "WPE ref"
  COMMENT ""
  DIS_MEAS ""
  TypeTCI "10"
END_HEADER

BEGIN_DB
 ICCAP_VAR vg         -0.238         
 ICCAP_VAR vb         -0             
 ICCAP_VAR vs         -0             

 #vd                    id                    ig                    ib                    is                   
  -0                    8e-14                 6e-14                 -6e-14                -4e-14               
  -0.05                 -1.3028e-10           8e-14                 -1.2e-13              1.3036e-10           
  -0.1                  -1.5322e-10           2.2e-13               8e-14                 1.5334e-10           
  -0.15                 -1.6588e-10           1.2e-13               -3e-13                1.6636e-10           
  -0.2                  -1.785e-10            4e-14                 -2e-14                1.7874e-10           
  -0.25                 -1.908e-10            1.8e-13               -6e-14                1.9052e-10           
  -0.3                  -2.03e-10             8e-14                 -8e-14                2.0288e-10           
  -0.35                 -2.1564e-10           0                     4e-14                 2.153e-10            
  -0.4                  -2.2828e-10           1e-13                 -2.4e-13              2.2802e-10           
  -0.45                 -2.412e-10            1.6e-13               -8e-14                2.4062e-10           
  -0.5                  -2.5426e-10           2e-13                 -1.4e-13              2.535e-10            
  -0.55                 -2.6822e-10           1.2e-13               -6e-14                2.6796e-10           
  -0.6                  -2.8198e-10           2.6e-13               -2e-14                2.8156e-10           
  -0.65                 -2.9656e-10           1.8e-13               -4e-14                2.9594e-10           
  -0.7                  -3.1124e-10           1e-13                 0                     3.1068e-10           
  -0.75                 -3.2618e-10           8e-14                 -4e-14                3.2596e-10           
  -0.8                  -3.4142e-10           2e-14                 2e-14                 3.4086e-10           
  -0.85                 -3.5756e-10           1.4e-13               -2e-13                3.5724e-10           
  -0.9                  -3.7404e-10           1e-13                 -2e-14                3.734e-10            
  -0.95                 -3.91e-10             1.2e-13               0                     3.9014e-10           
  -1                    -4.0834e-10           2e-14                 -1.2e-13              4.0754e-10           
  -1.05                 -4.2588e-10           1e-13                 -6e-14                4.2374e-10           
  -1.1                  -4.42e-10             1e-13                 -1e-13                4.415e-10            
  -1.15                 -4.605e-10            2e-13                 -1e-13                4.5938e-10           
  -1.2                  -4.787e-10            1.8e-13               -1e-13                4.7818e-10           
  -1.25                 -4.9776e-10           1.6e-13               -1.6e-13              4.9676e-10           
  -1.3                  -5.0638e-10           2.4e-13               -6e-14                5.06e-10             
  -1.35                 -5.276e-10            1.8e-13               -1.6e-13              5.267e-10            
END_DB

BEGIN_DB
 ICCAP_VAR vg         -0.438         
 ICCAP_VAR vb         -0             
 ICCAP_VAR vs         -0             

 #vd                    id                    ig                    ib                    is                   
  -0                    2.5708e-10            -1.2e-13              -1.2e-13              -2.5682e-10          
  -0.05                 -1.279e-07            -1e-13                -8e-14                1.2814e-07           
  -0.1                  -1.657e-07            -6e-14                -1e-13                1.6588e-07           
  -0.15                 -1.8416e-07           -8e-14                -1.6e-13              1.8474e-07           
  -0.2                  -1.975e-07            -8e-14                -1e-13                1.9786e-07           
  -0.25                 -2.0894e-07           2e-14                 2e-14                 2.092e-07            
  -0.3                  -2.192e-07            -4e-14                -6e-14                2.1924e-07           
  -0.35                 -2.2922e-07           -4e-14                -8e-14                2.2926e-07           
  -0.4                  -2.3838e-07           2e-14                 -2e-14                2.3838e-07           
  -0.45                 -2.4772e-07           -8e-14                4e-14                 2.4794e-07           
  -0.5                  -2.5666e-07           -2e-14                2e-14                 2.5702e-07           
  -0.55                 -2.66e-07             8e-14                 -6e-14                2.6626e-07           
  -0.6                  -2.7502e-07           0                     -1.2e-13              2.7528e-07           
  -0.65                 -2.8398e-07           4e-14                 0                     2.8424e-07           
  -0.7                  -2.929e-07            0                     8e-14                 2.9294e-07           
  -0.75                 -3.0196e-07           -8e-14                -1e-13                3.0224e-07           
  -0.8                  -3.1116e-07           -4e-14                -1e-13                3.1126e-07           
  -0.85                 -3.2034e-07           6e-14                 -8e-14                3.2048e-07           
  -0.9                  -3.2968e-07           -6e-14                -1.2e-13              3.2984e-07           
  -0.95                 -3.3914e-07           -6e-14                -8e-14                3.392e-07            
  -1                    -3.487e-07            -2e-14                -1.8e-13              3.487e-07            
  -1.05                 -3.5818e-07           -6e-14                -6e-14                3.581e-07            
  -1.1                  -3.6806e-07           0                     -2e-14                3.6818e-07           
  -1.15                 -3.7784e-07           1.4e-13               2e-14                 3.7808e-07           
  -1.2                  -3.88e-07             4e-14                 8e-14                 3.881e-07            
  -1.25                 -3.9814e-07           6e-14                 1e-13                 3.9852e-07           
  -1.3                  -4.088e-07            1.2e-13               2e-13                 4.0844e-07           
  -1.35                 -4.188e-07            1e-13                 2e-13                 4.1916e-07           
END_DB

BEGIN_DB
 ICCAP_VAR vg         -0.638         
 ICCAP_VAR vb         -0             
 ICCAP_VAR vs         -0             

 #vd                    id                    ig                    ib                    is                   
  -0                    1.9746e-09            -3e-13                0                     -1.9088e-09          
  -0.05                 -2.187e-06            -3.8e-13              -8e-14                2.1906e-06           
  -0.1                  -3.5662e-06           -2.2e-13              -2.4e-13              3.57e-06             
  -0.15                 -4.3818e-06           -2e-13                4e-14                 4.3848e-06           
  -0.2                  -4.8806e-06           -1.6e-13              -4e-14                4.885e-06            
  -0.25                 -5.2238e-06           -1.4e-13              -8e-14                5.2276e-06           
  -0.3                  -5.489e-06            -6e-14                1e-13                 5.494e-06            
  -0.35                 -5.7082e-06           -1.8e-13              0                     5.7108e-06           
  -0.4                  -5.901e-06            -1.2e-13              -1.2e-13              5.903e-06            
  -0.45                 -6.0738e-06           -3.4e-13              -8e-14                6.0782e-06           
  -0.5                  -6.2338e-06           -1.4e-13              -1.6e-13              6.2398e-06           
  -0.55                 -6.3846e-06           -1.4e-13              -2.6e-13              6.3898e-06           
  -0.6                  -6.5244e-06           -1.8e-13              -1.8e-13              6.5304e-06           
  -0.65                 -6.663e-06            -2.2e-13              -1.8e-13              6.6636e-06           
  -0.7                  -6.7914e-06           -2e-13                -1.2e-13              6.7966e-06           
  -0.75                 -6.9188e-06           -1.6e-13              -4e-14                6.922e-06            
  -0.8                  -7.0416e-06           -4e-14                4e-14                 7.0468e-06           
  -0.85                 -7.1632e-06           -2e-13                -4e-14                7.1672e-06           
  -0.9                  -7.2838e-06           -1.8e-13              -4e-14                7.2868e-06           
  -0.95                 -7.401e-06            -1.4e-13              0                     7.403e-06            
  -1                    -7.5162e-06           0                     0                     7.52e-06             
  -1.05                 -7.6314e-06           -2e-13                0                     7.635e-06            
  -1.1                  -7.7458e-06           -2.4e-13              -2e-13                7.7484e-06           
  -1.15                 -7.8574e-06           -1e-13                -1e-13                7.8606e-06           
  -1.2                  -7.9698e-06           -1.8e-13              -8e-14                7.9726e-06           
  -1.25                 -8.0774e-06           2e-14                 1.8e-13               8.082e-06            
  -1.3                  -8.1872e-06           0                     3.8e-13               8.1912e-06           
  -1.35                 -8.2972e-06           -1.4e-13              1.04e-12              8.302e-06            
END_DB

