! VERSION = 6.00
BEGIN_HEADER
 ICCAP_INPUTS
  vd         V  D GROUND SMU1 0.1 LIN        1    -0         -1.35      28   -0.05     
  vg         V  G GROUND SMU2 0.001 LIST       2 3 -0.103 -0.303 -0.503
  vb         V  B GROUND SMU4 0.1 CON        -0
  vs         V  S GROUND SMU3 0.1 CON        -0
 ICCAP_OUTPUTS
  id         I  D GROUND SMU1 B
  ig         I  G GROUND SMU2 B
  ib         I  B GROUND SMU4 B
  is         I  S GROUND SMU3 B
 ICCAP_VALUES
  MASTER_SETUP_TYPE "~dc_idvd~"
  LINVT_VALUE ""
  LISTVT_VALUE "|idvg|100.0n|-200.0m|1.000m|3|200.0m|200.0m|"
  TYPE "-1"
  TEMP " 27.0000 "
  IS_TNOM " 1.00000 "
  MAIN.W "150.0n"
  MAIN.L "10.00u"
  MAIN.AD "100.5f"
  MAIN.AS "100.5f"
  MAIN.PD "1.340u"
  MAIN.PS "1.340u"
  MAIN.NF "1.000"
  MAIN.M "1"
  MAIN.NRD "0.000"
  MAIN.NRS "0.000"
  MAIN.LDRIFT1 "1E-06"
  MAIN.LDRIFT2 "1E-06"
  MAIN.SA "0.000"
  MAIN.SB "0.000"
  MAIN.SD "0.000"
  MAIN.SCA "0.000"
  MAIN.SCB "0.000"
  MAIN.SCC "0.000"
  MAIN.SC "0.000"
  MODULE "S555"
  PIN_D "16"
  PIN_G "5"
  PIN_S "6"
  PIN_B "15"
  PIN_E ""
  PIN_6 ""
  XY_ID ""
  FUNC "Narrow"
  STI "SA ref"
  WPE "WPE ref"
  COMMENT ""
  DIS_MEAS ""
  TypeTCI "10"
END_HEADER

BEGIN_DB
 ICCAP_VAR vg         -0.103         
 ICCAP_VAR vb         -0             
 ICCAP_VAR vs         -0             

 #vd                    id                    ig                    ib                    is                   
  -0                    1.6e-13               2.8e-13               -1.18e-12             2e-14                
  -0.05                 -3.32e-12             1e-13                 -1.22e-12             3.34e-12             
  -0.1                  -3.76e-12             1.6e-13               -1.08e-12             3.8e-12              
  -0.15                 -3.92e-12             1.2e-13               -1.1e-12              3.92e-12             
  -0.2                  -4.16e-12             2.6e-13               -1.08e-12             3.88e-12             
  -0.25                 -4.02e-12             2.2e-13               -1.2e-12              3.92e-12             
  -0.3                  -4.16e-12             2e-13                 -1.08e-12             3.88e-12             
  -0.35                 -4.18e-12             1.4e-13               -1.16e-12             3.86e-12             
  -0.4                  -4.2e-12              2.2e-13               -1.04e-12             4.02e-12             
  -0.45                 -4.28e-12             1.2e-13               -1.08e-12             3.78e-12             
  -0.5                  -4.22e-12             1.4e-13               -1.04e-12             3.92e-12             
  -0.55                 -4.36e-12             2.2e-13               -1.06e-12             3.82e-12             
  -0.6                  -4.34e-12             1.6e-13               -1.1e-12              3.94e-12             
  -0.65                 -4.32e-12             1.6e-13               -1.02e-12             3.92e-12             
  -0.7                  -4.36e-12             1e-13                 -1.14e-12             3.98e-12             
  -0.75                 -4.36e-12             2.2e-13               -1.08e-12             3.96e-12             
  -0.8                  -4.5e-12              1.2e-13               -1.08e-12             4.1e-12              
  -0.85                 -4.42e-12             1e-13                 -1e-12                3.94e-12             
  -0.9                  -4.5e-12              1.6e-13               -1.08e-12             4.14e-12             
  -0.95                 -4.58e-12             2.2e-13               -1.02e-12             3.92e-12             
  -1                    -4.6e-12              1.8e-13               -1.04e-12             4.04e-12             
  -1.05                 -4.64e-12             3.6e-13               -1.1e-12              4.02e-12             
  -1.1                  -4.7e-12              2.2e-13               -1.08e-12             3.94e-12             
  -1.15                 -4.7e-12              3.4e-13               -9.4e-13              4.14e-12             
  -1.2                  -4.76e-12             3.2e-13               -1.1e-12              3.92e-12             
  -1.25                 -4.9e-12              3.8e-13               -9e-13                3.88e-12             
  -1.3                  -4.8e-12              3.2e-13               -9.6e-13              4.02e-12             
  -1.35                 -4.74e-12             2.6e-13               -1.02e-12             4.08e-12             
END_DB

BEGIN_DB
 ICCAP_VAR vg         -0.303         
 ICCAP_VAR vb         -0             
 ICCAP_VAR vs         -0             

 #vd                    id                    ig                    ib                    is                   
  -0                    4e-12                 -1.6e-13              -1.12e-12             -2.72e-12            
  -0.05                 -1.241e-09            -1.8e-13              -1.02e-12             1.2426e-09           
  -0.1                  -1.515e-09            -2.4e-13              -1.06e-12             1.5166e-09           
  -0.15                 -1.568e-09            -8e-14                -1.04e-12             1.5694e-09           
  -0.2                  -1.5846e-09           -1.2e-13              -1e-12                1.5866e-09           
  -0.25                 -1.5954e-09           8e-14                 -1.08e-12             1.5964e-09           
  -0.3                  -1.603e-09            -6e-14                -1.08e-12             1.6058e-09           
  -0.35                 -1.611e-09            -4e-14                -8.8e-13              1.6122e-09           
  -0.4                  -1.617e-09            -1.6e-13              -9.8e-13              1.6182e-09           
  -0.45                 -1.6212e-09           2e-14                 -9.2e-13              1.6222e-09           
  -0.5                  -1.6258e-09           -4e-14                -1.08e-12             1.6274e-09           
  -0.55                 -1.6304e-09           -8e-14                -1e-12                1.6316e-09           
  -0.6                  -1.636e-09            -1e-13                -8.8e-13              1.6374e-09           
  -0.65                 -1.6384e-09           6e-14                 -1.02e-12             1.6404e-09           
  -0.7                  -1.6418e-09           2e-14                 -9e-13                1.6426e-09           
  -0.75                 -1.6448e-09           -2e-14                -1.12e-12             1.6462e-09           
  -0.8                  -1.6504e-09           -8e-14                -8.6e-13              1.6492e-09           
  -0.85                 -1.6522e-09           -2e-14                -1e-12                1.6516e-09           
  -0.9                  -1.6534e-09           4e-14                 -9.2e-13              1.6546e-09           
  -0.95                 -1.6576e-09           -8e-14                -9.2e-13              1.6576e-09           
  -1                    -1.6582e-09           -2e-14                -9.2e-13              1.66e-09             
  -1.05                 -1.6606e-09           0                     -1e-12                1.6616e-09           
  -1.1                  -1.6626e-09           -2e-14                -9.8e-13              1.6638e-09           
  -1.15                 -1.6648e-09           -2e-14                -9e-13                1.6656e-09           
  -1.2                  -1.6668e-09           1.4e-13               -9e-13                1.667e-09            
  -1.25                 -1.6684e-09           1e-13                 -8.6e-13              1.6692e-09           
  -1.3                  -1.67e-09             0                     -8.2e-13              1.67e-09             
  -1.35                 -1.6716e-09           2e-14                 -9.6e-13              1.6722e-09           
END_DB

BEGIN_DB
 ICCAP_VAR vg         -0.503         
 ICCAP_VAR vb         -0             
 ICCAP_VAR vs         -0             

 #vd                    id                    ig                    ib                    is                   
  -0                    2.36e-11              -2.6e-12              -8.6e-13              -2.046e-11           
  -0.05                 -1.498e-08            -2.04e-12             -8e-13                1.5006e-08           
  -0.1                  -2.4566e-08           -1.82e-12             -9.2e-13              2.4594e-08           
  -0.15                 -2.9444e-08           -1.58e-12             -8.8e-13              2.9472e-08           
  -0.2                  -3.1192e-08           -1.5e-12              -8.2e-13              3.1226e-08           
  -0.25                 -3.1732e-08           -1.52e-12             -9e-13                3.1758e-08           
  -0.3                  -3.1954e-08           -1.24e-12             -8.4e-13              3.1984e-08           
  -0.35                 -3.2096e-08           -1.4e-12              -9e-13                3.2136e-08           
  -0.4                  -3.2226e-08           -1.5e-12              -9e-13                3.2256e-08           
  -0.45                 -3.2324e-08           -1.36e-12             -8.4e-13              3.2354e-08           
  -0.5                  -3.2416e-08           -1.36e-12             -8.2e-13              3.2446e-08           
  -0.55                 -3.25e-08             -1.46e-12             -8.4e-13              3.2536e-08           
  -0.6                  -3.2578e-08           -1.5e-12              -8.4e-13              3.2614e-08           
  -0.65                 -3.2656e-08           -1.46e-12             -9.2e-13              3.2676e-08           
  -0.7                  -3.2718e-08           -1.44e-12             -8.2e-13              3.2748e-08           
  -0.75                 -3.278e-08            -1.36e-12             -8e-13                3.281e-08            
  -0.8                  -3.2838e-08           -1.26e-12             -8.2e-13              3.2864e-08           
  -0.85                 -3.2896e-08           -1.44e-12             -8.2e-13              3.292e-08            
  -0.9                  -3.294e-08            -1.4e-12              -8e-13                3.2972e-08           
  -0.95                 -3.2994e-08           -1.4e-12              -8.6e-13              3.302e-08            
  -1                    -3.3038e-08           -1.26e-12             -7.8e-13              3.3062e-08           
  -1.05                 -3.3076e-08           -1.22e-12             -8.2e-13              3.31e-08             
  -1.1                  -3.3106e-08           -1.34e-12             -7.8e-13              3.3132e-08           
  -1.15                 -3.316e-08            -1.34e-12             -7.2e-13              3.319e-08            
  -1.2                  -3.3174e-08           -1.42e-12             -8.2e-13              3.3206e-08           
  -1.25                 -3.3216e-08           -1.3e-12              -9e-13                3.3246e-08           
  -1.3                  -3.3244e-08           -1.36e-12             -8e-13                3.3272e-08           
  -1.35                 -3.327e-08            -1.32e-12             -7.6e-13              3.33e-08             
END_DB

