! VERSION = 6.00
BEGIN_HEADER
 ICCAP_INPUTS
  vg         V  G GROUND SMU2 0.001 LIN        1    0.5        -1.35      38   -0.05     
  vb         V  B GROUND SMU4 0.1 LIN        2    0          1.2        7    0.2       
  vd         V  D GROUND SMU1 0.1 LIST       3 3 -0.05 -0.6 -1.2
  vs         V  S GROUND SMU3 0.1 CON        -0
 ICCAP_OUTPUTS
  id         I  D GROUND SMU1 B
  ig         I  G GROUND SMU2 B
  ib         I  B GROUND SMU4 B
  is         I  S GROUND SMU3 B
 ICCAP_VALUES
  MASTER_SETUP_TYPE "~dc_idvg~"
  LINVT_VALUE ""
  LISTVT_VALUE ""
  TYPE "-1"
  TEMP "-40.0000 "
  IS_TNOM " 0.00000 "
  MAIN.W "10.00u"
  MAIN.L "130.0n"
  MAIN.AD "3.400p"
  MAIN.AS "3.400p"
  MAIN.PD "20.68u"
  MAIN.PS "20.68u"
  MAIN.NF "1.000"
  MAIN.M "1"
  MAIN.NRD "0.000"
  MAIN.NRS "0.000"
  MAIN.LDRIFT1 "1E-06"
  MAIN.LDRIFT2 "1E-06"
  MAIN.SA "0.000"
  MAIN.SB "0.000"
  MAIN.SD "0.000"
  MAIN.SCA "0.000"
  MAIN.SCB "0.000"
  MAIN.SCC "0.000"
  MAIN.SC "0.000"
  MODULE "S548"
  PIN_D "18"
  PIN_G "3"
  PIN_S "4"
  PIN_B "17"
  PIN_E ""
  PIN_6 ""
  XY_ID ""
  FUNC "Short"
  STI "SA ref"
  WPE "WPE ref"
  COMMENT ""
  DIS_MEAS ""
  TypeTCI "10"
END_HEADER

BEGIN_DB
 ICCAP_VAR vb         0              
 ICCAP_VAR vd         -0.05          
 ICCAP_VAR vs         -0             

 #vg                    id                    ig                    ib                    is                   
  0.5                   -1.76e-12             5.94e-12              1.4e-13               -3.1e-12             
  0.45                  -1.38e-12             4.22e-12              1e-13                 -2.38e-12            
  0.4                   -1.08e-12             3.1e-12               6e-14                 -1.64e-12            
  0.35                  -8.2e-13              2.26e-12              6e-14                 -1.18e-12            
  0.3                   -6.2e-13              1.7e-12               4e-14                 -7e-13               
  0.25                  -4.8e-13              1.12e-12              1e-13                 -4.4e-13             
  0.2                   -2.4e-13              8.6e-13               1e-13                 -1.6e-13             
  0.15                  -2e-13                5e-13                 1.8e-13               -1.2e-13             
  0.1                   -4e-14                1e-13                 6e-14                 1.8e-13              
  0.05                  -1e-13                0                     1.4e-13               2.2e-13              
  0                     -3.6e-13              -8e-14                1.2e-13               3.2e-13              
  -0.05                 -2.04e-12             -2.6e-13              1.4e-13               2.4e-12              
  -0.1                  -1.452e-11            -3.2e-13              4e-14                 1.482e-11            
  -0.15                 -1.006e-10            -4.4e-13              1.4e-13               1.01e-10             
  -0.2                  -6.8762e-10           -5.8e-13              1.8e-13               6.8768e-10           
  -0.25                 -4.658e-09            -6.6e-13              8e-14                 4.6528e-09           
  -0.3                  -3.0446e-08           -8.8e-13              4e-14                 3.0454e-08           
  -0.35                 -1.8218e-07           -1.32e-12             2e-14                 1.8254e-07           
  -0.4                  -9.1616e-07           -1.86e-12             2.4e-13               9.1742e-07           
  -0.45                 -3.509e-06            -2.66e-12             1.6e-13               3.5026e-06           
  -0.5                  -9.9146e-06           -3.92e-12             2.4e-13               9.916e-06            
  -0.55                 -2.134e-05            -5.62e-12             0                     2.1334e-05           
  -0.6                  -3.7296e-05           -8.06e-12             8e-14                 3.7284e-05           
  -0.65                 -5.6188e-05           -1.11e-11             2e-14                 5.6164e-05           
  -0.7                  -7.6348e-05           -1.502e-11            6e-14                 7.6332e-05           
  -0.75                 -9.6828e-05           -2.022e-11            1e-13                 9.6846e-05           
  -0.8                  -0.00011688           -2.654e-11            8e-14                 0.0001172            
  -0.85                 -0.00013626           -3.426e-11            1.2e-13               0.00013656           
  -0.9                  -0.0001547            -4.362e-11            2e-14                 0.00015506           
  -0.95                 -0.00017216           -5.494e-11            4e-14                 0.0001725            
  -1                    -0.0001886            -6.84e-11             0                     0.00018888           
  -1.05                 -0.00020388           -8.378e-11            1e-13                 0.00020422           
  -1.1                  -0.00021814           -1.017e-10            6e-14                 0.00021856           
  -1.15                 -0.00023162           -1.2246e-10           -4e-14                0.00023182           
  -1.2                  -0.00024402           -1.46e-10             1.6e-13               0.00024428           
  -1.25                 -0.00025568           -1.7378e-10           3e-13                 0.00025602           
  -1.3                  -0.00026652           -2.0478e-10           5.2e-13               0.00026686           
  -1.35                 -0.00027664           -2.4004e-10           1.22e-12              0.00027698           
END_DB

BEGIN_DB
 ICCAP_VAR vb         0.2            
 ICCAP_VAR vd         -0.05          
 ICCAP_VAR vs         -0             

 #vg                    id                    ig                    ib                    is                   
  0.5                   -1.86e-12             5.38e-12              4e-14                 -3.08e-12            
  0.45                  -1.3e-12              4.06e-12              6e-14                 -2.44e-12            
  0.4                   -1.06e-12             3e-12                 0                     -1.66e-12            
  0.35                  -8e-13                2.24e-12              2e-14                 -1.16e-12            
  0.3                   -6.6e-13              1.58e-12              0                     -7.4e-13             
  0.25                  -3.6e-13              1.08e-12              1e-13                 -4.6e-13             
  0.2                   -3e-13                6.6e-13               1.4e-13               -3.8e-13             
  0.15                  -1.6e-13              4e-13                 2e-14                 -8e-14               
  0.1                   -1.4e-13              1.4e-13               1e-13                 -1.6e-13             
  0.05                  -2e-14                -1e-13                2e-14                 2e-14                
  0                     6e-14                 -1.8e-13              1.8e-13               6e-14                
  -0.05                 -4.4e-13              -2.2e-13              4e-14                 5.4e-13              
  -0.1                  -3.56e-12             -2.2e-13              1.2e-13               3.9e-12              
  -0.15                 -2.626e-11            -4e-13                1.6e-13               2.686e-11            
  -0.2                  -1.8634e-10           -6e-13                8e-14                 1.8688e-10           
  -0.25                 -1.3158e-09           -7.2e-13              1e-13                 1.3166e-09           
  -0.3                  -9.0608e-09           -9.6e-13              0                     9.0818e-09           
  -0.35                 -5.9158e-08           -1.28e-12             0                     5.9038e-08           
  -0.4                  -3.4124e-07           -1.86e-12             8e-14                 3.4144e-07           
  -0.45                 -1.5702e-06           -2.64e-12             4e-14                 1.57e-06             
  -0.5                  -5.369e-06            -3.86e-12             1.6e-13               5.3738e-06           
  -0.55                 -1.3562e-05           -5.48e-12             0                     1.3578e-05           
  -0.6                  -2.6742e-05           -7.72e-12             4e-14                 2.6754e-05           
  -0.65                 -4.3722e-05           -1.078e-11            -6e-14                4.3742e-05           
  -0.7                  -6.2908e-05           -1.466e-11            6e-14                 6.2902e-05           
  -0.75                 -8.281e-05            -1.994e-11            6e-14                 8.2762e-05           
  -0.8                  -0.000102668          -2.622e-11            -1.4e-13              0.000102666          
  -0.85                 -0.000122             -3.4e-11              6e-14                 0.0001223            
  -0.9                  -0.00014052           -4.326e-11            8e-14                 0.00014074           
  -0.95                 -0.00015808           -5.462e-11            2e-14                 0.0001584            
  -1                    -0.00017468           -6.77e-11             -6e-14                0.00017496           
  -1.05                 -0.00019026           -8.298e-11            2e-14                 0.00019052           
  -1.1                  -0.0002048            -1.0082e-10           1e-13                 0.00020514           
  -1.15                 -0.0002185            -1.2172e-10           0                     0.00021878           
  -1.2                  -0.00023114           -1.4546e-10           1e-13                 0.00023152           
  -1.25                 -0.0002431            -1.7258e-10           2.2e-13               0.0002434            
  -1.3                  -0.00025418           -2.0368e-10           5.8e-13               0.00025446           
  -1.35                 -0.00026452           -2.3922e-10           1.24e-12              0.00026484           
END_DB

BEGIN_DB
 ICCAP_VAR vb         0.4            
 ICCAP_VAR vd         -0.05          
 ICCAP_VAR vs         -0             

 #vg                    id                    ig                    ib                    is                   
  0.5                   -1.74e-12             5.34e-12              1e-13                 -3.06e-12            
  0.45                  -1.32e-12             3.96e-12              2e-14                 -2.3e-12             
  0.4                   -1.04e-12             3.04e-12              1.2e-13               -1.72e-12            
  0.35                  -6.8e-13              2.18e-12              1e-13                 -1.26e-12            
  0.3                   -6e-13                1.5e-12               2e-14                 -9e-13               
  0.25                  -3.6e-13              9.4e-13               1e-13                 -6e-13               
  0.2                   -3.2e-13              6.2e-13               -4e-14                -2.6e-13             
  0.15                  -1.6e-13              4e-13                 1.4e-13               -4e-14               
  0.1                   -8e-14                4e-14                 1.8e-13               0                    
  0.05                  4e-14                 -1.2e-13              8e-14                 8e-14                
  0                     4e-14                 -2e-13                2e-14                 1.6e-13              
  -0.05                 -1e-13                -1.8e-13              8e-14                 3e-13                
  -0.1                  -1.04e-12             -3.6e-13              6e-14                 1.38e-12             
  -0.15                 -8.08e-12             -4.2e-13              1.4e-13               8.52e-12             
  -0.2                  -5.944e-11            -6.6e-13              -2e-14                6e-11                
  -0.25                 -4.3162e-10           -7.8e-13              -2e-14                4.3234e-10           
  -0.3                  -3.09e-09             -8.6e-13              0                     3.0906e-09           
  -0.35                 -2.1244e-08           -1.28e-12             6e-14                 2.1278e-08           
  -0.4                  -1.3426e-07           -1.9e-12              1e-13                 1.3448e-07           
  -0.45                 -7.1052e-07           -2.46e-12             -2e-14                7.1072e-07           
  -0.5                  -2.8728e-06           -3.64e-12             1.6e-13               2.874e-06            
  -0.55                 -8.4996e-06           -5.34e-12             8e-14                 8.509e-06            
  -0.6                  -1.8988e-05           -7.46e-12             8e-14                 1.8984e-05           
  -0.65                 -3.3936e-05           -1.052e-11            0                     3.3926e-05           
  -0.7                  -5.1802e-05           -1.438e-11            0                     5.1758e-05           
  -0.75                 -7.1018e-05           -1.956e-11            8e-14                 7.1016e-05           
  -0.8                  -9.0612e-05           -2.554e-11            0                     9.0608e-05           
  -0.85                 -0.000109928          -3.346e-11            4e-14                 0.000109946          
  -0.9                  -0.00012844           -4.252e-11            0                     0.00012876           
  -0.95                 -0.00014614           -5.378e-11            1e-13                 0.00014648           
  -1                    -0.00016292           -6.714e-11            -8e-14                0.00016326           
  -1.05                 -0.00017868           -8.23e-11             -4e-14                0.00017898           
  -1.1                  -0.00019346           -1.0032e-10           1e-13                 0.0001938            
  -1.15                 -0.00020728           -1.2126e-10           -4e-14                0.00020762           
  -1.2                  -0.00022028           -1.449e-10            1.6e-13               0.00022052           
  -1.25                 -0.00023238           -1.723e-10            1.8e-13               0.00023276           
  -1.3                  -0.00024368           -2.032e-10            5.2e-13               0.0002439            
  -1.35                 -0.00025412           -2.3984e-10           1.12e-12              0.0002544            
END_DB

BEGIN_DB
 ICCAP_VAR vb         0.6            
 ICCAP_VAR vd         -0.05          
 ICCAP_VAR vs         -0             

 #vg                    id                    ig                    ib                    is                   
  0.5                   -1.66e-12             5.24e-12              1.6e-13               -3.26e-12            
  0.45                  -1.24e-12             3.78e-12              1e-13                 -2.44e-12            
  0.4                   -9.8e-13              2.96e-12              4e-14                 -1.76e-12            
  0.35                  -7.6e-13              2.04e-12              1.4e-13               -1.2e-12             
  0.3                   -5.2e-13              1.4e-12               -1e-13                -7.6e-13             
  0.25                  -4.4e-13              9.6e-13               1.4e-13               -4.8e-13             
  0.2                   -2e-13                6.4e-13               1.2e-13               -3e-13               
  0.15                  -2e-14                3.4e-13               8e-14                 -1e-13               
  0.1                   -1.2e-13              -2e-14                1e-13                 2e-14                
  0.05                  -8e-14                -1e-13                4e-14                 1.4e-13              
  0                     -8e-14                -2.4e-13              1.8e-13               2e-14                
  -0.05                 -4e-14                -3.2e-13              1e-13                 1.4e-13              
  -0.1                  -1.6e-13              -2.6e-13              0                     6.4e-13              
  -0.15                 -2.72e-12             -4e-13                4e-14                 3.12e-12             
  -0.2                  -2.146e-11            -5.6e-13              4e-14                 2.208e-11            
  -0.25                 -1.6068e-10           -7.8e-13              8e-14                 1.6146e-10           
  -0.3                  -1.1792e-09           -9.2e-13              1.6e-13               1.1808e-09           
  -0.35                 -8.3968e-09           -1.3e-12              -8e-14                8.402e-09            
  -0.4                  -5.6578e-08           -1.78e-12             1e-13                 5.6546e-08           
  -0.45                 -3.3164e-07           -2.58e-12             6e-14                 3.3182e-07           
  -0.5                  -1.5448e-06           -3.6e-12              4e-14                 1.5476e-06           
  -0.55                 -5.2802e-06           -5.04e-12             2e-14                 5.2828e-06           
  -0.6                  -1.3354e-05           -7.16e-12             8e-14                 1.3356e-05           
  -0.65                 -2.6176e-05           -1.024e-11            1e-13                 2.62e-05             
  -0.7                  -4.265e-05            -1.406e-11            1.6e-13               4.2644e-05           
  -0.75                 -6.109e-05            -1.904e-11            -4e-14                6.1102e-05           
  -0.8                  -8.0336e-05           -2.53e-11             6e-14                 8.0326e-05           
  -0.85                 -9.947e-05            -3.288e-11            -4e-14                9.9436e-05           
  -0.9                  -0.00011798           -4.232e-11            1e-13                 0.0001183            
  -0.95                 -0.0001358            -5.356e-11            1e-13                 0.00013612           
  -1                    -0.00015272           -6.654e-11            -2e-14                0.00015298           
  -1.05                 -0.0001686            -8.18e-11             4e-14                 0.00016896           
  -1.1                  -0.00018358           -9.986e-11            6e-14                 0.00018388           
  -1.15                 -0.00019758           -1.2038e-10           8e-14                 0.0001979            
  -1.2                  -0.0002107            -1.442e-10            6e-14                 0.00021104           
  -1.25                 -0.00022294           -1.7132e-10           2.6e-13               0.00022322           
  -1.3                  -0.00023432           -2.0214e-10           6e-13                 0.00023466           
  -1.35                 -0.00024502           -2.3742e-10           1e-12                 0.0002454            
END_DB

BEGIN_DB
 ICCAP_VAR vb         0.8            
 ICCAP_VAR vd         -0.05          
 ICCAP_VAR vs         -0             

 #vg                    id                    ig                    ib                    is                   
  0.5                   -1.66e-12             5.16e-12              4e-14                 -3.06e-12            
  0.45                  -1.34e-12             3.8e-12               2e-13                 -2.5e-12             
  0.4                   -9e-13                2.88e-12              -1.2e-13              -1.52e-12            
  0.35                  -8e-13                2.1e-12               1.4e-13               -1.3e-12             
  0.3                   -4.2e-13              1.3e-12               0                     -7.6e-13             
