! VERSION = 6.00
BEGIN_HEADER
 ICCAP_INPUTS
  vd         V  D GROUND SMU1 0.1 LIN        1    -0         -1.35      28   -0.05     
  vg         V  G GROUND SMU2 0.001 LIST       2 3 -0.151 -0.351 -0.551
  vb         V  B GROUND SMU4 0.1 CON        -0
  vs         V  S GROUND SMU3 0.1 CON        -0
 ICCAP_OUTPUTS
  id         I  D GROUND SMU1 B
  ig         I  G GROUND SMU2 B
  ib         I  B GROUND SMU4 B
  is         I  S GROUND SMU3 B
 ICCAP_VALUES
  MASTER_SETUP_TYPE "~dc_idvd~"
  LINVT_VALUE ""
  LISTVT_VALUE "|idvg|100.0n|-200.0m|1.000m|3|200.0m|200.0m|"
  TYPE "-1"
  TEMP " 27.0000 "
  IS_TNOM " 1.00000 "
  MAIN.W "150.0n"
  MAIN.L "150.0n"
  MAIN.AD "100.5f"
  MAIN.AS "100.5f"
  MAIN.PD "1.340u"
  MAIN.PS "1.340u"
  MAIN.NF "1.000"
  MAIN.M "1"
  MAIN.NRD "0.000"
  MAIN.NRS "0.000"
  MAIN.LDRIFT1 "1E-06"
  MAIN.LDRIFT2 "1E-06"
  MAIN.SA "0.000"
  MAIN.SB "0.000"
  MAIN.SD "0.000"
  MAIN.SCA "0.000"
  MAIN.SCB "0.000"
  MAIN.SCC "0.000"
  MAIN.SC "0.000"
  MODULE "S554"
  PIN_D "12"
  PIN_G "9"
  PIN_S "10"
  PIN_B "11"
  PIN_E ""
  PIN_6 ""
  XY_ID ""
  FUNC "LW Scale"
  STI "SA ref"
  WPE "WPE ref"
  COMMENT ""
  DIS_MEAS ""
  TypeTCI "10"
END_HEADER

BEGIN_DB
 ICCAP_VAR vg         -0.151         
 ICCAP_VAR vb         -0             
 ICCAP_VAR vs         -0             

 #vd                    id                    ig                    ib                    is                   
  -0                    8.6e-13               2e-13                 -1.16e-12             -6.6e-13             
  -0.05                 -1.9232e-10           3.4e-13               -1.08e-12             1.9204e-10           
  -0.1                  -2.3282e-10           2.8e-13               -1.22e-12             2.3248e-10           
  -0.15                 -2.5028e-10           1e-13                 -1.12e-12             2.4908e-10           
  -0.2                  -2.6296e-10           1.6e-13               -1.04e-12             2.633e-10            
  -0.25                 -2.7576e-10           2.2e-13               -1.04e-12             2.7538e-10           
  -0.3                  -2.8826e-10           6e-14                 -1.14e-12             2.8812e-10           
  -0.35                 -3.0136e-10           1e-13                 -1e-12                3.0088e-10           
  -0.4                  -3.138e-10            1e-13                 -9.8e-13              3.136e-10            
  -0.45                 -3.2636e-10           1.6e-13               -1.12e-12             3.2628e-10           
  -0.5                  -3.392e-10            8e-14                 -9.6e-13              3.3926e-10           
  -0.55                 -3.5198e-10           1.4e-13               -1.08e-12             3.5172e-10           
  -0.6                  -3.6512e-10           -4e-14                -1.02e-12             3.6566e-10           
  -0.65                 -3.7892e-10           2.4e-13               -9.8e-13              3.7728e-10           
  -0.7                  -3.915e-10            1.4e-13               -1.14e-12             3.9132e-10           
  -0.75                 -4.041e-10            1.2e-13               -1.02e-12             4.0336e-10           
  -0.8                  -4.1778e-10           2.6e-13               -1.12e-12             4.1668e-10           
  -0.85                 -4.307e-10            1.8e-13               -1.1e-12              4.296e-10            
  -0.9                  -4.436e-10            1.2e-13               -1.02e-12             4.4346e-10           
  -0.95                 -4.5768e-10           6e-14                 -1.02e-12             4.5654e-10           
  -1                    -4.7074e-10           2.4e-13               -9.4e-13              4.7034e-10           
  -1.05                 -4.842e-10            1.2e-13               -9.6e-13              4.84e-10             
  -1.1                  -4.977e-10            2e-13                 -1.02e-12             4.9782e-10           
  -1.15                 -5.1198e-10           1e-13                 -1.08e-12             5.115e-10            
  -1.2                  -5.2582e-10           2e-13                 -1.04e-12             5.2502e-10           
  -1.25                 -5.3954e-10           1.8e-13               -9.2e-13              5.388e-10            
  -1.3                  -5.543e-10            2e-13                 -9.8e-13              5.5338e-10           
  -1.35                 -5.685e-10            1.6e-13               -9.4e-13              5.678e-10            
END_DB

BEGIN_DB
 ICCAP_VAR vg         -0.351         
 ICCAP_VAR vb         -0             
 ICCAP_VAR vs         -0             

 #vd                    id                    ig                    ib                    is                   
  -0                    1.8008e-10            -2e-14                -9.6e-13              -1.8082e-10          
  -0.05                 -5.8434e-08           -2e-14                -1.02e-12             5.8344e-08           
  -0.1                  -7.4222e-08           -1.2e-13              -1.02e-12             7.4314e-08           
  -0.15                 -8.0528e-08           -1.4e-13              -9.2e-13              8.085e-08            
  -0.2                  -8.53e-08             -8e-14                -1e-12                8.5368e-08           
  -0.25                 -8.9206e-08           -2e-14                -1.06e-12             8.9316e-08           
  -0.3                  -9.3016e-08           6e-14                 -1.04e-12             9.3048e-08           
  -0.35                 -9.6858e-08           2e-14                 -7.8e-13              9.7014e-08           
  -0.4                  -1.00598e-07          0                     -8.8e-13              1.00662e-07          
  -0.45                 -1.04136e-07          6e-14                 -8.2e-13              1.04188e-07          
  -0.5                  -1.07754e-07          2e-14                 -8.4e-13              1.07712e-07          
  -0.55                 -1.1098e-07           6e-14                 -1.08e-12             1.11314e-07          
  -0.6                  -1.1458e-07           -1.2e-13              -1.02e-12             1.1461e-07           
  -0.65                 -1.1806e-07           6e-14                 -7.8e-13              1.1832e-07           
  -0.7                  -1.215e-07            -4e-14                -7.8e-13              1.2156e-07           
  -0.75                 -1.25e-07             1e-13                 -9.6e-13              1.2516e-07           
  -0.8                  -1.2838e-07           1.6e-13               -7.8e-13              1.284e-07            
  -0.85                 -1.3156e-07           -1e-13                -8.2e-13              1.3186e-07           
  -0.9                  -1.3508e-07           -6e-14                -9.2e-13              1.3508e-07           
  -0.95                 -1.3824e-07           8e-14                 -8.2e-13              1.3852e-07           
  -1                    -1.4158e-07           4e-14                 -8.6e-13              1.4176e-07           
  -1.05                 -1.4476e-07           6e-14                 -9.2e-13              1.4506e-07           
  -1.1                  -1.4806e-07           -2e-14                -9.6e-13              1.4816e-07           
  -1.15                 -1.5136e-07           -6e-14                -7.8e-13              1.515e-07            
  -1.2                  -1.5454e-07           1e-13                 -7e-13                1.5484e-07           
  -1.25                 -1.5782e-07           1e-13                 -6e-13                1.5778e-07           
  -1.3                  -1.6098e-07           6e-14                 -5e-13                1.6118e-07           
  -1.35                 -1.642e-07            1e-13                 -4e-13                1.6374e-07           
END_DB

BEGIN_DB
 ICCAP_VAR vg         -0.551         
 ICCAP_VAR vb         -0             
 ICCAP_VAR vs         -0             

 #vd                    id                    ig                    ib                    is                   
  -0                    1.8332e-09            -2.2e-13              -9.6e-13              -1.6686e-09          
  -0.05                 -9.707e-07            -1.8e-13              -9.2e-13              9.7068e-07           
  -0.1                  -1.5758e-06           -1e-13                -1.02e-12             1.5784e-06           
  -0.15                 -1.9204e-06           -1.4e-13              -9.8e-13              1.9236e-06           
  -0.2                  -2.1136e-06           -1.6e-13              -7.6e-13              2.1158e-06           
  -0.25                 -2.2304e-06           -1.6e-13              -7.4e-13              2.2364e-06           
  -0.3                  -2.3196e-06           -6e-14                -8.2e-13              2.323e-06            
  -0.35                 -2.389e-06            -1.8e-13              -8.2e-13              2.394e-06            
  -0.4                  -2.4546e-06           -4e-14                -8.8e-13              2.4596e-06           
  -0.45                 -2.5134e-06           -6e-14                -9.6e-13              2.5176e-06           
  -0.5                  -2.57e-06             -1.6e-13              -8.6e-13              2.5746e-06           
  -0.55                 -2.6246e-06           -6e-14                -7.6e-13              2.629e-06            
  -0.6                  -2.6768e-06           -8e-14                -8.2e-13              2.6792e-06           
  -0.65                 -2.7256e-06           -1.2e-13              -8e-13                2.7296e-06           
  -0.7                  -2.7754e-06           -2e-14                -9.6e-13              2.78e-06             
  -0.75                 -2.8248e-06           0                     -8e-13                2.8278e-06           
  -0.8                  -2.872e-06            -1.8e-13              -8.2e-13              2.8754e-06           
  -0.85                 -2.918e-06            -1.6e-13              -8e-13                2.923e-06            
  -0.9                  -2.9646e-06           0                     -8.4e-13              2.9682e-06           
  -0.95                 -3.0102e-06           -1.2e-13              -7.4e-13              3.0124e-06           
  -1                    -3.0536e-06           -6e-14                -7.4e-13              3.0572e-06           
  -1.05                 -3.0968e-06           0                     -8.6e-13              3.1014e-06           
  -1.1                  -3.1424e-06           2e-14                 -8.6e-13              3.1454e-06           
  -1.15                 -3.1868e-06           -1.4e-13              -6.6e-13              3.189e-06            
  -1.2                  -3.2274e-06           0                     -6e-13                3.232e-06            
  -1.25                 -3.2716e-06           0                     -5.6e-13              3.275e-06            
  -1.3                  -3.3146e-06           -1e-13                -8e-14                3.3174e-06           
  -1.35                 -3.356e-06            4e-14                 7.2e-13               3.36e-06             
END_DB

