! VERSION = 6.00
BEGIN_HEADER
 ICCAP_INPUTS
  vd         V  D GROUND SMU1 0.1 LIN        1    -0         -1.35      28   -0.05     
  vg         V  G GROUND SMU2 0.001 LIST       2 3 -0.198 -0.398 -0.598
  vb         V  B GROUND SMU4 0.1 CON        -0
  vs         V  S GROUND SMU3 0.1 CON        -0
 ICCAP_OUTPUTS
  id         I  D GROUND SMU1 B
  ig         I  G GROUND SMU2 B
  ib         I  B GROUND SMU4 B
  is         I  S GROUND SMU3 B
 ICCAP_VALUES
  MASTER_SETUP_TYPE "~dc_idvd~"
  LINVT_VALUE ""
  LISTVT_VALUE "|idvg|100.0n|-200.0m|1.000m|3|200.0m|200.0m|"
  TYPE "-1"
  TEMP "-40.0000 "
  IS_TNOM " 0.00000 "
  MAIN.W "150.0n"
  MAIN.L "180.0n"
  MAIN.AD "100.5f"
  MAIN.AS "100.5f"
  MAIN.PD "1.340u"
  MAIN.PS "1.340u"
  MAIN.NF "1.000"
  MAIN.M "1"
  MAIN.NRD "0.000"
  MAIN.NRS "0.000"
  MAIN.LDRIFT1 "1E-06"
  MAIN.LDRIFT2 "1E-06"
  MAIN.SA "0.000"
  MAIN.SB "0.000"
  MAIN.SD "0.000"
  MAIN.SCA "0.000"
  MAIN.SCB "0.000"
  MAIN.SCC "0.000"
  MAIN.SC "0.000"
  MODULE "S555"
  PIN_D "20"
  PIN_G "1"
  PIN_S "2"
  PIN_B "19"
  PIN_E ""
  PIN_6 ""
  XY_ID ""
  FUNC "LW Scale"
  STI "SA ref"
  WPE "WPE ref"
  COMMENT ""
  DIS_MEAS ""
  TypeTCI "10"
END_HEADER

BEGIN_DB
 ICCAP_VAR vg         -0.198         
 ICCAP_VAR vb         -0             
 ICCAP_VAR vs         -0             

 #vd                    id                    ig                    ib                    is                   
  -0                    3.2e-13               1.6e-13               -1.2e-13              -1.2e-13             
  -0.05                 -3.03e-11             1.2e-13               -2.2e-13              3.028e-11            
  -0.1                  -3.61e-11             1.4e-13               -1.6e-13              3.586e-11            
  -0.15                 -3.922e-11            1.6e-13               -4e-14                3.92e-11             
  -0.2                  -4.248e-11            -2e-14                -1.2e-13              4.21e-11             
  -0.25                 -4.538e-11            0                     -1.6e-13              4.504e-11            
  -0.3                  -4.816e-11            -6e-14                -1.6e-13              4.77e-11             
  -0.35                 -5.112e-11            1.4e-13               -2.6e-13              5.074e-11            
  -0.4                  -5.41e-11             1.8e-13               -6e-14                5.306e-11            
  -0.45                 -5.676e-11            -1e-13                -2e-13                5.656e-11            
  -0.5                  -5.96e-11             8e-14                 2e-14                 5.788e-11            
  -0.55                 -6.246e-11            1e-13                 -2.8e-13              6.212e-11            
  -0.6                  -6.558e-11            6e-14                 -2.6e-13              6.466e-11            
  -0.65                 -6.844e-11            1.4e-13               -1.6e-13              6.762e-11            
  -0.7                  -7.09e-11             0                     -2.2e-13              7.018e-11            
  -0.75                 -7.39e-11             0                     -2e-13                7.318e-11            
  -0.8                  -7.64e-11             4e-14                 -2.4e-13              7.558e-11            
  -0.85                 -7.914e-11            -4e-14                -1.4e-13              7.824e-11            
  -0.9                  -8.196e-11            4e-14                 -8e-14                8.03e-11             
  -0.95                 -8.406e-11            6e-14                 -2.4e-13              8.306e-11            
  -1                    -8.652e-11            1.6e-13               -6e-14                8.578e-11            
  -1.05                 -8.964e-11            2.4e-13               -1e-13                8.844e-11            
  -1.1                  -9.246e-11            -4e-14                -1.4e-13              9.124e-11            
  -1.15                 -9.502e-11            6e-14                 -1.4e-13              9.386e-11            
  -1.2                  -9.794e-11            4e-14                 -1.8e-13              9.704e-11            
  -1.25                 -1.0012e-10           2e-13                 -1.2e-13              9.9e-11              
  -1.3                  -1.042e-10            6e-14                 -2.8e-13              1.0388e-10           
  -1.35                 -1.0724e-10           2e-13                 -1.8e-13              1.0626e-10           
END_DB

BEGIN_DB
 ICCAP_VAR vg         -0.398         
 ICCAP_VAR vb         -0             
 ICCAP_VAR vs         -0             

 #vd                    id                    ig                    ib                    is                   
  -0                    1.0434e-10            -8e-14                -1.4e-13              -1.0496e-10          
  -0.05                 -3.671e-08            -2e-14                -1.8e-13              3.6736e-08           
  -0.1                  -4.7954e-08           -8e-14                -1.8e-13              4.7972e-08           
  -0.15                 -5.4506e-08           -4e-14                -1.2e-13              5.4534e-08           
  -0.2                  -5.9884e-08           -1.8e-13              -1.2e-13              5.9886e-08           
  -0.25                 -6.4686e-08           -1.4e-13              -3e-13                6.4734e-08           
  -0.3                  -6.9306e-08           -1e-13                -1.6e-13              6.926e-08            
  -0.35                 -7.3548e-08           -1.2e-13              -1.6e-13              7.3586e-08           
  -0.4                  -7.7702e-08           -1.4e-13              -1.6e-13              7.7804e-08           
  -0.45                 -8.1788e-08           -6e-14                -1.6e-13              8.1804e-08           
  -0.5                  -8.5466e-08           -4e-14                -2e-13                8.5518e-08           
  -0.55                 -8.9344e-08           -4e-14                -1.8e-13              8.9366e-08           
  -0.6                  -9.2848e-08           4e-14                 -1.8e-13              9.2978e-08           
  -0.65                 -9.6274e-08           -4e-14                -3.8e-13              9.634e-08            
  -0.7                  -9.9966e-08           2e-14                 -1.8e-13              1.00526e-07          
  -0.75                 -1.0382e-07           1.6e-13               -1.2e-13              1.038e-07            
  -0.8                  -1.06998e-07          -1.8e-13              -1.8e-13              1.07088e-07          
  -0.85                 -1.1038e-07           -8e-14                -8e-14                1.10502e-07          
  -0.9                  -1.135e-07            -4e-14                -1.8e-13              1.13628e-07          
  -0.95                 -1.1646e-07           6e-14                 -2e-13                1.1678e-07           
  -1                    -1.1958e-07           -6e-14                -1.4e-13              1.1966e-07           
  -1.05                 -1.2266e-07           6e-14                 -1.4e-13              1.2286e-07           
  -1.1                  -1.2564e-07           -8e-14                -6e-14                1.2586e-07           
  -1.15                 -1.2858e-07           1.4e-13               -1.8e-13              1.2866e-07           
  -1.2                  -1.312e-07            -8e-14                -1.6e-13              1.3156e-07           
  -1.25                 -1.3426e-07           -2e-14                -1.8e-13              1.3446e-07           
  -1.3                  -1.37e-07             -4e-14                -1e-13                1.3724e-07           
  -1.35                 -1.3984e-07           0                     -6e-14                1.4066e-07           
END_DB

BEGIN_DB
 ICCAP_VAR vg         -0.598         
 ICCAP_VAR vb         -0             
 ICCAP_VAR vs         -0             

 #vd                    id                    ig                    ib                    is                   
  -0                    1.6392e-09            -2.8e-13              -1.8e-13              -1.471e-09           
  -0.05                 -9.162e-07            -2.8e-13              -1.8e-13              9.1698e-07           
  -0.1                  -1.4522e-06           -2e-13                -2.6e-13              1.4564e-06           
  -0.15                 -1.7488e-06           -3.2e-13              -1.8e-13              1.7528e-06           
  -0.2                  -1.9278e-06           -2.2e-13              -1.2e-13              1.9312e-06           
  -0.25                 -2.054e-06            -2.4e-13              -2.4e-13              2.0574e-06           
  -0.3                  -2.1534e-06           -1.2e-13              -2.4e-13              2.1576e-06           
  -0.35                 -2.237e-06            -2.4e-13              -1.8e-13              2.2404e-06           
  -0.4                  -2.3064e-06           -2.6e-13              -1.2e-13              2.3102e-06           
  -0.45                 -2.3746e-06           -4e-13                -2e-13                2.379e-06            
  -0.5                  -2.4416e-06           -1.6e-13              -1.6e-13              2.4446e-06           
  -0.55                 -2.5022e-06           -1e-13                -1.4e-13              2.505e-06            
  -0.6                  -2.5604e-06           -1.8e-13              -2.2e-13              2.565e-06            
  -0.65                 -2.6176e-06           -3e-13                -1.8e-13              2.622e-06            
  -0.7                  -2.6734e-06           -2.2e-13              -1e-13                2.6772e-06           
  -0.75                 -2.7254e-06           -2.4e-13              -1.4e-13              2.7444e-06           
  -0.8                  -2.8e-06              -2e-13                -8e-14                2.8012e-06           
  -0.85                 -2.846e-06            -2e-13                -2e-14                2.8522e-06           
  -0.9                  -2.8932e-06           -1.2e-13              -1.2e-13              2.8978e-06           
  -0.95                 -2.9418e-06           -2e-13                -1.8e-13              2.9444e-06           
  -1                    -2.9862e-06           -2.2e-13              -1.2e-13              2.9898e-06           
  -1.05                 -3.0286e-06           -1.6e-13              -1.4e-13              3.0338e-06           
  -1.1                  -3.073e-06            -1e-13                -8e-14                3.0756e-06           
  -1.15                 -3.1162e-06           -1.6e-13              -2.2e-13              3.1172e-06           
  -1.2                  -3.1568e-06           -2.6e-13              -1e-13                3.1612e-06           
  -1.25                 -3.1972e-06           -1.6e-13              -1.8e-13              3.2014e-06           
  -1.3                  -3.2386e-06           -8e-14                2e-14                 3.2422e-06           
  -1.35                 -3.2792e-06           -1.8e-13              2.2e-13               3.2828e-06           
END_DB

