! VERSION = 6.00
BEGIN_HEADER
 ICCAP_INPUTS
  vd         V  D GROUND SMU1 0.1 LIN        1    -0         -1.35      28   -0.05     
  vg         V  G GROUND SMU2 0.001 LIN        2    -0.63      -1.35      5    -0.18     
  vb         V  B GROUND SMU4 0.1 CON        1.2
  vs         V  S GROUND SMU3 0.1 CON        -0
 ICCAP_OUTPUTS
  id         I  D GROUND SMU1 B
  ig         I  G GROUND SMU2 B
  ib         I  B GROUND SMU4 B
  is         I  S GROUND SMU3 B
 ICCAP_VALUES
  MASTER_SETUP_TYPE "~dc_idvd~"
  LINVT_VALUE "|idvg|100.0n|100.0m|1.000m|5|1.350|"
  LISTVT_VALUE ""
  TYPE "-1"
  TEMP " 27.0000 "
  IS_TNOM " 1.00000 "
  MAIN.W "300.0n"
  MAIN.L "140.0n"
  MAIN.AD "102.0f"
  MAIN.AS "102.0f"
  MAIN.PD "1.280u"
  MAIN.PS "1.280u"
  MAIN.NF "1.000"
  MAIN.M "1"
  MAIN.NRD "0.000"
  MAIN.NRS "0.000"
  MAIN.LDRIFT1 "1E-06"
  MAIN.LDRIFT2 "1E-06"
  MAIN.SA "0.000"
  MAIN.SB "0.000"
  MAIN.SD "0.000"
  MAIN.SCA "0.000"
  MAIN.SCB "0.000"
  MAIN.SCC "0.000"
  MAIN.SC "0.000"
  MODULE "S552"
  PIN_D "16"
  PIN_G "5"
  PIN_S "6"
  PIN_B "15"
  PIN_E ""
  PIN_6 ""
  XY_ID ""
  FUNC "LW Scale"
  STI "SA ref"
  WPE "WPE ref"
  COMMENT ""
  DIS_MEAS ""
  TypeTCI "10"
END_HEADER

BEGIN_DB
 ICCAP_VAR vg         -0.63          
 ICCAP_VAR vb         1.2            
 ICCAP_VAR vs         -0             

 #vd                    id                    ig                    ib                    is                   
  -0                    8.862e-10             -4.4e-13              4.8e-13               -1.04758e-09         
  -0.05                 -5.1708e-07           -2.6e-13              4.2e-13               5.1706e-07           
  -0.1                  -7.8706e-07           -1.6e-13              3.8e-13               7.882e-07            
  -0.15                 -9.4102e-07           -2e-13                4e-13                 9.4112e-07           
  -0.2                  -1.04412e-06          -2.4e-13              4.4e-13               1.04444e-06          
  -0.25                 -1.12552e-06          -8e-14                3.2e-13               1.12634e-06          
  -0.3                  -1.1952e-06           -1.8e-13              3e-13                 1.1992e-06           
  -0.35                 -1.2594e-06           -1e-13                2.8e-13               1.2626e-06           
  -0.4                  -1.319e-06            -8e-14                2.4e-13               1.3246e-06           
  -0.45                 -1.3794e-06           -1.2e-13              2.4e-13               1.383e-06            
  -0.5                  -1.4368e-06           -1e-13                2.4e-13               1.4404e-06           
  -0.55                 -1.4936e-06           -2e-13                2.8e-13               1.4968e-06           
  -0.6                  -1.549e-06            -1.4e-13              2.8e-13               1.5536e-06           
  -0.65                 -1.6038e-06           0                     1e-13                 1.6084e-06           
  -0.7                  -1.66e-06             -1e-13                2.2e-13               1.6634e-06           
  -0.75                 -1.7158e-06           -8e-14                2.4e-13               1.719e-06            
  -0.8                  -1.7698e-06           -2e-13                1.2e-13               1.7736e-06           
  -0.85                 -1.8246e-06           -1.4e-13              2e-13                 1.828e-06            
  -0.9                  -1.8798e-06           -6e-14                1.6e-13               1.883e-06            
  -0.95                 -1.935e-06            -2e-13                1e-13                 1.9396e-06           
  -1                    -1.9908e-06           -1e-13                6e-14                 1.995e-06            
  -1.05                 -2.0476e-06           -1.4e-13              1.6e-13               2.0506e-06           
  -1.1                  -2.1034e-06           -8e-14                2e-13                 2.1072e-06           
  -1.15                 -2.1592e-06           -1.6e-13              1.4e-13               2.1624e-06           
  -1.2                  -2.213e-06            4e-14                 3e-13                 2.2184e-06           
  -1.25                 -2.2704e-06           -4e-14                6.2e-13               2.2734e-06           
  -1.3                  -2.3266e-06           -2e-13                9.6e-13               2.3324e-06           
  -1.35                 -2.3866e-06           0                     1.7e-12               2.3904e-06           
END_DB

BEGIN_DB
 ICCAP_VAR vg         -0.81          
 ICCAP_VAR vb         1.2            
 ICCAP_VAR vs         -0             

 #vd                    id                    ig                    ib                    is                   
  -0                    2.677e-09             -6.8e-13              2e-14                 -2.576e-09           
  -0.05                 -2.1642e-06           -6.8e-13              2e-14                 2.17e-06             
  -0.1                  -3.782e-06            -6.4e-13              1e-13                 3.7874e-06           
  -0.15                 -4.9344e-06           -6.4e-13              0                     4.9456e-06           
  -0.2                  -5.7584e-06           -5.6e-13              4e-14                 5.7642e-06           
  -0.25                 -6.344e-06            -5e-13                8e-14                 6.3474e-06           
  -0.3                  -6.803e-06            -4.6e-13              2e-14                 6.8084e-06           
  -0.35                 -7.1658e-06           -4.8e-13              8e-14                 7.1718e-06           
  -0.4                  -7.4768e-06           -3.6e-13              1.6e-13               7.4878e-06           
  -0.45                 -7.7612e-06           -4.2e-13              -2e-14                7.7626e-06           
  -0.5                  -8.017e-06            -4.4e-13              6e-14                 8.0242e-06           
  -0.55                 -8.2592e-06           -3.6e-13              2e-13                 8.2614e-06           
  -0.6                  -8.4826e-06           -3.2e-13              1e-13                 8.4868e-06           
  -0.65                 -8.7056e-06           -2.6e-13              -2e-14                8.7038e-06           
  -0.7                  -8.9188e-06           -2.4e-13              4e-14                 8.9234e-06           
  -0.75                 -9.1262e-06           -3.8e-13              4e-14                 9.1302e-06           
  -0.8                  -9.328e-06            -2.8e-13              1e-13                 9.331e-06            
  -0.85                 -9.5258e-06           -3e-13                6e-14                 9.5292e-06           
  -0.9                  -9.7234e-06           -3.8e-13              1e-13                 9.7288e-06           
  -0.95                 -9.9204e-06           -4e-13                8e-14                 9.9214e-06           
  -1                    -1.01068e-05          -2.4e-13              8e-14                 1.00702e-05          
  -1.05                 -1.02496e-05          -2.2e-13              4e-14                 1.02526e-05          
  -1.1                  -1.04338e-05          -3.8e-13              1.4e-13               1.04364e-05          
  -1.15                 -1.06272e-05          -3.6e-13              2.2e-13               1.06288e-05          
  -1.2                  -1.0812e-05           -1.8e-13              2.6e-13               1.08118e-05          
  -1.25                 -1.0994e-05           -3.8e-13              4.2e-13               1.09988e-05          
  -1.3                  -1.1172e-05           -2.6e-13              8e-13                 1.1185e-05           
  -1.35                 -1.1358e-05           -2.8e-13              1.7e-12               1.13702e-05          
END_DB

BEGIN_DB
 ICCAP_VAR vg         -0.99          
 ICCAP_VAR vb         1.2            
 ICCAP_VAR vs         -0             

 #vd                    id                    ig                    ib                    is                   
  -0                    3.4184e-09            -1.84e-12             0                     -3.9974e-09          
  -0.05                 -4.0726e-06           -1.68e-12             -4e-14                4.0654e-06           
  -0.1                  -7.5796e-06           -1.38e-12             -4e-14                7.581e-06            
  -0.15                 -1.05068e-05          -1.32e-12             2e-14                 1.05066e-05          
  -0.2                  -1.2894e-05           -1.16e-12             -2e-14                1.2888e-05           
  -0.25                 -1.476e-05            -1.26e-12             2e-14                 1.4778e-05           
  -0.3                  -1.6228e-05           -1.08e-12             2e-14                 1.6258e-05           
  -0.35                 -1.738e-05            -1.08e-12             6e-14                 1.7404e-05           
  -0.4                  -1.8316e-05           -9.6e-13              8e-14                 1.833e-05            
  -0.45                 -1.9082e-05           -1e-12                1e-13                 1.9094e-05           
  -0.5                  -1.9724e-05           -8.6e-13              6e-14                 1.9752e-05           
  -0.55                 -2.0268e-05           -9.4e-13              1.2e-13               2.0326e-05           
  -0.6                  -2.0826e-05           -9.6e-13              1.6e-13               2.0832e-05           
  -0.65                 -2.1306e-05           -9.6e-13              1.6e-13               2.1338e-05           
  -0.7                  -2.1776e-05           -9e-13                0                     2.1782e-05           
  -0.75                 -2.2188e-05           -7e-13                1.8e-13               2.2198e-05           
  -0.8                  -2.2576e-05           -8.8e-13              -8e-14                2.2604e-05           
  -0.85                 -2.2976e-05           -9.6e-13              8e-14                 2.2984e-05           
  -0.9                  -2.335e-05            -8.6e-13              1.6e-13               2.3368e-05           
  -0.95                 -2.3714e-05           -8.8e-13              1.4e-13               2.3724e-05           
  -1                    -2.407e-05            -8e-13                8e-14                 2.4088e-05           
  -1.05                 -2.4414e-05           -8.6e-13              1.4e-13               2.442e-05            
  -1.1                  -2.4754e-05           -7.6e-13              1.2e-13               2.4766e-05           
  -1.15                 -2.5136e-05           -8.8e-13              0                     2.5174e-05           
  -1.2                  -2.5438e-05           -9.4e-13              6e-14                 2.5456e-05           
  -1.25                 -2.5772e-05           -8.2e-13              2.2e-13               2.579e-05            
  -1.3                  -2.6044e-05           -8.4e-13              4.4e-13               2.5948e-05           
  -1.35                 -2.635e-05            -9.2e-13              9.4e-13               2.642e-05            
END_DB

BEGIN_DB
 ICCAP_VAR vg         -1.17          
 ICCAP_VAR vb         1.2            
 ICCAP_VAR vs         -0             

 #vd                    id                    ig                    ib                    is                   
  -0                    3.5368e-09            -3.86e-12             2e-14                 -5.1018e-09          
  -0.05                 -5.7268e-06           -3.58e-12             1.2e-13               5.7256e-06           
  -0.1                  -1.09118e-05          -3.26e-12             1.2e-13               1.09186e-05          
  -0.15                 -1.5564e-05           -3.06e-12             1.4e-13               1.563e-05            
  -0.2                  -1.966e-05            -2.76e-12             6e-14                 1.968e-05            
  -0.25                 -2.3098e-05           -2.64e-12             6e-14                 2.3222e-05           
  -0.3                  -2.6182e-05           -2.48e-12             1.2e-13               2.6112e-05           
  -0.35                 -2.8676e-05           -2.32e-12             2e-14                 2.8666e-05           
  -0.4                  -3.071e-05            -2.24e-12             8e-14                 3.0732e-05           
  -0.45                 -3.231e-05            -2.1e-12              1.4e-13               3.2286e-05           
  -0.5                  -3.3842e-05           -2.02e-12             6e-14                 3.386e-05            
  -0.55                 -3.5034e-05           -2.06e-12             2e-14                 3.5032e-05           
  -0.6                  -3.606e-05            -2.16e-12             8e-14                 3.6062e-05           
  -0.65                 -3.683e-05            -1.82e-12             4e-14                 3.6948e-05           
  -0.7                  -3.7752e-05           -1.92e-12             1e-13                 3.7764e-05           
  -0.75                 -3.8516e-05           -1.92e-12             4e-14                 3.8498e-05           
  -0.8                  -3.9122e-05           -1.86e-12             0                     3.9158e-05           
  -0.85                 -3.9626e-05           -1.86e-12             -6e-14                3.9656e-05           
  -0.9                  -4.042e-05            -1.92e-12             1.4e-13               4.0492e-05           
  -0.95                 -4.1036e-05           -1.88e-12             1.6e-13               4.1064e-05           
  -1                    -4.154e-05            -1.76e-12             -4e-14                4.1546e-05           
  -1.05                 -4.2138e-05           -1.68e-12             6e-14                 4.2142e-05           
  -1.1                  -4.263e-05            -1.76e-12             4e-14                 4.252e-05            
  -1.15                 -4.3134e-05           -1.88e-12             -4e-14                4.3154e-05           
  -1.2                  -4.3572e-05           -1.74e-12             4e-14                 4.3628e-05           
  -1.25                 -4.4258e-05           -1.74e-12             8e-14                 4.4314e-05           
  -1.3                  -4.4736e-05           -1.74e-12             2.8e-13               4.4746e-05           
  -1.35                 -4.5054e-05           -1.84e-12             5.6e-13               4.509e-05            
END_DB

BEGIN_DB
 ICCAP_VAR vg         -1.35          
 ICCAP_VAR vb         1.2            
 ICCAP_VAR vs         -0             

 #vd                    id                    ig                    ib                    is                   
  -0                    1.0458e-08            -1.084e-11            3.46e-12              -1.0272e-08          
  -0.05                 -7.0308e-06           -9.82e-12             2.96e-12              7.0452e-06           
  -0.1                  -1.3644e-05           -8.86e-12             2.42e-12              1.363e-05            
  -0.15                 -1.9856e-05           -8.24e-12             2.12e-12              1.9822e-05           
  -0.2                  -2.526e-05            -7.44e-12             1.8e-12               2.524e-05            
  -0.25                 -3.0248e-05           -6.86e-12             1.54e-12              3.0318e-05           
  -0.3                  -3.4858e-05           -6.48e-12             1.42e-12              3.4734e-05           
  -0.35                 -3.8684e-05           -5.88e-12             1.28e-12              3.8958e-05           
  -0.4                  -4.2222e-05           -5.62e-12             1.16e-12              4.2178e-05           
  -0.45                 -4.4928e-05           -5.5e-12              1e-12                 4.5084e-05           
  -0.5                  -4.7592e-05           -5.12e-12             1.04e-12              4.785e-05            
  -0.55                 -4.987e-05            -4.94e-12             9.2e-13               4.9866e-05           
  -0.6                  -5.166e-05            -4.76e-12             8.6e-13               5.1706e-05           
  -0.65                 -5.338e-05            -4.7e-12              8e-13                 5.3236e-05           
  -0.7                  -5.4526e-05           -4.58e-12             7.4e-13               5.4786e-05           
  -0.75                 -5.6164e-05           -4.5e-12              7.6e-13               5.615e-05            
  -0.8                  -5.7066e-05           -4.48e-12             7.6e-13               5.71e-05             
  -0.85                 -5.794e-05            -4.3e-12              7.2e-13               5.795e-05            
  -0.9                  -5.8926e-05           -4.36e-12             6.8e-13               5.9038e-05           
  -0.95                 -5.9708e-05           -4.16e-12             7e-13                 5.9786e-05           
  -1                    -6.0292e-05           -4.2e-12              6.2e-13               6.0726e-05           
  -1.05                 -6.14e-05             -4.16e-12             6.2e-13               6.1202e-05           
  -1.1                  -6.1976e-05           -4.16e-12             6.8e-13               6.2124e-05           
  -1.15                 -6.2816e-05           -4.04e-12             6.4e-13               6.282e-05            
  -1.2                  -6.363e-05            -4.12e-12             7.6e-13               6.353e-05            
  -1.25                 -6.396e-05            -3.98e-12             8e-13                 6.4174e-05           
  -1.3                  -6.4834e-05           -3.9e-12              7.8e-13               6.4498e-05           
  -1.35                 -6.5108e-05           -3.96e-12             9.2e-13               6.5294e-05           
END_DB

