! VERSION = 6.00
BEGIN_HEADER
 ICCAP_INPUTS
  vd         V  D GROUND SMU1 0.1 LIN        1    -0         -1.35      28   -0.05     
  vg         V  G GROUND SMU2 0.001 LIST       2 3 -0.352 -0.552 -0.752
  vb         V  B GROUND SMU4 0.1 CON        1.2
  vs         V  S GROUND SMU3 0.1 CON        -0
 ICCAP_OUTPUTS
  id         I  D GROUND SMU1 B
  ig         I  G GROUND SMU2 B
  ib         I  B GROUND SMU4 B
  is         I  S GROUND SMU3 B
 ICCAP_VALUES
  MASTER_SETUP_TYPE "~dc_idvd~"
  LINVT_VALUE ""
  LISTVT_VALUE "|idvg|100.0n|-200.0m|1.000m|3|200.0m|200.0m|"
  TYPE "-1"
  TEMP " 27.0000 "
  IS_TNOM " 1.00000 "
  MAIN.W "300.0n"
  MAIN.L "150.0n"
  MAIN.AD "102.0f"
  MAIN.AS "102.0f"
  MAIN.PD "1.280u"
  MAIN.PS "1.280u"
  MAIN.NF "1.000"
  MAIN.M "1"
  MAIN.NRD "0.000"
  MAIN.NRS "0.000"
  MAIN.LDRIFT1 "1E-06"
  MAIN.LDRIFT2 "1E-06"
  MAIN.SA "0.000"
  MAIN.SB "0.000"
  MAIN.SD "0.000"
  MAIN.SCA "0.000"
  MAIN.SCB "0.000"
  MAIN.SCC "0.000"
  MAIN.SC "0.000"
  MODULE "S552"
  PIN_D "14"
  PIN_G "7"
  PIN_S "8"
  PIN_B "13"
  PIN_E ""
  PIN_6 ""
  XY_ID ""
  FUNC "LW Scale"
  STI "SA ref"
  WPE "WPE ref"
  COMMENT ""
  DIS_MEAS ""
  TypeTCI "10"
END_HEADER

BEGIN_DB
 ICCAP_VAR vg         -0.352         
 ICCAP_VAR vb         1.2            
 ICCAP_VAR vs         -0             

 #vd                    id                    ig                    ib                    is                   
  -0                    5.4e-13               -8.92e-12             2.2e-13               8.22e-12             
  -0.05                 -2.795e-10            -8.92e-12             6e-14                 2.887e-10            
  -0.1                  -3.4162e-10           -9.02e-12             1.4e-13               3.5072e-10           
  -0.15                 -3.6916e-10           -8.94e-12             -4e-14                3.7774e-10           
  -0.2                  -3.9086e-10           -9.08e-12             6e-14                 4.0024e-10           
  -0.25                 -4.1272e-10           -8.78e-12             8e-14                 4.2152e-10           
  -0.3                  -4.354e-10            -8.96e-12             0                     4.4456e-10           
  -0.35                 -4.5804e-10           -8.94e-12             4e-14                 4.6686e-10           
  -0.4                  -4.818e-10            -8.92e-12             0                     4.9084e-10           
  -0.45                 -5.063e-10            -9.14e-12             6e-14                 5.1504e-10           
  -0.5                  -5.3308e-10           -8.74e-12             -2e-14                5.405e-10            
  -0.55                 -5.5928e-10           -8.9e-12              2e-14                 5.6614e-10           
  -0.6                  -5.8656e-10           -8.96e-12             4e-14                 5.937e-10            
  -0.65                 -6.1332e-10           -8.9e-12              2e-14                 6.2344e-10           
  -0.7                  -6.4482e-10           -8.98e-12             -4e-14                6.5454e-10           
  -0.75                 -6.751e-10            -9.04e-12             2e-14                 6.8558e-10           
  -0.8                  -7.0886e-10           -9.12e-12             -6e-14                7.1788e-10           
  -0.85                 -7.4192e-10           -9.12e-12             -8e-14                7.5138e-10           
  -0.9                  -7.7562e-10           -8.82e-12             -2e-14                7.8512e-10           
  -0.95                 -8.1356e-10           -8.98e-12             -4e-14                8.2252e-10           
  -1                    -8.5256e-10           -8.84e-12             -6e-14                8.6026e-10           
  -1.05                 -8.8986e-10           -8.82e-12             -1.4e-13              8.9652e-10           
  -1.1                  -9.3214e-10           -9e-12                -6e-14                9.3962e-10           
  -1.15                 -9.7476e-10           -8.88e-12             -1.2e-13              9.8296e-10           
  -1.2                  -1.0148e-09           -8.74e-12             -4e-14                1.02202e-09          
  -1.25                 -1.0622e-09           -8.78e-12             -1.4e-13              1.07094e-09          
  -1.3                  -1.1118e-09           -8.78e-12             0                     1.12092e-09          
  -1.35                 -1.166e-09            -8.62e-12             4e-14                 1.1746e-09           
END_DB

BEGIN_DB
 ICCAP_VAR vg         -0.552         
 ICCAP_VAR vb         1.2            
 ICCAP_VAR vs         -0             

 #vd                    id                    ig                    ib                    is                   
  -0                    2.441e-10             -2.274e-11            -4e-14                -2.1586e-10          
  -0.05                 -1.005e-07            -2.252e-11            1e-13                 1.006e-07            
  -0.1                  -1.331e-07            -2.264e-11            -4e-14                1.325e-07            
  -0.15                 -1.4676e-07           -2.258e-11            -1.8e-13              1.4802e-07           
  -0.2                  -1.579e-07            -2.25e-11             4e-14                 1.5792e-07           
  -0.25                 -1.6662e-07           -2.276e-11            -4e-14                1.6684e-07           
  -0.3                  -1.7474e-07           -2.26e-11             -1e-13                1.7488e-07           
  -0.35                 -1.829e-07            -2.256e-11            -1.2e-13              1.8312e-07           
  -0.4                  -1.9086e-07           -2.26e-11             -1.6e-13              1.91e-07             
  -0.45                 -1.987e-07            -2.268e-11            -1.2e-13              1.9888e-07           
  -0.5                  -2.0688e-07           -2.268e-11            -1.4e-13              2.0698e-07           
  -0.55                 -2.1506e-07           -2.268e-11            -1.4e-13              2.1514e-07           
  -0.6                  -2.234e-07            -2.26e-11             -1.2e-13              2.2344e-07           
  -0.65                 -2.3184e-07           -2.26e-11             0                     2.3214e-07           
  -0.7                  -2.4064e-07           -2.252e-11            -8e-14                2.4082e-07           
  -0.75                 -2.5154e-07           -2.248e-11            -1e-13                2.5192e-07           
  -0.8                  -2.6092e-07           -2.26e-11             -6e-14                2.6084e-07           
  -0.85                 -2.6998e-07           -2.266e-11            -1e-13                2.702e-07            
  -0.9                  -2.793e-07            -2.252e-11            -6e-14                2.7942e-07           
  -0.95                 -2.8894e-07           -2.248e-11            -4e-14                2.896e-07            
  -1                    -2.9916e-07           -2.262e-11            -1e-13                2.993e-07            
  -1.05                 -3.0974e-07           -2.248e-11            -6e-14                3.0976e-07           
  -1.1                  -3.2032e-07           -2.266e-11            -6e-14                3.2034e-07           
  -1.15                 -3.3088e-07           -2.254e-11            -6e-14                3.3098e-07           
  -1.2                  -3.4146e-07           -2.238e-11            -4e-14                3.4192e-07           
  -1.25                 -3.5272e-07           -2.256e-11            -4e-14                3.529e-07            
  -1.3                  -3.6448e-07           -2.272e-11            8e-14                 3.6488e-07           
  -1.35                 -3.7604e-07           -2.248e-11            3.8e-13               3.766e-07            
END_DB

BEGIN_DB
 ICCAP_VAR vg         -0.752         
 ICCAP_VAR vb         1.2            
 ICCAP_VAR vs         -0             

 #vd                    id                    ig                    ib                    is                   
  -0                    2.3042e-09            -5.006e-11            1.6e-13               -2.1252e-09          
  -0.05                 -1.4348e-06           -4.95e-11             4e-14                 1.4378e-06           
  -0.1                  -2.4046e-06           -4.926e-11            4e-14                 2.406e-06            
  -0.15                 -3.0122e-06           -4.938e-11            -2e-14                3.0142e-06           
  -0.2                  -3.397e-06            -4.942e-11            -8e-14                3.401e-06            
  -0.25                 -3.6502e-06           -4.934e-11            -6e-14                3.6532e-06           
  -0.3                  -3.8368e-06           -4.92e-11             -1.2e-13              3.837e-06            
  -0.35                 -3.989e-06            -4.918e-11            -1e-13                3.9888e-06           
  -0.4                  -4.117e-06            -4.918e-11            -1.2e-13              4.123e-06            
  -0.45                 -4.2376e-06           -4.926e-11            -4e-14                4.2422e-06           
  -0.5                  -4.355e-06            -4.932e-11            -1.6e-13              4.357e-06            
  -0.55                 -4.4614e-06           -4.91e-11             -1e-13                4.4586e-06           
  -0.6                  -4.563e-06            -4.924e-11            -4e-14                4.5694e-06           
  -0.65                 -4.6664e-06           -4.92e-11             -6e-14                4.6708e-06           
  -0.7                  -4.766e-06            -4.918e-11            -2e-14                4.7702e-06           
  -0.75                 -4.8644e-06           -4.914e-11            -8e-14                4.8684e-06           
  -0.8                  -4.961e-06            -4.932e-11            -1e-13                4.9676e-06           
  -0.85                 -5.0604e-06           -4.918e-11            -1.6e-13              5.0668e-06           
  -0.9                  -5.1598e-06           -4.902e-11            -1.8e-13              5.162e-06            
  -0.95                 -5.2534e-06           -4.92e-11             -1.4e-13              5.2564e-06           
  -1                    -5.3532e-06           -4.91e-11             -8e-14                5.3574e-06           
  -1.05                 -5.4482e-06           -4.91e-11             0                     5.4538e-06           
  -1.1                  -5.5436e-06           -4.906e-11            -1.6e-13              5.5516e-06           
  -1.15                 -5.6432e-06           -4.9e-11              -1.2e-13              5.6458e-06           
  -1.2                  -5.7386e-06           -4.896e-11            -1e-13                5.7378e-06           
  -1.25                 -5.8344e-06           -4.898e-11            -4e-14                5.8354e-06           
  -1.3                  -5.9328e-06           -4.898e-11            3e-13                 5.9372e-06           
  -1.35                 -6.0278e-06           -4.894e-11            9.8e-13               6.0322e-06           
END_DB

