! VERSION = 6.00
BEGIN_HEADER
 ICCAP_INPUTS
  vg         V  G GROUND SMU2 0.001 LIN        1    0.5        -1.35      38   -0.05     
  vb         V  B GROUND SMU4 0.1 LIN        2    0          1.2        7    0.2       
  vd         V  D GROUND SMU1 0.1 LIST       3 3 -0.05 -0.6 -1.2
  vs         V  S GROUND SMU3 0.1 CON        -0
 ICCAP_OUTPUTS
  id         I  D GROUND SMU1 B
  ig         I  G GROUND SMU2 B
  ib         I  B GROUND SMU4 B
  is         I  S GROUND SMU3 B
 ICCAP_VALUES
  MASTER_SETUP_TYPE "~dc_idvg~"
  LINVT_VALUE ""
  LISTVT_VALUE ""
  TYPE "-1"
  TEMP " 27.0000 "
  IS_TNOM " 1.00000 "
  MAIN.W "300.0n"
  MAIN.L "140.0n"
  MAIN.AD "102.0f"
  MAIN.AS "102.0f"
  MAIN.PD "1.280u"
  MAIN.PS "1.280u"
  MAIN.NF "1.000"
  MAIN.M "1"
  MAIN.NRD "0.000"
  MAIN.NRS "0.000"
  MAIN.LDRIFT1 "1E-06"
  MAIN.LDRIFT2 "1E-06"
  MAIN.SA "0.000"
  MAIN.SB "0.000"
  MAIN.SD "0.000"
  MAIN.SCA "0.000"
  MAIN.SCB "0.000"
  MAIN.SCC "0.000"
  MAIN.SC "0.000"
  MODULE "S552"
  PIN_D "16"
  PIN_G "5"
  PIN_S "6"
  PIN_B "15"
  PIN_E ""
  PIN_6 ""
  XY_ID ""
  FUNC "LW Scale"
  STI "SA ref"
  WPE "WPE ref"
  COMMENT ""
  DIS_MEAS ""
  TypeTCI "10"
END_HEADER

BEGIN_DB
 ICCAP_VAR vb         0              
 ICCAP_VAR vd         -0.05          
 ICCAP_VAR vs         -0             

 #vg                    id                    ig                    ib                    is                   
  0.5                   0                     1.944e-11             -1.904e-11            1e-13                
  0.45                  -8e-14                3.1e-12               -1.404e-11            8e-14                
  0.4                   6e-14                 6.2e-13               -1.27e-11             4e-14                
  0.35                  0                     4e-14                 -1.202e-11            2.2e-13              
  0.3                   0                     8e-14                 -1.146e-11            6e-14                
  0.25                  -6e-14                -1e-13                -1.096e-11            1.4e-13              
  0.2                   4e-14                 -8e-14                -1.058e-11            1.8e-13              
  0.15                  -2e-14                -8e-14                -1.004e-11            0                    
  0.1                   -1.4e-13              -2.4e-13              -9.7e-12              2.8e-13              
  0.05                  -4e-13                -6e-14                -9.38e-12             5.6e-13              
  0                     -2.18e-12             -4e-13                -8.94e-12             2.12e-12             
  -0.05                 -9.18e-12             -2e-13                -8.66e-12             9.36e-12             
  -0.1                  -4.03e-11             -3.8e-13              -8.38e-12             4.042e-11            
  -0.15                 -1.7548e-10           -3e-13                -8.1e-12              1.7564e-10           
  -0.2                  -7.569e-10            -3.6e-13              -7.86e-12             7.5548e-10           
  -0.25                 -3.1792e-09           -2.2e-13              -7.62e-12             3.1778e-09           
  -0.3                  -1.2676e-08           -2e-13                -7.1e-12              1.2696e-08           
  -0.35                 -4.4988e-08           -3.8e-13              -7.04e-12             4.5046e-08           
  -0.4                  -1.3318e-07           -4.4e-13              -6.78e-12             1.3322e-07           
  -0.45                 -3.1906e-07           -5e-13                -6.5e-12              3.192e-07            
  -0.5                  -6.3264e-07           -4.4e-13              -6.26e-12             6.3284e-07           
  -0.55                 -1.0648e-06           -4.6e-13              -6.16e-12             1.06588e-06          
  -0.6                  -1.5842e-06           -4.4e-13              -5.96e-12             1.5876e-06           
  -0.65                 -2.1526e-06           -6.4e-13              -5.74e-12             2.1584e-06           
  -0.7                  -2.7266e-06           -8e-13                -5.64e-12             2.7304e-06           
  -0.75                 -3.3208e-06           -9.2e-13              -5.56e-12             3.3248e-06           
  -0.8                  -3.897e-06            -1.12e-12             -5.32e-12             3.9088e-06           
  -0.85                 -4.4628e-06           -1.22e-12             -5.22e-12             4.4662e-06           
  -0.9                  -5.0146e-06           -1.6e-12              -5.12e-12             5.0106e-06           
  -0.95                 -5.5106e-06           -1.86e-12             -5.02e-12             5.525e-06            
  -1                    -5.9932e-06           -2.26e-12             -5.02e-12             5.9986e-06           
  -1.05                 -6.4592e-06           -2.62e-12             -4.68e-12             6.4594e-06           
  -1.1                  -6.8818e-06           -3.34e-12             -4.84e-12             6.886e-06            
  -1.15                 -7.2922e-06           -3.86e-12             -4.42e-12             7.2816e-06           
  -1.2                  -7.676e-06            -4.72e-12             -4.46e-12             7.7082e-06           
  -1.25                 -8.054e-06            -5.68e-12             -4.08e-12             8.059e-06            
  -1.3                  -8.3634e-06           -7.36e-12             -3.3e-12              8.374e-06            
  -1.35                 -8.7114e-06           -1.038e-11            -1.5e-12              8.6988e-06           
END_DB

BEGIN_DB
 ICCAP_VAR vb         0.2            
 ICCAP_VAR vd         -0.05          
 ICCAP_VAR vs         -0             

 #vg                    id                    ig                    ib                    is                   
  0.5                   -4e-14                4.2e-13               -2e-14                -6e-14               
  0.45                  0                     6e-14                 4e-14                 0                    
  0.4                   -4e-14                6e-14                 -2e-14                3.6e-13              
  0.35                  -2e-14                2e-14                 0                     0                    
  0.3                   -6e-14                -8e-14                -2e-14                2.2e-13              
  0.25                  2e-14                 -2e-14                -2e-14                8e-14                
  0.2                   -8e-14                -2e-14                8e-14                 1e-13                
  0.15                  0                     -2.6e-13              -2e-14                1.8e-13              
  0.1                   -1.2e-13              -1.4e-13              4e-14                 1.2e-13              
  0.05                  -1.6e-13              -2.2e-13              2e-14                 1.4e-13              
  0                     -5.2e-13              -2.2e-13              0                     6.6e-13              
  -0.05                 -2.8e-12              -3.2e-13              1.6e-13               2.76e-12             
  -0.1                  -1.29e-11             -2.4e-13              8e-14                 1.296e-11            
  -0.15                 -5.796e-11            -2.8e-13              0                     5.812e-11            
  -0.2                  -2.6096e-10           -3e-13                6e-14                 2.6112e-10           
  -0.25                 -1.1546e-09           -2.8e-13              -1.2e-13              1.1538e-09           
  -0.3                  -4.9136e-09           -3e-13                -2e-14                4.9194e-09           
  -0.35                 -1.9374e-08           -2.8e-13              -6e-14                1.9374e-08           
  -0.4                  -6.6044e-08           -3.6e-13              -1e-13                6.6092e-08           
  -0.45                 -1.8228e-07           -4e-13                -6e-14                1.824e-07            
  -0.5                  -4.0814e-07           -3.6e-13              2e-14                 4.0846e-07           
  -0.55                 -7.601e-07            -5.8e-13              0                     7.6022e-07           
  -0.6                  -1.2186e-06           -6e-13                4e-14                 1.2222e-06           
  -0.65                 -1.7498e-06           -6.4e-13              -2e-14                1.7532e-06           
  -0.7                  -2.319e-06            -7.2e-13              -2e-14                2.323e-06            
  -0.75                 -2.9002e-06           -8.6e-13              2e-14                 2.9056e-06           
  -0.8                  -3.4834e-06           -1.04e-12             0                     3.4792e-06           
  -0.85                 -4.0398e-06           -1.26e-12             0                     4.0228e-06           
  -0.9                  -4.5696e-06           -1.5e-12              6e-14                 4.5724e-06           
  -0.95                 -5.0864e-06           -1.92e-12             -1.4e-13              5.0896e-06           
  -1                    -5.5794e-06           -2.04e-12             1.6e-13               5.5846e-06           
  -1.05                 -6.051e-06            -2.72e-12             0                     6.0198e-06           
  -1.1                  -6.4952e-06           -3.24e-12             0                     6.497e-06            
  -1.15                 -6.8966e-06           -3.86e-12             2e-14                 6.891e-06            
  -1.2                  -7.2798e-06           -4.52e-12             1.8e-13               7.266e-06            
  -1.25                 -7.6324e-06           -5.56e-12             1.8e-13               7.617e-06            
  -1.3                  -7.9958e-06           -7.4e-12              1.12e-12              8.002e-06            
  -1.35                 -8.318e-06            -1.032e-11            2.78e-12              8.3206e-06           
END_DB

BEGIN_DB
 ICCAP_VAR vb         0.4            
 ICCAP_VAR vd         -0.05          
 ICCAP_VAR vs         -0             

 #vg                    id                    ig                    ib                    is                   
  0.5                   -4e-14                4.4e-13               4e-14                 1e-13                
  0.45                  -6e-14                2e-13                 1.4e-13               -1.2e-13             
  0.4                   8e-14                 8e-14                 0                     1.8e-13              
  0.35                  4e-14                 2e-14                 8e-14                 2e-14                
  0.3                   6e-14                 -1.2e-13              6e-14                 1.8e-13              
  0.25                  0                     0                     2e-14                 8e-14                
  0.2                   4e-14                 -1.6e-13              -4e-14                2.4e-13              
  0.15                  0                     -8e-14                1.2e-13               -6e-14               
  0.1                   2e-14                 -2.6e-13              -1.6e-13              3.8e-13              
  0.05                  4e-14                 -1.6e-13              2e-14                 -2e-14               
  0                     -2.6e-13              -4e-14                -6e-14                3.4e-13              
  -0.05                 -1.04e-12             -3.4e-13              -4e-14                1.06e-12             
  -0.1                  -4.64e-12             -1.4e-13              1.6e-13               4.56e-12             
  -0.15                 -2.182e-11            -2.4e-13              4e-14                 2.196e-11            
  -0.2                  -1.013e-10            -2.4e-13              0                     1.012e-10            
  -0.25                 -4.6324e-10           -3e-13                2e-14                 4.6294e-10           
  -0.3                  -2.0654e-09           -2.4e-13              -2e-14                2.0656e-09           
  -0.35                 -8.7082e-09           -4e-13                0                     8.7042e-09           
  -0.4                  -3.3076e-08           -4e-13                -4e-14                3.3124e-08           
  -0.45                 -1.04354e-07          -3.6e-13              1e-13                 1.04426e-07          
  -0.5                  -2.633e-07            -5e-13                -6e-14                2.6344e-07           
  -0.55                 -5.4076e-07           -5.8e-13              -4e-14                5.4134e-07           
  -0.6                  -9.3856e-07           -6e-13                1.2e-13               9.391e-07            
  -0.65                 -1.4252e-06           -6.2e-13              -2e-14                1.4292e-06           
  -0.7                  -1.9688e-06           -7e-13                -6e-14                1.971e-06            
  -0.75                 -2.5354e-06           -7.8e-13              -8e-14                2.54e-06             
  -0.8                  -3.0958e-06           -1.08e-12             1.2e-13               3.0916e-06           
  -0.85                 -3.6522e-06           -1.26e-12             -2e-14                3.6562e-06           
  -0.9                  -4.195e-06            -1.44e-12             2e-14                 4.199e-06            
  -0.95                 -4.7186e-06           -1.8e-12              1e-13                 4.7248e-06           
  -1                    -5.2206e-06           -2.2e-12              -2e-14                5.2242e-06           
  -1.05                 -5.6948e-06           -2.58e-12             1.4e-13               5.6942e-06           
  -1.1                  -6.1288e-06           -3.2e-12              6e-14                 6.1312e-06           
  -1.15                 -6.5392e-06           -3.76e-12             -2e-14                6.5586e-06           
  -1.2                  -6.9334e-06           -4.5e-12              1.6e-13               6.9458e-06           
  -1.25                 -7.3122e-06           -5.74e-12             2.4e-13               7.314e-06            
  -1.3                  -7.6632e-06           -7.24e-12             1.04e-12              7.692e-06            
  -1.35                 -7.9872e-06           -1.032e-11            2.88e-12              7.9926e-06           
END_DB

BEGIN_DB
 ICCAP_VAR vb         0.6            
 ICCAP_VAR vd         -0.05          
 ICCAP_VAR vs         -0             

 #vg                    id                    ig                    ib                    is                   
  0.5                   -1e-13                6e-13                 1.2e-13               -1e-13               
  0.45                  -1.4e-13              2.4e-13               1.4e-13               6e-14                
  0.4                   -2e-14                8e-14                 2e-14                 1e-13                
  0.35                  -4e-14                0                     8e-14                 2e-14                
  0.3                   0                     1.4e-13               1.4e-13               4e-14                
  0.25                  -2e-14                -1.2e-13              1e-13                 1e-13                
  0.2                   -4e-14                -4e-14                6e-14                 2e-14                
  0.15                  0                     -1e-13                8e-14                 2e-14                
  0.1                   0                     -2.4e-13              -2e-14                1.6e-13              
  0.05                  1e-13                 -1.6e-13              4e-14                 6e-14                
  0                     4e-14                 -2.2e-13              0                     4.6e-13              
  -0.05                 -3.8e-13              -2.2e-13              0                     3.6e-13              
  -0.1                  -1.9e-12              -2.6e-13              0                     2.18e-12             
  -0.15                 -9.16e-12             -3.6e-13              2e-14                 9.44e-12             
  -0.2                  -4.372e-11            -3.2e-13              -2e-14                4.41e-11             
  -0.25                 -2.0554e-10           -3.4e-13              -2e-14                2.0608e-10           
  -0.3                  -9.5004e-10           -3.8e-13              2e-14                 9.504e-10            
  -0.35                 -4.1868e-09           -3.4e-13              -2e-14                4.1824e-09           
  -0.4                  -1.714e-08            -3.4e-13              0                     1.7164e-08           
  -0.45                 -6.026e-08            -3e-13                0                     6.0378e-08           
  -0.5                  -1.7048e-07           -3.6e-13              6e-14                 1.7084e-07           
  -0.55                 -3.8486e-07           -5.6e-13              0                     3.8544e-07           
  -0.6                  -7.2196e-07           -6.2e-13              4e-14                 7.2224e-07           
  -0.65                 -1.1514e-06           -5.2e-13              6e-14                 1.1544e-06           
  -0.7                  -1.659e-06            -8.8e-13              -2e-14                1.6628e-06           
  -0.75                 -2.2048e-06           -8.4e-13              -2e-14                2.21e-06             
  -0.8                  -2.7684e-06           -1.04e-12             -1.2e-13              2.7728e-06           
  -0.85                 -3.3276e-06           -1.2e-12              1e-13                 3.3328e-06           
  -0.9                  -3.8754e-06           -1.58e-12             -8e-14                3.8814e-06           
  -0.95                 -4.3948e-06           -1.84e-12             -1e-13                4.3992e-06           
  -1                    -4.9014e-06           -2.08e-12             2e-14                 4.903e-06            
  -1.05                 -5.3782e-06           -2.6e-12              6e-14                 5.3826e-06           
  -1.1                  -5.8366e-06           -3.14e-12             0                     5.8346e-06           
  -1.15                 -6.2684e-06           -3.74e-12             4e-14                 6.2722e-06           
  -1.2                  -6.6608e-06           -4.52e-12             1.4e-13               6.6694e-06           
  -1.25                 -7.0338e-06           -5.58e-12             2.2e-13               7.0276e-06           
  -1.3                  -7.3786e-06           -7.18e-12             1.14e-12              7.3848e-06           
  -1.35                 -7.7288e-06           -1.036e-11            2.92e-12              7.7158e-06           
END_DB

BEGIN_DB
 ICCAP_VAR vb         0.8            
 ICCAP_VAR vd         -0.05          
 ICCAP_VAR vs         -0             

 #vg                    id                    ig                    ib                    is                   
  0.5                   2e-14                 5.4e-13               8e-14                 -2e-14               
  0.45                  0                     2.2e-13               4e-14                 2.2e-13              
  0.4                   0                     1.4e-13               2e-14                 4e-14                
  0.35                  0                     0                     -4e-14                1.4e-13              
  0.3                   4e-14                 0                     6e-14                 4e-14                
