! VERSION = 6.00
BEGIN_HEADER
 ICCAP_INPUTS
  vd         V  D GROUND SMU1 0.1 LIN        1    -0         -1.35      28   -0.05     
  vg         V  G GROUND SMU2 0.001 LIN        2    -0.418     -1.35      5    -0.233    
  vb         V  B GROUND SMU4 0.1 CON        -0
  vs         V  S GROUND SMU3 0.1 CON        -0
 ICCAP_OUTPUTS
  id         I  D GROUND SMU1 B
  ig         I  G GROUND SMU2 B
  ib         I  B GROUND SMU4 B
  is         I  S GROUND SMU3 B
 ICCAP_VALUES
  MASTER_SETUP_TYPE "~dc_idvd~"
  LINVT_VALUE "|idvg|100.0n|100.0m|1.000m|5|1.350|"
  LISTVT_VALUE ""
  TYPE "-1"
  TEMP " 70.0000 "
  IS_TNOM " 0.00000 "
  MAIN.W "150.0n"
  MAIN.L "180.0n"
  MAIN.AD "100.5f"
  MAIN.AS "100.5f"
  MAIN.PD "1.340u"
  MAIN.PS "1.340u"
  MAIN.NF "1.000"
  MAIN.M "1"
  MAIN.NRD "0.000"
  MAIN.NRS "0.000"
  MAIN.LDRIFT1 "1E-06"
  MAIN.LDRIFT2 "1E-06"
  MAIN.SA "0.000"
  MAIN.SB "0.000"
  MAIN.SD "0.000"
  MAIN.SCA "0.000"
  MAIN.SCB "0.000"
  MAIN.SCC "0.000"
  MAIN.SC "0.000"
  MODULE "S555"
  PIN_D "20"
  PIN_G "1"
  PIN_S "2"
  PIN_B "19"
  PIN_E ""
  PIN_6 ""
  XY_ID ""
  FUNC "LW Scale"
  STI "SA ref"
  WPE "WPE ref"
  COMMENT ""
  DIS_MEAS ""
  TypeTCI "10"
END_HEADER

BEGIN_DB
 ICCAP_VAR vg         -0.418         
 ICCAP_VAR vb         -0             
 ICCAP_VAR vs         -0             

 #vd                    id                    ig                    ib                    is                   
  -0                    3.983e-10             -1.6e-13              -4.862e-11            -4.9628e-10          
  -0.05                 -2.3946e-07           -8e-14                -4.698e-11            2.3928e-07           
  -0.1                  -3.4748e-07           -4e-14                -4.612e-11            3.4788e-07           
  -0.15                 -3.9824e-07           0                     -4.508e-11            3.9822e-07           
  -0.2                  -4.279e-07            -1e-13                -4.4e-11              4.28e-07             
  -0.25                 -4.503e-07            -2e-13                -4.306e-11            4.5024e-07           
  -0.3                  -4.6928e-07           -1.2e-13              -4.208e-11            4.6974e-07           
  -0.35                 -4.868e-07            -4e-14                -4.108e-11            4.8698e-07           
  -0.4                  -5.0218e-07           -1e-13                -4.012e-11            5.022e-07            
  -0.45                 -5.167e-07            -1e-13                -3.91e-11             5.1784e-07           
  -0.5                  -5.3358e-07           -8e-14                -3.81e-11             5.3308e-07           
  -0.55                 -5.4802e-07           -1.2e-13              -3.708e-11            5.4754e-07           
  -0.6                  -5.6154e-07           -4e-14                -3.602e-11            5.6166e-07           
  -0.65                 -5.7528e-07           -4e-14                -3.498e-11            5.743e-07            
  -0.7                  -5.8648e-07           -4e-14                -3.408e-11            5.88e-07             
  -0.75                 -5.9998e-07           -1.4e-13              -3.312e-11            6.008e-07            
  -0.8                  -6.1258e-07           0                     -3.206e-11            6.129e-07            
  -0.85                 -6.2488e-07           -1.4e-13              -3.106e-11            6.2478e-07           
  -0.9                  -6.3554e-07           -6e-14                -3.006e-11            6.3634e-07           
  -0.95                 -6.4778e-07           -1e-13                -2.9e-11              6.4738e-07           
  -1                    -6.5776e-07           -8e-14                -2.818e-11            6.5686e-07           
  -1.05                 -6.682e-07            -1.4e-13              -2.716e-11            6.6806e-07           
  -1.1                  -6.7978e-07           -1.6e-13              -2.614e-11            6.801e-07            
  -1.15                 -6.9298e-07           -4e-14                -2.532e-11            6.9324e-07           
  -1.2                  -7.0362e-07           -1.4e-13              -2.424e-11            7.033e-07            
  -1.25                 -7.1154e-07           -2e-14                -2.308e-11            7.1316e-07           
  -1.3                  -7.2262e-07           -1.2e-13              -2.174e-11            7.2168e-07           
  -1.35                 -7.3278e-07           2e-14                 -2.004e-11            7.332e-07            
END_DB

BEGIN_DB
 ICCAP_VAR vg         -0.651         
 ICCAP_VAR vb         -0             
 ICCAP_VAR vs         -0             

 #vd                    id                    ig                    ib                    is                   
  -0                    1.8814e-09            -4.8e-13              -2.05e-11             -1.6722e-09          
  -0.05                 -1.2776e-06           -4.6e-13              -1.884e-11            1.2864e-06           
  -0.1                  -2.2598e-06           -4.2e-13              -1.814e-11            2.2626e-06           
  -0.15                 -2.9534e-06           -3.8e-13              -1.764e-11            2.9566e-06           
  -0.2                  -3.4204e-06           -3.2e-13              -1.688e-11            3.4246e-06           
  -0.25                 -3.7264e-06           -3.6e-13              -1.608e-11            3.7296e-06           
  -0.3                  -3.935e-06            -4.4e-13              -1.552e-11            3.9376e-06           
  -0.35                 -4.0876e-06           -4.2e-13              -1.472e-11            4.091e-06            
  -0.4                  -4.2128e-06           -3.6e-13              -1.41e-11             4.2162e-06           
  -0.45                 -4.3196e-06           -2.8e-13              -1.348e-11            4.3224e-06           
  -0.5                  -4.4138e-06           -3.8e-13              -1.272e-11            4.417e-06            
  -0.55                 -4.4628e-06           -4e-13                -1.204e-11            4.4656e-06           
  -0.6                  -4.5444e-06           -5e-13                -1.154e-11            4.5478e-06           
  -0.65                 -4.623e-06            -3.4e-13              -1.09e-11             4.6268e-06           
  -0.7                  -4.698e-06            -3.6e-13              -1.03e-11             4.7008e-06           
  -0.75                 -4.7702e-06           -4e-13                -9.82e-12             4.7726e-06           
  -0.8                  -4.84e-06             -3.8e-13              -9.24e-12             4.843e-06            
  -0.85                 -4.9068e-06           -3.8e-13              -8.8e-12              4.9104e-06           
  -0.9                  -4.9724e-06           -3.8e-13              -8.3e-12              4.9604e-06           
  -0.95                 -5.0376e-06           -3.4e-13              -7.88e-12             5.0406e-06           
  -1                    -5.0996e-06           -3.2e-13              -7.46e-12             5.103e-06            
  -1.05                 -5.1604e-06           -3.2e-13              -6.94e-12             5.1632e-06           
  -1.1                  -5.2224e-06           -3.2e-13              -6.54e-12             5.2242e-06           
  -1.15                 -5.281e-06            -4.6e-13              -6.14e-12             5.2834e-06           
  -1.2                  -5.3386e-06           -3.6e-13              -5.66e-12             5.3418e-06           
  -1.25                 -5.3926e-06           -2.8e-13              -5.04e-12             5.4002e-06           
  -1.3                  -5.4528e-06           -3.4e-13              -4.18e-12             5.4556e-06           
  -1.35                 -5.55e-06             -3e-13                -2.78e-12             5.549e-06            
END_DB

BEGIN_DB
 ICCAP_VAR vg         -0.884         
 ICCAP_VAR vb         -0             
 ICCAP_VAR vs         -0             

 #vd                    id                    ig                    ib                    is                   
  -0                    2.7152e-09            -1.92e-12             -8.14e-12             -2.6784e-09          
  -0.05                 -2.4222e-06           -1.6e-12              -7.54e-12             2.428e-06            
  -0.1                  -4.5498e-06           -1.54e-12             -7.26e-12             4.5326e-06           
  -0.15                 -6.3746e-06           -1.36e-12             -6.94e-12             6.3774e-06           
  -0.2                  -7.889e-06            -1.26e-12             -6.66e-12             7.8938e-06           
  -0.25                 -9.1148e-06           -1.24e-12             -6.34e-12             9.1194e-06           
  -0.3                  -1.0071e-05           -1.14e-12             -5.86e-12             1.00686e-05          
  -0.35                 -1.07986e-05          -1.02e-12             -5.52e-12             1.08064e-05          
  -0.4                  -1.1352e-05           -1.02e-12             -5.12e-12             1.13566e-05          
  -0.45                 -1.1766e-05           -1.04e-12             -4.76e-12             1.1776e-05           
  -0.5                  -1.21e-05             -1.02e-12             -4.46e-12             1.2108e-05           
  -0.55                 -1.2382e-05           -9.2e-13              -4.24e-12             1.2388e-05           
  -0.6                  -1.262e-05            -8.8e-13              -3.98e-12             1.2624e-05           
  -0.65                 -1.283e-05            -1e-12                -3.82e-12             1.2834e-05           
  -0.7                  -1.3008e-05           -9e-13                -3.46e-12             1.3024e-05           
  -0.75                 -1.3196e-05           -9.4e-13              -3.12e-12             1.3202e-05           
  -0.8                  -1.3444e-05           -9.2e-13              -2.88e-12             1.3448e-05           
  -0.85                 -1.3608e-05           -1e-12                -2.78e-12             1.362e-05            
  -0.9                  -1.3758e-05           -9.2e-13              -2.62e-12             1.3766e-05           
  -0.95                 -1.3914e-05           -9e-13                -2.32e-12             1.392e-05            
  -1                    -1.4048e-05           -9e-13                -1.96e-12             1.4076e-05           
  -1.05                 -1.4258e-05           -9.6e-13              -1.72e-12             1.4272e-05           
  -1.1                  -1.432e-05            -7.8e-13              -1.58e-12             1.4228e-05           
  -1.15                 -1.437e-05            -9.4e-13              -1.4e-12              1.4378e-05           
  -1.2                  -1.4494e-05           -9e-13                -1.18e-12             1.4508e-05           
  -1.25                 -1.4624e-05           -9e-13                -7.4e-13              1.4724e-05           
  -1.3                  -1.4832e-05           -8.4e-13              -5e-13                1.4838e-05           
  -1.35                 -1.4942e-05           -9e-13                1e-13                 1.4856e-05           
END_DB

BEGIN_DB
 ICCAP_VAR vg         -1.117         
 ICCAP_VAR vb         -0             
 ICCAP_VAR vs         -0             

 #vd                    id                    ig                    ib                    is                   
  -0                    3.2276e-09            -4.82e-12             -4.5e-12              -3.3866e-09          
  -0.05                 -3.3544e-06           -4.34e-12             -4.18e-12             3.359e-06            
  -0.1                  -6.4728e-06           -3.98e-12             -4.1e-12              6.4932e-06           
  -0.15                 -9.3052e-06           -3.82e-12             -4e-12                9.3228e-06           
  -0.2                  -1.188e-05            -3.52e-12             -3.52e-12             1.1812e-05           
  -0.25                 -1.4208e-05           -3.28e-12             -3.24e-12             1.4236e-05           
  -0.3                  -1.6198e-05           -3.1e-12              -3.12e-12             1.6128e-05           
  -0.35                 -1.793e-05            -2.88e-12             -3e-12                1.7934e-05           
  -0.4                  -1.9362e-05           -2.82e-12             -2.72e-12             1.9382e-05           
  -0.45                 -2.0488e-05           -2.72e-12             -2.44e-12             2.0492e-05           
  -0.5                  -2.1532e-05           -2.62e-12             -2.24e-12             2.151e-05            
  -0.55                 -2.232e-05            -2.5e-12              -2e-12                2.2326e-05           
  -0.6                  -2.298e-05            -2.54e-12             -1.84e-12             2.294e-05            
  -0.65                 -2.3468e-05           -2.38e-12             -1.56e-12             2.3458e-05           
  -0.7                  -2.3892e-05           -2.36e-12             -1.46e-12             2.3896e-05           
  -0.75                 -2.4272e-05           -2.4e-12              -1.24e-12             2.4212e-05           
  -0.8                  -2.4522e-05           -2.3e-12              -9.8e-13              2.4642e-05           
  -0.85                 -2.4924e-05           -2.22e-12             -8.8e-13              2.485e-05            
  -0.9                  -2.5234e-05           -2.2e-12              -7.4e-13              2.5224e-05           
  -0.95                 -2.549e-05            -2.24e-12             -4e-13                2.5492e-05           
  -1                    -2.5644e-05           -2.3e-12              -2.8e-13              2.5738e-05           
  -1.05                 -2.5932e-05           -2.22e-12             -1.6e-13              2.5904e-05           
  -1.1                  -2.6158e-05           -2.24e-12             -2e-14                2.6218e-05           
  -1.15                 -2.65e-05             -2.24e-12             1e-13                 2.6412e-05           
  -1.2                  -2.6618e-05           -2.24e-12             2.4e-13               2.663e-05            
  -1.25                 -2.6874e-05           -2.18e-12             5e-13                 2.691e-05            
  -1.3                  -2.709e-05            -2.16e-12             7e-13                 2.712e-05            
  -1.35                 -2.7214e-05           -2.16e-12             1.04e-12              2.7266e-05           
END_DB

BEGIN_DB
 ICCAP_VAR vg         -1.35          
 ICCAP_VAR vb         -0             
 ICCAP_VAR vs         -0             

 #vd                    id                    ig                    ib                    is                   
  -0                    3.3756e-09            -1.108e-11            -3.14e-12             -3.891e-09           
  -0.05                 -4.126e-06            -1.042e-11            -2.92e-12             4.128e-06            
  -0.1                  -8.0644e-06           -9.66e-12             -2.7e-12              8.082e-06            
  -0.15                 -1.1778e-05           -8.9e-12              -2.5e-12              1.1798e-05           
  -0.2                  -1.5212e-05           -8.46e-12             -2.34e-12             1.5224e-05           
  -0.25                 -1.844e-05            -7.94e-12             -2.2e-12              1.8386e-05           
  -0.3                  -2.1334e-05           -7.46e-12             -2.12e-12             2.1318e-05           
  -0.35                 -2.3952e-05           -7.1e-12              -1.86e-12             2.3964e-05           
  -0.4                  -2.6288e-05           -6.78e-12             -1.6e-12              2.6232e-05           
  -0.45                 -2.8338e-05           -6.44e-12             -1.4e-12              2.8402e-05           
  -0.5                  -3.0192e-05           -6.06e-12             -1.3e-12              3.0188e-05           
  -0.55                 -3.1888e-05           -5.92e-12             -1.08e-12             3.1838e-05           
  -0.6                  -3.3132e-05           -5.78e-12             -9.6e-13              3.3028e-05           
  -0.65                 -3.4354e-05           -5.66e-12             -8.2e-13              3.439e-05            
  -0.7                  -3.5464e-05           -5.46e-12             -5.4e-13              3.531e-05            
  -0.75                 -3.6086e-05           -5.48e-12             -3.8e-13              3.603e-05            
  -0.8                  -3.6862e-05           -5.34e-12             -2.8e-13              3.6796e-05           
  -0.85                 -3.741e-05            -5.24e-12             -6e-14                3.7624e-05           
  -0.9                  -3.8038e-05           -5.2e-12              4e-14                 3.8002e-05           
  -0.95                 -3.845e-05            -5.12e-12             2.2e-13               3.8504e-05           
  -1                    -3.8938e-05           -5.02e-12             4.8e-13               3.892e-05            
  -1.05                 -3.9388e-05           -4.96e-12             5.4e-13               3.9386e-05           
  -1.1                  -3.9714e-05           -5.04e-12             5.8e-13               3.9748e-05           
  -1.15                 -3.9906e-05           -5e-12                8.2e-13               3.9994e-05           
  -1.2                  -4.02e-05             -4.82e-12             1.08e-12              4.029e-05            
  -1.25                 -4.0688e-05           -4.94e-12             1.1e-12               4.0706e-05           
  -1.3                  -4.1044e-05           -4.88e-12             1.3e-12               4.1004e-05           
  -1.35                 -4.1312e-05           -4.98e-12             1.34e-12              4.1262e-05           
END_DB

