! VERSION = 6.00
BEGIN_HEADER
 ICCAP_INPUTS
  vd         V  D GROUND SMU1 0.1 LIN        1    -0         -1.35      28   -0.05     
  vg         V  G GROUND SMU2 0.001 LIN        2    -0.538     -1.35      5    -0.203    
  vb         V  B GROUND SMU4 0.1 CON        1.2
  vs         V  S GROUND SMU3 0.1 CON        -0
 ICCAP_OUTPUTS
  id         I  D GROUND SMU1 B
  ig         I  G GROUND SMU2 B
  ib         I  B GROUND SMU4 B
  is         I  S GROUND SMU3 B
 ICCAP_VALUES
  MASTER_SETUP_TYPE "~dc_idvd~"
  LINVT_VALUE "|idvg|100.0n|100.0m|1.000m|5|1.350|"
  LISTVT_VALUE ""
  TYPE "-1"
  TEMP " 125.000 "
  IS_TNOM " 0.00000 "
  MAIN.W "300.0n"
  MAIN.L "10.00u"
  MAIN.AD "102.0f"
  MAIN.AS "102.0f"
  MAIN.PD "1.280u"
  MAIN.PS "1.280u"
  MAIN.NF "1.000"
  MAIN.M "1"
  MAIN.NRD "0.000"
  MAIN.NRS "0.000"
  MAIN.LDRIFT1 "1E-06"
  MAIN.LDRIFT2 "1E-06"
  MAIN.SA "0.000"
  MAIN.SB "0.000"
  MAIN.SD "0.000"
  MAIN.SCA "0.000"
  MAIN.SCB "0.000"
  MAIN.SCC "0.000"
  MAIN.SC "0.000"
  MODULE "S553"
  PIN_D "18"
  PIN_G "3"
  PIN_S "4"
  PIN_B "17"
  PIN_E ""
  PIN_6 ""
  XY_ID ""
  FUNC "W Scale"
  STI "SA ref"
  WPE "WPE ref"
  COMMENT ""
  DIS_MEAS ""
  TypeTCI "10"
END_HEADER

BEGIN_DB
 ICCAP_VAR vg         -0.538         
 ICCAP_VAR vb         1.2            
 ICCAP_VAR vs         -0             

 #vd                    id                    ig                    ib                    is                   
  -0                    1.476e-11             -7.54e-12             5.288e-11             -1.03e-11            
  -0.05                 -9.036e-09            -5.82e-12             4.378e-11             9.0396e-09           
  -0.1                  -1.3812e-08           -5e-12                3.944e-11             1.3836e-08           
  -0.15                 -1.5802e-08           -4.46e-12             3.762e-11             1.582e-08            
  -0.2                  -1.645e-08            -4.42e-12             3.574e-11             1.6474e-08           
  -0.25                 -1.6642e-08           -4.22e-12             3.448e-11             1.6662e-08           
  -0.3                  -1.671e-08            -4.18e-12             3.256e-11             1.6728e-08           
  -0.35                 -1.6744e-08           -4.14e-12             3.132e-11             1.676e-08            
  -0.4                  -1.6768e-08           -4.16e-12             2.964e-11             1.6788e-08           
  -0.45                 -1.6788e-08           -4.14e-12             2.828e-11             1.6806e-08           
  -0.5                  -1.68e-08             -4.26e-12             2.818e-11             1.682e-08            
  -0.55                 -1.6816e-08           -4.14e-12             2.67e-11              1.6834e-08           
  -0.6                  -1.6828e-08           -4.14e-12             2.594e-11             1.6848e-08           
  -0.65                 -1.6842e-08           -4.12e-12             2.474e-11             1.6864e-08           
  -0.7                  -1.6852e-08           -4.18e-12             2.402e-11             1.6874e-08           
  -0.75                 -1.6868e-08           -4.2e-12              2.38e-11              1.6886e-08           
  -0.8                  -1.6878e-08           -4.06e-12             2.298e-11             1.6898e-08           
  -0.85                 -1.6888e-08           -4.18e-12             2.2e-11               1.6906e-08           
  -0.9                  -1.6894e-08           -4.14e-12             2.162e-11             1.6916e-08           
  -0.95                 -1.6904e-08           -4.06e-12             2.126e-11             1.692e-08            
  -1                    -1.6916e-08           -4.04e-12             2.074e-11             1.6932e-08           
  -1.05                 -1.6924e-08           -4.08e-12             2.026e-11             1.6944e-08           
  -1.1                  -1.6932e-08           -3.92e-12             1.978e-11             1.6948e-08           
  -1.15                 -1.6938e-08           -4.02e-12             1.962e-11             1.6954e-08           
  -1.2                  -1.6942e-08           -4.12e-12             1.892e-11             1.696e-08            
  -1.25                 -1.695e-08            -3.98e-12             1.84e-11              1.6968e-08           
  -1.3                  -1.6954e-08           -3.96e-12             1.836e-11             1.6978e-08           
  -1.35                 -1.6966e-08           -3.94e-12             1.798e-11             1.6978e-08           
END_DB

BEGIN_DB
 ICCAP_VAR vg         -0.741         
 ICCAP_VAR vb         1.2            
 ICCAP_VAR vs         -0             

 #vd                    id                    ig                    ib                    is                   
  -0                    5.196e-11             -3.578e-11            1.292e-11             -1.766e-11           
  -0.05                 -2.9744e-08           -3.046e-11            1.244e-11             2.9786e-08           
  -0.1                  -5.3302e-08           -2.658e-11            1.328e-11             5.3352e-08           
  -0.15                 -7.084e-08            -2.358e-11            1.298e-11             7.0904e-08           
  -0.2                  -8.2758e-08           -2.126e-11            1.288e-11             8.2792e-08           
  -0.25                 -8.9752e-08           -2.028e-11            1.23e-11              8.977e-08            
  -0.3                  -9.3126e-08           -1.952e-11            1.248e-11             9.3168e-08           
  -0.35                 -9.4438e-08           -1.928e-11            1.268e-11             9.447e-08            
  -0.4                  -9.4948e-08           -1.922e-11            1.24e-11              9.4976e-08           
  -0.45                 -9.5142e-08           -1.916e-11            1.228e-11             9.5174e-08           
  -0.5                  -9.529e-08            -1.914e-11            1.206e-11             9.5346e-08           
  -0.55                 -9.5408e-08           -1.928e-11            1.188e-11             9.5432e-08           
  -0.6                  -9.549e-08            -1.926e-11            1.186e-11             9.5514e-08           
  -0.65                 -9.5566e-08           -1.916e-11            1.162e-11             9.5606e-08           
  -0.7                  -9.5656e-08           -1.9e-11              1.148e-11             9.5718e-08           
  -0.75                 -9.5734e-08           -1.906e-11            1.138e-11             9.579e-08            
  -0.8                  -9.5816e-08           -1.92e-11             1.082e-11             9.5846e-08           
  -0.85                 -9.5856e-08           -1.906e-11            1.1e-11               9.5914e-08           
  -0.9                  -9.5924e-08           -1.904e-11            1.134e-11             9.5964e-08           
  -0.95                 -9.5982e-08           -1.908e-11            1.194e-11             9.6006e-08           
  -1                    -9.6014e-08           -1.9e-11              1.156e-11             9.6044e-08           
  -1.05                 -9.6056e-08           -1.892e-11            1.106e-11             9.6082e-08           
  -1.1                  -9.6094e-08           -1.896e-11            1.086e-11             9.6138e-08           
  -1.15                 -9.615e-08            -1.908e-11            1.078e-11             9.6204e-08           
  -1.2                  -9.6202e-08           -1.91e-11             9.94e-12              9.6238e-08           
  -1.25                 -9.6252e-08           -1.91e-11             1.058e-11             9.6294e-08           
  -1.3                  -9.627e-08            -1.89e-11             1.028e-11             9.632e-08            
  -1.35                 -9.6324e-08           -1.894e-11            1.024e-11             9.636e-08            
END_DB

BEGIN_DB
 ICCAP_VAR vg         -0.944         
 ICCAP_VAR vb         1.2            
 ICCAP_VAR vs         -0             

 #vd                    id                    ig                    ib                    is                   
  -0                    1.0556e-10            -1.0736e-10           8.72e-12              -2.66e-12            
  -0.05                 -5.1282e-08           -9.56e-11             7.6e-12               5.1392e-08           
  -0.1                  -9.6618e-08           -8.574e-11            8.84e-12              9.6736e-08           
  -0.15                 -1.3576e-07           -7.712e-11            8.42e-12              1.3594e-07           
  -0.2                  -1.688e-07            -7.042e-11            8.44e-12              1.6894e-07           
  -0.25                 -1.9568e-07           -6.48e-11             8.48e-12              1.9584e-07           
  -0.3                  -2.1646e-07           -6.072e-11            8.92e-12              2.1662e-07           
  -0.35                 -2.3136e-07           -5.774e-11            8.32e-12              2.3158e-07           
  -0.4                  -2.4108e-07           -5.576e-11            8.18e-12              2.4116e-07           
  -0.45                 -2.4628e-07           -5.47e-11             8.48e-12              2.4642e-07           
  -0.5                  -2.4878e-07           -5.418e-11            8.6e-12               2.4898e-07           
  -0.55                 -2.4986e-07           -5.394e-11            8.92e-12              2.5e-07              
  -0.6                  -2.5036e-07           -5.384e-11            8.34e-12              2.5056e-07           
  -0.65                 -2.5074e-07           -5.378e-11            8.16e-12              2.5094e-07           
  -0.7                  -2.5098e-07           -5.382e-11            8.04e-12              2.5114e-07           
  -0.75                 -2.512e-07            -5.37e-11             7.96e-12              2.514e-07            
  -0.8                  -2.5146e-07           -5.378e-11            7.32e-12              2.5162e-07           
  -0.85                 -2.517e-07            -5.36e-11             8.12e-12              2.5186e-07           
  -0.9                  -2.5182e-07           -5.362e-11            8.06e-12              2.5198e-07           
  -0.95                 -2.5198e-07           -5.35e-11             7.92e-12              2.521e-07            
  -1                    -2.521e-07            -5.348e-11            8.32e-12              2.522e-07            
  -1.05                 -2.5218e-07           -5.34e-11             7.86e-12              2.5234e-07           
  -1.1                  -2.523e-07            -5.342e-11            8.34e-12              2.5244e-07           
  -1.15                 -2.5246e-07           -5.338e-11            8.16e-12              2.5254e-07           
  -1.2                  -2.526e-07            -5.332e-11            8e-12                 2.5268e-07           
  -1.25                 -2.5262e-07           -5.342e-11            7.9e-12               2.5282e-07           
  -1.3                  -2.5278e-07           -5.338e-11            8.08e-12              2.5288e-07           
  -1.35                 -2.5286e-07           -5.332e-11            7.82e-12              2.53e-07             
END_DB

BEGIN_DB
 ICCAP_VAR vg         -1.147         
 ICCAP_VAR vb         1.2            
 ICCAP_VAR vs         -0             

 #vd                    id                    ig                    ib                    is                   
  -0                    1.9272e-10            -2.4802e-10           7.42e-12              4.934e-11            
  -0.05                 -7.0816e-08           -2.2652e-10           6.12e-12              7.1062e-08           
  -0.1                  -1.3624e-07           -2.076e-10            6.16e-12              1.365e-07            
  -0.15                 -1.9602e-07           -1.9064e-10           7e-12                 1.963e-07            
  -0.2                  -2.5008e-07           -1.759e-10            6.42e-12              2.5036e-07           
  -0.25                 -2.9824e-07           -1.634e-10            6.94e-12              2.9852e-07           
  -0.3                  -3.4046e-07           -1.5224e-10           7.26e-12              3.4064e-07           
  -0.35                 -3.7652e-07           -1.4346e-10           6.92e-12              3.7676e-07           
  -0.4                  -4.0674e-07           -1.361e-10            7.12e-12              4.0692e-07           
  -0.45                 -4.3078e-07           -1.2998e-10           7e-12                 4.3108e-07           
  -0.5                  -4.4906e-07           -1.2574e-10           6.82e-12              4.4936e-07           
  -0.55                 -4.6168e-07           -1.2276e-10           6.88e-12              4.6198e-07           
  -0.6                  -4.6946e-07           -1.2088e-10           6.72e-12              4.6974e-07           
  -0.65                 -4.7354e-07           -1.2008e-10           6.76e-12              4.7394e-07           
  -0.7                  -4.7564e-07           -1.1928e-10           6.78e-12              4.759e-07            
  -0.75                 -4.7658e-07           -1.1926e-10           6.84e-12              4.769e-07            
  -0.8                  -4.7722e-07           -1.1914e-10           6.84e-12              4.7744e-07           
  -0.85                 -4.7784e-07           -1.1894e-10           6.78e-12              4.7814e-07           
  -0.9                  -4.7826e-07           -1.189e-10            7.04e-12              4.784e-07            
  -0.95                 -4.7842e-07           -1.1884e-10           6.98e-12              4.7854e-07           
  -1                    -4.7858e-07           -1.1872e-10           6.36e-12              4.7888e-07           
  -1.05                 -4.7896e-07           -1.1866e-10           7.16e-12              4.7926e-07           
  -1.1                  -4.7938e-07           -1.1852e-10           6.58e-12              4.7946e-07           
  -1.15                 -4.7954e-07           -1.1842e-10           6.8e-12               4.7988e-07           
  -1.2                  -4.7976e-07           -1.1842e-10           6.26e-12              4.8004e-07           
  -1.25                 -4.7992e-07           -1.1832e-10           6.4e-12               4.8012e-07           
  -1.3                  -4.7998e-07           -1.1816e-10           7e-12                 4.8016e-07           
  -1.35                 -4.8018e-07           -1.1838e-10           6.32e-12              4.805e-07            
END_DB

BEGIN_DB
 ICCAP_VAR vg         -1.35          
 ICCAP_VAR vb         1.2            
 ICCAP_VAR vs         -0             

 #vd                    id                    ig                    ib                    is                   
  -0                    3.2646e-10            -4.9412e-10           1.28e-11              1.5574e-10           
  -0.05                 -8.7782e-08           -4.5672e-10           1.004e-11             8.8256e-08           
  -0.1                  -1.7094e-07           -4.2352e-10           9.44e-12              1.7142e-07           
  -0.15                 -2.4898e-07           -3.9374e-10           9.16e-12              2.495e-07            
  -0.2                  -3.2186e-07           -3.666e-10            9e-12                 3.2242e-07           
  -0.25                 -3.896e-07            -3.4292e-10           8.52e-12              3.9004e-07           
  -0.3                  -4.5178e-07           -3.216e-10            7.64e-12              4.5222e-07           
  -0.35                 -5.083e-07            -3.0294e-10           7.64e-12              5.0874e-07           
  -0.4                  -5.5924e-07           -2.867e-10            7.78e-12              5.5982e-07           
  -0.45                 -6.0462e-07           -2.7294e-10           7.2e-12               6.049e-07            
  -0.5                  -6.4384e-07           -2.6104e-10           6.84e-12              6.4438e-07           
  -0.55                 -6.7724e-07           -2.5102e-10           7.34e-12              6.7746e-07           
  -0.6                  -7.0448e-07           -2.4292e-10           7.4e-12               7.0484e-07           
  -0.65                 -7.2594e-07           -2.3674e-10           7.22e-12              7.2658e-07           
  -0.7                  -7.4202e-07           -2.3232e-10           7.22e-12              7.4234e-07           
  -0.75                 -7.5268e-07           -2.2898e-10           6.98e-12              7.5316e-07           
  -0.8                  -7.5908e-07           -2.2762e-10           6.88e-12              7.5962e-07           
  -0.85                 -7.6256e-07           -2.2676e-10           7.12e-12              7.6304e-07           
  -0.9                  -7.6432e-07           -2.2588e-10           7.28e-12              7.6464e-07           
  -0.95                 -7.6522e-07           -2.2592e-10           7e-12                 7.6556e-07           
  -1                    -7.6586e-07           -2.2546e-10           7.82e-12              7.6612e-07           
  -1.05                 -7.6644e-07           -2.254e-10            6.78e-12              7.6664e-07           
  -1.1                  -7.669e-07            -2.2524e-10           6.72e-12              7.6726e-07           
  -1.15                 -7.6722e-07           -2.2496e-10           7.28e-12              7.6774e-07           
  -1.2                  -7.6786e-07           -2.2506e-10           7.16e-12              7.6818e-07           
  -1.25                 -7.6818e-07           -2.2482e-10           6.96e-12              7.6844e-07           
  -1.3                  -7.6846e-07           -2.2488e-10           7.08e-12              7.6886e-07           
  -1.35                 -7.688e-07            -2.248e-10            6.84e-12              7.691e-07            
END_DB

