! VERSION = 6.00
BEGIN_HEADER
 ICCAP_INPUTS
  vd         V  D GROUND SMU1 0.1 LIN        1    -0         -1.35      28   -0.05     
  vg         V  G GROUND SMU2 0.001 LIN        2    -0.494     -1.35      5    -0.214    
  vb         V  B GROUND SMU4 0.1 CON        -0
  vs         V  S GROUND SMU3 0.1 CON        -0
 ICCAP_OUTPUTS
  id         I  D GROUND SMU1 B
  ig         I  G GROUND SMU2 B
  ib         I  B GROUND SMU4 B
  is         I  S GROUND SMU3 B
 ICCAP_VALUES
  MASTER_SETUP_TYPE "~dc_idvd~"
  LINVT_VALUE "|idvg|100.0n|100.0m|1.000m|5|1.350|"
  LISTVT_VALUE ""
  TYPE "-1"
  TEMP " 27.0000 "
  IS_TNOM " 1.00000 "
  MAIN.W "10.00u"
  MAIN.L "150.0n"
  MAIN.AD "3.400p"
  MAIN.AS "3.400p"
  MAIN.PD "20.68u"
  MAIN.PS "20.68u"
  MAIN.NF "1.000"
  MAIN.M "1"
  MAIN.NRD "0.000"
  MAIN.NRS "0.000"
  MAIN.LDRIFT1 "1E-06"
  MAIN.LDRIFT2 "1E-06"
  MAIN.SA "0.000"
  MAIN.SB "0.000"
  MAIN.SD "0.000"
  MAIN.SCA "0.000"
  MAIN.SCB "0.000"
  MAIN.SCC "0.000"
  MAIN.SC "0.000"
  MODULE "S548"
  PIN_D "14"
  PIN_G "7"
  PIN_S "8"
  PIN_B "13"
  PIN_E ""
  PIN_6 ""
  XY_ID ""
  FUNC "L Scale"
  STI "SA ref"
  WPE "WPE ref"
  COMMENT ""
  DIS_MEAS ""
  TypeTCI "10"
END_HEADER

BEGIN_DB
 ICCAP_VAR vg         -0.494         
 ICCAP_VAR vb         -0             
 ICCAP_VAR vs         -0             

 #vd                    id                    ig                    ib                    is                   
  -0                    2.4154e-08            -5.02e-12             -3.08e-12             -2.759e-08           
  -0.05                 -1.8728e-05           -4.1e-12              -2.98e-12             1.8746e-05           
  -0.1                  -2.803e-05            -3.64e-12             -3e-12                2.8052e-05           
  -0.15                 -3.2532e-05           -3.22e-12             -3.02e-12             3.255e-05            
  -0.2                  -3.508e-05            -3.14e-12             -2.96e-12             3.5094e-05           
  -0.25                 -3.686e-05            -3.1e-12              -2.88e-12             3.6854e-05           
  -0.3                  -3.823e-05            -2.82e-12             -2.86e-12             3.826e-05            
  -0.35                 -3.9512e-05           -2.84e-12             -2.9e-12              3.9536e-05           
  -0.4                  -4.07e-05             -2.62e-12             -2.86e-12             4.0724e-05           
  -0.45                 -4.1812e-05           -2.72e-12             -2.86e-12             4.1834e-05           
  -0.5                  -4.285e-05            -2.76e-12             -2.78e-12             4.2896e-05           
  -0.55                 -4.389e-05            -2.66e-12             -2.78e-12             4.3918e-05           
  -0.6                  -4.4872e-05           -2.4e-12              -2.8e-12              4.4896e-05           
  -0.65                 -4.5812e-05           -2.72e-12             -2.76e-12             4.5836e-05           
  -0.7                  -4.6758e-05           -2.72e-12             -2.66e-12             4.679e-05            
  -0.75                 -4.7722e-05           -2.34e-12             -2.7e-12              4.7722e-05           
  -0.8                  -4.8636e-05           -2.12e-12             -2.68e-12             4.8642e-05           
  -0.85                 -4.953e-05            -2e-12                -2.66e-12             4.9554e-05           
  -0.9                  -5.0384e-05           -1.9e-12              -2.52e-12             5.04e-05             
  -0.95                 -5.1282e-05           -1.82e-12             -2.56e-12             5.1302e-05           
  -1                    -5.2158e-05           -1.66e-12             -2.46e-12             5.2156e-05           
  -1.05                 -5.3034e-05           -1.06e-12             -2.4e-12              5.2966e-05           
  -1.1                  -5.387e-05            -7.8e-13              -1.9e-12              5.385e-05            
  -1.15                 -5.4726e-05           -5e-13                -8e-13                5.4778e-05           
  -1.2                  -5.5594e-05           6e-14                 2e-12                 5.5564e-05           
  -1.25                 -5.641e-05            4.4e-13               7.68e-12              5.645e-05            
  -1.3                  -5.7238e-05           9e-13                 1.876e-11             5.7258e-05           
  -1.35                 -5.8062e-05           1.84e-12              3.976e-11             5.8062e-05           
END_DB

BEGIN_DB
 ICCAP_VAR vg         -0.708         
 ICCAP_VAR vb         -0             
 ICCAP_VAR vs         -0             

 #vd                    id                    ig                    ib                    is                   
  -0                    9.8836e-08            -2.068e-11            -2.2e-12              -8.6904e-08          
  -0.05                 -7.627e-05            -1.838e-11            -2.18e-12             7.626e-05            
  -0.1                  -0.0001356            -1.62e-11             -2.22e-12             0.000136             
  -0.15                 -0.00017982           -1.492e-11            -2.16e-12             0.0001802            
  -0.2                  -0.00021114           -1.376e-11            -2.28e-12             0.00021146           
  -0.25                 -0.00023282           -1.292e-11            -2.3e-12              0.00023314           
  -0.3                  -0.00024798           -1.216e-11            -2.36e-12             0.0002484            
  -0.35                 -0.00025932           -1.196e-11            -2.26e-12             0.0002596            
  -0.4                  -0.000268             -1.148e-11            -2.1e-12              0.00026854           
  -0.45                 -0.00027552           -1.146e-11            -2.2e-12              0.0002757            
  -0.5                  -0.00028182           -1.13e-11             -2.28e-12             0.0002823            
  -0.55                 -0.00028774           -1.108e-11            -2.2e-12              0.0002882            
  -0.6                  -0.00029304           -1.098e-11            -2.22e-12             0.0002936            
  -0.65                 -0.00029838           -1.082e-11            -2.22e-12             0.00029856           
  -0.7                  -0.00030338           -1.076e-11            -2.1e-12              0.00030376           
  -0.75                 -0.00030792           -1.056e-11            -2.08e-12             0.00030836           
  -0.8                  -0.00031246           -1.062e-11            -2.16e-12             0.00031254           
  -0.85                 -0.00031664           -1.036e-11            -2.08e-12             0.00031706           
  -0.9                  -0.0003209            -1.024e-11            -2.06e-12             0.00032114           
  -0.95                 -0.00032502           -1.036e-11            -2.08e-12             0.00032538           
  -1                    -0.00032914           -9.98e-12             -1.96e-12             0.00032944           
  -1.05                 -0.00033308           -9.9e-12              -1.88e-12             0.00033348           
  -1.1                  -0.0003371            -9.64e-12             -1.62e-12             0.0003373            
  -1.15                 -0.00034084           -9.34e-12             -9.4e-13              0.00034128           
  -1.2                  -0.00034472           -8.88e-12             9e-13                 0.00034522           
  -1.25                 -0.0003486            -8.86e-12             5.02e-12              0.00034904           
  -1.3                  -0.00035234           -8.4e-12              1.454e-11             0.00035286           
  -1.35                 -0.00035614           -7.94e-12             3.484e-11             0.00035654           
END_DB

BEGIN_DB
 ICCAP_VAR vg         -0.922         
 ICCAP_VAR vb         -0             
 ICCAP_VAR vs         -0             

 #vd                    id                    ig                    ib                    is                   
  -0                    3.3232e-07            -6.238e-11            -1.84e-12             -1.17082e-07         
  -0.05                 -0.00013262           -5.632e-11            -1.78e-12             0.00013296           
  -0.1                  -0.00025014           -5.132e-11            -1.88e-12             0.00025044           
  -0.15                 -0.0003518            -4.698e-11            -1.76e-12             0.00035204           
  -0.2                  -0.00043746           -4.324e-11            -1.94e-12             0.00043784           
  -0.25                 -0.00050796           -4.032e-11            -1.9e-12              0.00050848           
  -0.3                  -0.00056478           -3.786e-11            -1.76e-12             0.00056532           
  -0.35                 -0.00060968           -3.598e-11            -1.78e-12             0.00061              
  -0.4                  -0.0006445            -3.464e-11            -1.88e-12             0.00064504           
  -0.45                 -0.00067234           -3.342e-11            -1.8e-12              0.00067248           
  -0.5                  -0.00069398           -3.24e-11             -1.76e-12             0.0006945            
  -0.55                 -0.00071258           -3.176e-11            -1.8e-12              0.00071302           
  -0.6                  -0.00072848           -3.124e-11            -1.72e-12             0.00072892           
  -0.65                 -0.0007421            -3.094e-11            -1.74e-12             0.00074246           
  -0.7                  -0.00075422           -3.072e-11            -1.84e-12             0.00075458           
  -0.75                 -0.00076564           -3.024e-11            -1.74e-12             0.00076644           
  -0.8                  -0.00077662           -3.002e-11            -1.68e-12             0.00077712           
  -0.85                 -0.00078658           -2.984e-11            -1.7e-12              0.0007868            
  -0.9                  -0.00079592           -2.97e-11             -1.66e-12             0.00079648           
  -0.95                 -0.00080506           -2.936e-11            -1.7e-12              0.0008052            
  -1                    -0.00081406           -2.898e-11            -1.72e-12             0.00081442           
  -1.05                 -0.0008223            -2.912e-11            -1.6e-12              0.00082266           
  -1.1                  -0.00083086           -2.872e-11            -1.46e-12             0.000831             
  -1.15                 -0.00083898           -2.834e-11            -1.32e-12             0.00083934           
  -1.2                  -0.00084698           -2.824e-11            -6.6e-13              0.00084736           
  -1.25                 -0.00085482           -2.81e-11             9.4e-13               0.0008547            
  -1.3                  -0.00086202           -2.776e-11            4.86e-12              0.00086258           
  -1.35                 -0.00087004           -2.746e-11            1.386e-11             0.00087062           
END_DB

BEGIN_DB
 ICCAP_VAR vg         -1.136         
 ICCAP_VAR vb         -0             
 ICCAP_VAR vs         -0             

 #vd                    id                    ig                    ib                    is                   
  -0                    4.736e-07             -1.4748e-10           -1.38e-12             -1.5356e-07          
  -0.05                 -0.00017824           -1.3562e-10           -1.38e-12             0.0001785            
  -0.1                  -0.00034352           -1.2504e-10           -1.48e-12             0.00034388           
  -0.15                 -0.00049506           -1.156e-10            -1.46e-12             0.00049556           
  -0.2                  -0.00063216           -1.0748e-10           -1.54e-12             0.00063248           
  -0.25                 -0.00075416           -1.0104e-10           -1.52e-12             0.00075458           
  -0.3                  -0.00086152           -9.42e-11             -1.6e-12              0.00086188           
  -0.35                 -0.0009548            -8.914e-11            -1.46e-12             0.00095474           
  -0.4                  -0.00103356           -8.478e-11            -1.48e-12             0.0010342            
  -0.45                 -0.0011003            -8.104e-11            -1.46e-12             0.00110048           
  -0.5                  -0.0011556            -7.812e-11            -1.4e-12              0.0011574            
  -0.55                 -0.0012018            -7.584e-11            -1.42e-12             0.0012034            
  -0.6                  -0.00124              -7.35e-11             -1.62e-12             0.0012418            
  -0.65                 -0.0012724            -7.22e-11             -1.44e-12             0.0012742            
  -0.7                  -0.0013004            -7.094e-11            -1.5e-12              0.0013022            
  -0.75                 -0.0013248            -6.962e-11            -1.34e-12             0.001326             
  -0.8                  -0.001346             -6.864e-11            -1.46e-12             0.0013474            
  -0.85                 -0.0013654            -6.814e-11            -1.52e-12             0.0013668            
  -0.9                  -0.0013828            -6.74e-11             -1.52e-12             0.0013848            
  -0.95                 -0.0013994            -6.706e-11            -1.42e-12             0.0014008            
  -1                    -0.0014146            -6.652e-11            -1.48e-12             0.0014164            
  -1.05                 -0.001429             -6.6e-11              -1.42e-12             0.001431             
  -1.1                  -0.001443             -6.558e-11            -1.52e-12             0.0014448            
  -1.15                 -0.0014568            -6.518e-11            -1.42e-12             0.0014586            
  -1.2                  -0.0014698            -6.476e-11            -1.18e-12             0.0014714            
  -1.25                 -0.0014822            -6.438e-11            -4.4e-13              0.001484             
  -1.3                  -0.0014944            -6.414e-11            9.2e-13               0.0014958            
  -1.35                 -0.001506             -6.384e-11            4.26e-12              0.001508             
END_DB

BEGIN_DB
 ICCAP_VAR vg         -1.35          
 ICCAP_VAR vb         -0             
 ICCAP_VAR vs         -0             

 #vd                    id                    ig                    ib                    is                   
  -0                    5.0386e-07            -3.0648e-10           1.12e-12              -1.7584e-07          
  -0.05                 -0.00021374           -2.8264e-10           5.6e-13               0.00021404           
  -0.1                  -0.00041692           -2.6324e-10           1.2e-13               0.00041732           
  -0.15                 -0.00060838           -2.4534e-10           -2e-13                0.0006087            
  -0.2                  -0.00078726           -2.2938e-10           -2.6e-13              0.00078764           
  -0.25                 -0.00095302           -2.1524e-10           -5.2e-13              0.00095322           
  -0.3                  -0.00110524           -2.024e-10            -5.8e-13              0.00110528           
  -0.35                 -0.0012422            -1.907e-10            -6.2e-13              0.0012438            
  -0.4                  -0.0013662            -1.8152e-10           -6.8e-13              0.0013684            
  -0.45                 -0.0014768            -1.7288e-10           -8.6e-13              0.0014782            
  -0.5                  -0.0015736            -1.6506e-10           -8.2e-13              0.0015758            
  -0.55                 -0.0016594            -1.587e-10            -9.4e-13              0.0016614            
  -0.6                  -0.0017332            -1.5342e-10           -8.2e-13              0.0017348            
  -0.65                 -0.001797             -1.488e-10            -8.4e-13              0.0017988            
  -0.7                  -0.0018524            -1.4506e-10           -7.8e-13              0.001854             
  -0.75                 -0.0018994            -1.4188e-10           -8.6e-13              0.0019008            
  -0.8                  -0.0019408            -1.3892e-10           -9.2e-13              0.0019432            
  -0.85                 -0.0019772            -1.3696e-10           -8.4e-13              0.001979             
  -0.9                  -0.0020094            -1.3502e-10           -8.8e-13              0.002011             
  -0.95                 -0.0020384            -1.3322e-10           -8e-13                0.0020396            
  -1                    -0.0020638            -1.321e-10            -9.4e-13              0.0020654            
  -1.05                 -0.002088             -1.3082e-10           -9e-13                0.0020892            
  -1.1                  -0.0021102            -1.2968e-10           -8.4e-13              0.0021112            
  -1.15                 -0.0021302            -1.2878e-10           -8.2e-13              0.0021322            
  -1.2                  -0.00215              -1.279e-10            -7.6e-13              0.0021516            
  -1.25                 -0.0021688            -1.268e-10            -5.4e-13              0.00217              
  -1.3                  -0.0021864            -1.261e-10            -4e-14                0.0021876            
  -1.35                 -0.0022024            -1.2546e-10           1.14e-12              0.0022038            
END_DB

