! VERSION = 6.00
BEGIN_HEADER
 ICCAP_INPUTS
  vd         V  D GROUND SMU1 0.1 LIN        1    -0         -1.35      28   -0.05     
  vg         V  G GROUND SMU2 0.001 LIST       2 3 -0.142 -0.342 -0.542
  vb         V  B GROUND SMU4 0.1 CON        -0
  vs         V  S GROUND SMU3 0.1 CON        -0
 ICCAP_OUTPUTS
  id         I  D GROUND SMU1 B
  ig         I  G GROUND SMU2 B
  ib         I  B GROUND SMU4 B
  is         I  S GROUND SMU3 B
 ICCAP_VALUES
  MASTER_SETUP_TYPE "~dc_idvd~"
  LINVT_VALUE ""
  LISTVT_VALUE "|idvg|100.0n|-200.0m|1.000m|3|200.0m|200.0m|"
  TYPE "-1"
  TEMP " 27.0000 "
  IS_TNOM " 1.00000 "
  MAIN.W "5.000u"
  MAIN.L "5.000u"
  MAIN.AD "1.700p"
  MAIN.AS "1.700p"
  MAIN.PD "10.68u"
  MAIN.PS "10.68u"
  MAIN.NF "1.000"
  MAIN.M "1"
  MAIN.NRD "0.000"
  MAIN.NRS "0.000"
  MAIN.LDRIFT1 "1E-06"
  MAIN.LDRIFT2 "1E-06"
  MAIN.SA "0.000"
  MAIN.SB "0.000"
  MAIN.SD "0.000"
  MAIN.SCA "0.000"
  MAIN.SCB "0.000"
  MAIN.SCC "0.000"
  MAIN.SC "0.000"
  MODULE "S550"
  PIN_D "18"
  PIN_G "3"
  PIN_S "4"
  PIN_B "17"
  PIN_E ""
  PIN_6 ""
  XY_ID ""
  FUNC "LW Scale"
  STI "SA ref"
  WPE "WPE ref"
  COMMENT ""
  DIS_MEAS ""
  TypeTCI "10"
END_HEADER

BEGIN_DB
 ICCAP_VAR vg         -0.142         
 ICCAP_VAR vb         -0             
 ICCAP_VAR vs         -0             

 #vd                    id                    ig                    ib                    is                   
  -0                    7.6e-13               6e-14                 -1.32e-12             -1.02e-12            
  -0.05                 -2.592e-10            6e-14                 -1.2e-12              2.5922e-10           
  -0.1                  -2.9892e-10           8e-14                 -1.28e-12             2.9906e-10           
  -0.15                 -3.0604e-10           1.6e-13               -1.26e-12             3.058e-10            
  -0.2                  -3.0822e-10           2e-14                 -1.2e-12              3.0812e-10           
  -0.25                 -3.096e-10            1e-13                 -1.12e-12             3.0938e-10           
  -0.3                  -3.1072e-10           8e-14                 -1.24e-12             3.1046e-10           
  -0.35                 -3.1174e-10           6e-14                 -1.16e-12             3.1144e-10           
  -0.4                  -3.1262e-10           2.2e-13               -1.12e-12             3.1226e-10           
  -0.45                 -3.1348e-10           1.6e-13               -1.22e-12             3.1306e-10           
  -0.5                  -3.1456e-10           3.2e-13               -1.26e-12             3.1414e-10           
  -0.55                 -3.1514e-10           2.6e-13               -1.18e-12             3.1434e-10           
  -0.6                  -3.1586e-10           4e-13                 -1.24e-12             3.1522e-10           
  -0.65                 -3.1658e-10           5.8e-13               -1.16e-12             3.1582e-10           
  -0.7                  -3.173e-10            6.6e-13               -1.32e-12             3.1638e-10           
  -0.75                 -3.182e-10            8.8e-13               -1.16e-12             3.167e-10            
  -0.8                  -3.187e-10            9.8e-13               -1.16e-12             3.1716e-10           
  -0.85                 -3.1952e-10           1.36e-12              -1.28e-12             3.177e-10            
  -0.9                  -3.2018e-10           1.48e-12              -1.08e-12             3.182e-10            
  -0.95                 -3.2066e-10           1.84e-12              -1.04e-12             3.1862e-10           
  -1                    -3.2162e-10           2.06e-12              -1.08e-12             3.1886e-10           
  -1.05                 -3.2226e-10           2.48e-12              -1.06e-12             3.1936e-10           
  -1.1                  -3.2312e-10           2.92e-12              -9.2e-13              3.1968e-10           
  -1.15                 -3.2396e-10           3.28e-12              -8.4e-13              3.1998e-10           
  -1.2                  -3.2494e-10           3.74e-12              -7.8e-13              3.2024e-10           
  -1.25                 -3.2602e-10           4.42e-12              -2.2e-13              3.2038e-10           
  -1.3                  -3.2744e-10           4.92e-12              0                     3.207e-10            
  -1.35                 -3.2898e-10           5.66e-12              5.8e-13               3.2082e-10           
END_DB

BEGIN_DB
 ICCAP_VAR vg         -0.342         
 ICCAP_VAR vb         -0             
 ICCAP_VAR vs         -0             

 #vd                    id                    ig                    ib                    is                   
  -0                    2.4084e-10            -6.8e-12              -1.2e-12              -2.2954e-10          
  -0.05                 -8.2314e-08           -4.74e-12             -1.06e-12             8.2348e-08           
  -0.1                  -1.02074e-07          -4.18e-12             -9.6e-13              1.02118e-07          
  -0.15                 -1.06172e-07          -3.94e-12             -1.1e-12              1.0621e-07           
  -0.2                  -1.07426e-07          -3.94e-12             -1.12e-12             1.07474e-07          
  -0.25                 -1.0806e-07           -3.88e-12             -1.12e-12             1.0818e-07           
  -0.3                  -1.0862e-07           -3.82e-12             -1.06e-12             1.0875e-07           
  -0.35                 -1.0908e-07           -3.84e-12             -1.04e-12             1.0922e-07           
  -0.4                  -1.0952e-07           -3.62e-12             -1.14e-12             1.09646e-07          
  -0.45                 -1.0992e-07           -3.7e-12              -1.04e-12             1.1002e-07           
  -0.5                  -1.1024e-07           -3.62e-12             -1e-12                1.10374e-07          
  -0.55                 -1.1056e-07           -3.72e-12             -1.06e-12             1.10686e-07          
  -0.6                  -1.1086e-07           -3.72e-12             -1.12e-12             1.10978e-07          
  -0.65                 -1.1112e-07           -3.5e-12              -1.06e-12             1.11224e-07          
  -0.7                  -1.1134e-07           -3.5e-12              -1.08e-12             1.11446e-07          
  -0.75                 -1.1154e-07           -3.56e-12             -1e-12                1.1168e-07           
  -0.8                  -1.1178e-07           -3.3e-12              -1.02e-12             1.11876e-07          
  -0.85                 -1.1194e-07           -3.22e-12             -1.1e-12              1.12074e-07          
  -0.9                  -1.1212e-07           -3.22e-12             -9.8e-13              1.12238e-07          
  -0.95                 -1.1228e-07           -2.9e-12              -8.8e-13              1.1239e-07           
  -1                    -1.1244e-07           -2.7e-12              -1.02e-12             1.12566e-07          
  -1.05                 -1.126e-07            -2.58e-12             -1.04e-12             1.12702e-07          
  -1.1                  -1.1272e-07           -2.24e-12             -1.02e-12             1.12838e-07          
  -1.15                 -1.1286e-07           -2.02e-12             -1e-12                1.12966e-07          
  -1.2                  -1.1298e-07           -1.64e-12             -7.4e-13              1.13102e-07          
  -1.25                 -1.1308e-07           -1.1e-12              -6.8e-13              1.132e-07            
  -1.3                  -1.132e-07            -8.4e-13              -5.8e-13              1.1331e-07           
  -1.35                 -1.1326e-07           -4.2e-13              -3e-13                1.13396e-07          
END_DB

BEGIN_DB
 ICCAP_VAR vg         -0.542         
 ICCAP_VAR vb         -0             
 ICCAP_VAR vs         -0             

 #vd                    id                    ig                    ib                    is                   
  -0                    1.4694e-09            -7.438e-11            -9e-13                -1.2766e-09          
  -0.05                 -8.1522e-07           -5.98e-11             -1e-12                8.1554e-07           
  -0.1                  -1.3512e-06           -5.004e-11            -1.12e-12             1.3548e-06           
  -0.15                 -1.6416e-06           -4.472e-11            -1.08e-12             1.645e-06            
  -0.2                  -1.758e-06            -4.23e-11             -1.04e-12             1.7618e-06           
  -0.25                 -1.7964e-06           -4.14e-11             -1e-12                1.8002e-06           
  -0.3                  -1.8118e-06           -4.106e-11            -9.6e-13              1.8154e-06           
  -0.35                 -1.8214e-06           -4.088e-11            -1.12e-12             1.825e-06            
  -0.4                  -1.8288e-06           -4.064e-11            -1.02e-12             1.8328e-06           
  -0.45                 -1.8354e-06           -4.06e-11             -9.6e-13              1.839e-06            
  -0.5                  -1.8412e-06           -4.042e-11            -9.4e-13              1.845e-06            
  -0.55                 -1.8462e-06           -4.014e-11            -9e-13                1.85e-06             
  -0.6                  -1.8512e-06           -4.014e-11            -7.8e-13              1.8544e-06           
  -0.65                 -1.855e-06            -4.008e-11            -9e-13                1.8588e-06           
  -0.7                  -1.8592e-06           -3.994e-11            -9.4e-13              1.8628e-06           
  -0.75                 -1.863e-06            -3.982e-11            -9.4e-13              1.8666e-06           
  -0.8                  -1.8664e-06           -3.974e-11            -7.8e-13              1.87e-06             
  -0.85                 -1.8696e-06           -3.964e-11            -9e-13                1.873e-06            
  -0.9                  -1.8722e-06           -3.95e-11             -1e-12                1.8758e-06           
  -0.95                 -1.8748e-06           -3.94e-11             -8.4e-13              1.8784e-06           
  -1                    -1.8774e-06           -3.926e-11            -8.6e-13              1.8812e-06           
  -1.05                 -1.8798e-06           -3.912e-11            -9.2e-13              1.8836e-06           
  -1.1                  -1.882e-06            -3.884e-11            -9e-13                1.8856e-06           
  -1.15                 -1.884e-06            -3.854e-11            -8.8e-13              1.8876e-06           
  -1.2                  -1.8862e-06           -3.848e-11            -7.4e-13              1.8896e-06           
  -1.25                 -1.8878e-06           -3.836e-11            -6.4e-13              1.8916e-06           
  -1.3                  -1.8896e-06           -3.792e-11            -5.8e-13              1.8934e-06           
  -1.35                 -1.8914e-06           -3.774e-11            -3.6e-13              1.895e-06            
END_DB

