! VERSION = 6.00
BEGIN_HEADER
 ICCAP_INPUTS
  vd         V  D GROUND SMU1 0.1 LIN        1    -0         -1.35      28   -0.05     
  vg         V  G GROUND SMU2 0.001 LIST       2 3 -0.283 -0.483 -0.683
  vb         V  B GROUND SMU4 0.1 CON        1.2
  vs         V  S GROUND SMU3 0.1 CON        -0
 ICCAP_OUTPUTS
  id         I  D GROUND SMU1 B
  ig         I  G GROUND SMU2 B
  ib         I  B GROUND SMU4 B
  is         I  S GROUND SMU3 B
 ICCAP_VALUES
  MASTER_SETUP_TYPE "~dc_idvd~"
  LINVT_VALUE ""
  LISTVT_VALUE "|idvg|100.0n|-200.0m|1.000m|3|200.0m|200.0m|"
  TYPE "-1"
  TEMP " 70.0000 "
  IS_TNOM " 0.00000 "
  MAIN.W "150.0n"
  MAIN.L "130.0n"
  MAIN.AD "100.5f"
  MAIN.AS "100.5f"
  MAIN.PD "1.340u"
  MAIN.PS "1.340u"
  MAIN.NF "1.000"
  MAIN.M "1"
  MAIN.NRD "0.000"
  MAIN.NRS "0.000"
  MAIN.LDRIFT1 "1E-06"
  MAIN.LDRIFT2 "1E-06"
  MAIN.SA "0.000"
  MAIN.SB "0.000"
  MAIN.SD "0.000"
  MAIN.SCA "0.000"
  MAIN.SCB "0.000"
  MAIN.SCC "0.000"
  MAIN.SC "0.000"
  MODULE "S554"
  PIN_D "16"
  PIN_G "5"
  PIN_S "6"
  PIN_B "15"
  PIN_E ""
  PIN_6 ""
  XY_ID ""
  FUNC "Small"
  STI "SA ref"
  WPE "WPE ref"
  COMMENT ""
  DIS_MEAS ""
  TypeTCI "10"
END_HEADER

BEGIN_DB
 ICCAP_VAR vg         -0.283         
 ICCAP_VAR vb         1.2            
 ICCAP_VAR vs         -0             

 #vd                    id                    ig                    ib                    is                   
  -0                    6.6e-13               1.6e-13               1.278e-11             -8.2e-13             
  -0.05                 -2.5506e-10           1e-13                 1.28e-11              2.5568e-10           
  -0.1                  -3.3302e-10           8e-14                 1.286e-11             3.3256e-10           
  -0.15                 -3.7342e-10           4e-14                 1.282e-11             3.744e-10            
  -0.2                  -4.1086e-10           1e-13                 1.292e-11             4.0962e-10           
  -0.25                 -4.466e-10            8e-14                 1.288e-11             4.4458e-10           
  -0.3                  -4.8462e-10           4e-14                 1.298e-11             4.8416e-10           
  -0.35                 -5.2578e-10           8e-14                 1.288e-11             5.2348e-10           
  -0.4                  -5.6748e-10           1.4e-13               1.288e-11             5.659e-10            
  -0.45                 -6.126e-10            1e-13                 1.288e-11             6.1352e-10           
  -0.5                  -6.616e-10            1.2e-13               1.284e-11             6.6064e-10           
  -0.55                 -7.1428e-10           4e-14                 1.272e-11             7.1368e-10           
  -0.6                  -7.6886e-10           4e-14                 1.284e-11             7.686e-10            
  -0.65                 -8.289e-10            1.2e-13               1.274e-11             8.255e-10            
  -0.7                  -8.914e-10            -4e-14                1.274e-11             8.913e-10            
  -0.75                 -9.5734e-10           4e-14                 1.278e-11             9.5712e-10           
  -0.8                  -1.0304e-09           -4e-14                1.278e-11             1.02716e-09          
  -0.85                 -1.1078e-09           0                     1.284e-11             1.105e-09            
  -0.9                  -1.1882e-09           0                     1.258e-11             1.1898e-09           
  -0.95                 -1.2768e-09           4e-14                 1.278e-11             1.2784e-09           
  -1                    -1.3744e-09           1e-13                 1.286e-11             1.37e-09             
  -1.05                 -1.4782e-09           1e-13                 1.28e-11              1.4754e-09           
  -1.1                  -1.5854e-09           1.6e-13               1.28e-11              1.5858e-09           
  -1.15                 -1.7062e-09           1.6e-13               1.288e-11             1.704e-09            
  -1.2                  -1.8308e-09           8e-14                 1.282e-11             1.828e-09            
  -1.25                 -1.9638e-09           2.4e-13               1.29e-11              1.962e-09            
  -1.3                  -2.1158e-09           2.4e-13               1.298e-11             2.115e-09            
  -1.35                 -2.2798e-09           1.6e-13               1.284e-11             2.2698e-09           
END_DB

BEGIN_DB
 ICCAP_VAR vg         -0.483         
 ICCAP_VAR vb         1.2            
 ICCAP_VAR vs         -0             

 #vd                    id                    ig                    ib                    is                   
  -0                    1.1428e-10            -2e-13                1.262e-11             -1.1232e-10          
  -0.05                 -4.6266e-08           -1e-13                1.268e-11             4.6038e-08           
  -0.1                  -6.265e-08            -2e-13                1.272e-11             6.2628e-08           
  -0.15                 -7.129e-08            -1e-13                1.268e-11             7.1268e-08           
  -0.2                  -7.784e-08            -8e-14                1.274e-11             7.7786e-08           
  -0.25                 -8.4412e-08           -1.4e-13              1.276e-11             8.4442e-08           
  -0.3                  -9.0644e-08           -1e-13                1.268e-11             9.0978e-08           
  -0.35                 -9.7392e-08           -1.6e-13              1.278e-11             9.7608e-08           
  -0.4                  -1.04514e-07          2e-14                 1.282e-11             1.04334e-07          
  -0.45                 -1.1162e-07           -1.6e-13              1.286e-11             1.11706e-07          
  -0.5                  -1.193e-07            -1.2e-13              1.272e-11             1.1916e-07           
  -0.55                 -1.2672e-07           -6e-14                1.288e-11             1.2718e-07           
  -0.6                  -1.3522e-07           -1e-13                1.286e-11             1.3494e-07           
  -0.65                 -1.436e-07            -1.8e-13              1.272e-11             1.4402e-07           
  -0.7                  -1.5292e-07           -6e-14                1.284e-11             1.528e-07            
  -0.75                 -1.6228e-07           -2e-13                1.28e-11              1.62e-07             
  -0.8                  -1.7212e-07           2e-14                 1.276e-11             1.721e-07            
  -0.85                 -1.825e-07            -8e-14                1.28e-11              1.8254e-07           
  -0.9                  -1.9342e-07           -8e-14                1.268e-11             1.9344e-07           
  -0.95                 -2.0474e-07           -1.4e-13              1.278e-11             2.044e-07            
  -1                    -2.1664e-07           -1.2e-13              1.284e-11             2.1674e-07           
  -1.05                 -2.2922e-07           -1.2e-13              1.272e-11             2.289e-07            
  -1.1                  -2.4234e-07           6e-14                 1.288e-11             2.4248e-07           
  -1.15                 -2.562e-07            0                     1.3e-11               2.5626e-07           
  -1.2                  -2.7086e-07           -6e-14                1.304e-11             2.7042e-07           
  -1.25                 -2.8636e-07           2e-14                 1.32e-11              2.8596e-07           
  -1.3                  -3.0208e-07           -1.2e-13              1.356e-11             3.0176e-07           
  -1.35                 -3.1858e-07           -6e-14                1.406e-11             3.191e-07            
END_DB

BEGIN_DB
 ICCAP_VAR vg         -0.683         
 ICCAP_VAR vb         1.2            
 ICCAP_VAR vs         -0             

 #vd                    id                    ig                    ib                    is                   
  -0                    1.3258e-09            -4.4e-13              1.266e-11             -1.2146e-09          
  -0.05                 -8.3562e-07           -3.4e-13              1.268e-11             8.3744e-07           
  -0.1                  -1.3788e-06           -4.4e-13              1.268e-11             1.3838e-06           
  -0.15                 -1.7226e-06           -3e-13                1.28e-11              1.7262e-06           
  -0.2                  -1.946e-06            -1.8e-13              1.276e-11             1.9476e-06           
  -0.25                 -2.104e-06            -2.6e-13              1.268e-11             2.1126e-06           
  -0.3                  -2.235e-06            -2.8e-13              1.268e-11             2.236e-06            
  -0.35                 -2.3474e-06           -2.6e-13              1.28e-11              2.3516e-06           
  -0.4                  -2.455e-06            -1.4e-13              1.27e-11              2.4594e-06           
  -0.45                 -2.5588e-06           -2.4e-13              1.282e-11             2.5614e-06           
  -0.5                  -2.6608e-06           -2e-13                1.276e-11             2.6626e-06           
  -0.55                 -2.7614e-06           -2.6e-13              1.278e-11             2.7646e-06           
  -0.6                  -2.858e-06            -2.8e-13              1.27e-11              2.863e-06            
  -0.65                 -2.9588e-06           -2.8e-13              1.284e-11             2.9638e-06           
  -0.7                  -3.0622e-06           -2.6e-13              1.274e-11             3.067e-06            
  -0.75                 -3.1652e-06           -2e-13                1.274e-11             3.1724e-06           
  -0.8                  -3.2656e-06           -1.8e-13              1.28e-11              3.2716e-06           
  -0.85                 -3.3758e-06           -2.2e-13              1.272e-11             3.3744e-06           
  -0.9                  -3.4784e-06           -3e-13                1.276e-11             3.4844e-06           
  -0.95                 -3.588e-06            -1.6e-13              1.272e-11             3.5914e-06           
  -1                    -3.699e-06            -1e-13                1.282e-11             3.6946e-06           
  -1.05                 -3.8072e-06           -1.2e-13              1.28e-11              3.811e-06            
  -1.1                  -3.917e-06            -2.2e-13              1.278e-11             3.9196e-06           
  -1.15                 -4.0312e-06           -2.8e-13              1.292e-11             4.0372e-06           
  -1.2                  -4.145e-06            -2e-13                1.318e-11             4.1504e-06           
  -1.25                 -4.2704e-06           -1.8e-13              1.364e-11             4.2732e-06           
  -1.3                  -4.3968e-06           -2.4e-13              1.45e-11              4.3928e-06           
  -1.35                 -4.515e-06            0                     1.602e-11             4.5122e-06           
END_DB

