! VERSION = 6.00
BEGIN_HEADER
 ICCAP_INPUTS
  vd         V  D GROUND SMU1 0.1 LIN        1    -0         -1.35      28   -0.05     
  vg         V  G GROUND SMU2 0.001 LIN        2    -0.45      -1.35      5    -0.225    
  vb         V  B GROUND SMU4 0.1 CON        -0
  vs         V  S GROUND SMU3 0.1 CON        -0
 ICCAP_OUTPUTS
  id         I  D GROUND SMU1 B
  ig         I  G GROUND SMU2 B
  ib         I  B GROUND SMU4 B
  is         I  S GROUND SMU3 B
 ICCAP_VALUES
  MASTER_SETUP_TYPE "~dc_idvd~"
  LINVT_VALUE "|idvg|100.0n|100.0m|1.000m|5|1.350|"
  LISTVT_VALUE ""
  TYPE "-1"
  TEMP " 27.0000 "
  IS_TNOM " 1.00000 "
  MAIN.W "150.0n"
  MAIN.L "180.0n"
  MAIN.AD "100.5f"
  MAIN.AS "100.5f"
  MAIN.PD "1.340u"
  MAIN.PS "1.340u"
  MAIN.NF "1.000"
  MAIN.M "1"
  MAIN.NRD "0.000"
  MAIN.NRS "0.000"
  MAIN.LDRIFT1 "1E-06"
  MAIN.LDRIFT2 "1E-06"
  MAIN.SA "0.000"
  MAIN.SB "0.000"
  MAIN.SD "0.000"
  MAIN.SCA "0.000"
  MAIN.SCB "0.000"
  MAIN.SCC "0.000"
  MAIN.SC "0.000"
  MODULE "S555"
  PIN_D "20"
  PIN_G "1"
  PIN_S "2"
  PIN_B "19"
  PIN_E ""
  PIN_6 ""
  XY_ID ""
  FUNC "LW Scale"
  STI "SA ref"
  WPE "WPE ref"
  COMMENT ""
  DIS_MEAS ""
  TypeTCI "10"
END_HEADER

BEGIN_DB
 ICCAP_VAR vg         -0.45          
 ICCAP_VAR vb         -0             
 ICCAP_VAR vs         -0             

 #vd                    id                    ig                    ib                    is                   
  -0                    5.0608e-10            -2.4e-13              -2.96e-12             -6.1634e-10          
  -0.05                 -2.5982e-07           -1.6e-13              -2.94e-12             2.5986e-07           
  -0.1                  -3.721e-07            -2.2e-13              -2.78e-12             3.7228e-07           
  -0.15                 -4.2516e-07           -2.2e-13              -2.84e-12             4.2518e-07           
  -0.2                  -4.5794e-07           -1.6e-13              -2.88e-12             4.5818e-07           
  -0.25                 -4.837e-07            -8e-14                -2.72e-12             4.8406e-07           
  -0.3                  -5.215e-07            -1.6e-13              -2.62e-12             5.2172e-07           
  -0.35                 -5.413e-07            -1.6e-13              -2.74e-12             5.415e-07            
  -0.4                  -5.6016e-07           -1e-13                -2.62e-12             5.6016e-07           
  -0.45                 -5.7688e-07           -2e-14                -2.66e-12             5.7768e-07           
  -0.5                  -5.945e-07            -8e-14                -2.64e-12             5.939e-07            
  -0.55                 -6.0964e-07           -1.2e-13              -2.58e-12             6.1052e-07           
  -0.6                  -6.2628e-07           -1e-13                -2.66e-12             6.2668e-07           
  -0.65                 -6.4168e-07           -1.2e-13              -2.58e-12             6.4154e-07           
  -0.7                  -6.562e-07            -1e-13                -2.54e-12             6.5646e-07           
  -0.75                 -6.7008e-07           -1e-13                -2.5e-12              6.6956e-07           
  -0.8                  -6.8334e-07           -8e-14                -2.56e-12             6.8436e-07           
  -0.85                 -6.9732e-07           0                     -2.58e-12             6.9768e-07           
  -0.9                  -7.1048e-07           -2e-14                -2.48e-12             7.1022e-07           
  -0.95                 -7.2278e-07           -2e-13                -2.4e-12              7.2366e-07           
  -1                    -7.355e-07            -1e-13                -2.34e-12             7.3572e-07           
  -1.05                 -7.4808e-07           -4e-14                -2.48e-12             7.4836e-07           
  -1.1                  -7.5898e-07           -1.2e-13              -2.44e-12             7.5876e-07           
  -1.15                 -7.712e-07            -1e-13                -2.24e-12             7.7158e-07           
  -1.2                  -7.831e-07            -4e-14                -2.36e-12             7.8372e-07           
  -1.25                 -7.9512e-07           -6e-14                -2.04e-12             7.9462e-07           
  -1.3                  -8.045e-07            0                     -1.74e-12             8.055e-07            
  -1.35                 -8.1728e-07           -2e-14                -1.26e-12             8.173e-07            
END_DB

BEGIN_DB
 ICCAP_VAR vg         -0.675         
 ICCAP_VAR vb         -0             
 ICCAP_VAR vs         -0             

 #vd                    id                    ig                    ib                    is                   
  -0                    2.425e-09             -5.4e-13              -2.26e-12             -2.1348e-09          
  -0.05                 -1.4522e-06           -4.8e-13              -2e-12                1.456e-06            
  -0.1                  -2.546e-06            -3.6e-13              -2.06e-12             2.5496e-06           
  -0.15                 -3.3132e-06           -3.8e-13              -2.1e-12              3.3184e-06           
  -0.2                  -3.8232e-06           -3.4e-13              -2.12e-12             3.8262e-06           
  -0.25                 -4.1542e-06           -2.6e-13              -1.92e-12             4.1576e-06           
  -0.3                  -4.3808e-06           -4.2e-13              -1.92e-12             4.3846e-06           
  -0.35                 -4.5498e-06           -3.8e-13              -2.08e-12             4.5534e-06           
  -0.4                  -4.6878e-06           -3.2e-13              -1.94e-12             4.691e-06            
  -0.45                 -4.8014e-06           -2.6e-13              -1.98e-12             4.8094e-06           
  -0.5                  -4.9122e-06           -3.4e-13              -1.98e-12             4.9166e-06           
  -0.55                 -5.0112e-06           -2.8e-13              -1.92e-12             5.0146e-06           
  -0.6                  -5.1002e-06           -2.2e-13              -1.9e-12              5.103e-06            
  -0.65                 -5.186e-06            -3.4e-13              -1.92e-12             5.1954e-06           
  -0.7                  -5.2756e-06           -3.8e-13              -1.98e-12             5.2804e-06           
  -0.75                 -5.357e-06            -3.2e-13              -1.94e-12             5.3612e-06           
  -0.8                  -5.436e-06            -3.6e-13              -1.94e-12             5.438e-06            
  -0.85                 -5.5126e-06           -3.4e-13              -1.88e-12             5.5164e-06           
  -0.9                  -5.5856e-06           -3.2e-13              -1.84e-12             5.59e-06             
  -0.95                 -5.6546e-06           -2.6e-13              -1.94e-12             5.6606e-06           
  -1                    -5.729e-06            -2.2e-13              -1.78e-12             5.73e-06             
  -1.05                 -5.7968e-06           -3.2e-13              -1.88e-12             5.7992e-06           
  -1.1                  -5.8642e-06           -2.4e-13              -1.92e-12             5.8676e-06           
  -1.15                 -5.9832e-06           -3.4e-13              -1.72e-12             5.9872e-06           
  -1.2                  -6.0476e-06           -2.2e-13              -1.62e-12             6.0506e-06           
  -1.25                 -6.1106e-06           -3e-13                -1.52e-12             6.114e-06            
  -1.3                  -6.1694e-06           -2.4e-13              -1.48e-12             6.177e-06            
  -1.35                 -6.2332e-06           -1e-13                -8.6e-13              6.237e-06            
END_DB

BEGIN_DB
 ICCAP_VAR vg         -0.9           
 ICCAP_VAR vb         -0             
 ICCAP_VAR vs         -0             

 #vd                    id                    ig                    ib                    is                   
  -0                    3.4028e-09            -1.8e-12              -1.84e-12             -3.4182e-09          
  -0.05                 -2.7344e-06           -1.58e-12             -1.8e-12              2.737e-06            
  -0.1                  -5.1388e-06           -1.34e-12             -1.7e-12              5.144e-06            
  -0.15                 -7.1756e-06           -1.2e-12              -1.64e-12             7.1712e-06           
  -0.2                  -8.8486e-06           -1.2e-12              -1.54e-12             8.8596e-06           
  -0.25                 -1.0196e-05           -1.06e-12             -1.64e-12             1.02026e-05          
  -0.3                  -1.12378e-05          -1e-12                -1.64e-12             1.12554e-05          
  -0.35                 -1.2016e-05           -9.2e-13              -1.7e-12              1.2028e-05           
  -0.4                  -1.2578e-05           -9e-13                -1.58e-12             1.263e-05            
  -0.45                 -1.306e-05            -9.2e-13              -1.5e-12              1.304e-05            
  -0.5                  -1.336e-05            -8.8e-13              -1.54e-12             1.3424e-05           
  -0.55                 -1.3742e-05           -9.8e-13              -1.62e-12             1.3738e-05           
  -0.6                  -1.3964e-05           -9.2e-13              -1.58e-12             1.3972e-05           
  -0.65                 -1.4194e-05           -8e-13                -1.6e-12              1.4204e-05           
  -0.7                  -1.4382e-05           -8.6e-13              -1.78e-12             1.4402e-05           
  -0.75                 -1.4594e-05           -8.6e-13              -1.64e-12             1.4602e-05           
  -0.8                  -1.4752e-05           -8.2e-13              -1.54e-12             1.4818e-05           
  -0.85                 -1.4942e-05           -9e-13                -1.64e-12             1.4934e-05           
  -0.9                  -1.5098e-05           -7.6e-13              -1.66e-12             1.5066e-05           
  -0.95                 -1.5268e-05           -8.2e-13              -1.48e-12             1.528e-05            
  -1                    -1.5434e-05           -7.2e-13              -1.48e-12             1.5464e-05           
  -1.05                 -1.5554e-05           -8.2e-13              -1.52e-12             1.5618e-05           
  -1.1                  -1.5716e-05           -8.2e-13              -1.58e-12             1.5716e-05           
  -1.15                 -1.5844e-05           -7.4e-13              -1.5e-12              1.589e-05            
  -1.2                  -1.597e-05            -8e-13                -1.52e-12             1.6002e-05           
  -1.25                 -1.6156e-05           -8.8e-13              -1.4e-12              1.6148e-05           
  -1.3                  -1.6238e-05           -8e-13                -1.28e-12             1.6312e-05           
  -1.35                 -1.6418e-05           -8.4e-13              -1.18e-12             1.6382e-05           
END_DB

BEGIN_DB
 ICCAP_VAR vg         -1.125         
 ICCAP_VAR vb         -0             
 ICCAP_VAR vs         -0             

 #vd                    id                    ig                    ib                    is                   
  -0                    3.904e-09             -4.42e-12             -1.46e-12             -4.3078e-09          
  -0.05                 -3.7468e-06           -4.14e-12             -1.46e-12             3.7632e-06           
  -0.1                  -7.1998e-06           -3.76e-12             -1.44e-12             7.1968e-06           
  -0.15                 -1.03026e-05          -3.48e-12             -1.36e-12             1.03464e-05          
  -0.2                  -1.308e-05            -3.26e-12             -1.54e-12             1.3146e-05           
  -0.25                 -1.5558e-05           -3.04e-12             -1.36e-12             1.5586e-05           
  -0.3                  -1.7662e-05           -2.78e-12             -1.34e-12             1.762e-05            
  -0.35                 -1.9396e-05           -2.7e-12              -1.46e-12             1.9484e-05           
  -0.4                  -2.0946e-05           -2.5e-12              -1.5e-12              2.1106e-05           
  -0.45                 -2.2264e-05           -2.44e-12             -1.38e-12             2.2284e-05           
  -0.5                  -2.327e-05            -2.34e-12             -1.4e-12              2.3306e-05           
  -0.55                 -2.4074e-05           -2.36e-12             -1.46e-12             2.4054e-05           
  -0.6                  -2.4688e-05           -2.3e-12              -1.3e-12              2.4686e-05           
  -0.65                 -2.5106e-05           -2.18e-12             -1.3e-12              2.5234e-05           
  -0.7                  -2.5692e-05           -2.1e-12              -1.2e-12              2.57e-05             
  -0.75                 -2.6114e-05           -2.14e-12             -1.28e-12             2.6204e-05           
  -0.8                  -2.6542e-05           -2.08e-12             -1.24e-12             2.6542e-05           
  -0.85                 -2.6786e-05           -2.12e-12             -1.22e-12             2.6792e-05           
  -0.9                  -2.699e-05            -2e-12                -1.28e-12             2.705e-05            
  -0.95                 -2.74e-05             -2.06e-12             -1.3e-12              2.7332e-05           
  -1                    -2.7546e-05           -1.98e-12             -1.3e-12              2.7542e-05           
  -1.05                 -2.7768e-05           -2.08e-12             -1.18e-12             2.7872e-05           
  -1.1                  -2.8038e-05           -1.96e-12             -1.22e-12             2.7966e-05           
  -1.15                 -2.8382e-05           -1.98e-12             -1.34e-12             2.844e-05            
  -1.2                  -2.8622e-05           -2.04e-12             -1.2e-12              2.854e-05            
  -1.25                 -2.8706e-05           -2.02e-12             -1.24e-12             2.8724e-05           
  -1.3                  -2.891e-05            -1.86e-12             -1.24e-12             2.892e-05            
  -1.35                 -2.9172e-05           -1.9e-12              -1.2e-12              2.9166e-05           
END_DB

BEGIN_DB
 ICCAP_VAR vg         -1.35          
 ICCAP_VAR vb         -0             
 ICCAP_VAR vs         -0             

 #vd                    id                    ig                    ib                    is                   
  -0                    3.9644e-09            -1.006e-11            -1.26e-12             -4.8904e-09          
  -0.05                 -4.5798e-06           -9.3e-12              -1.16e-12             4.585e-06            
  -0.1                  -8.923e-06            -8.68e-12             -1.14e-12             8.9234e-06           
  -0.15                 -1.298e-05            -8.1e-12              -1.26e-12             1.3e-05              
  -0.2                  -1.6742e-05           -7.58e-12             -1.16e-12             1.6762e-05           
  -0.25                 -2.0186e-05           -7.24e-12             -1.1e-12              2.0204e-05           
  -0.3                  -2.3292e-05           -6.8e-12              -1.12e-12             2.3312e-05           
  -0.35                 -2.6042e-05           -6.4e-12              -1.08e-12             2.6074e-05           
  -0.4                  -2.8586e-05           -6e-12                -1.1e-12              2.8594e-05           
  -0.45                 -3.0642e-05           -5.82e-12             -1.1e-12              3.0662e-05           
  -0.5                  -3.253e-05            -5.6e-12              -1.16e-12             3.2512e-05           
  -0.55                 -3.4348e-05           -5.3e-12              -1.18e-12             3.4182e-05           
  -0.6                  -3.5428e-05           -5.16e-12             -9.8e-13              3.5484e-05           
  -0.65                 -3.6842e-05           -5.04e-12             -1.1e-12              3.6858e-05           
  -0.7                  -3.7808e-05           -4.98e-12             -1.18e-12             3.7716e-05           
  -0.75                 -3.8518e-05           -4.76e-12             -1.12e-12             3.854e-05            
  -0.8                  -3.9278e-05           -4.74e-12             -1.02e-12             3.9392e-05           
  -0.85                 -3.997e-05            -4.68e-12             -1.04e-12             3.9894e-05           
  -0.9                  -4.0394e-05           -4.7e-12              -1.12e-12             4.0206e-05           
  -0.95                 -4.0664e-05           -4.62e-12             -1.14e-12             4.0804e-05           
  -1                    -4.12e-05             -4.56e-12             -1.22e-12             4.1228e-05           
  -1.05                 -4.1632e-05           -4.52e-12             -1.16e-12             4.1652e-05           
  -1.1                  -4.2036e-05           -4.44e-12             -1.18e-12             4.2206e-05           
  -1.15                 -4.2548e-05           -4.38e-12             -1.14e-12             4.2568e-05           
  -1.2                  -4.2682e-05           -4.48e-12             -1.08e-12             4.2716e-05           
  -1.25                 -4.3004e-05           -4.46e-12             -1.14e-12             4.3018e-05           
  -1.3                  -4.3316e-05           -4.4e-12              -1.22e-12             4.3368e-05           
  -1.35                 -4.389e-05            -4.28e-12             -1.12e-12             4.3796e-05           
END_DB

