! VERSION = 6.00
BEGIN_HEADER
 ICCAP_INPUTS
  vg         V  G GROUND SMU2 0.001 LIN        1    0.5        -1.35      38   -0.05     
  vb         V  B GROUND SMU4 0.1 LIN        2    0          1.2        7    0.2       
  vd         V  D GROUND SMU1 0.1 LIST       3 3 -0.05 -0.6 -1.2
  vs         V  S GROUND SMU3 0.1 CON        -0
 ICCAP_OUTPUTS
  id         I  D GROUND SMU1 B
  ig         I  G GROUND SMU2 B
  ib         I  B GROUND SMU4 B
  is         I  S GROUND SMU3 B
 ICCAP_VALUES
  MASTER_SETUP_TYPE "~dc_idvg~"
  LINVT_VALUE ""
  LISTVT_VALUE ""
  TYPE "-1"
  TEMP "-40.0000 "
  IS_TNOM " 0.00000 "
  MAIN.W "300.0n"
  MAIN.L "10.00u"
  MAIN.AD "102.0f"
  MAIN.AS "102.0f"
  MAIN.PD "1.280u"
  MAIN.PS "1.280u"
  MAIN.NF "1.000"
  MAIN.M "1"
  MAIN.NRD "0.000"
  MAIN.NRS "0.000"
  MAIN.LDRIFT1 "1E-06"
  MAIN.LDRIFT2 "1E-06"
  MAIN.SA "0.000"
  MAIN.SB "0.000"
  MAIN.SD "0.000"
  MAIN.SCA "0.000"
  MAIN.SCB "0.000"
  MAIN.SCC "0.000"
  MAIN.SC "0.000"
  MODULE "S553"
  PIN_D "18"
  PIN_G "3"
  PIN_S "4"
  PIN_B "17"
  PIN_E ""
  PIN_6 ""
  XY_ID ""
  FUNC "W Scale"
  STI "SA ref"
  WPE "WPE ref"
  COMMENT ""
  DIS_MEAS ""
  TypeTCI "10"
END_HEADER

BEGIN_DB
 ICCAP_VAR vb         0              
 ICCAP_VAR vd         -0.05          
 ICCAP_VAR vs         -0             

 #vg                    id                    ig                    ib                    is                   
  0.5                   -6e-14                7.2e-13               -2e-13                0                    
  0.45                  1e-13                 3.8e-13               -2.2e-13              1e-13                
  0.4                   0                     6e-14                 -1.2e-13              -8e-14               
  0.35                  4e-14                 -8e-14                -2.4e-13              6e-14                
  0.3                   -1.8e-13              1.2e-13               -2e-14                4e-14                
  0.25                  4e-14                 -1.8e-13              -1.2e-13              4e-14                
  0.2                   2e-14                 -1e-13                -2.6e-13              1.2e-13              
  0.15                  8e-14                 -2.2e-13              -2e-14                2e-14                
  0.1                   -2e-14                -1.2e-13              -1.8e-13              1.4e-13              
  0.05                  0                     -8e-14                4e-14                 0                    
  0                     8e-14                 -2e-13                -1.6e-13              2e-13                
  -0.05                 2e-14                 -3.4e-13              -2e-13                3.2e-13              
  -0.1                  -1.4e-13              -2.8e-13              8e-14                 1.2e-13              
  -0.15                 -1.06e-12             -3e-13                -1.8e-13              1.02e-12             
  -0.2                  -7.76e-12             -3.4e-13              -1.2e-13              7.94e-12             
  -0.25                 -6.178e-11            -3e-13                -6e-14                6.204e-11            
  -0.3                  -4.3532e-10           -3.6e-13              -2e-14                4.3552e-10           
  -0.35                 -2.191e-09            -5.4e-13              -6e-14                2.1914e-09           
  -0.4                  -6.9888e-09           -1.14e-12             -2e-13                6.989e-09            
  -0.45                 -1.52e-08             -2.22e-12             -1.4e-13              1.5222e-08           
  -0.5                  -2.5818e-08           -3.74e-12             -1.4e-13              2.5852e-08           
  -0.55                 -3.7602e-08           -6.02e-12             2e-14                 3.7634e-08           
  -0.6                  -4.9828e-08           -9.14e-12             -1.8e-13              4.9872e-08           
  -0.65                 -6.2074e-08           -1.338e-11            -2e-13                6.2124e-08           
  -0.7                  -7.408e-08            -1.912e-11            -2e-14                7.4114e-08           
  -0.75                 -8.5662e-08           -2.652e-11            -6e-14                8.5702e-08           
  -0.8                  -9.681e-08            -3.574e-11            -1.8e-13              9.6884e-08           
  -0.85                 -1.07448e-07          -4.742e-11            -2.4e-13              1.0752e-07           
  -0.9                  -1.1746e-07           -6.162e-11            -1.2e-13              1.1768e-07           
  -0.95                 -1.27e-07             -7.92e-11             -2.6e-13              1.2724e-07           
  -1                    -1.3602e-07           -1.0234e-10           -1.4e-13              1.3626e-07           
  -1.05                 -1.4444e-07           -1.2726e-10           -1.2e-13              1.447e-07            
  -1.1                  -1.5238e-07           -1.5666e-10           -2.4e-13              1.527e-07            
  -1.15                 -1.5982e-07           -1.904e-10            2e-14                 1.6018e-07           
  -1.2                  -1.6678e-07           -2.2936e-10           -1e-13                1.6716e-07           
  -1.25                 -1.7328e-07           -2.7372e-10           1.8e-13               1.7372e-07           
  -1.3                  -1.7936e-07           -3.2068e-10           5.6e-13               1.7982e-07           
  -1.35                 -1.85e-07             -3.8e-10              1.44e-12              1.8554e-07           
END_DB

BEGIN_DB
 ICCAP_VAR vb         0.2            
 ICCAP_VAR vd         -0.05          
 ICCAP_VAR vs         -0             

 #vg                    id                    ig                    ib                    is                   
  0.5                   -1.2e-13              3e-13                 2e-14                 8e-14                
  0.45                  -1e-13                2.6e-13               -1e-13                2e-14                
  0.4                   -2e-14                2e-13                 -1.2e-13              2e-13                
  0.35                  -2e-14                -6e-14                2e-14                 2e-14                
  0.3                   -1e-13                -1e-13                -1.4e-13              1.4e-13              
  0.25                  -6e-14                -2e-14                -1e-13                2.2e-13              
  0.2                   -6e-14                -1.2e-13              -1e-13                1.2e-13              
  0.15                  4e-14                 -1.2e-13              2e-14                 6e-14                
  0.1                   1.4e-13               -2.6e-13              -1.2e-13              1.4e-13              
  0.05                  2e-14                 -2.8e-13              -1.2e-13              1.4e-13              
  0                     0                     -1.8e-13              -8e-14                3e-13                
  -0.05                 4e-14                 -3.4e-13              -2e-14                1.8e-13              
  -0.1                  0                     -2.8e-13              -2e-14                2.4e-13              
  -0.15                 -1.6e-13              -4.6e-13              -1.8e-13              3.2e-13              
  -0.2                  -1.82e-12             -2.6e-13              -4e-14                1.9e-12              
  -0.25                 -1.558e-11            -3.4e-13              0                     1.576e-11            
  -0.3                  -1.2438e-10           -4e-13                -1.6e-13              1.2436e-10           
  -0.35                 -8.0716e-10           -5.8e-13              -2e-14                8.0724e-10           
  -0.4                  -3.4558e-09           -8.2e-13              -1e-13                3.4572e-09           
  -0.45                 -9.383e-09            -1.74e-12             -8e-14                9.3804e-09           
  -0.5                  -1.8298e-08           -3.32e-12             -1e-13                1.8324e-08           
  -0.55                 -2.9008e-08           -5.52e-12             -1.6e-13              2.905e-08            
  -0.6                  -4.058e-08            -8.4e-12              -6e-14                4.0616e-08           
  -0.65                 -5.2388e-08           -1.272e-11            -8e-14                5.2426e-08           
  -0.7                  -6.412e-08            -1.824e-11            0                     6.4156e-08           
  -0.75                 -7.552e-08            -2.554e-11            -8e-14                7.5576e-08           
  -0.8                  -8.6594e-08           -3.472e-11            -1.4e-13              8.664e-08            
  -0.85                 -9.7202e-08           -4.616e-11            2e-14                 9.7256e-08           
  -0.9                  -1.07318e-07          -6.054e-11            6e-14                 1.07398e-07          
  -0.95                 -1.1684e-07           -7.778e-11            -2e-14                1.1708e-07           
  -1                    -1.2592e-07           -9.862e-11            -6e-14                1.2618e-07           
  -1.05                 -1.3448e-07           -1.25e-10             -2e-14                1.3474e-07           
  -1.1                  -1.4252e-07           -1.5456e-10           0                     1.4282e-07           
  -1.15                 -1.5004e-07           -1.8868e-10           2e-14                 1.504e-07            
  -1.2                  -1.571e-07            -2.272e-10            1.6e-13               1.5746e-07           
  -1.25                 -1.6372e-07           -2.7168e-10           2e-13                 1.6418e-07           
  -1.3                  -1.6992e-07           -3.2046e-10           5.6e-13               1.7042e-07           
  -1.35                 -1.7572e-07           -3.7828e-10           1.4e-12               1.762e-07            
END_DB

BEGIN_DB
 ICCAP_VAR vb         0.4            
 ICCAP_VAR vd         -0.05          
 ICCAP_VAR vs         -0             

 #vg                    id                    ig                    ib                    is                   
  0.5                   0                     3.2e-13               1.4e-13               -6e-14               
  0.45                  1.4e-13               2.4e-13               2e-14                 -4e-14               
  0.4                   0                     1e-13                 8e-14                 -2e-14               
  0.35                  1.8e-13               6e-14                 0                     0                    
  0.3                   1.8e-13               2e-14                 -1e-13                0                    
  0.25                  1.6e-13               -2e-14                2e-14                 -2e-14               
  0.2                   6e-14                 -1e-13                -1e-13                6e-14                
  0.15                  1.6e-13               -2.4e-13              -4e-14                8e-14                
  0.1                   1e-13                 -1.8e-13              -6e-14                4e-14                
  0.05                  1e-13                 -2.2e-13              -6e-14                1.2e-13              
  0                     1.2e-13               -3e-13                -8e-14                2e-13                
  -0.05                 0                     -3.2e-13              0                     8e-14                
  -0.1                  1.2e-13               -3.6e-13              -1e-13                1.4e-13              
  -0.15                 0                     -2.2e-13              -8e-14                6e-14                
  -0.2                  -2.8e-13              -2.8e-13              0                     5.2e-13              
  -0.25                 -4.22e-12             -1.6e-13              -8e-14                4.32e-12             
  -0.3                  -3.586e-11            -3.4e-13              2e-14                 3.602e-11            
  -0.35                 -2.7362e-10           -5.2e-13              -1.6e-13              2.7382e-10           
  -0.4                  -1.5364e-09           -8e-13                -4e-14                1.5374e-09           
  -0.45                 -5.3742e-09           -1.62e-12             -6e-14                5.374e-09            
  -0.5                  -1.2438e-08           -2.84e-12             -1.6e-13              1.2462e-08           
  -0.55                 -2.1894e-08           -4.82e-12             -1e-13                2.1916e-08           
  -0.6                  -3.2666e-08           -8e-12                -2e-14                3.27e-08             
  -0.65                 -4.396e-08            -1.206e-11            -4e-14                4.3978e-08           
  -0.7                  -5.534e-08            -1.754e-11            -8e-14                5.5388e-08           
  -0.75                 -6.657e-08            -2.46e-11             -6e-14                6.6608e-08           
  -0.8                  -7.7516e-08           -3.378e-11            -1.2e-13              7.7568e-08           
  -0.85                 -8.8072e-08           -4.52e-11             1e-13                 8.8136e-08           
  -0.9                  -9.8172e-08           -5.924e-11            -4e-14                9.8258e-08           
  -0.95                 -1.0778e-07           -7.646e-11            -4e-14                1.07866e-07          
  -1                    -1.1682e-07           -9.706e-11            0                     1.1706e-07           
  -1.05                 -1.254e-07            -1.2388e-10           -6e-14                1.2566e-07           
  -1.1                  -1.335e-07            -1.5348e-10           -6e-14                1.3384e-07           
  -1.15                 -1.4116e-07           -1.867e-10            6e-14                 1.415e-07            
  -1.2                  -1.4834e-07           -2.2534e-10           1.2e-13               1.487e-07            
  -1.25                 -1.5508e-07           -2.6966e-10           3.4e-13               1.555e-07            
  -1.3                  -1.6136e-07           -3.1944e-10           6.2e-13               1.6184e-07           
  -1.35                 -1.6722e-07           -3.7572e-10           1.38e-12              1.6776e-07           
END_DB

BEGIN_DB
 ICCAP_VAR vb         0.6            
 ICCAP_VAR vd         -0.05          
 ICCAP_VAR vs         -0             

 #vg                    id                    ig                    ib                    is                   
  0.5                   -4e-14                4.6e-13               6e-14                 0                    
  0.45                  4e-14                 2.4e-13               8e-14                 0                    
  0.4                   -4e-14                8e-14                 -1.4e-13              0                    
  0.35                  6e-14                 4e-14                 -8e-14                2e-13                
  0.3                   2e-14                 -1.8e-13              -2e-14                0                    
  0.25                  0                     2e-14                 -8e-14                1.6e-13              
  0.2                   -2e-14                -1.2e-13              6e-14                 -4e-14               
  0.15                  1.4e-13               -2e-13                -4e-14                1e-13                
  0.1                   -1.6e-13              -4e-14                8e-14                 1.4e-13              
  0.05                  2e-14                 -2.4e-13              -2e-14                2e-14                
  0                     2e-14                 -2.4e-13              -8e-14                1.2e-13              
  -0.05                 8e-14                 -2.4e-13              0                     1.4e-13              
  -0.1                  2e-14                 -2.6e-13              0                     2e-14                
  -0.15                 -4e-14                -2.2e-13              4e-14                 1.4e-13              
  -0.2                  0                     -4e-13                0                     2.6e-13              
  -0.25                 -1.12e-12             -3e-13                -1e-13                1.28e-12             
  -0.3                  -1.046e-11            -2.6e-13              0                     1.068e-11            
  -0.35                 -8.82e-11             -4e-13                -1.8e-13              8.85e-11             
  -0.4                  -6.1274e-10           -5.2e-13              2e-14                 6.1314e-10           
  -0.45                 -2.794e-09            -1.12e-12             1e-13                 2.7962e-09           
  -0.5                  -7.972e-09            -2.44e-12             -1.6e-13              7.9704e-09           
  -0.55                 -1.5982e-08           -4.48e-12             -6e-14                1.6006e-08           
  -0.6                  -2.58e-08             -7.22e-12             -6e-14                2.5834e-08           
  -0.65                 -3.6496e-08           -1.128e-11            -1e-13                3.6518e-08           
  -0.7                  -4.7492e-08           -1.672e-11            -8e-14                4.7538e-08           
  -0.75                 -5.846e-08            -2.366e-11            -1.4e-13              5.8514e-08           
  -0.8                  -6.9238e-08           -3.272e-11            -2e-14                6.93e-08             
  -0.85                 -7.97e-08             -4.416e-11            -1.2e-13              7.9768e-08           
  -0.9                  -8.9762e-08           -5.804e-11            -1.4e-13              8.9826e-08           
  -0.95                 -9.9372e-08           -7.51e-11             2e-14                 9.9444e-08           
  -1                    -1.08482e-07          -9.55e-11             -1.2e-13              1.08616e-07          
  -1.05                 -1.1708e-07           -1.1974e-10           -1.2e-13              1.1734e-07           
  -1.1                  -1.2528e-07           -1.5098e-10           -6e-14                1.2558e-07           
  -1.15                 -1.3302e-07           -1.8494e-10           2e-14                 1.3334e-07           
  -1.2                  -1.4026e-07           -2.2314e-10           -4e-14                1.4066e-07           
  -1.25                 -1.4708e-07           -2.6714e-10           2.6e-13               1.4752e-07           
  -1.3                  -1.5344e-07           -3.1692e-10           6.2e-13               1.5392e-07           
  -1.35                 -1.5946e-07           -3.7312e-10           1.36e-12              1.5994e-07           
END_DB

BEGIN_DB
 ICCAP_VAR vb         0.8            
 ICCAP_VAR vd         -0.05          
 ICCAP_VAR vs         -0             

 #vg                    id                    ig                    ib                    is                   
  0.5                   1.2e-13               4e-13                 0                     -4e-14               
  0.45                  1.4e-13               1.4e-13               0                     -6e-14               
  0.4                   0                     -2e-14                1e-13                 -2e-14               
  0.35                  8e-14                 -8e-14                6e-14                 1.2e-13              
  0.3                   0                     -2e-14                -1e-13                1.2e-13              
