! VERSION = 6.00
BEGIN_HEADER
 ICCAP_INPUTS
  vd         V  D GROUND SMU1 0.1 LIN        1    -0         -1.35      28   -0.05     
  vg         V  G GROUND SMU2 0.001 LIST       2 3 -0.208 -0.408 -0.608
  vb         V  B GROUND SMU4 0.1 CON        -0
  vs         V  S GROUND SMU3 0.1 CON        -0
 ICCAP_OUTPUTS
  id         I  D GROUND SMU1 B
  ig         I  G GROUND SMU2 B
  ib         I  B GROUND SMU4 B
  is         I  S GROUND SMU3 B
 ICCAP_VALUES
  MASTER_SETUP_TYPE "~dc_idvd~"
  LINVT_VALUE ""
  LISTVT_VALUE "|idvg|100.0n|-200.0m|1.000m|3|200.0m|200.0m|"
  TYPE "-1"
  TEMP " 27.0000 "
  IS_TNOM " 1.00000 "
  MAIN.W "300.0n"
  MAIN.L "180.0n"
  MAIN.AD "102.0f"
  MAIN.AS "102.0f"
  MAIN.PD "1.280u"
  MAIN.PS "1.280u"
  MAIN.NF "1.000"
  MAIN.M "1"
  MAIN.NRD "0.000"
  MAIN.NRS "0.000"
  MAIN.LDRIFT1 "1E-06"
  MAIN.LDRIFT2 "1E-06"
  MAIN.SA "0.000"
  MAIN.SB "0.000"
  MAIN.SD "0.000"
  MAIN.SCA "0.000"
  MAIN.SCB "0.000"
  MAIN.SCC "0.000"
  MAIN.SC "0.000"
  MODULE "S552"
  PIN_D "12"
  PIN_G "9"
  PIN_S "10"
  PIN_B "11"
  PIN_E ""
  PIN_6 ""
  XY_ID ""
  FUNC "LW Scale"
  STI "SA ref"
  WPE "WPE ref"
  COMMENT ""
  DIS_MEAS ""
  TypeTCI "10"
END_HEADER

BEGIN_DB
 ICCAP_VAR vg         -0.208         
 ICCAP_VAR vb         -0             
 ICCAP_VAR vs         -0             

 #vd                    id                    ig                    ib                    is                   
  -0                    1.7e-12               1.6e-13               -1.12e-12             -1.98e-12            
  -0.05                 -5.6172e-10           3e-13                 -1.16e-12             5.6056e-10           
  -0.1                  -6.5862e-10           6e-14                 -1.02e-12             6.5936e-10           
  -0.15                 -6.8502e-10           2e-14                 -1.1e-12              6.8474e-10           
  -0.2                  -6.9982e-10           1.2e-13               -1.18e-12             7e-10                
  -0.25                 -7.117e-10            1.2e-13               -1e-12                7.1134e-10           
  -0.3                  -7.226e-10            1e-13                 -1.08e-12             7.2648e-10           
  -0.35                 -7.3694e-10           6e-14                 -1.24e-12             7.3696e-10           
  -0.4                  -7.4612e-10           -4e-14                -1.12e-12             7.459e-10            
  -0.45                 -7.5464e-10           2e-14                 -1.02e-12             7.549e-10            
  -0.5                  -7.6382e-10           0                     -1.04e-12             7.6302e-10           
  -0.55                 -7.7276e-10           4e-14                 -9.4e-13              7.7212e-10           
  -0.6                  -7.8046e-10           2e-14                 -9.4e-13              7.8072e-10           
  -0.65                 -7.892e-10            2e-14                 -9.8e-13              7.8826e-10           
  -0.7                  -7.9694e-10           -8e-14                -1e-12                7.9646e-10           
  -0.75                 -8.0432e-10           2e-14                 -1.04e-12             8.0442e-10           
  -0.8                  -8.1156e-10           8e-14                 -9.2e-13              8.1118e-10           
  -0.85                 -8.1864e-10           1e-13                 -9.2e-13              8.1754e-10           
  -0.9                  -8.2492e-10           1.6e-13               -1e-12                8.2508e-10           
  -0.95                 -8.3136e-10           1.2e-13               -1.06e-12             8.3096e-10           
  -1                    -8.3826e-10           6e-14                 -1.04e-12             8.3714e-10           
  -1.05                 -8.4446e-10           1e-13                 -9.6e-13              8.451e-10            
  -1.1                  -8.5022e-10           2e-13                 -9.4e-13              8.4934e-10           
  -1.15                 -8.6154e-10           6e-14                 -9.6e-13              8.5478e-10           
  -1.2                  -8.622e-10            2.8e-13               -9.8e-13              8.6064e-10           
  -1.25                 -8.6744e-10           1.6e-13               -1.06e-12             8.672e-10            
  -1.3                  -8.7376e-10           3.6e-13               -1.12e-12             8.7298e-10           
  -1.35                 -8.8166e-10           3.2e-13               -1.1e-12              8.79e-10             
END_DB

BEGIN_DB
 ICCAP_VAR vg         -0.408         
 ICCAP_VAR vb         -0             
 ICCAP_VAR vs         -0             

 #vd                    id                    ig                    ib                    is                   
  -0                    3.3242e-10            -3.2e-13              -1e-12                -3.2696e-10          
  -0.05                 -1.1996e-07           -3.2e-13              -1e-12                1.2014e-07           
  -0.1                  -1.5682e-07           -2.6e-13              -9.8e-13              1.5762e-07           
  -0.15                 -1.6946e-07           -2e-13                -1.02e-12             1.697e-07            
  -0.2                  -1.7492e-07           -3.2e-13              -7.8e-13              1.7514e-07           
  -0.25                 -1.7838e-07           -2.8e-13              -9.2e-13              1.7888e-07           
  -0.3                  -1.813e-07            -2.8e-13              -1.02e-12             1.8226e-07           
  -0.35                 -1.8482e-07           -2.8e-13              -9.4e-13              1.8504e-07           
  -0.4                  -1.875e-07            -1.6e-13              -8.8e-13              1.8712e-07           
  -0.45                 -1.8912e-07           -2.8e-13              -9.4e-13              1.8936e-07           
  -0.5                  -1.9154e-07           -1.8e-13              -7.8e-13              1.9242e-07           
  -0.55                 -1.9446e-07           -1.6e-13              -9.2e-13              1.9476e-07           
  -0.6                  -1.965e-07            -2e-13                -9.8e-13              1.9688e-07           
  -0.65                 -1.9848e-07           -2.8e-13              -8.6e-13              1.9872e-07           
  -0.7                  -2.0042e-07           -2e-13                -8.4e-13              2.006e-07            
  -0.75                 -2.022e-07            -2.4e-13              -9.2e-13              2.0246e-07           
  -0.8                  -2.0402e-07           -1.4e-13              -8.8e-13              2.041e-07            
  -0.85                 -2.057e-07            -2.2e-13              -9e-13                2.0588e-07           
  -0.9                  -2.0728e-07           -2.8e-13              -9.2e-13              2.0746e-07           
  -0.95                 -2.0878e-07           -2.4e-13              -9.2e-13              2.0894e-07           
  -1                    -2.1058e-07           -1.8e-13              -9.2e-13              2.1066e-07           
  -1.05                 -2.1192e-07           -1.6e-13              -8.6e-13              2.1222e-07           
  -1.1                  -2.1334e-07           -1e-13                -8.8e-13              2.1374e-07           
  -1.15                 -2.1504e-07           -1.4e-13              -8e-13                2.1534e-07           
  -1.2                  -2.1648e-07           -2e-14                -7.4e-13              2.163e-07            
  -1.25                 -2.1772e-07           -2e-14                -6.8e-13              2.18e-07             
  -1.3                  -2.191e-07            -6e-14                -6e-13                2.1958e-07           
  -1.35                 -2.2036e-07           -1.8e-13              -4e-13                2.206e-07            
END_DB

BEGIN_DB
 ICCAP_VAR vg         -0.608         
 ICCAP_VAR vb         -0             
 ICCAP_VAR vs         -0             

 #vd                    id                    ig                    ib                    is                   
  -0                    2.3136e-09            -1.16e-12             -8.6e-13              -2.0798e-09          
  -0.05                 -1.339e-06            -9.8e-13              -8.8e-13              1.3408e-06           
  -0.1                  -2.2168e-06           -9.4e-13              -9.2e-13              2.2206e-06           
  -0.15                 -2.751e-06            -9.6e-13              -9.2e-13              2.7546e-06           
  -0.2                  -3.0654e-06           -9.8e-13              -9.6e-13              3.0688e-06           
  -0.25                 -3.2522e-06           -1.02e-12             -9.2e-13              3.2826e-06           
  -0.3                  -3.4184e-06           -8.8e-13              -8.4e-13              3.4182e-06           
  -0.35                 -3.506e-06            -8.2e-13              -9.4e-13              3.5094e-06           
  -0.4                  -3.5812e-06           -9e-13                -8e-13                3.5866e-06           
  -0.45                 -3.6456e-06           -8e-13                -8.8e-13              3.6492e-06           
  -0.5                  -3.7066e-06           -9.4e-13              -8e-13                3.7076e-06           
  -0.55                 -3.7576e-06           -8.6e-13              -8.8e-13              3.764e-06            
  -0.6                  -3.8086e-06           -8.8e-13              -9.2e-13              3.8122e-06           
  -0.65                 -3.8572e-06           -8.4e-13              -8.2e-13              3.8602e-06           
  -0.7                  -3.9022e-06           -8.2e-13              -7.8e-13              3.9056e-06           
  -0.75                 -3.9454e-06           -8e-13                -8.4e-13              3.9494e-06           
  -0.8                  -3.989e-06            -9.8e-13              -7.2e-13              3.9914e-06           
  -0.85                 -4.0284e-06           -7.8e-13              -8.6e-13              4.0328e-06           
  -0.9                  -4.0688e-06           -7.8e-13              -7.2e-13              4.0758e-06           
  -0.95                 -4.1098e-06           -9e-13                -8.8e-13              4.1136e-06           
  -1                    -4.1472e-06           -7.6e-13              -9.4e-13              4.1508e-06           
  -1.05                 -4.1822e-06           -8e-13                -7.8e-13              4.185e-06            
  -1.1                  -4.2184e-06           -9.8e-13              -8.6e-13              4.2216e-06           
  -1.15                 -4.2526e-06           -9.6e-13              -7.6e-13              4.2564e-06           
  -1.2                  -4.2872e-06           -8.6e-13              -7e-13                4.2874e-06           
  -1.25                 -4.3182e-06           -7.8e-13              -5.2e-13              4.3218e-06           
  -1.3                  -4.3506e-06           -7.6e-13              -3.4e-13              4.354e-06            
  -1.35                 -4.3806e-06           -8.4e-13              1.6e-13               4.385e-06            
END_DB

