! VERSION = 6.00
BEGIN_HEADER
 ICCAP_INPUTS
  vd         V  D GROUND SMU1 0.1 LIN        1    -0         -1.35      28   -0.05     
  vg         V  G GROUND SMU2 0.001 LIN        2    -0.502     -1.35      5    -0.212    
  vb         V  B GROUND SMU4 0.1 CON        -0
  vs         V  S GROUND SMU3 0.1 CON        -0
 ICCAP_OUTPUTS
  id         I  D GROUND SMU1 B
  ig         I  G GROUND SMU2 B
  ib         I  B GROUND SMU4 B
  is         I  S GROUND SMU3 B
 ICCAP_VALUES
  MASTER_SETUP_TYPE "~dc_idvd~"
  LINVT_VALUE "|idvg|100.0n|100.0m|1.000m|5|1.350|"
  LISTVT_VALUE ""
  TYPE "-1"
  TEMP " 27.0000 "
  IS_TNOM " 1.00000 "
  MAIN.W "10.00u"
  MAIN.L "120.0n"
  MAIN.AD "3.400p"
  MAIN.AS "3.400p"
  MAIN.PD "20.68u"
  MAIN.PS "20.68u"
  MAIN.NF "1.000"
  MAIN.M "1"
  MAIN.NRD "0.000"
  MAIN.NRS "0.000"
  MAIN.LDRIFT1 "1E-06"
  MAIN.LDRIFT2 "1E-06"
  MAIN.SA "0.000"
  MAIN.SB "0.000"
  MAIN.SD "0.000"
  MAIN.SCA "0.000"
  MAIN.SCB "0.000"
  MAIN.SCC "0.000"
  MAIN.SC "0.000"
  MODULE "S548"
  PIN_D "20"
  PIN_G "1"
  PIN_S "2"
  PIN_B "19"
  PIN_E ""
  PIN_6 ""
  XY_ID ""
  FUNC "Additional"
  STI "SA ref"
  WPE "WPE ref"
  COMMENT ""
  DIS_MEAS ""
  TypeTCI "10"
END_HEADER

BEGIN_DB
 ICCAP_VAR vg         -0.502         
 ICCAP_VAR vb         -0             
 ICCAP_VAR vs         -0             

 #vd                    id                    ig                    ib                    is                   
  -0                    3.154e-08             -5.96e-12             -4.38e-12             -3.6044e-08          
  -0.05                 -1.8056e-05           -4.86e-12             -4.26e-12             1.8042e-05           
  -0.1                  -2.6966e-05           -4.26e-12             -4.18e-12             2.698e-05            
  -0.15                 -3.183e-05            -3.78e-12             -4.22e-12             3.1842e-05           
  -0.2                  -3.507e-05            -3.6e-12              -4.16e-12             3.5062e-05           
  -0.25                 -3.7674e-05           -3.28e-12             -4.02e-12             3.7692e-05           
  -0.3                  -3.9984e-05           -3.34e-12             -4.02e-12             4.0038e-05           
  -0.35                 -4.2158e-05           -3.16e-12             -3.96e-12             4.2196e-05           
  -0.4                  -4.4304e-05           -3.14e-12             -3.78e-12             4.4328e-05           
  -0.45                 -4.636e-05            -2.96e-12             -3.8e-12              4.6404e-05           
  -0.5                  -4.8426e-05           -3.06e-12             -3.82e-12             4.8452e-05           
  -0.55                 -5.0504e-05           -3.08e-12             -3.72e-12             5.0588e-05           
  -0.6                  -5.2536e-05           -3e-12                -3.72e-12             5.2506e-05           
  -0.65                 -5.4594e-05           -2.98e-12             -3.56e-12             5.4586e-05           
  -0.7                  -5.6634e-05           -2.92e-12             -3.56e-12             5.6652e-05           
  -0.75                 -5.872e-05            -2.66e-12             -3.62e-12             5.8762e-05           
  -0.8                  -6.0836e-05           -2.56e-12             -3.6e-12              6.0882e-05           
  -0.85                 -6.2958e-05           -2.42e-12             -3.46e-12             6.2956e-05           
  -0.9                  -6.5066e-05           -2.22e-12             -3.32e-12             6.5092e-05           
  -0.95                 -6.7298e-05           -1.92e-12             -3.42e-12             6.729e-05            
  -1                    -6.9528e-05           -1.6e-12              -3.22e-12             6.9512e-05           
  -1.05                 -7.17e-05             -1.36e-12             -2.54e-12             7.1706e-05           
  -1.1                  -7.4044e-05           -8e-13                -1.24e-12             7.4034e-05           
  -1.15                 -7.6354e-05           -3.2e-13              1.68e-12              7.6374e-05           
  -1.2                  -7.8732e-05           2.2e-13               8.14e-12              7.878e-05            
  -1.25                 -8.1148e-05           7.6e-13               2.164e-11             8.1036e-05           
  -1.3                  -8.3624e-05           1.18e-12              4.77e-11              8.3626e-05           
  -1.35                 -8.6012e-05           2.12e-12              9.6e-11               8.607e-05            
END_DB

BEGIN_DB
 ICCAP_VAR vg         -0.714         
 ICCAP_VAR vb         -0             
 ICCAP_VAR vs         -0             

 #vd                    id                    ig                    ib                    is                   
  -0                    2.3644e-07            -2.198e-11            -2.8e-12              -1.16564e-07         
  -0.05                 -9.012e-05            -1.95e-11             -2.84e-12             9.0128e-05           
  -0.1                  -0.00015846           -1.722e-11            -2.84e-12             0.00015884           
  -0.15                 -0.0002085            -1.568e-11            -2.84e-12             0.00020864           
  -0.2                  -0.0002443            -1.438e-11            -2.74e-12             0.00024472           
  -0.25                 -0.00027026           -1.334e-11            -2.78e-12             0.00027064           
  -0.3                  -0.0002898            -1.26e-11             -2.64e-12             0.00028984           
  -0.35                 -0.00030522           -1.216e-11            -2.68e-12             0.00030554           
  -0.4                  -0.00031834           -1.172e-11            -2.68e-12             0.00031886           
  -0.45                 -0.00033002           -1.16e-11             -2.62e-12             0.00033036           
  -0.5                  -0.00034066           -1.128e-11            -2.66e-12             0.00034114           
  -0.55                 -0.00035096           -1.11e-11             -2.64e-12             0.00035124           
  -0.6                  -0.00036054           -1.098e-11            -2.5e-12              0.00036064           
  -0.65                 -0.00036946           -1.082e-11            -2.44e-12             0.00036998           
  -0.7                  -0.0003785            -1.072e-11            -2.68e-12             0.00037874           
  -0.75                 -0.0003871            -1.06e-11             -2.54e-12             0.00038744           
  -0.8                  -0.0003955            -1.054e-11            -2.46e-12             0.00039592           
  -0.85                 -0.00040392           -1.046e-11            -2.42e-12             0.00040428           
  -0.9                  -0.00041258           -1.036e-11            -2.44e-12             0.00041286           
  -0.95                 -0.00042078           -1.02e-11             -2.32e-12             0.00042092           
  -1                    -0.00042882           -9.96e-12             -2.24e-12             0.00042918           
  -1.05                 -0.00043698           -9.72e-12             -1.82e-12             0.0004374            
  -1.1                  -0.00044526           -9.48e-12             -5.6e-13              0.00044556           
  -1.15                 -0.00045348           -9.3e-12              2.28e-12              0.00045404           
  -1.2                  -0.0004619            -9.16e-12             9e-12                 0.00046228           
  -1.25                 -0.0004701            -8.56e-12             2.406e-11             0.00047022           
  -1.3                  -0.00047836           -8.4e-12              5.6e-11               0.00047876           
  -1.35                 -0.00048642           -7.84e-12             1.2108e-10            0.00048714           
END_DB

BEGIN_DB
 ICCAP_VAR vg         -0.926         
 ICCAP_VAR vb         -0             
 ICCAP_VAR vs         -0             

 #vd                    id                    ig                    ib                    is                   
  -0                    4.9308e-07            -6.268e-11            -2.12e-12             -1.788e-07           
  -0.05                 -0.00016656           -5.672e-11            -2.12e-12             0.00016686           
  -0.1                  -0.00031246           -5.148e-11            -2.12e-12             0.00031278           
  -0.15                 -0.00043722           -4.712e-11            -2.04e-12             0.00043762           
  -0.2                  -0.00054132           -4.348e-11            -2e-12                0.0005417            
  -0.25                 -0.00062648           -4.03e-11             -2.06e-12             0.00062676           
  -0.3                  -0.00069488           -3.78e-11             -2.06e-12             0.00069528           
  -0.35                 -0.00075038           -3.588e-11            -2.06e-12             0.00075086           
  -0.4                  -0.00079468           -3.426e-11            -2.02e-12             0.0007957            
  -0.45                 -0.00083142           -3.302e-11            -2.04e-12             0.00083156           
  -0.5                  -0.0008619            -3.214e-11            -1.92e-12             0.00086254           
  -0.55                 -0.0008895            -3.134e-11            -1.92e-12             0.0008896            
  -0.6                  -0.00091324           -3.074e-11            -2.04e-12             0.00091422           
  -0.65                 -0.00093488           -3.016e-11            -1.88e-12             0.00093546           
  -0.7                  -0.00095494           -2.984e-11            -1.92e-12             0.00095504           
  -0.75                 -0.00097368           -2.932e-11            -1.9e-12              0.00097444           
  -0.8                  -0.00099164           -2.906e-11            -1.98e-12             0.00099188           
  -0.85                 -0.00100934           -2.872e-11            -2.04e-12             0.00100904           
  -0.9                  -0.00102506           -2.854e-11            -1.92e-12             0.00102572           
  -0.95                 -0.001041             -2.824e-11            -1.84e-12             0.00104082           
  -1                    -0.00105686           -2.818e-11            -1.68e-12             0.0010566            
  -1.05                 -0.00107284           -2.784e-11            -1.54e-12             0.0010731            
  -1.1                  -0.00108782           -2.774e-11            -8.8e-13              0.00108836           
  -1.15                 -0.0011032            -2.748e-11            9.6e-13               0.0011032            
  -1.2                  -0.00111806           -2.716e-11            5.18e-12              0.00111876           
  -1.25                 -0.00113306           -2.684e-11            1.478e-11             0.00113274           
  -1.3                  -0.00114728           -2.652e-11            3.614e-11             0.00114748           
  -1.35                 -0.0011614            -2.63e-11             8.114e-11             0.001163             
END_DB

BEGIN_DB
 ICCAP_VAR vg         -1.138         
 ICCAP_VAR vb         -0             
 ICCAP_VAR vs         -0             

 #vd                    id                    ig                    ib                    is                   
  -0                    5.9558e-07            -1.4352e-10           -1.7e-12              -2.3268e-07          
  -0.05                 -0.00022782           -1.313e-10            -1.56e-12             0.00022818           
  -0.1                  -0.00043824           -1.2126e-10           -1.64e-12             0.0004386            
  -0.15                 -0.00062946           -1.1226e-10           -1.68e-12             0.00062962           
  -0.2                  -0.00080116           -1.045e-10            -1.7e-12              0.00080166           
  -0.25                 -0.00095188           -9.74e-11             -1.64e-12             0.00095238           
  -0.3                  -0.00108434           -9.132e-11            -1.68e-12             0.0010849            
  -0.35                 -0.0011972            -8.616e-11            -1.68e-12             0.0011986            
  -0.4                  -0.001294             -8.172e-11            -1.68e-12             0.0012956            
  -0.45                 -0.001377             -7.808e-11            -1.5e-12              0.0013776            
  -0.5                  -0.0014458            -7.52e-11             -1.5e-12              0.001448             
  -0.55                 -0.0015056            -7.266e-11            -1.56e-12             0.0015072            
  -0.6                  -0.0015582            -7.024e-11            -1.58e-12             0.0015594            
  -0.65                 -0.0016022            -6.872e-11            -1.56e-12             0.0016044            
  -0.7                  -0.0016416            -6.742e-11            -1.58e-12             0.0016438            
  -0.75                 -0.0016778            -6.614e-11            -1.5e-12              0.001679             
  -0.8                  -0.0017092            -6.534e-11            -1.54e-12             0.0017114            
  -0.85                 -0.0017394            -6.442e-11            -1.56e-12             0.0017408            
  -0.9                  -0.0017676            -6.364e-11            -1.64e-12             0.0017692            
  -0.95                 -0.0017934            -6.31e-11             -1.5e-12              0.0017954            
  -1                    -0.0018202            -6.258e-11            -1.48e-12             0.0018212            
  -1.05                 -0.0018434            -6.196e-11            -1.2e-12              0.0018444            
  -1.1                  -0.0018662            -6.146e-11            -8.2e-13              0.0018682            
  -1.15                 -0.001889             -6.104e-11            1.6e-13               0.0018912            
  -1.2                  -0.0019104            -6.06e-11             2.64e-12              0.0019126            
  -1.25                 -0.0019316            -6.02e-11             8.32e-12              0.0019334            
  -1.3                  -0.0019542            -5.978e-11            2.1e-11               0.0019554            
  -1.35                 -0.0019746            -5.932e-11            4.828e-11             0.0019762            
END_DB

BEGIN_DB
 ICCAP_VAR vg         -1.35          
 ICCAP_VAR vb         -0             
 ICCAP_VAR vs         -0             

 #vd                    id                    ig                    ib                    is                   
  -0                    7.02e-07              -2.8718e-10           1.18e-12              -2.701e-07           
  -0.05                 -0.00027478           -2.6878e-10           5.4e-13               0.00027518           
  -0.1                  -0.00053534           -2.4976e-10           1.4e-13               0.0005357            
  -0.15                 -0.00077926           -2.3286e-10           -2.2e-13              0.00078018           
  -0.2                  -0.00100648           -2.18e-10             -3.4e-13              0.00100662           
  -0.25                 -0.0012138            -2.0462e-10           -6e-13                0.0012156            
  -0.3                  -0.0014032            -1.9218e-10           -7e-13                0.0014054            
  -0.35                 -0.0015738            -1.8148e-10           -7.2e-13              0.0015752            
  -0.4                  -0.0017264            -1.7254e-10           -7.8e-13              0.0017276            
  -0.45                 -0.0018614            -1.6404e-10           -7.4e-13              0.0018624            
  -0.5                  -0.0019796            -1.5668e-10           -8.4e-13              0.0019822            
  -0.55                 -0.0020852            -1.5036e-10           -8.6e-13              0.0020868            
  -0.6                  -0.0021766            -1.449e-10            -9e-13                0.0021784            
  -0.65                 -0.0022578            -1.4038e-10           -9e-13                0.0022596            
  -0.7                  -0.002329             -1.365e-10            -8e-13                0.0023312            
  -0.75                 -0.002392             -1.3342e-10           -8.2e-13              0.0023942            
  -0.8                  -0.0024486            -1.3084e-10           -8.6e-13              0.0024512            
  -0.85                 -0.0024992            -1.285e-10            -8.2e-13              0.0025008            
  -0.9                  -0.0025448            -1.2642e-10           -9e-13                0.0025462            
  -0.95                 -0.0025864            -1.244e-10            -7e-13                0.002588             
  -1                    -0.0026258            -1.2316e-10           -7.4e-13              0.0026274            
  -1.05                 -0.0026622            -1.2178e-10           -8.4e-13              0.0026638            
  -1.1                  -0.0026968            -1.205e-10            -4.8e-13              0.0026972            
  -1.15                 -0.0027276            -1.1956e-10           0                     0.0027298            
  -1.2                  -0.0027592            -1.1838e-10           1.46e-12              0.0027608            
  -1.25                 -0.0027882            -1.1728e-10           4.94e-12              0.0027906            
  -1.3                  -0.0028168            -1.169e-10            1.23e-11              0.00282              
  -1.35                 -0.0028456            -1.1606e-10           2.834e-11             0.0028488            
END_DB

