! VERSION = 6.00
BEGIN_HEADER
 ICCAP_INPUTS
  vd         V  D GROUND SMU1 0.1 LIN        1    -0         -1.35      28   -0.05     
  vg         V  G GROUND SMU2 0.001 LIST       2 3 -0.339 -0.539 -0.739
  vb         V  B GROUND SMU4 0.1 CON        1.2
  vs         V  S GROUND SMU3 0.1 CON        -0
 ICCAP_OUTPUTS
  id         I  D GROUND SMU1 B
  ig         I  G GROUND SMU2 B
  ib         I  B GROUND SMU4 B
  is         I  S GROUND SMU3 B
 ICCAP_VALUES
  MASTER_SETUP_TYPE "~dc_idvd~"
  LINVT_VALUE ""
  LISTVT_VALUE "|idvg|100.0n|-200.0m|1.000m|3|200.0m|200.0m|"
  TYPE "-1"
  TEMP " 27.0000 "
  IS_TNOM " 1.00000 "
  MAIN.W "10.00u"
  MAIN.L "140.0n"
  MAIN.AD "3.400p"
  MAIN.AS "3.400p"
  MAIN.PD "20.68u"
  MAIN.PS "20.68u"
  MAIN.NF "1.000"
  MAIN.M "1"
  MAIN.NRD "0.000"
  MAIN.NRS "0.000"
  MAIN.LDRIFT1 "1E-06"
  MAIN.LDRIFT2 "1E-06"
  MAIN.SA "0.000"
  MAIN.SB "0.000"
  MAIN.SD "0.000"
  MAIN.SCA "0.000"
  MAIN.SCB "0.000"
  MAIN.SCC "0.000"
  MAIN.SC "0.000"
  MODULE "S548"
  PIN_D "16"
  PIN_G "5"
  PIN_S "6"
  PIN_B "15"
  PIN_E ""
  PIN_6 ""
  XY_ID ""
  FUNC "L Scale"
  STI "SA ref"
  WPE "WPE ref"
  COMMENT ""
  DIS_MEAS ""
  TypeTCI "10"
END_HEADER

BEGIN_DB
 ICCAP_VAR vg         -0.339         
 ICCAP_VAR vb         1.2            
 ICCAP_VAR vs         -0             

 #vd                    id                    ig                    ib                    is                   
  -0                    2.34e-11              -9.6e-13              6e-14                 -3.762e-11           
  -0.05                 -1.1374e-08           -1e-12                1e-13                 1.14e-08             
  -0.1                  -1.4392e-08           -6.2e-13              1.8e-13               1.442e-08            
  -0.15                 -1.6088e-08           -6.2e-13              6e-14                 1.6088e-08           
  -0.2                  -1.7568e-08           -6.6e-13              1.4e-13               1.7594e-08           
  -0.25                 -1.913e-08            -5.2e-13              1e-13                 1.9144e-08           
  -0.3                  -2.0736e-08           -4.8e-13              6e-14                 2.077e-08            
  -0.35                 -2.2456e-08           -4.2e-13              6e-14                 2.2484e-08           
  -0.4                  -2.4266e-08           -4e-13                -4e-14                2.429e-08            
  -0.45                 -2.6152e-08           -5.2e-13              0                     2.6182e-08           
  -0.5                  -2.8166e-08           -4.2e-13              1.4e-13               2.8172e-08           
  -0.55                 -3.0268e-08           -4.4e-13              4e-14                 3.0268e-08           
  -0.6                  -3.245e-08            -2.4e-13              1e-13                 3.2516e-08           
  -0.65                 -3.4856e-08           -1e-13                1.2e-13               3.4878e-08           
  -0.7                  -3.7344e-08           1e-13                 4e-14                 3.7352e-08           
  -0.75                 -3.9914e-08           2.8e-13               1.8e-13               3.993e-08            
  -0.8                  -4.2684e-08           5e-13                 2e-13                 4.2716e-08           
  -0.85                 -4.5608e-08           7.4e-13               0                     4.566e-08            
  -0.9                  -4.8774e-08           1.08e-12              6e-14                 4.8826e-08           
  -0.95                 -5.2e-08              1.48e-12              1.4e-13               5.2072e-08           
  -1                    -5.555e-08            1.98e-12              1e-13                 5.5562e-08           
  -1.05                 -5.9122e-08           2.6e-12               1.8e-13               5.9016e-08           
  -1.1                  -6.2892e-08           3.18e-12              8e-14                 6.2904e-08           
  -1.15                 -6.6848e-08           3.86e-12              1.4e-13               6.6924e-08           
  -1.2                  -7.1322e-08           4.64e-12              3.2e-13               7.1402e-08           
  -1.25                 -7.5898e-08           5.52e-12              4.8e-13               7.5908e-08           
  -1.3                  -8.064e-08            6.3e-12               7.2e-13               8.062e-08            
  -1.35                 -8.5802e-08           7.5e-12               1.36e-12              8.587e-08            
END_DB

BEGIN_DB
 ICCAP_VAR vg         -0.539         
 ICCAP_VAR vb         1.2            
 ICCAP_VAR vs         -0             

 #vd                    id                    ig                    ib                    is                   
  -0                    3.9812e-09            -5e-12                -2e-14                -4.7004e-09          
  -0.05                 -3.1294e-06           -4.32e-12             2e-14                 3.1324e-06           
  -0.1                  -4.2774e-06           -3.64e-12             -2e-14                4.2768e-06           
  -0.15                 -4.8604e-06           -3.52e-12             -8e-14                4.861e-06            
  -0.2                  -5.3044e-06           -3.18e-12             -2e-14                5.305e-06            
  -0.25                 -5.7062e-06           -3.22e-12             0                     5.7144e-06           
  -0.3                  -6.1096e-06           -2.98e-12             4e-14                 6.1144e-06           
  -0.35                 -6.5048e-06           -2.92e-12             0                     6.5098e-06           
  -0.4                  -6.908e-06            -2.74e-12             1.4e-13               6.9098e-06           
  -0.45                 -7.3064e-06           -2.68e-12             8e-14                 7.3124e-06           
  -0.5                  -7.7218e-06           -2.8e-12              -4e-14                7.7234e-06           
  -0.55                 -8.1402e-06           -2.76e-12             2e-14                 8.147e-06            
  -0.6                  -8.5694e-06           -2.64e-12             6e-14                 8.5704e-06           
  -0.65                 -9.0112e-06           -2.68e-12             1e-13                 9.018e-06            
  -0.7                  -9.4604e-06           -2.64e-12             8e-14                 9.4636e-06           
  -0.75                 -9.9134e-06           -2.48e-12             8e-14                 9.9128e-06           
  -0.8                  -1.0378e-05           -2.4e-12              0                     1.0388e-05           
  -0.85                 -1.0867e-05           -2.38e-12             -8e-14                1.08726e-05          
  -0.9                  -1.1358e-05           -2.1e-12              -4e-14                1.1366e-05           
  -0.95                 -1.186e-05            -1.92e-12             2e-13                 1.1868e-05           
  -1                    -1.2376e-05           -1.58e-12             1.8e-13               1.24e-05             
  -1.05                 -1.2912e-05           -1.3e-12              2.6e-13               1.2934e-05           
  -1.1                  -1.3462e-05           -1.14e-12             4.6e-13               1.3476e-05           
  -1.15                 -1.4018e-05           -6.8e-13              1.1e-12               1.4038e-05           
  -1.2                  -1.4594e-05           -1.4e-13              2.7e-12               1.461e-05            
  -1.25                 -1.518e-05            3.4e-13               5.78e-12              1.52e-05             
  -1.3                  -1.5784e-05           9.2e-13               1.17e-11              1.5798e-05           
  -1.35                 -1.6404e-05           1.66e-12              2.288e-11             1.6434e-05           
END_DB

BEGIN_DB
 ICCAP_VAR vg         -0.739         
 ICCAP_VAR vb         1.2            
 ICCAP_VAR vs         -0             

 #vd                    id                    ig                    ib                    is                   
  -0                    6.5602e-08            -2.022e-11            0                     -6.0956e-08          
  -0.05                 -4.0092e-05           -1.738e-11            0                     4.0106e-05           
  -0.1                  -6.7348e-05           -1.532e-11            4e-14                 6.7362e-05           
  -0.15                 -8.4966e-05           -1.388e-11            0                     8.5036e-05           
  -0.2                  -9.6614e-05           -1.288e-11            4e-14                 9.6686e-05           
  -0.25                 -0.000104832          -1.204e-11            1e-13                 0.000104886          
  -0.3                  -0.00011109           -1.152e-11            -2e-14                0.000111104          
  -0.35                 -0.00011638           -1.112e-11            6e-14                 0.0001167            
  -0.4                  -0.00012116           -1.088e-11            4e-14                 0.0001214            
  -0.45                 -0.0001256            -1.08e-11             0                     0.00012596           
  -0.5                  -0.00012994           -1.052e-11            8e-14                 0.00013026           
  -0.55                 -0.00013412           -1.046e-11            6e-14                 0.00013444           
  -0.6                  -0.00013816           -1.024e-11            1e-13                 0.00013842           
  -0.65                 -0.000142             -1.004e-11            1e-13                 0.00014248           
  -0.7                  -0.00014612           -1.016e-11            -4e-14                0.00014644           
  -0.75                 -0.0001499            -1.008e-11            0                     0.00015026           
  -0.8                  -0.0001538            -9.94e-12             4e-14                 0.00015422           
  -0.85                 -0.00015768           -1.002e-11            0                     0.00015804           
  -0.9                  -0.00016156           -9.78e-12             4e-14                 0.00016206           
  -0.95                 -0.00016558           -9.68e-12             8e-14                 0.00016584           
  -1                    -0.00016938           -9.56e-12             8e-14                 0.0001697            
  -1.05                 -0.00017322           -9.54e-12             1.4e-13               0.00017362           
  -1.1                  -0.00017718           -9.36e-12             4.8e-13               0.00017754           
  -1.15                 -0.0001811            -9.08e-12             1.26e-12              0.00018144           
  -1.2                  -0.000185             -8.84e-12             3.42e-12              0.00018536           
  -1.25                 -0.0001889            -8.48e-12             8.26e-12              0.00018924           
  -1.3                  -0.00019284           -8.18e-12             1.87e-11              0.00019306           
  -1.35                 -0.00019678           -7.76e-12             4.09e-11              0.00019714           
END_DB

