! VERSION = 6.00
BEGIN_HEADER
 ICCAP_INPUTS
  vd         V  D GROUND SMU1 0.1 LIN        1    -0         -1.35      28   -0.05     
  vg         V  G GROUND SMU2 0.001 LIN        2    -0.522     -1.35      5    -0.207    
  vb         V  B GROUND SMU4 0.1 CON        -0
  vs         V  S GROUND SMU3 0.1 CON        -0
 ICCAP_OUTPUTS
  id         I  D GROUND SMU1 B
  ig         I  G GROUND SMU2 B
  ib         I  B GROUND SMU4 B
  is         I  S GROUND SMU3 B
 ICCAP_VALUES
  MASTER_SETUP_TYPE "~dc_idvd~"
  LINVT_VALUE "|idvg|100.0n|100.0m|1.000m|5|1.350|"
  LISTVT_VALUE ""
  TYPE "-1"
  TEMP " 27.0000 "
  IS_TNOM " 1.00000 "
  MAIN.W "600.0n"
  MAIN.L "130.0n"
  MAIN.AD "204.0f"
  MAIN.AS "204.0f"
  MAIN.PD "1.880u"
  MAIN.PS "1.880u"
  MAIN.NF "1.000"
  MAIN.M "1"
  MAIN.NRD "0.000"
  MAIN.NRS "0.000"
  MAIN.LDRIFT1 "1E-06"
  MAIN.LDRIFT2 "1E-06"
  MAIN.SA "0.000"
  MAIN.SB "0.000"
  MAIN.SD "0.000"
  MAIN.SCA "0.000"
  MAIN.SCB "0.000"
  MAIN.SCC "0.000"
  MAIN.SC "0.000"
  MODULE "S551"
  PIN_D "18"
  PIN_G "3"
  PIN_S "4"
  PIN_B "17"
  PIN_E ""
  PIN_6 ""
  XY_ID ""
  FUNC "LW Scale"
  STI "SA ref"
  WPE "WPE ref"
  COMMENT ""
  DIS_MEAS ""
  TypeTCI "10"
END_HEADER

BEGIN_DB
 ICCAP_VAR vg         -0.522         
 ICCAP_VAR vb         -0             
 ICCAP_VAR vs         -0             

 #vd                    id                    ig                    ib                    is                   
  -0                    1.5808e-09            -7.4e-13              -2.94e-12             -1.8246e-09          
  -0.05                 -1.3612e-06           -6.4e-13              -2.88e-12             1.3644e-06           
  -0.1                  -2.016e-06            -4.6e-13              -2.84e-12             2.019e-06            
  -0.15                 -2.3386e-06           -5.4e-13              -2.8e-12              2.3414e-06           
  -0.2                  -2.5254e-06           -5.4e-13              -2.76e-12             2.5292e-06           
  -0.25                 -2.658e-06            -5e-13                -2.8e-12              2.6616e-06           
  -0.3                  -2.7676e-06           -4.2e-13              -2.68e-12             2.7716e-06           
  -0.35                 -2.867e-06            -3.8e-13              -2.62e-12             2.869e-06            
  -0.4                  -2.955e-06            -4.2e-13              -2.66e-12             2.9608e-06           
  -0.45                 -3.0464e-06           -4e-13                -2.68e-12             3.0478e-06           
  -0.5                  -3.1332e-06           -3.4e-13              -2.64e-12             3.1352e-06           
  -0.55                 -3.214e-06            -3.6e-13              -2.52e-12             3.2184e-06           
  -0.6                  -3.296e-06            -3.8e-13              -2.52e-12             3.3002e-06           
  -0.65                 -3.3764e-06           -3e-13                -2.56e-12             3.3792e-06           
  -0.7                  -3.4556e-06           -4.4e-13              -2.52e-12             3.4604e-06           
  -0.75                 -3.5396e-06           -3.8e-13              -2.38e-12             3.5656e-06           
  -0.8                  -3.646e-06            -3.2e-13              -2.44e-12             3.6522e-06           
  -0.85                 -3.724e-06            -3.4e-13              -2.52e-12             3.7288e-06           
  -0.9                  -3.8102e-06           -3e-13                -2.5e-12              3.8112e-06           
  -0.95                 -3.8924e-06           -3.4e-13              -2.34e-12             3.897e-06            
  -1                    -3.9698e-06           -3.2e-13              -2.42e-12             3.9776e-06           
  -1.05                 -4.05e-06             -2e-13                -2.54e-12             4.0606e-06           
  -1.1                  -4.1336e-06           -2.6e-13              -2.4e-12              4.138e-06            
  -1.15                 -4.2144e-06           -2.6e-13              -2.26e-12             4.2208e-06           
  -1.2                  -4.2952e-06           -4e-14                -1.96e-12             4.3e-06              
  -1.25                 -4.3796e-06           2e-14                 -1.4e-12              4.3854e-06           
  -1.3                  -4.463e-06            1.4e-13               -1.6e-13              4.513e-06            
  -1.35                 -4.5972e-06           8e-14                 1.34e-12              4.5988e-06           
END_DB

BEGIN_DB
 ICCAP_VAR vg         -0.729         
 ICCAP_VAR vb         -0             
 ICCAP_VAR vs         -0             

 #vd                    id                    ig                    ib                    is                   
  -0                    2.9804e-09            -1.92e-12             -2.14e-12             -4.4624e-09          
  -0.05                 -6.0696e-06           -1.74e-12             -2.18e-12             6.0714e-06           
  -0.1                  -1.07042e-05          -1.66e-12             -1.92e-12             1.07116e-05          
  -0.15                 -1.4054e-05           -1.5e-12              -2.22e-12             1.4068e-05           
  -0.2                  -1.6376e-05           -1.5e-12              -2.22e-12             1.6392e-05           
  -0.25                 -1.796e-05            -1.26e-12             -2.04e-12             1.7982e-05           
  -0.3                  -1.9098e-05           -1.3e-12              -2.04e-12             1.9118e-05           
  -0.35                 -1.9968e-05           -1.34e-12             -2.12e-12             1.9996e-05           
  -0.4                  -2.065e-05            -1.14e-12             -1.9e-12              2.0668e-05           
  -0.45                 -2.1222e-05           -1.16e-12             -2.02e-12             2.1244e-05           
  -0.5                  -2.1722e-05           -1.14e-12             -2.02e-12             2.1736e-05           
  -0.55                 -2.2184e-05           -1.12e-12             -1.98e-12             2.2198e-05           
  -0.6                  -2.2602e-05           -1.04e-12             -1.84e-12             2.2624e-05           
  -0.65                 -2.3004e-05           -1.12e-12             -1.82e-12             2.3014e-05           
  -0.7                  -2.339e-05            -1.16e-12             -1.84e-12             2.3408e-05           
  -0.75                 -2.3782e-05           -1.08e-12             -1.88e-12             2.3784e-05           
  -0.8                  -2.4132e-05           -1.12e-12             -2.1e-12              2.4192e-05           
  -0.85                 -2.4518e-05           -1.02e-12             -1.92e-12             2.4542e-05           
  -0.9                  -2.4858e-05           -1.04e-12             -1.64e-12             2.4876e-05           
  -0.95                 -2.5242e-05           -1.02e-12             -1.66e-12             2.528e-05            
  -1                    -2.5612e-05           -1.02e-12             -1.72e-12             2.5624e-05           
  -1.05                 -2.5932e-05           -8.8e-13              -1.74e-12             2.5956e-05           
  -1.1                  -2.6256e-05           -9e-13                -1.7e-12              2.6292e-05           
  -1.15                 -2.6604e-05           -8.8e-13              -1.58e-12             2.6618e-05           
  -1.2                  -2.6928e-05           -8.6e-13              -1.46e-12             2.6946e-05           
  -1.25                 -2.7252e-05           -9e-13                -9e-13                2.7262e-05           
  -1.3                  -2.7556e-05           -9.6e-13              2.2e-13               2.7586e-05           
  -1.35                 -2.789e-05            -8.2e-13              2.36e-12              2.79e-05             
END_DB

BEGIN_DB
 ICCAP_VAR vg         -0.936         
 ICCAP_VAR vb         -0             
 ICCAP_VAR vs         -0             

 #vd                    id                    ig                    ib                    is                   
  -0                    1.3276e-08            -4.8e-12              -1.82e-12             -1.2682e-08          
  -0.05                 -1.0814e-05           -4.36e-12             -1.72e-12             1.0832e-05           
  -0.1                  -2.0276e-05           -3.96e-12             -1.6e-12              2.029e-05            
  -0.15                 -2.8374e-05           -3.58e-12             -1.64e-12             2.838e-05            
  -0.2                  -3.5088e-05           -3.38e-12             -1.8e-12              3.503e-05            
  -0.25                 -4.0414e-05           -3.14e-12             -1.68e-12             4.0382e-05           
  -0.3                  -4.4578e-05           -3.08e-12             -1.78e-12             4.4698e-05           
  -0.35                 -4.794e-05            -2.82e-12             -1.72e-12             4.7926e-05           
  -0.4                  -5.0452e-05           -2.88e-12             -1.56e-12             5.0504e-05           
  -0.45                 -5.2482e-05           -2.72e-12             -1.54e-12             5.253e-05            
  -0.5                  -5.4126e-05           -2.72e-12             -1.74e-12             5.4138e-05           
  -0.55                 -5.5488e-05           -2.5e-12              -1.66e-12             5.5514e-05           
  -0.6                  -5.6654e-05           -2.4e-12              -1.46e-12             5.6608e-05           
  -0.65                 -5.7628e-05           -2.4e-12              -1.52e-12             5.769e-05            
  -0.7                  -5.8602e-05           -2.44e-12             -1.62e-12             5.8614e-05           
  -0.75                 -5.9462e-05           -2.4e-12              -1.62e-12             5.9484e-05           
  -0.8                  -6.0268e-05           -2.28e-12             -1.5e-12              6.0292e-05           
  -0.85                 -6.1074e-05           -2.34e-12             -1.48e-12             6.1106e-05           
  -0.9                  -6.1776e-05           -2.36e-12             -1.46e-12             6.179e-05            
  -0.95                 -6.2466e-05           -2.22e-12             -1.44e-12             6.2514e-05           
  -1                    -6.3036e-05           -2.34e-12             -1.5e-12              6.318e-05            
  -1.05                 -6.3872e-05           -2.4e-12              -1.5e-12              6.3844e-05           
  -1.1                  -6.4516e-05           -2.2e-12              -1.5e-12              6.459e-05            
  -1.15                 -6.5206e-05           -2.12e-12             -1.4e-12              6.5208e-05           
  -1.2                  -6.5848e-05           -2.22e-12             -1.02e-12             6.5852e-05           
  -1.25                 -6.646e-05            -2.14e-12             -9e-13                6.6478e-05           
  -1.3                  -6.7074e-05           -2.24e-12             -4.4e-13              6.709e-05            
  -1.35                 -6.7636e-05           -2.18e-12             1.02e-12              6.7654e-05           
END_DB

BEGIN_DB
 ICCAP_VAR vg         -1.143         
 ICCAP_VAR vb         -0             
 ICCAP_VAR vs         -0             

 #vd                    id                    ig                    ib                    is                   
  -0                    1.9154e-08            -1.018e-11            -1.5e-12              -1.7858e-08          
  -0.05                 -1.4706e-05           -9.42e-12             -1.52e-12             1.4716e-05           
  -0.1                  -2.8264e-05           -8.76e-12             -1.52e-12             2.8258e-05           
  -0.15                 -4.044e-05            -8.1e-12              -1.5e-12              4.0486e-05           
  -0.2                  -5.1286e-05           -7.32e-12             -1.3e-12              5.1344e-05           
  -0.25                 -6.0794e-05           -6.92e-12             -1.42e-12             6.0874e-05           
  -0.3                  -6.9006e-05           -6.66e-12             -1.58e-12             6.9022e-05           
  -0.35                 -7.5854e-05           -6.02e-12             -1.48e-12             7.5886e-05           
  -0.4                  -8.1748e-05           -5.86e-12             -1.32e-12             8.1778e-05           
  -0.45                 -8.6542e-05           -5.7e-12              -1.38e-12             8.6646e-05           
  -0.5                  -9.0526e-05           -5.4e-12              -1.44e-12             9.0586e-05           
  -0.55                 -9.3728e-05           -5.18e-12             -1.34e-12             9.369e-05            
  -0.6                  -9.6518e-05           -5.24e-12             -1.4e-12              9.659e-05            
  -0.65                 -9.89e-05             -5.08e-12             -1.34e-12             9.8756e-05           
  -0.7                  -0.000100884          -4.88e-12             -1.34e-12             0.000100806          
  -0.75                 -0.000102628          -4.96e-12             -1.34e-12             0.000102468          
  -0.8                  -0.000103992          -4.74e-12             -1.36e-12             0.000103888          
  -0.85                 -0.000105468          -4.56e-12             -1.34e-12             0.00010547           
  -0.9                  -0.00010684           -4.66e-12             -1.34e-12             0.000106926          
  -0.95                 -0.00010814           -4.6e-12              -1.32e-12             0.000108252          
  -1                    -0.000109278          -4.5e-12              -1.24e-12             0.0001093            
  -1.05                 -0.000110248          -4.62e-12             -1.22e-12             0.000110272          
  -1.1                  -0.00011138           -4.54e-12             -1.3e-12              0.00011143           
  -1.15                 -0.00011251           -4.5e-12              -1.22e-12             0.000112384          
  -1.2                  -0.000113246          -4.44e-12             -1.28e-12             0.00011344           
  -1.25                 -0.00011428           -4.3e-12              -8.2e-13              0.000114284          
  -1.3                  -0.00011508           -4.48e-12             -7e-13                0.0001154            
  -1.35                 -0.00011604           -4.44e-12             2e-13                 0.0001162            
END_DB

BEGIN_DB
 ICCAP_VAR vg         -1.35          
 ICCAP_VAR vb         -0             
 ICCAP_VAR vs         -0             

 #vd                    id                    ig                    ib                    is                   
  -0                    2.1888e-08            -2.062e-11            -1.08e-12             -2.0908e-08          
  -0.05                 -1.7686e-05           -1.934e-11            -1.16e-12             1.7682e-05           
  -0.1                  -3.4382e-05           -1.78e-11             -1.06e-12             3.4406e-05           
  -0.15                 -4.9898e-05           -1.656e-11            -1.2e-12              4.996e-05            
  -0.2                  -6.4314e-05           -1.544e-11            -1.18e-12             6.4346e-05           
  -0.25                 -7.7344e-05           -1.45e-11             -1.14e-12             7.725e-05            
  -0.3                  -8.8958e-05           -1.372e-11            -1.2e-12              8.91e-05             
  -0.35                 -9.9658e-05           -1.282e-11            -1.1e-12              9.9698e-05           
  -0.4                  -0.000108828          -1.21e-11             -1.14e-12             0.000108888          
  -0.45                 -0.0001167            -1.148e-11            -1.2e-12              0.00011712           
  -0.5                  -0.0001237            -1.102e-11            -1.16e-12             0.0001241            
  -0.55                 -0.00012964           -1.054e-11            -1.12e-12             0.00012996           
  -0.6                  -0.00013466           -1.038e-11            -1.06e-12             0.000135             
  -0.65                 -0.000139             -9.96e-12             -1.04e-12             0.00013942           
  -0.7                  -0.00014278           -9.58e-12             -1.08e-12             0.00014306           
  -0.75                 -0.00014584           -9.44e-12             -1.26e-12             0.00014616           
  -0.8                  -0.00014884           -9.36e-12             -1.04e-12             0.0001491            
  -0.85                 -0.00015128           -9.18e-12             -1e-12                0.00015184           
  -0.9                  -0.00015376           -9e-12                -1.06e-12             0.00015374           
  -0.95                 -0.0001556            -8.84e-12             -1.18e-12             0.00015584           
  -1                    -0.00015732           -8.8e-12              -1e-12                0.00015772           
  -1.05                 -0.00015928           -8.7e-12              -1.08e-12             0.00015952           
  -1.1                  -0.0001607            -8.68e-12             -1.1e-12              0.00016098           
  -1.15                 -0.00016222           -8.74e-12             -1.02e-12             0.00016256           
  -1.2                  -0.00016374           -8.52e-12             -9e-13                0.00016406           
  -1.25                 -0.00016496           -8.64e-12             -1.02e-12             0.00016532           
  -1.3                  -0.00016618           -8.54e-12             -7e-13                0.00016684           
  -1.35                 -0.00016778           -8.4e-12              -3.2e-13              0.000168             
END_DB

