! VERSION = 6.00
BEGIN_HEADER
 ICCAP_INPUTS
  vd         V  D GROUND SMU1 0.1 LIN        1    -0         -1.35      28   -0.05     
  vg         V  G GROUND SMU2 0.001 LIN        2    -0.414     -1.35      5    -0.234    
  vb         V  B GROUND SMU4 0.1 CON        -0
  vs         V  S GROUND SMU3 0.1 CON        -0
 ICCAP_OUTPUTS
  id         I  D GROUND SMU1 B
  ig         I  G GROUND SMU2 B
  ib         I  B GROUND SMU4 B
  is         I  S GROUND SMU3 B
 ICCAP_VALUES
  MASTER_SETUP_TYPE "~dc_idvd~"
  LINVT_VALUE "|idvg|100.0n|100.0m|1.000m|5|1.350|"
  LISTVT_VALUE ""
  TYPE "-1"
  TEMP " 125.000 "
  IS_TNOM " 0.00000 "
  MAIN.W "10.00u"
  MAIN.L "180.0n"
  MAIN.AD "3.400p"
  MAIN.AS "3.400p"
  MAIN.PD "20.68u"
  MAIN.PS "20.68u"
  MAIN.NF "1.000"
  MAIN.M "1"
  MAIN.NRD "0.000"
  MAIN.NRS "0.000"
  MAIN.LDRIFT1 "1E-06"
  MAIN.LDRIFT2 "1E-06"
  MAIN.SA "0.000"
  MAIN.SB "0.000"
  MAIN.SD "0.000"
  MAIN.SCA "0.000"
  MAIN.SCB "0.000"
  MAIN.SCC "0.000"
  MAIN.SC "0.000"
  MODULE "S548"
  PIN_D "12"
  PIN_G "9"
  PIN_S "10"
  PIN_B "11"
  PIN_E ""
  PIN_6 ""
  XY_ID ""
  FUNC "L Scale"
  STI "SA ref"
  WPE "WPE ref"
  COMMENT ""
  DIS_MEAS ""
  TypeTCI "10"
END_HEADER

BEGIN_DB
 ICCAP_VAR vg         -0.414         
 ICCAP_VAR vb         -0             
 ICCAP_VAR vs         -0             

 #vd                    id                    ig                    ib                    is                   
  -0                    1.891e-08             -3.28e-12             -4.412e-11            -2.0742e-08          
  -0.05                 -1.28e-05             -2.78e-12             -3.944e-11            1.2802e-05           
  -0.1                  -1.9464e-05           -2.22e-12             -3.734e-11            1.9476e-05           
  -0.15                 -2.2698e-05           -1.98e-12             -3.612e-11            2.2704e-05           
  -0.2                  -2.4362e-05           -2.08e-12             -3.374e-11            2.4386e-05           
  -0.25                 -2.5424e-05           -2e-12                -3.248e-11            2.5442e-05           
  -0.3                  -2.6224e-05           -1.84e-12             -3.154e-11            2.6224e-05           
  -0.35                 -2.6908e-05           -1.78e-12             -2.966e-11            2.693e-05            
  -0.4                  -2.753e-05            -1.78e-12             -2.79e-11             2.7526e-05           
  -0.45                 -2.8096e-05           -1.78e-12             -2.772e-11            2.8114e-05           
  -0.5                  -2.8632e-05           -1.56e-12             -2.578e-11            2.8636e-05           
  -0.55                 -2.9142e-05           -1.78e-12             -2.508e-11            2.9162e-05           
  -0.6                  -2.9634e-05           -1.6e-12              -2.428e-11            2.9646e-05           
  -0.65                 -3.0118e-05           -1.5e-12              -2.326e-11            3.0106e-05           
  -0.7                  -3.0566e-05           -1.46e-12             -2.242e-11            3.0582e-05           
  -0.75                 -3.1018e-05           -1.32e-12             -2.116e-11            3.1014e-05           
  -0.8                  -3.1434e-05           -1e-12                -2.03e-11             3.1444e-05           
  -0.85                 -3.1868e-05           -6.8e-13              -1.976e-11            3.1854e-05           
  -0.9                  -3.229e-05            -3.4e-13              -1.932e-11            3.2294e-05           
  -0.95                 -3.267e-05            2e-14                 -1.736e-11            3.269e-05            
  -1                    -3.3056e-05           3e-13                 -1.652e-11            3.3062e-05           
  -1.05                 -3.3436e-05           7.4e-13               -1.33e-11             3.344e-05            
  -1.1                  -3.3806e-05           1.2e-12               -8.64e-12             3.379e-05            
  -1.15                 -3.4164e-05           1.94e-12              -3.4e-13              3.417e-05            
  -1.2                  -3.4512e-05           2.64e-12              1.334e-11             3.4526e-05           
  -1.25                 -3.4882e-05           3.4e-12               3.638e-11             3.49e-05             
  -1.3                  -3.525e-05            4.4e-12               7.3e-11               3.524e-05            
  -1.35                 -3.5566e-05           5.16e-12              1.3314e-10            3.555e-05            
END_DB

BEGIN_DB
 ICCAP_VAR vg         -0.648         
 ICCAP_VAR vb         -0             
 ICCAP_VAR vs         -0             

 #vd                    id                    ig                    ib                    is                   
  -0                    7.4396e-08            -1.62e-11             -1.702e-11            -6.8334e-08          
  -0.05                 -5.2424e-05           -1.42e-11             -1.64e-11             5.2418e-05           
  -0.1                  -9.3912e-05           -1.24e-11             -1.612e-11            9.3934e-05           
  -0.15                 -0.00012508           -1.116e-11            -1.508e-11            0.00012534           
  -0.2                  -0.00014742           -1.002e-11            -1.46e-11             0.0001477            
  -0.25                 -0.00016278           -9.56e-12             -1.392e-11            0.00016302           
  -0.3                  -0.00017324           -8.98e-12             -1.34e-11             0.00017354           
  -0.35                 -0.00018048           -8.54e-12             -1.3e-11              0.00018092           
  -0.4                  -0.0001861            -8.44e-12             -1.26e-11             0.00018644           
  -0.45                 -0.00019066           -8.38e-12             -1.192e-11            0.00019098           
  -0.5                  -0.00019456           -8.22e-12             -1.168e-11            0.00019482           
  -0.55                 -0.00019808           -7.86e-12             -1.186e-11            0.00019836           
  -0.6                  -0.00020132           -7.88e-12             -1.098e-11            0.00020154           
  -0.65                 -0.0002042            -7.82e-12             -1.084e-11            0.00020454           
  -0.7                  -0.00020704           -7.74e-12             -1.014e-11            0.00020736           
  -0.75                 -0.00020984           -7.68e-12             -9.68e-12             0.00021008           
  -0.8                  -0.00021238           -7.7e-12              -9.92e-12             0.00021266           
  -0.85                 -0.00021484           -7.52e-12             -9.1e-12              0.00021512           
  -0.9                  -0.00021726           -7.28e-12             -8.92e-12             0.00021764           
  -0.95                 -0.00021972           -7.08e-12             -8.68e-12             0.00021998           
  -1                    -0.00022198           -6.92e-12             -7.4e-12              0.00022228           
  -1.05                 -0.00022416           -6.66e-12             -6.38e-12             0.00022456           
  -1.1                  -0.00022638           -6.52e-12             -3.66e-12             0.0002266            
  -1.15                 -0.00022864           -6.08e-12             2.2e-12               0.0002289            
  -1.2                  -0.00023074           -5.6e-12              1.214e-11             0.00023102           
  -1.25                 -0.00023278           -5.44e-12             3.272e-11             0.00023298           
  -1.3                  -0.00023478           -4.78e-12             7.118e-11             0.0002351            
  -1.35                 -0.00023676           -4.06e-12             1.3836e-10            0.0002371            
END_DB

BEGIN_DB
 ICCAP_VAR vg         -0.882         
 ICCAP_VAR vb         -0             
 ICCAP_VAR vs         -0             

 #vd                    id                    ig                    ib                    is                   
  -0                    1.15008e-07           -5.472e-11            -9.94e-12             -1.1142e-07          
  -0.05                 -9.2712e-05           -4.892e-11            -1.004e-11            9.2724e-05           
  -0.1                  -0.00017518           -4.414e-11            -9.9e-12              0.00017548           
  -0.15                 -0.00024736           -4.004e-11            -9.36e-12             0.00024768           
  -0.2                  -0.00030922           -3.666e-11            -8.04e-12             0.00030962           
  -0.25                 -0.00036112           -3.378e-11            -8.26e-12             0.00036152           
  -0.3                  -0.00040344           -3.142e-11            -8.4e-12              0.00040386           
  -0.35                 -0.00043708           -2.984e-11            -7.94e-12             0.00043742           
  -0.4                  -0.00046326           -2.846e-11            -7.52e-12             0.00046354           
  -0.45                 -0.00048356           -2.748e-11            -7.04e-12             0.00048394           
  -0.5                  -0.0004994            -2.664e-11            -6.72e-12             0.0004997            
  -0.55                 -0.00051226           -2.612e-11            -6.66e-12             0.00051246           
  -0.6                  -0.00052296           -2.564e-11            -6.56e-12             0.00052318           
  -0.65                 -0.00053198           -2.52e-11             -6.64e-12             0.00053244           
  -0.7                  -0.00054018           -2.496e-11            -6.34e-12             0.00054026           
  -0.75                 -0.00054744           -2.462e-11            -5.96e-12             0.00054772           
  -0.8                  -0.0005542            -2.438e-11            -5.92e-12             0.0005546            
  -0.85                 -0.00056088           -2.426e-11            -6.12e-12             0.00056104           
  -0.9                  -0.00056676           -2.41e-11             -5.24e-12             0.00056728           
  -0.95                 -0.00057276           -2.386e-11            -5.18e-12             0.0005732            
  -1                    -0.00057826           -2.378e-11            -4.78e-12             0.00057862           
  -1.05                 -0.00058366           -2.352e-11            -4.44e-12             0.00058406           
  -1.1                  -0.00058904           -2.33e-11             -3.7e-12              0.00058932           
  -1.15                 -0.0005944            -2.304e-11            -2.1e-12              0.00059446           
  -1.2                  -0.00059918           -2.292e-11            1.78e-12              0.00059954           
  -1.25                 -0.00060414           -2.258e-11            9.4e-12               0.00060444           
  -1.3                  -0.00060892           -2.23e-11             2.426e-11             0.000609             
  -1.35                 -0.0006136            -2.2e-11              5.386e-11             0.00061378           
END_DB

BEGIN_DB
 ICCAP_VAR vg         -1.116         
 ICCAP_VAR vb         -0             
 ICCAP_VAR vs         -0             

 #vd                    id                    ig                    ib                    is                   
  -0                    3.165e-07             -1.4406e-10           -6.42e-12             -1.3422e-07          
  -0.05                 -0.00012624           -1.3168e-10           -6.52e-12             0.00012652           
  -0.1                  -0.00024386           -1.2102e-10           -6.04e-12             0.00024426           
  -0.15                 -0.0003525            -1.1154e-10           -5.96e-12             0.00035266           
  -0.2                  -0.00045174           -1.0288e-10           -5.86e-12             0.00045204           
  -0.25                 -0.00054132           -9.606e-11            -5.98e-12             0.0005417            
  -0.3                  -0.00062144           -8.928e-11            -4.8e-12              0.00062194           
  -0.35                 -0.00069202           -8.382e-11            -5.36e-12             0.00069232           
  -0.4                  -0.00075344           -7.92e-11             -4.84e-12             0.00075358           
  -0.45                 -0.00080554           -7.55e-11             -4.28e-12             0.0008059            
  -0.5                  -0.00084938           -7.224e-11            -4.94e-12             0.00084988           
  -0.55                 -0.00088618           -6.972e-11            -4.56e-12             0.00088646           
  -0.6                  -0.0009164            -6.77e-11             -4e-12                0.00091696           
  -0.65                 -0.00094168           -6.604e-11            -4.16e-12             0.00094206           
  -0.7                  -0.00096306           -6.468e-11            -3.86e-12             0.00096316           
  -0.75                 -0.00098054           -6.35e-11             -3.62e-12             0.00098048           
  -0.8                  -0.00099596           -6.276e-11            -3.8e-12              0.00099668           
  -0.85                 -0.00101004           -6.204e-11            -3.14e-12             0.0010101            
  -0.9                  -0.00102236           -6.126e-11            -3.5e-12              0.0010229            
  -0.95                 -0.00103406           -6.1e-11              -4.16e-12             0.00103408           
  -1                    -0.00104424           -6.056e-11            -3.08e-12             0.00104506           
  -1.05                 -0.00105452           -5.982e-11            -2.84e-12             0.00105466           
  -1.1                  -0.00106384           -5.942e-11            -2.74e-12             0.00106434           
  -1.15                 -0.00107316           -5.902e-11            -1.96e-12             0.00107354           
  -1.2                  -0.00108224           -5.862e-11            -1.52e-12             0.00108232           
  -1.25                 -0.0010904            -5.834e-11            1.08e-12              0.00109108           
  -1.3                  -0.00109848           -5.794e-11            5.56e-12              0.00109912           
  -1.35                 -0.00110674           -5.762e-11            1.436e-11             0.0011065            
END_DB

BEGIN_DB
 ICCAP_VAR vg         -1.35          
 ICCAP_VAR vb         -0             
 ICCAP_VAR vs         -0             

 #vd                    id                    ig                    ib                    is                   
  -0                    4.0174e-07            -3.1994e-10           7.4e-13               -1.4444e-07          
  -0.05                 -0.00015316           -2.983e-10            -2.4e-13              0.00015348           
  -0.1                  -0.00029914           -2.766e-10            -5.8e-13              0.00029942           
  -0.15                 -0.00043724           -2.5788e-10           -1.36e-12             0.00043768           
  -0.2                  -0.00056742           -2.4172e-10           -1.72e-12             0.00056782           
  -0.25                 -0.00068928           -2.2634e-10           -1.72e-12             0.0006898            
  -0.3                  -0.00080248           -2.1286e-10           -1.66e-12             0.0008031            
  -0.35                 -0.00090664           -2.0116e-10           -1.66e-12             0.00090708           
  -0.4                  -0.00100212           -1.9026e-10           -2.02e-12             0.0010028            
  -0.45                 -0.00108914           -1.8104e-10           -2.16e-12             0.00108988           
  -0.5                  -0.001167             -1.726e-10            -2.12e-12             0.0011676            
  -0.55                 -0.001236             -1.6546e-10           -1.64e-12             0.0012366            
  -0.6                  -0.001297             -1.5932e-10           -2.08e-12             0.0012974            
  -0.65                 -0.0013494            -1.542e-10            -1.22e-12             0.00135              
  -0.7                  -0.0013954            -1.4972e-10           -1.42e-12             0.0013962            
  -0.75                 -0.0014352            -1.4594e-10           -1.84e-12             0.0014352            
  -0.8                  -0.001468             -1.4282e-10           -1.58e-12             0.0014694            
  -0.85                 -0.0014984            -1.4024e-10           -1.2e-12              0.0014984            
  -0.9                  -0.0015234            -1.4044e-10           -1.44e-12             0.0015238            
  -0.95                 -0.0015454            -1.3632e-10           -1.16e-12             0.0015464            
  -1                    -0.0015652            -1.3484e-10           -1.2e-12              0.0015664            
  -1.05                 -0.0015832            -1.3352e-10           -1.06e-12             0.0015838            
  -1.1                  -0.0015998            -1.323e-10            -7.6e-13              0.0016004            
  -1.15                 -0.0016148            -1.3152e-10           -6.6e-13              0.0016158            
  -1.2                  -0.0016288            -1.307e-10            -5.6e-13              0.0016294            
  -1.25                 -0.0016422            -1.2964e-10           1.8e-13               0.0016428            
  -1.3                  -0.0016548            -1.2886e-10           1.74e-12              0.0016556            
  -1.35                 -0.0016662            -1.2802e-10           4.52e-12              0.0016678            
END_DB

