! VERSION = 6.00
BEGIN_HEADER
 ICCAP_INPUTS
  vd         V  D GROUND SMU1 0.1 LIN        1    -0         -1.35      28   -0.05     
  vg         V  G GROUND SMU2 0.001 LIST       2 3 -0.337 -0.537 -0.737
  vb         V  B GROUND SMU4 0.1 CON        1.2
  vs         V  S GROUND SMU3 0.1 CON        -0
 ICCAP_OUTPUTS
  id         I  D GROUND SMU1 B
  ig         I  G GROUND SMU2 B
  ib         I  B GROUND SMU4 B
  is         I  S GROUND SMU3 B
 ICCAP_VALUES
  MASTER_SETUP_TYPE "~dc_idvd~"
  LINVT_VALUE ""
  LISTVT_VALUE "|idvg|100.0n|-200.0m|1.000m|3|200.0m|200.0m|"
  TYPE "-1"
  TEMP " 27.0000 "
  IS_TNOM " 1.00000 "
  MAIN.W "10.00u"
  MAIN.L "500.0n"
  MAIN.AD "3.400p"
  MAIN.AS "3.400p"
  MAIN.PD "20.68u"
  MAIN.PS "20.68u"
  MAIN.NF "1.000"
  MAIN.M "1"
  MAIN.NRD "0.000"
  MAIN.NRS "0.000"
  MAIN.LDRIFT1 "1E-06"
  MAIN.LDRIFT2 "1E-06"
  MAIN.SA "0.000"
  MAIN.SB "0.000"
  MAIN.SD "0.000"
  MAIN.SCA "0.000"
  MAIN.SCB "0.000"
  MAIN.SCC "0.000"
  MAIN.SC "0.000"
  MODULE "S549"
  PIN_D "20"
  PIN_G "1"
  PIN_S "2"
  PIN_B "19"
  PIN_E ""
  PIN_6 ""
  XY_ID ""
  FUNC "L Scale"
  STI "SA ref"
  WPE "WPE ref"
  COMMENT ""
  DIS_MEAS ""
  TypeTCI "10"
END_HEADER

BEGIN_DB
 ICCAP_VAR vg         -0.337         
 ICCAP_VAR vb         1.2            
 ICCAP_VAR vs         -0             

 #vd                    id                    ig                    ib                    is                   
  -0                    7.5e-12               -1.24e-12             1.8e-13               -1.398e-11           
  -0.05                 -4.3298e-09           -1.12e-12             1.8e-13               4.33e-09             
  -0.1                  -5.0982e-09           -1.08e-12             4e-14                 5.0998e-09           
  -0.15                 -5.3188e-09           -9.2e-13              1.2e-13               5.3194e-09           
  -0.2                  -5.448e-09            -9.8e-13              1.6e-13               5.449e-09            
  -0.25                 -5.5562e-09           -9.8e-13              4e-14                 5.5592e-09           
  -0.3                  -5.6588e-09           -8.6e-13              8e-14                 5.6582e-09           
  -0.35                 -5.7474e-09           -8.8e-13              6e-14                 5.7478e-09           
  -0.4                  -5.8366e-09           -8.2e-13              2e-14                 5.8358e-09           
  -0.45                 -5.9148e-09           -7.6e-13              1e-13                 5.9142e-09           
  -0.5                  -5.9922e-09           -7e-13                6e-14                 5.9926e-09           
  -0.55                 -6.0624e-09           -7.2e-13              1.2e-13               6.0638e-09           
  -0.6                  -6.1316e-09           -6.4e-13              4e-14                 6.1308e-09           
  -0.65                 -6.1922e-09           -4.4e-13              8e-14                 6.1956e-09           
  -0.7                  -6.2558e-09           -2.8e-13              2e-14                 6.2568e-09           
  -0.75                 -6.3148e-09           -1.6e-13              -2e-14                6.3132e-09           
  -0.8                  -6.3664e-09           1e-13                 6e-14                 6.366e-09            
  -0.85                 -6.417e-09            3.6e-13               -4e-14                6.4164e-09           
  -0.9                  -6.4646e-09           6.8e-13               1.4e-13               6.4648e-09           
  -0.95                 -6.5136e-09           1.1e-12               -4e-14                6.5094e-09           
  -1                    -6.5578e-09           1.48e-12              0                     6.5562e-09           
  -1.05                 -6.6008e-09           1.9e-12               1.2e-13               6.5988e-09           
  -1.1                  -6.6406e-09           2.4e-12               0                     6.6376e-09           
  -1.15                 -6.6806e-09           3.12e-12              -4e-14                6.677e-09            
  -1.2                  -6.7222e-09           3.74e-12              2e-13                 6.7166e-09           
  -1.25                 -6.7602e-09           4.52e-12              4.4e-13               6.7512e-09           
  -1.3                  -6.7956e-09           5.3e-12               7.8e-13               6.787e-09            
  -1.35                 -6.8292e-09           6.26e-12              1.38e-12              6.8198e-09           
END_DB

BEGIN_DB
 ICCAP_VAR vg         -0.537         
 ICCAP_VAR vb         1.2            
 ICCAP_VAR vs         -0             

 #vd                    id                    ig                    ib                    is                   
  -0                    2.8388e-09            -1.04e-11             -4e-14                -3.4026e-09          
  -0.05                 -1.4478e-06           -8.6e-12              -1e-13                1.4502e-06           
  -0.1                  -1.8804e-06           -7.6e-12              -4e-14                1.8832e-06           
  -0.15                 -2.0138e-06           -7.2e-12              0                     2.0176e-06           
  -0.2                  -2.0812e-06           -7e-12                8e-14                 2.0856e-06           
  -0.25                 -2.131e-06            -6.8e-12              8e-14                 2.134e-06            
  -0.3                  -2.1734e-06           -6.7e-12              1.8e-13               2.1778e-06           
  -0.35                 -2.2126e-06           -6.48e-12             6e-14                 2.2154e-06           
  -0.4                  -2.2464e-06           -6.48e-12             -1e-13                2.251e-06            
  -0.45                 -2.2782e-06           -6.38e-12             0                     2.2824e-06           
  -0.5                  -2.3088e-06           -6.3e-12              0                     2.3128e-06           
  -0.55                 -2.3368e-06           -6.36e-12             0                     2.3408e-06           
  -0.6                  -2.3642e-06           -6.36e-12             6e-14                 2.3668e-06           
  -0.65                 -2.387e-06            -6.2e-12              -1e-13                2.3906e-06           
  -0.7                  -2.4116e-06           -6.04e-12             -8e-14                2.4158e-06           
  -0.75                 -2.4338e-06           -6.02e-12             2e-14                 2.4386e-06           
  -0.8                  -2.4564e-06           -5.84e-12             -1.4e-13              2.4588e-06           
  -0.85                 -2.476e-06            -5.82e-12             -2e-14                2.4804e-06           
  -0.9                  -2.4952e-06           -5.62e-12             4e-14                 2.4976e-06           
  -0.95                 -2.5122e-06           -5.32e-12             6e-14                 2.5158e-06           
  -1                    -2.5294e-06           -5.04e-12             -2e-14                2.5344e-06           
  -1.05                 -2.5478e-06           -4.82e-12             0                     2.5516e-06           
  -1.1                  -2.5634e-06           -4.46e-12             6e-14                 2.5674e-06           
  -1.15                 -2.5784e-06           -4.12e-12             2e-13                 2.5824e-06           
  -1.2                  -2.5934e-06           -3.64e-12             4.6e-13               2.5958e-06           
  -1.25                 -2.6066e-06           -3.24e-12             8.6e-13               2.6094e-06           
  -1.3                  -2.62e-06             -2.58e-12             1.6e-12               2.6226e-06           
  -1.35                 -2.6316e-06           -2.04e-12             3.38e-12              2.6364e-06           
END_DB

BEGIN_DB
 ICCAP_VAR vg         -0.737         
 ICCAP_VAR vb         1.2            
 ICCAP_VAR vs         -0             

 #vd                    id                    ig                    ib                    is                   
  -0                    2.1968e-08            -5.714e-11            -2e-14                -2.1812e-08          
  -0.05                 -1.3186e-05           -4.916e-11            0                     1.3198e-05           
  -0.1                  -2.2224e-05           -4.332e-11            -2e-14                2.2242e-05           
  -0.15                 -2.7672e-05           -3.948e-11            -4e-14                2.7692e-05           
  -0.2                  -3.055e-05            -3.722e-11            -2e-14                3.0568e-05           
  -0.25                 -3.2024e-05           -3.582e-11            -4e-14                3.2042e-05           
  -0.3                  -3.2894e-05           -3.5e-11              -4e-14                3.2918e-05           
  -0.35                 -3.3518e-05           -3.438e-11            0                     3.3536e-05           
  -0.4                  -3.4018e-05           -3.4e-11              -2e-14                3.4032e-05           
  -0.45                 -3.4458e-05           -3.364e-11            0                     3.4482e-05           
  -0.5                  -3.4874e-05           -3.316e-11            -2e-14                3.4892e-05           
  -0.55                 -3.5232e-05           -3.304e-11            2e-14                 3.5254e-05           
  -0.6                  -3.558e-05            -3.274e-11            2e-14                 3.56e-05             
  -0.65                 -3.5882e-05           -3.254e-11            -1.6e-13              3.592e-05            
  -0.7                  -3.619e-05            -3.238e-11            -1.8e-13              3.6208e-05           
  -0.75                 -3.6458e-05           -3.216e-11            -1e-13                3.648e-05            
  -0.8                  -3.6744e-05           -3.21e-11             -8e-14                3.676e-05            
  -0.85                 -3.7008e-05           -3.198e-11            -2e-14                3.7032e-05           
  -0.9                  -3.727e-05            -3.166e-11            8e-14                 3.7288e-05           
  -0.95                 -3.7498e-05           -3.152e-11            -8e-14                3.7514e-05           
  -1                    -3.7736e-05           -3.124e-11            -6e-14                3.7758e-05           
  -1.05                 -3.7956e-05           -3.102e-11            -2e-14                3.7982e-05           
  -1.1                  -3.816e-05            -3.072e-11            4e-14                 3.8184e-05           
  -1.15                 -3.8376e-05           -3.056e-11            1.2e-13               3.8398e-05           
  -1.2                  -3.8572e-05           -3.02e-11             3.8e-13               3.8584e-05           
  -1.25                 -3.8764e-05           -2.99e-11             6.6e-13               3.8788e-05           
  -1.3                  -3.896e-05            -2.946e-11            1.86e-12              3.8978e-05           
  -1.35                 -3.9154e-05           -2.892e-11            4.38e-12              3.9166e-05           
END_DB

