! VERSION = 6.00
BEGIN_HEADER
 ICCAP_INPUTS
  vd         V  D GROUND SMU1 0.1 LIN        1    -0         -1.35      28   -0.05     
  vg         V  G GROUND SMU2 0.001 LIST       2 3 -0.253 -0.453 -0.653
  vb         V  B GROUND SMU4 0.1 CON        -0
  vs         V  S GROUND SMU3 0.1 CON        -0
 ICCAP_OUTPUTS
  id         I  D GROUND SMU1 B
  ig         I  G GROUND SMU2 B
  ib         I  B GROUND SMU4 B
  is         I  S GROUND SMU3 B
 ICCAP_VALUES
  MASTER_SETUP_TYPE "~dc_idvd~"
  LINVT_VALUE ""
  LISTVT_VALUE "|idvg|100.0n|-200.0m|1.000m|3|200.0m|200.0m|"
  TYPE "-1"
  TEMP "-40.0000 "
  IS_TNOM " 0.00000 "
  MAIN.W "10.00u"
  MAIN.L "130.0n"
  MAIN.AD "3.400p"
  MAIN.AS "3.400p"
  MAIN.PD "20.68u"
  MAIN.PS "20.68u"
  MAIN.NF "1.000"
  MAIN.M "1"
  MAIN.NRD "0.000"
  MAIN.NRS "0.000"
  MAIN.LDRIFT1 "1E-06"
  MAIN.LDRIFT2 "1E-06"
  MAIN.SA "0.000"
  MAIN.SB "0.000"
  MAIN.SD "0.000"
  MAIN.SCA "0.000"
  MAIN.SCB "0.000"
  MAIN.SCC "0.000"
  MAIN.SC "0.000"
  MODULE "S548"
  PIN_D "18"
  PIN_G "3"
  PIN_S "4"
  PIN_B "17"
  PIN_E ""
  PIN_6 ""
  XY_ID ""
  FUNC "Short"
  STI "SA ref"
  WPE "WPE ref"
  COMMENT ""
  DIS_MEAS ""
  TypeTCI "10"
END_HEADER

BEGIN_DB
 ICCAP_VAR vg         -0.253         
 ICCAP_VAR vb         -0             
 ICCAP_VAR vs         -0             

 #vd                    id                    ig                    ib                    is                   
  -0                    9.5e-12               -4.8e-13              -4e-14                -2.052e-11           
  -0.05                 -4.8878e-09           -4.4e-13              -1.2e-13              4.8848e-09           
  -0.1                  -5.864e-09            -2.8e-13              4e-14                 5.8656e-09           
  -0.15                 -6.4898e-09           -2.8e-13              -4e-14                6.4902e-09           
  -0.2                  -7.09e-09             -1e-13                2e-14                 7.0864e-09           
  -0.25                 -7.6902e-09           -1.2e-13              0                     7.6854e-09           
  -0.3                  -8.3094e-09           -1.2e-13              -2e-14                8.3162e-09           
  -0.35                 -8.9524e-09           -2e-13                6e-14                 8.9504e-09           
  -0.4                  -9.6144e-09           -6e-14                -4e-14                9.608e-09            
  -0.45                 -1.02976e-08          -8e-14                -2e-14                1.03112e-08          
  -0.5                  -1.1023e-08           6e-14                 -1.4e-13              1.10068e-08          
  -0.55                 -1.1746e-08           2.2e-13               -1e-13                1.1796e-08           
  -0.6                  -1.2558e-08           3.2e-13               4e-14                 1.2568e-08           
  -0.65                 -1.3354e-08           5e-13                 6e-14                 1.3368e-08           
  -0.7                  -1.4212e-08           8.4e-13               -1e-13                1.4208e-08           
  -0.75                 -1.5098e-08           1.14e-12              0                     1.5112e-08           
  -0.8                  -1.6018e-08           1.46e-12              0                     1.6046e-08           
  -0.85                 -1.6998e-08           1.86e-12              -1.8e-13              1.7006e-08           
  -0.9                  -1.8004e-08           2.36e-12              -2e-14                1.804e-08            
  -0.95                 -1.9098e-08           2.9e-12               -6e-14                1.912e-08            
  -1                    -2.024e-08            3.4e-12               -2e-14                2.0254e-08           
  -1.05                 -2.1416e-08           4.22e-12              4e-14                 2.1436e-08           
  -1.1                  -2.263e-08            5.1e-12               -1e-13                2.2652e-08           
  -1.15                 -2.3982e-08           6.14e-12              -4e-14                2.4006e-08           
  -1.2                  -2.5388e-08           7.28e-12              -2e-14                2.5384e-08           
  -1.25                 -2.6842e-08           8.6e-12               6e-14                 2.6832e-08           
  -1.3                  -2.8348e-08           1.012e-11             2e-13                 2.8348e-08           
  -1.35                 -2.9874e-08           1.172e-11             2.2e-13               2.9972e-08           
END_DB

BEGIN_DB
 ICCAP_VAR vg         -0.453         
 ICCAP_VAR vb         -0             
 ICCAP_VAR vs         -0             

 #vd                    id                    ig                    ib                    is                   
  -0                    1.0388e-08            -3e-12                -1.8e-13              -1.0794e-08          
  -0.05                 -3.646e-06            -2.62e-12             -1e-13                3.643e-06            
  -0.1                  -4.7858e-06           -2.4e-12              -1.8e-13              4.788e-06            
  -0.15                 -5.3726e-06           -2.1e-12              -4e-14                5.3806e-06           
  -0.2                  -5.8428e-06           -2.04e-12             -4e-14                5.8438e-06           
  -0.25                 -6.2654e-06           -1.96e-12             -2e-14                6.2702e-06           
  -0.3                  -6.6752e-06           -1.9e-12              -8e-14                6.6778e-06           
  -0.35                 -7.0668e-06           -1.82e-12             6e-14                 7.0712e-06           
  -0.4                  -7.4678e-06           -1.86e-12             -1.6e-13              7.4706e-06           
  -0.45                 -7.8582e-06           -1.78e-12             -1.6e-13              7.864e-06            
  -0.5                  -8.2524e-06           -1.82e-12             -2e-14                8.2546e-06           
  -0.55                 -8.6522e-06           -1.76e-12             0                     8.6548e-06           
  -0.6                  -9.053e-06            -1.7e-12              -4e-14                9.0624e-06           
  -0.65                 -9.463e-06            -1.46e-12             2e-14                 9.4692e-06           
  -0.7                  -9.8712e-06           -1.5e-12              -6e-14                9.8742e-06           
  -0.75                 -1.02968e-05          -1.38e-12             -2e-14                1.0299e-05           
  -0.8                  -1.07268e-05          -1.3e-12              2e-14                 1.073e-05            
  -0.85                 -1.11628e-05          -9.8e-13              2e-14                 1.11636e-05          
  -0.9                  -1.1612e-05           -7.6e-13              4e-14                 1.1626e-05           
  -0.95                 -1.2062e-05           -3.8e-13              -4e-14                1.2082e-05           
  -1                    -1.2522e-05           -8e-14                -6e-14                1.2536e-05           
  -1.05                 -1.3e-05              2.8e-13               8e-14                 1.301e-05            
  -1.1                  -1.3478e-05           8.8e-13               1.8e-13               1.3496e-05           
  -1.15                 -1.3968e-05           1.4e-12               3.2e-13               1.398e-05            
  -1.2                  -1.4478e-05           2.12e-12              8.8e-13               1.449e-05            
  -1.25                 -1.4986e-05           2.9e-12               2.24e-12              1.5012e-05           
  -1.3                  -1.552e-05            3.74e-12              5.06e-12              1.5548e-05           
  -1.35                 -1.6078e-05           4.72e-12              1.08e-11              1.611e-05            
END_DB

BEGIN_DB
 ICCAP_VAR vg         -0.653         
 ICCAP_VAR vb         -0             
 ICCAP_VAR vs         -0             

 #vd                    id                    ig                    ib                    is                   
  -0                    9.9682e-08            -1.276e-11            -1.2e-13              -9.184e-08           
  -0.05                 -5.6774e-05           -1.104e-11            -6e-14                5.679e-05            
  -0.1                  -9.3808e-05           -9.82e-12             -1.2e-13              9.3786e-05           
  -0.15                 -0.00011682           -9e-12                0                     0.00011712           
  -0.2                  -0.0001316            -8.2e-12              -6e-14                0.00013196           
  -0.25                 -0.00014196           -7.84e-12             -2e-14                0.00014228           
  -0.3                  -0.00014988           -7.68e-12             6e-14                 0.00015026           
  -0.35                 -0.00015668           -7.42e-12             2e-14                 0.00015706           
  -0.4                  -0.00016264           -7.18e-12             4e-14                 0.00016304           
  -0.45                 -0.00016818           -7.12e-12             -2e-14                0.00016854           
  -0.5                  -0.00017326           -6.96e-12             0                     0.00017366           
  -0.55                 -0.0001783            -6.94e-12             4e-14                 0.00017862           
  -0.6                  -0.0001831            -6.86e-12             0                     0.00018344           
  -0.65                 -0.00018762           -6.84e-12             -2e-14                0.000188             
  -0.7                  -0.00019222           -6.76e-12             -8e-14                0.00019264           
  -0.75                 -0.00019678           -6.72e-12             -1e-13                0.00019714           
  -0.8                  -0.00020116           -6.7e-12              0                     0.00020158           
  -0.85                 -0.0002056            -6.3e-12              0                     0.00020596           
  -0.9                  -0.00021002           -6.36e-12             2e-14                 0.00021038           
  -0.95                 -0.00021448           -6.26e-12             2e-14                 0.00021474           
  -1                    -0.0002187            -6.14e-12             6e-14                 0.00021912           
  -1.05                 -0.00022306           -5.84e-12             -4e-14                0.00022338           
  -1.1                  -0.00022726           -5.58e-12             1.6e-13               0.00022768           
  -1.15                 -0.00023158           -5.24e-12             5.4e-13               0.00023186           
  -1.2                  -0.0002359            -4.86e-12             1.48e-12              0.00023622           
  -1.25                 -0.0002402            -4.44e-12             3.98e-12              0.00024062           
  -1.3                  -0.00024446           -4.02e-12             1.032e-11             0.00024488           
  -1.35                 -0.00024886           -3.42e-12             2.492e-11             0.00024926           
END_DB

