! VERSION = 6.00
BEGIN_HEADER
 ICCAP_INPUTS
  vd         V  D GROUND SMU1 0.1 LIN        1    -0         -1.35      28   -0.05     
  vg         V  G GROUND SMU2 0.001 LIN        2    -0.378     -1.35      5    -0.243    
  vb         V  B GROUND SMU4 0.1 CON        -0
  vs         V  S GROUND SMU3 0.1 CON        -0
 ICCAP_OUTPUTS
  id         I  D GROUND SMU1 B
  ig         I  G GROUND SMU2 B
  ib         I  B GROUND SMU4 B
  is         I  S GROUND SMU3 B
 ICCAP_VALUES
  MASTER_SETUP_TYPE "~dc_idvd~"
  LINVT_VALUE "|idvg|100.0n|100.0m|1.000m|5|1.350|"
  LISTVT_VALUE ""
  TYPE "-1"
  TEMP " 70.0000 "
  IS_TNOM " 0.00000 "
  MAIN.W "150.0n"
  MAIN.L "10.00u"
  MAIN.AD "100.5f"
  MAIN.AS "100.5f"
  MAIN.PD "1.340u"
  MAIN.PS "1.340u"
  MAIN.NF "1.000"
  MAIN.M "1"
  MAIN.NRD "0.000"
  MAIN.NRS "0.000"
  MAIN.LDRIFT1 "1E-06"
  MAIN.LDRIFT2 "1E-06"
  MAIN.SA "0.000"
  MAIN.SB "0.000"
  MAIN.SD "0.000"
  MAIN.SCA "0.000"
  MAIN.SCB "0.000"
  MAIN.SCC "0.000"
  MAIN.SC "0.000"
  MODULE "S555"
  PIN_D "16"
  PIN_G "5"
  PIN_S "6"
  PIN_B "15"
  PIN_E ""
  PIN_6 ""
  XY_ID ""
  FUNC "Narrow"
  STI "SA ref"
  WPE "WPE ref"
  COMMENT ""
  DIS_MEAS ""
  TypeTCI "10"
END_HEADER

BEGIN_DB
 ICCAP_VAR vg         -0.378         
 ICCAP_VAR vb         -0             
 ICCAP_VAR vs         -0             

 #vd                    id                    ig                    ib                    is                   
  -0                    9.88e-12              -8.2e-13              -5.036e-11            -9.66e-12            
  -0.05                 -5.685e-09            -7e-13                -4.806e-11            5.6838e-09           
  -0.1                  -8.2668e-09           -6.8e-13              -4.674e-11            8.2664e-09           
  -0.15                 -9.1072e-09           -3.6e-13              -4.548e-11            9.1038e-09           
  -0.2                  -9.3402e-09           -5.4e-13              -4.434e-11            9.3418e-09           
  -0.25                 -9.4182e-09           -3.6e-13              -4.308e-11            9.4198e-09           
  -0.3                  -9.4622e-09           -4.8e-13              -4.182e-11            9.4574e-09           
  -0.35                 -9.4938e-09           -4.2e-13              -4.05e-11             9.4944e-09           
  -0.4                  -9.524e-09            -4.4e-13              -3.89e-11             9.524e-09            
  -0.45                 -9.5478e-09           -4.2e-13              -3.762e-11            9.5478e-09           
  -0.5                  -9.5684e-09           -4.6e-13              -3.604e-11            9.571e-09            
  -0.55                 -9.5954e-09           -4e-13                -3.466e-11            9.5912e-09           
  -0.6                  -9.6116e-09           -4.6e-13              -3.312e-11            9.6094e-09           
  -0.65                 -9.6288e-09           -4.4e-13              -3.162e-11            9.6284e-09           
  -0.7                  -9.6398e-09           -5e-13                -3.012e-11            9.638e-09            
  -0.75                 -9.6586e-09           -4.4e-13              -2.864e-11            9.657e-09            
  -0.8                  -9.6688e-09           -4.8e-13              -2.718e-11            9.666e-09            
  -0.85                 -9.6852e-09           -5.2e-13              -2.572e-11            9.6848e-09           
  -0.9                  -9.6938e-09           -4.4e-13              -2.442e-11            9.6918e-09           
  -0.95                 -9.7002e-09           -5.2e-13              -2.31e-11             9.6994e-09           
  -1                    -9.72e-09             -5.2e-13              -2.17e-11             9.7188e-09           
  -1.05                 -9.731e-09            -4e-13                -2.056e-11            9.7252e-09           
  -1.1                  -9.7398e-09           -4.8e-13              -1.938e-11            9.7332e-09           
  -1.15                 -9.7418e-09           -4.6e-13              -1.844e-11            9.741e-09            
  -1.2                  -9.7504e-09           -4.4e-13              -1.734e-11            9.752e-09            
  -1.25                 -9.7588e-09           -3.4e-13              -1.632e-11            9.762e-09            
  -1.3                  -9.7732e-09           -4.8e-13              -1.544e-11            9.7696e-09           
  -1.35                 -9.7774e-09           -3.2e-13              -1.448e-11            9.768e-09            
END_DB

BEGIN_DB
 ICCAP_VAR vg         -0.621         
 ICCAP_VAR vb         -0             
 ICCAP_VAR vs         -0             

 #vd                    id                    ig                    ib                    is                   
  -0                    3.858e-11             -7.62e-12             -1.55e-11             -3.184e-11           
  -0.05                 -2.3994e-08           -6.36e-12             -1.458e-11            2.4018e-08           
  -0.1                  -4.317e-08            -5.72e-12             -1.406e-11            4.3186e-08           
  -0.15                 -5.7548e-08           -4.98e-12             -1.338e-11            5.757e-08            
  -0.2                  -6.7338e-08           -4.48e-12             -1.264e-11            6.7352e-08           
  -0.25                 -7.2976e-08           -4.14e-12             -1.192e-11            7.3006e-08           
  -0.3                  -7.5492e-08           -4.12e-12             -1.128e-11            7.5522e-08           
  -0.35                 -7.6448e-08           -3.86e-12             -1.078e-11            7.6468e-08           
  -0.4                  -7.6814e-08           -3.98e-12             -1.01e-11             7.6826e-08           
  -0.45                 -7.7046e-08           -3.98e-12             -9.56e-12             7.7068e-08           
  -0.5                  -7.7242e-08           -3.88e-12             -9.04e-12             7.7262e-08           
  -0.55                 -7.7382e-08           -4e-12                -8.4e-12              7.7402e-08           
  -0.6                  -7.752e-08            -3.96e-12             -8e-12                7.7534e-08           
  -0.65                 -7.7644e-08           -3.98e-12             -7.5e-12              7.7664e-08           
  -0.7                  -7.7772e-08           -3.84e-12             -7.04e-12             7.7804e-08           
  -0.75                 -7.7884e-08           -4.04e-12             -6.68e-12             7.792e-08            
  -0.8                  -7.7978e-08           -4.04e-12             -6.3e-12              7.801e-08            
  -0.85                 -7.8074e-08           -3.9e-12              -5.64e-12             7.8092e-08           
  -0.9                  -7.8164e-08           -3.94e-12             -5.22e-12             7.8186e-08           
  -0.95                 -7.8244e-08           -3.98e-12             -4.9e-12              7.8272e-08           
  -1                    -7.8316e-08           -3.82e-12             -4.38e-12             7.8326e-08           
  -1.05                 -7.8404e-08           -3.88e-12             -4.2e-12              7.8402e-08           
  -1.1                  -7.846e-08            -3.94e-12             -3.74e-12             7.8494e-08           
  -1.15                 -7.8514e-08           -3.84e-12             -3.54e-12             7.8522e-08           
  -1.2                  -7.8596e-08           -3.92e-12             -3.34e-12             7.8606e-08           
  -1.25                 -7.8644e-08           -3.94e-12             -2.9e-12              7.8672e-08           
  -1.3                  -7.8718e-08           -3.92e-12             -2.62e-12             7.8744e-08           
  -1.35                 -7.877e-08            -3.82e-12             -2.32e-12             7.8792e-08           
END_DB

BEGIN_DB
 ICCAP_VAR vg         -0.864         
 ICCAP_VAR vb         -0             
 ICCAP_VAR vs         -0             

 #vd                    id                    ig                    ib                    is                   
  -0                    6.924e-11             -3.024e-11            -6.74e-12             -4.278e-11           
  -0.05                 -4.2422e-08           -2.71e-11             -6.52e-12             4.2468e-08           
  -0.1                  -8.038e-08            -2.41e-11             -6.16e-12             8.0442e-08           
  -0.15                 -1.13728e-07          -2.18e-11             -5.84e-12             1.13796e-07          
  -0.2                  -1.4238e-07           -1.98e-11             -5.48e-12             1.425e-07            
  -0.25                 -1.6634e-07           -1.832e-11            -5.18e-12             1.6644e-07           
  -0.3                  -1.8562e-07           -1.7e-11              -4.82e-12             1.8566e-07           
  -0.35                 -2.0008e-07           -1.612e-11            -4.46e-12             2.0018e-07           
  -0.4                  -2.1006e-07           -1.554e-11            -4.26e-12             2.1014e-07           
  -0.45                 -2.1582e-07           -1.506e-11            -3.88e-12             2.1596e-07           
  -0.5                  -2.1856e-07           -1.494e-11            -3.56e-12             2.1864e-07           
  -0.55                 -2.1978e-07           -1.482e-11            -3.26e-12             2.1988e-07           
  -0.6                  -2.2042e-07           -1.48e-11             -2.9e-12              2.205e-07            
  -0.65                 -2.209e-07            -1.468e-11            -2.56e-12             2.2094e-07           
  -0.7                  -2.212e-07            -1.472e-11            -2.4e-12              2.213e-07            
  -0.75                 -2.2154e-07           -1.472e-11            -2.06e-12             2.216e-07            
  -0.8                  -2.218e-07            -1.474e-11            -1.9e-12              2.2186e-07           
  -0.85                 -2.2206e-07           -1.47e-11             -1.68e-12             2.221e-07            
  -0.9                  -2.2228e-07           -1.458e-11            -1.34e-12             2.2238e-07           
  -0.95                 -2.2256e-07           -1.462e-11            -1.12e-12             2.2264e-07           
  -1                    -2.2276e-07           -1.46e-11             -9e-13                2.2286e-07           
  -1.05                 -2.2292e-07           -1.458e-11            -6.8e-13              2.23e-07             
  -1.1                  -2.2308e-07           -1.464e-11            -6e-13                2.232e-07            
  -1.15                 -2.2326e-07           -1.466e-11            -3.8e-13              2.2334e-07           
  -1.2                  -2.2342e-07           -1.466e-11            -6e-14                2.2352e-07           
  -1.25                 -2.236e-07            -1.448e-11            0                     2.2364e-07           
  -1.3                  -2.2368e-07           -1.458e-11            2.8e-13               2.2372e-07           
  -1.35                 -2.2378e-07           -1.448e-11            5.2e-13               2.2388e-07           
END_DB

BEGIN_DB
 ICCAP_VAR vg         -1.107         
 ICCAP_VAR vb         -0             
 ICCAP_VAR vs         -0             

 #vd                    id                    ig                    ib                    is                   
  -0                    1.1682e-10            -8.422e-11            -4.26e-12             -3.474e-11           
  -0.05                 -5.814e-08            -7.716e-11            -3.92e-12             5.8242e-08           
  -0.1                  -1.1247e-07           -7.074e-11            -3.68e-12             1.12546e-07          
  -0.15                 -1.6278e-07           -6.508e-11            -3.38e-12             1.629e-07            
  -0.2                  -2.0892e-07           -6.004e-11            -3.06e-12             2.0912e-07           
  -0.25                 -2.5088e-07           -5.562e-11            -2.82e-12             2.51e-07             
  -0.3                  -2.8844e-07           -5.192e-11            -2.58e-12             2.8866e-07           
  -0.35                 -3.2164e-07           -4.888e-11            -2.38e-12             3.2184e-07           
  -0.4                  -3.5036e-07           -4.63e-11             -2.32e-12             3.5034e-07           
  -0.45                 -3.7434e-07           -4.402e-11            -1.88e-12             3.746e-07            
  -0.5                  -3.9396e-07           -4.236e-11            -1.66e-12             3.941e-07            
  -0.55                 -4.0884e-07           -4.1e-11              -1.44e-12             4.0898e-07           
  -0.6                  -4.1928e-07           -4.016e-11            -1.1e-12              4.194e-07            
  -0.65                 -4.255e-07            -3.96e-11             -1.08e-12             4.2562e-07           
  -0.7                  -4.2856e-07           -3.934e-11            -8.8e-13              4.2874e-07           
  -0.75                 -4.3018e-07           -3.928e-11            -6e-13                4.3026e-07           
  -0.8                  -4.3106e-07           -3.918e-11            -3.6e-13              4.3116e-07           
  -0.85                 -4.3178e-07           -3.912e-11            -1.4e-13              4.3192e-07           
  -0.9                  -4.3234e-07           -3.902e-11            2e-14                 4.324e-07            
  -0.95                 -4.3284e-07           -3.894e-11            1.2e-13               4.3284e-07           
  -1                    -4.3312e-07           -3.886e-11            5e-13                 4.3328e-07           
  -1.05                 -4.3342e-07           -3.896e-11            6e-13                 4.336e-07            
  -1.1                  -4.338e-07            -3.894e-11            8e-13                 4.34e-07             
  -1.15                 -4.3432e-07           -3.898e-11            8.8e-13               4.344e-07            
  -1.2                  -4.347e-07            -3.882e-11            1.16e-12              4.3476e-07           
  -1.25                 -4.3488e-07           -3.874e-11            1.14e-12              4.349e-07            
  -1.3                  -4.3496e-07           -3.872e-11            1.4e-12               4.3516e-07           
  -1.35                 -4.3532e-07           -3.868e-11            1.46e-12              4.3538e-07           
END_DB

BEGIN_DB
 ICCAP_VAR vg         -1.35          
 ICCAP_VAR vb         -0             
 ICCAP_VAR vs         -0             

 #vd                    id                    ig                    ib                    is                   
  -0                    1.7942e-10            -1.8984e-10           -1.4e-12              6.18e-12             
  -0.05                 -7.0958e-08           -1.7776e-10           -1.54e-12             7.115e-08            
  -0.1                  -1.3868e-07           -1.6434e-10           -1.7e-12              1.3898e-07           
  -0.15                 -2.0312e-07           -1.5336e-10           -1.68e-12             2.033e-07            
  -0.2                  -2.6396e-07           -1.4346e-10           -1.62e-12             2.6418e-07           
  -0.25                 -3.2116e-07           -1.3426e-10           -1.42e-12             3.2146e-07           
  -0.3                  -3.7472e-07           -1.2608e-10           -1.18e-12             3.7498e-07           
  -0.35                 -4.2436e-07           -1.1882e-10           -1.04e-12             4.2458e-07           
  -0.4                  -4.702e-07            -1.1264e-10           -8e-13                4.704e-07            
  -0.45                 -5.1176e-07           -1.0696e-10           -5.8e-13              5.1214e-07           
  -0.5                  -5.4942e-07           -1.0226e-10           -5.6e-13              5.4952e-07           
  -0.55                 -5.8246e-07           -9.812e-11            -2.2e-13              5.8274e-07           
  -0.6                  -6.113e-07            -9.448e-11            -4e-14                6.1148e-07           
  -0.65                 -6.3576e-07           -9.14e-11             -4e-14                6.3622e-07           
  -0.7                  -6.5592e-07           -8.932e-11            2.4e-13               6.5626e-07           
  -0.75                 -6.7158e-07           -8.734e-11            4.2e-13               6.7182e-07           
  -0.8                  -6.8262e-07           -8.63e-11             6.4e-13               6.8288e-07           
  -0.85                 -6.8948e-07           -8.56e-11             8.6e-13               6.8976e-07           
  -0.9                  -6.9346e-07           -8.498e-11            8.8e-13               6.9352e-07           
  -0.95                 -6.9552e-07           -8.484e-11            1.1e-12               6.9576e-07           
  -1                    -6.9684e-07           -8.45e-11             1.36e-12              6.9702e-07           
  -1.05                 -6.9756e-07           -8.43e-11             1.5e-12               6.9774e-07           
  -1.1                  -6.9836e-07           -8.432e-11            1.58e-12              6.9856e-07           
  -1.15                 -6.9888e-07           -8.426e-11            1.74e-12              6.9904e-07           
  -1.2                  -6.9948e-07           -8.41e-11             1.9e-12               6.996e-07            
  -1.25                 -7.001e-07            -8.43e-11             2.06e-12              7.0024e-07           
  -1.3                  -7.005e-07            -8.406e-11            2.32e-12              7.0078e-07           
  -1.35                 -7.01e-07             -8.406e-11            2.4e-12               7.0108e-07           
END_DB

