! VERSION = 6.00
BEGIN_HEADER
 ICCAP_INPUTS
  vd         V  D GROUND SMU1 0.1 LIN        1    -0         -1.35      28   -0.05     
  vg         V  G GROUND SMU2 0.001 LIST       2 3 -0.276 -0.476 -0.676
  vb         V  B GROUND SMU4 0.1 CON        1.2
  vs         V  S GROUND SMU3 0.1 CON        -0
 ICCAP_OUTPUTS
  id         I  D GROUND SMU1 B
  ig         I  G GROUND SMU2 B
  ib         I  B GROUND SMU4 B
  is         I  S GROUND SMU3 B
 ICCAP_VALUES
  MASTER_SETUP_TYPE "~dc_idvd~"
  LINVT_VALUE ""
  LISTVT_VALUE "|idvg|100.0n|-200.0m|1.000m|3|200.0m|200.0m|"
  TYPE "-1"
  TEMP " 125.000 "
  IS_TNOM " 0.00000 "
  MAIN.W "300.0n"
  MAIN.L "130.0n"
  MAIN.AD "102.0f"
  MAIN.AS "102.0f"
  MAIN.PD "1.280u"
  MAIN.PS "1.280u"
  MAIN.NF "1.000"
  MAIN.M "1"
  MAIN.NRD "0.000"
  MAIN.NRS "0.000"
  MAIN.LDRIFT1 "1E-06"
  MAIN.LDRIFT2 "1E-06"
  MAIN.SA "0.000"
  MAIN.SB "0.000"
  MAIN.SD "0.000"
  MAIN.SCA "0.000"
  MAIN.SCB "0.000"
  MAIN.SCC "0.000"
  MAIN.SC "0.000"
  MODULE "S552"
  PIN_D "18"
  PIN_G "3"
  PIN_S "4"
  PIN_B "17"
  PIN_E ""
  PIN_6 ""
  XY_ID ""
  FUNC "LW Scale"
  STI "SA ref"
  WPE "WPE ref"
  COMMENT ""
  DIS_MEAS ""
  TypeTCI "10"
END_HEADER

BEGIN_DB
 ICCAP_VAR vg         -0.276         
 ICCAP_VAR vb         1.2            
 ICCAP_VAR vs         -0             

 #vd                    id                    ig                    ib                    is                   
  -0                    1.74e-12              1.2e-13               3.302e-11             -2.46e-12            
  -0.05                 -1.3892e-09           0                     2.494e-11             1.3896e-09           
  -0.1                  -1.8466e-09           2e-14                 2.25e-11              1.8474e-09           
  -0.15                 -2.0714e-09           -4e-14                2.028e-11             2.069e-09            
  -0.2                  -2.2356e-09           2e-14                 1.846e-11             2.2352e-09           
  -0.25                 -2.3932e-09           -4e-14                1.736e-11             2.3918e-09           
  -0.3                  -2.5488e-09           2e-14                 1.602e-11             2.5474e-09           
  -0.35                 -2.7094e-09           8e-14                 1.45e-11              2.707e-09            
  -0.4                  -2.8736e-09           -4e-14                1.396e-11             2.8704e-09           
  -0.45                 -3.0414e-09           4e-14                 1.346e-11             3.0366e-09           
  -0.5                  -3.2164e-09           1.2e-13               1.254e-11             3.2232e-09           
  -0.55                 -3.4026e-09           1.2e-13               1.186e-11             3.4204e-09           
  -0.6                  -3.593e-09            0                     1.148e-11             3.5922e-09           
  -0.65                 -3.7936e-09           6e-14                 1.132e-11             3.7934e-09           
  -0.7                  -4.0034e-09           4e-14                 1.036e-11             3.9974e-09           
  -0.75                 -4.2214e-09           1e-13                 9.78e-12              4.2136e-09           
  -0.8                  -4.4414e-09           8e-14                 1.024e-11             4.4384e-09           
  -0.85                 -4.6716e-09           -2e-14                9.36e-12              4.6722e-09           
  -0.9                  -4.923e-09            1.8e-13               9.62e-12              4.9138e-09           
  -0.95                 -5.1758e-09           1.2e-13               9.44e-12              5.1684e-09           
  -1                    -5.436e-09            2e-14                 8.84e-12              5.4346e-09           
  -1.05                 -5.703e-09            8e-14                 9.16e-12              5.701e-09            
  -1.1                  -5.9872e-09           2e-14                 8.5e-12               5.9936e-09           
  -1.15                 -6.3044e-09           2e-13                 8.52e-12              6.28e-09             
  -1.2                  -6.5834e-09           8e-14                 9.16e-12              6.5892e-09           
  -1.25                 -6.9098e-09           1.6e-13               9.44e-12              6.9048e-09           
  -1.3                  -7.2418e-09           2e-13                 9.66e-12              7.238e-09            
  -1.35                 -7.582e-09            1.6e-13               1.084e-11             7.5796e-09           
END_DB

BEGIN_DB
 ICCAP_VAR vg         -0.476         
 ICCAP_VAR vb         1.2            
 ICCAP_VAR vs         -0             

 #vd                    id                    ig                    ib                    is                   
  -0                    1.7152e-10            -3e-13                6.68e-12              -1.7424e-10          
  -0.05                 -1.0854e-07           -2.8e-13              5.3e-12               1.087e-07            
  -0.1                  -1.5214e-07           -2.4e-13              6.36e-12              1.5228e-07           
  -0.15                 -1.7362e-07           -2e-13                6.66e-12              1.7368e-07           
  -0.2                  -1.8818e-07           -1.6e-13              6.34e-12              1.8828e-07           
  -0.25                 -2.0084e-07           -1.4e-13              6.74e-12              2.006e-07            
  -0.3                  -2.1236e-07           -1.4e-13              6.5e-12               2.1264e-07           
  -0.35                 -2.2406e-07           -1.6e-13              6.38e-12              2.239e-07            
  -0.4                  -2.3532e-07           -1.8e-13              6.6e-12               2.3558e-07           
  -0.45                 -2.4812e-07           -2e-13                6.54e-12              2.473e-07            
  -0.5                  -2.5892e-07           -4e-14                6.68e-12              2.5914e-07           
  -0.55                 -2.7112e-07           -1.4e-13              6.24e-12              2.7148e-07           
  -0.6                  -2.8328e-07           -8e-14                6.06e-12              2.8334e-07           
  -0.65                 -2.9596e-07           -2e-14                6.52e-12              2.9604e-07           
  -0.7                  -3.0852e-07           -1e-13                6.48e-12              3.0866e-07           
  -0.75                 -3.2144e-07           -2.2e-13              6.18e-12              3.2148e-07           
  -0.8                  -3.3522e-07           -1.2e-13              6.38e-12              3.3488e-07           
  -0.85                 -3.4826e-07           -2.4e-13              6.26e-12              3.4838e-07           
  -0.9                  -3.6216e-07           -1.4e-13              6.4e-12               3.6232e-07           
  -0.95                 -3.7636e-07           -1.2e-13              6.38e-12              3.7644e-07           
  -1                    -3.9082e-07           -1.6e-13              6.08e-12              3.9096e-07           
  -1.05                 -4.0566e-07           -8e-14                6.52e-12              4.059e-07            
  -1.1                  -4.2096e-07           -2e-14                6.4e-12               4.2102e-07           
  -1.15                 -4.3644e-07           -1.2e-13              6.82e-12              4.3664e-07           
  -1.2                  -4.5246e-07           -6e-14                7.48e-12              4.5246e-07           
  -1.25                 -4.687e-07            2e-14                 7.88e-12              4.6892e-07           
  -1.3                  -4.8566e-07           1e-13                 8.76e-12              4.86e-07             
  -1.35                 -5.0368e-07           4e-14                 1.086e-11             5.035e-07            
END_DB

BEGIN_DB
 ICCAP_VAR vg         -0.676         
 ICCAP_VAR vb         1.2            
 ICCAP_VAR vs         -0             

 #vd                    id                    ig                    ib                    is                   
  -0                    1.246e-09             -6e-13                5.06e-12              -1.1126e-09          
  -0.05                 -1.1488e-06           -5.2e-13              5.02e-12              1.1494e-06           
  -0.1                  -1.9264e-06           -4.4e-13              5.76e-12              1.9512e-06           
  -0.15                 -2.444e-06            -5e-13                5.2e-12               2.4476e-06           
  -0.2                  -2.7678e-06           -4e-13                5.06e-12              2.7722e-06           
  -0.25                 -3.004e-06            -4e-13                5.4e-12               3.006e-06            
  -0.3                  -3.1718e-06           -5.4e-13              5.42e-12              3.174e-06            
  -0.35                 -3.3118e-06           -4.4e-13              5.5e-12               3.315e-06            
  -0.4                  -3.4408e-06           -4.6e-13              5.98e-12              3.443e-06            
  -0.45                 -3.5626e-06           -4e-13                4.94e-12              3.5612e-06           
  -0.5                  -3.6718e-06           -4e-13                5.16e-12              3.674e-06            
  -0.55                 -3.7824e-06           -3.2e-13              5.24e-12              3.7856e-06           
  -0.6                  -3.8926e-06           -4.6e-13              5.36e-12              3.8944e-06           
  -0.65                 -3.9966e-06           -4.2e-13              5.5e-12               4.0004e-06           
  -0.7                  -4.1018e-06           -3e-13                5.48e-12              4.105e-06            
  -0.75                 -4.2076e-06           -6.2e-13              5.36e-12              4.2108e-06           
  -0.8                  -4.3156e-06           -4.8e-13              5.28e-12              4.3148e-06           
  -0.85                 -4.4172e-06           -3e-13                5.76e-12              4.4186e-06           
  -0.9                  -4.5202e-06           -4.4e-13              5.66e-12              4.5256e-06           
  -0.95                 -4.6232e-06           -4.2e-13              5.84e-12              4.6258e-06           
  -1                    -4.7266e-06           -4.8e-13              5.52e-12              4.7302e-06           
  -1.05                 -4.8392e-06           -3.8e-13              5.22e-12              4.839e-06            
  -1.1                  -4.935e-06            -2.4e-13              5.74e-12              4.9374e-06           
  -1.15                 -5.0192e-06           -2.6e-13              6.16e-12              5.0476e-06           
  -1.2                  -5.1468e-06           -3.2e-13              6.62e-12              5.1516e-06           
  -1.25                 -5.2556e-06           -4e-13                8.04e-12              5.2592e-06           
  -1.3                  -5.3622e-06           -4.2e-13              1.064e-11             5.365e-06            
  -1.35                 -5.4702e-06           -3.4e-13              1.526e-11             5.4726e-06           
END_DB

