! VERSION = 6.00
BEGIN_HEADER
 ICCAP_INPUTS
  vd         V  D GROUND SMU1 0.1 LIN        1    -0         -1.35      28   -0.05     
  vg         V  G GROUND SMU2 0.001 LIST       2 3 -0.27 -0.47 -0.67
  vb         V  B GROUND SMU4 0.1 CON        1.2
  vs         V  S GROUND SMU3 0.1 CON        -0
 ICCAP_OUTPUTS
  id         I  D GROUND SMU1 B
  ig         I  G GROUND SMU2 B
  ib         I  B GROUND SMU4 B
  is         I  S GROUND SMU3 B
 ICCAP_VALUES
  MASTER_SETUP_TYPE "~dc_idvd~"
  LINVT_VALUE ""
  LISTVT_VALUE "|idvg|100.0n|-200.0m|1.000m|3|200.0m|200.0m|"
  TYPE "-1"
  TEMP " 125.000 "
  IS_TNOM " 0.00000 "
  MAIN.W "10.00u"
  MAIN.L "10.00u"
  MAIN.AD "3.400p"
  MAIN.AS "3.400p"
  MAIN.PD "20.68u"
  MAIN.PS "20.68u"
  MAIN.NF "1.000"
  MAIN.M "1"
  MAIN.NRD "0.000"
  MAIN.NRS "0.000"
  MAIN.LDRIFT1 "1E-06"
  MAIN.LDRIFT2 "1E-06"
  MAIN.SA "0.000"
  MAIN.SB "0.000"
  MAIN.SD "0.000"
  MAIN.SCA "0.000"
  MAIN.SCB "0.000"
  MAIN.SCC "0.000"
  MAIN.SC "0.000"
  MODULE "S549"
  PIN_D "12"
  PIN_G "9"
  PIN_S "10"
  PIN_B "11"
  PIN_E ""
  PIN_6 ""
  XY_ID ""
  FUNC "Large"
  STI "SA ref"
  WPE "WPE ref"
  COMMENT ""
  DIS_MEAS ""
  TypeTCI "10"
END_HEADER

BEGIN_DB
 ICCAP_VAR vg         -0.27          
 ICCAP_VAR vb         1.2            
 ICCAP_VAR vs         -0             

 #vd                    id                    ig                    ib                    is                   
  -0                    1.88e-12              -2.66e-12             3.694e-11             -1.46e-12            
  -0.05                 -8.5722e-10           -2.26e-12             3.302e-11             8.5744e-10           
  -0.1                  -1.0592e-09           -2e-12                2.902e-11             1.05946e-09          
  -0.15                 -1.1082e-09           -1.84e-12             2.734e-11             1.10788e-09          
  -0.2                  -1.1204e-09           -1.8e-12              2.56e-11              1.11986e-09          
  -0.25                 -1.124e-09            -1.84e-12             2.388e-11             1.1234e-09           
  -0.3                  -1.1262e-09           -1.76e-12             2.298e-11             1.1254e-09           
  -0.35                 -1.1286e-09           -1.72e-12             2.182e-11             1.1264e-09           
  -0.4                  -1.1282e-09           -1.8e-12              2.076e-11             1.1274e-09           
  -0.45                 -1.1294e-09           -1.6e-12              2.046e-11             1.1284e-09           
  -0.5                  -1.1304e-09           -1.6e-12              1.95e-11              1.1288e-09           
  -0.55                 -1.131e-09            -1.3e-12              1.862e-11             1.1296e-09           
  -0.6                  -1.1322e-09           -1.26e-12             1.86e-11              1.1306e-09           
  -0.65                 -1.1332e-09           -1.02e-12             1.84e-11              1.131e-09            
  -0.7                  -1.1342e-09           -7e-13                1.754e-11             1.1318e-09           
  -0.75                 -1.1354e-09           -4.8e-13              1.788e-11             1.1322e-09           
  -0.8                  -1.1362e-09           -8e-14                1.794e-11             1.1328e-09           
  -0.85                 -1.1376e-09           2.6e-13               1.754e-11             1.1332e-09           
  -0.9                  -1.1392e-09           9e-13                 1.748e-11             1.1338e-09           
  -0.95                 -1.141e-09            1.62e-12              1.8e-11               1.1342e-09           
  -1                    -1.1426e-09           2.26e-12              1.924e-11             1.1344e-09           
  -1.05                 -1.1454e-09           2.98e-12              2.018e-11             1.1348e-09           
  -1.1                  -1.1488e-09           3.8e-12               2.2e-11               1.1354e-09           
  -1.15                 -1.1532e-09           5.12e-12              2.458e-11             1.1356e-09           
  -1.2                  -1.1582e-09           6.16e-12              2.772e-11             1.1364e-09           
  -1.25                 -1.1644e-09           7.44e-12              3.222e-11             1.1366e-09           
  -1.3                  -1.1728e-09           9.04e-12              3.806e-11             1.1368e-09           
  -1.35                 -1.1836e-09           1.062e-11             4.698e-11             1.1376e-09           
END_DB

BEGIN_DB
 ICCAP_VAR vg         -0.47          
 ICCAP_VAR vb         1.2            
 ICCAP_VAR vs         -0             

 #vd                    id                    ig                    ib                    is                   
  -0                    2.0216e-10            -7.542e-11            1.27e-11              -1.2716e-10          
  -0.05                 -7.7644e-08           -5.48e-11             1.226e-11             7.772e-08            
  -0.1                  -1.04636e-07          -4.65e-11             1.22e-11              1.04722e-07          
  -0.15                 -1.1222e-07           -4.382e-11            1.242e-11             1.12332e-07          
  -0.2                  -1.1424e-07           -4.298e-11            1.212e-11             1.14328e-07          
  -0.25                 -1.1482e-07           -4.262e-11            1.252e-11             1.14918e-07          
  -0.3                  -1.1508e-07           -4.254e-11            1.236e-11             1.1518e-07           
  -0.35                 -1.1522e-07           -4.26e-11             1.2e-11               1.1534e-07           
  -0.4                  -1.1532e-07           -4.26e-11             1.266e-11             1.1542e-07           
  -0.45                 -1.1542e-07           -4.24e-11             1.242e-11             1.1554e-07           
  -0.5                  -1.1552e-07           -4.236e-11            1.202e-11             1.1562e-07           
  -0.55                 -1.1562e-07           -4.222e-11            1.24e-11              1.1572e-07           
  -0.6                  -1.1568e-07           -4.214e-11            1.246e-11             1.158e-07            
  -0.65                 -1.1576e-07           -4.21e-11             1.238e-11             1.1586e-07           
  -0.7                  -1.1584e-07           -4.21e-11             1.248e-11             1.1592e-07           
  -0.75                 -1.1588e-07           -4.176e-11            1.22e-11              1.1598e-07           
  -0.8                  -1.1594e-07           -4.162e-11            1.228e-11             1.1604e-07           
  -0.85                 -1.16e-07             -4.116e-11            1.246e-11             1.161e-07            
  -0.9                  -1.1604e-07           -4.09e-11             1.284e-11             1.1614e-07           
  -0.95                 -1.161e-07            -4.068e-11            1.262e-11             1.162e-07            
  -1                    -1.1614e-07           -4.022e-11            1.26e-11              1.1624e-07           
  -1.05                 -1.1618e-07           -3.972e-11            1.298e-11             1.163e-07            
  -1.1                  -1.1622e-07           -3.936e-11            1.344e-11             1.1634e-07           
  -1.15                 -1.1628e-07           -3.86e-11             1.41e-11              1.1636e-07           
  -1.2                  -1.163e-07            -3.806e-11            1.556e-11             1.164e-07            
  -1.25                 -1.1634e-07           -3.722e-11            1.682e-11             1.1642e-07           
  -1.3                  -1.1638e-07           -3.632e-11            1.886e-11             1.1648e-07           
  -1.35                 -1.1642e-07           -3.542e-11            2.22e-11              1.165e-07            
END_DB

BEGIN_DB
 ICCAP_VAR vg         -0.67          
 ICCAP_VAR vb         1.2            
 ICCAP_VAR vs         -0             

 #vd                    id                    ig                    ib                    is                   
  -0                    1.1294e-09            -5.8932e-10           1.112e-11             -5.7086e-10          
  -0.05                 -5.3832e-07           -4.8852e-10           1.05e-11              5.3894e-07           
  -0.1                  -9.1658e-07           -4.1578e-10           1.106e-11             9.172e-07            
  -0.15                 -1.15e-06             -3.6826e-10           1.064e-11             1.1534e-06           
  -0.2                  -1.2704e-06           -3.425e-10            1.156e-11             1.274e-06            
  -0.25                 -1.3194e-06           -3.3124e-10           1.05e-11              1.323e-06            
  -0.3                  -1.336e-06            -3.2746e-10           1.012e-11             1.3394e-06           
  -0.35                 -1.3416e-06           -3.2606e-10           1.066e-11             1.3452e-06           
  -0.4                  -1.3444e-06           -3.2526e-10           1.094e-11             1.3478e-06           
  -0.45                 -1.346e-06            -3.2484e-10           1.07e-11              1.3494e-06           
  -0.5                  -1.3474e-06           -3.2458e-10           1.078e-11             1.3508e-06           
  -0.55                 -1.3486e-06           -3.2408e-10           1.074e-11             1.3518e-06           
  -0.6                  -1.3496e-06           -3.2382e-10           1.1e-11               1.3528e-06           
  -0.65                 -1.3506e-06           -3.2352e-10           1.096e-11             1.3538e-06           
  -0.7                  -1.3514e-06           -3.2346e-10           1.06e-11              1.3548e-06           
  -0.75                 -1.3522e-06           -3.2324e-10           1.094e-11             1.3556e-06           
  -0.8                  -1.353e-06            -3.2296e-10           1.104e-11             1.3564e-06           
  -0.85                 -1.3538e-06           -3.2266e-10           1.028e-11             1.357e-06            
  -0.9                  -1.3544e-06           -3.227e-10            1.106e-11             1.3578e-06           
  -0.95                 -1.355e-06            -3.2238e-10           1.098e-11             1.3582e-06           
  -1                    -1.3556e-06           -3.2192e-10           1.1e-11               1.3588e-06           
  -1.05                 -1.356e-06            -3.2156e-10           1.118e-11             1.3594e-06           
  -1.1                  -1.3566e-06           -3.2118e-10           1.11e-11              1.3598e-06           
  -1.15                 -1.357e-06            -3.2098e-10           1.152e-11             1.3604e-06           
  -1.2                  -1.3576e-06           -3.2024e-10           1.178e-11             1.361e-06            
  -1.25                 -1.358e-06            -3.1982e-10           1.192e-11             1.3612e-06           
  -1.3                  -1.3584e-06           -3.1924e-10           1.28e-11              1.3616e-06           
  -1.35                 -1.3586e-06           -3.184e-10            1.412e-11             1.362e-06            
END_DB

