! VERSION = 6.00
BEGIN_HEADER
 ICCAP_INPUTS
  vd         V  D GROUND SMU1 0.1 LIN        1    -0         -1.35      28   -0.05     
  vg         V  G GROUND SMU2 0.001 LIN        2    -0.466     -1.35      5    -0.221    
  vb         V  B GROUND SMU4 0.1 CON        -0
  vs         V  S GROUND SMU3 0.1 CON        -0
 ICCAP_OUTPUTS
  id         I  D GROUND SMU1 B
  ig         I  G GROUND SMU2 B
  ib         I  B GROUND SMU4 B
  is         I  S GROUND SMU3 B
 ICCAP_VALUES
  MASTER_SETUP_TYPE "~dc_idvd~"
  LINVT_VALUE "|idvg|100.0n|100.0m|1.000m|5|1.350|"
  LISTVT_VALUE ""
  TYPE "-1"
  TEMP " 27.0000 "
  IS_TNOM " 1.00000 "
  MAIN.W "180.0n"
  MAIN.L "130.0n"
  MAIN.AD "102.6f"
  MAIN.AS "102.6f"
  MAIN.PD "1.340u"
  MAIN.PS "1.340u"
  MAIN.NF "1.000"
  MAIN.M "1"
  MAIN.NRD "0.000"
  MAIN.NRS "0.000"
  MAIN.LDRIFT1 "1E-06"
  MAIN.LDRIFT2 "1E-06"
  MAIN.SA "0.000"
  MAIN.SB "0.000"
  MAIN.SD "0.000"
  MAIN.SCA "0.000"
  MAIN.SCB "0.000"
  MAIN.SCC "0.000"
  MAIN.SC "0.000"
  MODULE "S553"
  PIN_D "16"
  PIN_G "5"
  PIN_S "6"
  PIN_B "15"
  PIN_E ""
  PIN_6 ""
  XY_ID ""
  FUNC "LW Scale"
  STI "SA ref"
  WPE "WPE ref"
  COMMENT ""
  DIS_MEAS ""
  TypeTCI "10"
END_HEADER

BEGIN_DB
 ICCAP_VAR vg         -0.466         
 ICCAP_VAR vb         -0             
 ICCAP_VAR vs         -0             

 #vd                    id                    ig                    ib                    is                   
  -0                    6.0748e-10            -1.8e-13              -3.12e-12             -7.321e-10           
  -0.05                 -3.4824e-07           -2e-14                -3.04e-12             3.4882e-07           
  -0.1                  -5.1582e-07           -2e-14                -3.06e-12             5.129e-07            
  -0.15                 -6.0204e-07           -6e-14                -3.06e-12             6.0216e-07           
  -0.2                  -6.63e-07             -1e-13                -3e-12                6.6344e-07           
  -0.25                 -7.1206e-07           -4e-14                -2.86e-12             7.1218e-07           
  -0.3                  -7.5562e-07           -1e-13                -2.82e-12             7.558e-07            
  -0.35                 -7.9656e-07           -6e-14                -2.86e-12             7.9678e-07           
  -0.4                  -8.3546e-07           -2e-14                -2.8e-12              8.3494e-07           
  -0.45                 -8.7196e-07           2e-14                 -2.88e-12             8.7226e-07           
  -0.5                  -9.0828e-07           1.4e-13               -2.84e-12             9.0868e-07           
  -0.55                 -9.4364e-07           -1.2e-13              -2.76e-12             9.442e-07            
  -0.6                  -9.7924e-07           2e-14                 -2.76e-12             9.7958e-07           
  -0.65                 -1.01462e-06          -1e-13                -2.68e-12             1.015e-06            
  -0.7                  -1.04976e-06          0                     -2.54e-12             1.04986e-06          
  -0.75                 -1.0843e-06           -2e-14                -2.58e-12             1.08488e-06          
  -0.8                  -1.11986e-06          0                     -2.62e-12             1.12006e-06          
  -0.85                 -1.1536e-06           4e-14                 -2.66e-12             1.1572e-06           
  -0.9                  -1.189e-06            2e-14                 -2.64e-12             1.1924e-06           
  -0.95                 -1.2244e-06           8e-14                 -2.72e-12             1.2282e-06           
  -1                    -1.2602e-06           0                     -2.6e-12              1.264e-06            
  -1.05                 -1.2958e-06           -8e-14                -2.44e-12             1.2992e-06           
  -1.1                  -1.3314e-06           -2e-14                -2.36e-12             1.3354e-06           
  -1.15                 -1.368e-06            4e-14                 -2.32e-12             1.3718e-06           
  -1.2                  -1.4046e-06           1.6e-13               -2.16e-12             1.4084e-06           
  -1.25                 -1.4408e-06           1.8e-13               -1.96e-12             1.4446e-06           
  -1.3                  -1.478e-06            4e-14                 -1.44e-12             1.4818e-06           
  -1.35                 -1.5156e-06           1.8e-13               -2.8e-13              1.5192e-06           
END_DB

BEGIN_DB
 ICCAP_VAR vg         -0.687         
 ICCAP_VAR vb         -0             
 ICCAP_VAR vs         -0             

 #vd                    id                    ig                    ib                    is                   
  -0                    2.6554e-09            -5e-13                -2.34e-12             -2.3974e-09          
  -0.05                 -2.013e-06            -3.4e-13              -2.34e-12             2.0162e-06           
  -0.1                  -3.4976e-06           -1.6e-13              -2.28e-12             3.4996e-06           
  -0.15                 -4.5396e-06           -1.6e-13              -2.1e-12              4.5406e-06           
  -0.2                  -5.266e-06            -3e-13                -2.22e-12             5.2664e-06           
  -0.25                 -5.7832e-06           -2e-13                -2.16e-12             5.7934e-06           
  -0.3                  -6.1754e-06           -2.4e-13              -2.06e-12             6.1852e-06           
  -0.35                 -6.4856e-06           -1.2e-13              -2.02e-12             6.489e-06            
  -0.4                  -6.7446e-06           -1.6e-13              -2.14e-12             6.7508e-06           
  -0.45                 -6.9726e-06           -1.6e-13              -2.06e-12             6.974e-06            
  -0.5                  -7.1816e-06           -1.4e-13              -2.12e-12             7.1794e-06           
  -0.55                 -7.3648e-06           -1.6e-13              -2.1e-12              7.3682e-06           
  -0.6                  -7.5442e-06           -2e-13                -1.94e-12             7.5518e-06           
  -0.65                 -7.7216e-06           -4e-14                -1.98e-12             7.7236e-06           
  -0.7                  -7.8934e-06           -1.6e-13              -2.04e-12             7.8926e-06           
  -0.75                 -8.0536e-06           -2e-13                -2.02e-12             8.0546e-06           
  -0.8                  -8.2126e-06           -1.8e-13              -2.02e-12             8.217e-06            
  -0.85                 -8.3698e-06           -1.4e-13              -1.94e-12             8.3756e-06           
  -0.9                  -8.5328e-06           -1e-13                -1.86e-12             8.5368e-06           
  -0.95                 -8.6876e-06           -4e-14                -1.78e-12             8.6926e-06           
  -1                    -8.839e-06            0                     -1.92e-12             8.8448e-06           
  -1.05                 -8.9918e-06           -1.6e-13              -1.88e-12             8.9938e-06           
  -1.1                  -9.1412e-06           -1.4e-13              -1.88e-12             9.1444e-06           
  -1.15                 -9.291e-06            0                     -1.78e-12             9.2974e-06           
  -1.2                  -9.4424e-06           -2.2e-13              -1.66e-12             9.4442e-06           
  -1.25                 -9.59e-06             -4e-14                -1.3e-12              9.593e-06            
  -1.3                  -9.7374e-06           0                     -6.2e-13              9.7414e-06           
  -1.35                 -9.8838e-06           -1e-13                7.8e-13               9.8866e-06           
END_DB

BEGIN_DB
 ICCAP_VAR vg         -0.908         
 ICCAP_VAR vb         -0             
 ICCAP_VAR vs         -0             

 #vd                    id                    ig                    ib                    is                   
  -0                    3.3578e-09            -9.8e-13              -1.82e-12             -3.8544e-09          
  -0.05                 -3.981e-06            -9.8e-13              -1.84e-12             3.9842e-06           
  -0.1                  -7.4094e-06           -8.4e-13              -1.76e-12             7.4138e-06           
  -0.15                 -1.02656e-05          -7e-13                -1.72e-12             1.02662e-05          
  -0.2                  -1.2572e-05           -6.8e-13              -1.68e-12             1.2614e-05           
  -0.25                 -1.443e-05            -5.8e-13              -1.6e-12              1.4454e-05           
  -0.3                  -1.5864e-05           -5.8e-13              -1.72e-12             1.5878e-05           
  -0.35                 -1.701e-05            -5.6e-13              -1.78e-12             1.702e-05            
  -0.4                  -1.7892e-05           -6e-13                -1.64e-12             1.7942e-05           
  -0.45                 -1.8638e-05           -5e-13                -1.6e-12              1.8644e-05           
  -0.5                  -1.9274e-05           -5e-13                -1.72e-12             1.9288e-05           
  -0.55                 -1.9786e-05           -4.4e-13              -1.74e-12             1.98e-05             
  -0.6                  -2.0272e-05           -4.6e-13              -1.68e-12             2.0266e-05           
  -0.65                 -2.0674e-05           -5e-13                -1.74e-12             2.0698e-05           
  -0.7                  -2.1062e-05           -4e-13                -1.66e-12             2.11e-05             
  -0.75                 -2.142e-05            -3.2e-13              -1.46e-12             2.1444e-05           
  -0.8                  -2.1766e-05           -3.6e-13              -1.6e-12              2.178e-05            
  -0.85                 -2.2108e-05           -4.4e-13              -1.64e-12             2.2116e-05           
  -0.9                  -2.2404e-05           -5e-13                -1.68e-12             2.2446e-05           
  -0.95                 -2.2726e-05           -4.2e-13              -1.62e-12             2.2744e-05           
  -1                    -2.3032e-05           -4e-13                -1.58e-12             2.3056e-05           
  -1.05                 -2.3336e-05           -4.6e-13              -1.52e-12             2.3352e-05           
  -1.1                  -2.362e-05            -4e-13                -1.58e-12             2.3626e-05           
  -1.15                 -2.39e-05             -3.2e-13              -1.5e-12              2.3922e-05           
  -1.2                  -2.4192e-05           -4.2e-13              -1.32e-12             2.4226e-05           
  -1.25                 -2.448e-05            -4e-13                -1.16e-12             2.4486e-05           
  -1.3                  -2.4764e-05           -4.2e-13              -7e-13                2.477e-05            
  -1.35                 -2.5048e-05           -2.8e-13              4e-13                 2.506e-05            
END_DB

BEGIN_DB
 ICCAP_VAR vg         -1.129         
 ICCAP_VAR vb         -0             
 ICCAP_VAR vs         -0             

 #vd                    id                    ig                    ib                    is                   
  -0                    3.2896e-09            -2.3e-12              -1.62e-12             -4.8192e-09          
  -0.05                 -5.6412e-06           -2.14e-12             -1.52e-12             5.6452e-06           
  -0.1                  -1.07912e-05          -2.02e-12             -1.46e-12             1.0794e-05           
  -0.15                 -1.5374e-05           -1.7e-12              -1.56e-12             1.5398e-05           
  -0.2                  -1.942e-05            -1.68e-12             -1.48e-12             1.9448e-05           
  -0.25                 -2.2896e-05           -1.5e-12              -1.4e-12              2.292e-05            
  -0.3                  -2.5842e-05           -1.6e-12              -1.4e-12              2.5844e-05           
  -0.35                 -2.8292e-05           -1.4e-12              -1.4e-12              2.833e-05            
  -0.4                  -3.0356e-05           -1.24e-12             -1.34e-12             3.0372e-05           
  -0.45                 -3.2066e-05           -1.3e-12              -1.34e-12             3.2078e-05           
  -0.5                  -3.3496e-05           -1.18e-12             -1.34e-12             3.3456e-05           
  -0.55                 -3.467e-05            -1.24e-12             -1.38e-12             3.4676e-05           
  -0.6                  -3.5696e-05           -1.12e-12             -1.42e-12             3.5718e-05           
  -0.65                 -3.661e-05            -1.2e-12              -1.4e-12              3.6564e-05           
  -0.7                  -3.7386e-05           -1.16e-12             -1.3e-12              3.7404e-05           
  -0.75                 -3.8068e-05           -1.16e-12             -1.46e-12             3.8068e-05           
  -0.8                  -3.8706e-05           -1.1e-12              -1.4e-12              3.871e-05            
  -0.85                 -3.9254e-05           -1.14e-12             -1.32e-12             3.919e-05            
  -0.9                  -3.9788e-05           -1.1e-12              -1.28e-12             3.9822e-05           
  -0.95                 -4.0308e-05           -1.16e-12             -1.22e-12             4.0322e-05           
  -1                    -4.0784e-05           -1.12e-12             -1.16e-12             4.0858e-05           
  -1.05                 -4.1238e-05           -1.04e-12             -1.38e-12             4.1292e-05           
  -1.1                  -4.1726e-05           -1.04e-12             -1.36e-12             4.1736e-05           
  -1.15                 -4.2166e-05           -1.04e-12             -1.18e-12             4.2178e-05           
  -1.2                  -4.2624e-05           -1.14e-12             -1.12e-12             4.262e-05            
  -1.25                 -4.2998e-05           -1.04e-12             -1.12e-12             4.303e-05            
  -1.3                  -4.3422e-05           -1.06e-12             -7.6e-13              4.344e-05            
  -1.35                 -4.3882e-05           -1.04e-12             -2.4e-13              4.3896e-05           
END_DB

BEGIN_DB
 ICCAP_VAR vg         -1.35          
 ICCAP_VAR vb         -0             
 ICCAP_VAR vs         -0             

 #vd                    id                    ig                    ib                    is                   
  -0                    1.0194e-08            -5.58e-12             -1.32e-12             -2.976e-09           
  -0.05                 -6.9406e-06           -5.14e-12             -1.34e-12             6.9554e-06           
  -0.1                  -1.3474e-05           -4.94e-12             -1.24e-12             1.349e-05            
  -0.15                 -1.95e-05             -4.62e-12             -1.26e-12             1.955e-05            
  -0.2                  -2.4968e-05           -4.38e-12             -1.42e-12             2.5008e-05           
  -0.25                 -2.991e-05            -4.2e-12              -1.38e-12             2.9938e-05           
  -0.3                  -3.4282e-05           -4e-12                -1.16e-12             3.4328e-05           
  -0.35                 -3.8172e-05           -3.84e-12             -1.22e-12             3.821e-05            
  -0.4                  -4.1556e-05           -3.76e-12             -1.3e-12              4.1596e-05           
  -0.45                 -4.4442e-05           -3.78e-12             -1.3e-12              4.4498e-05           
  -0.5                  -4.7034e-05           -3.54e-12             -1.08e-12             4.7038e-05           
  -0.55                 -4.9226e-05           -3.5e-12              -1.28e-12             4.9256e-05           
  -0.6                  -5.109e-05            -3.32e-12             -1.14e-12             5.114e-05            
  -0.65                 -5.2822e-05           -3.06e-12             -1.16e-12             5.2788e-05           
  -0.7                  -5.4214e-05           -3.18e-12             -1.12e-12             5.4258e-05           
  -0.75                 -5.5542e-05           -3.24e-12             -1.2e-12              5.552e-05            
  -0.8                  -5.6594e-05           -3.18e-12             -1.18e-12             5.6624e-05           
  -0.85                 -5.7616e-05           -3.2e-12              -1.26e-12             5.7622e-05           
  -0.9                  -5.845e-05            -3.08e-12             -1.32e-12             5.8558e-05           
  -0.95                 -5.9344e-05           -3.02e-12             -1.1e-12              5.938e-05            
  -1                    -6.011e-05            -3.08e-12             -1.22e-12             6.0104e-05           
  -1.05                 -6.0794e-05           -3.22e-12             -1.14e-12             6.0884e-05           
  -1.1                  -6.1478e-05           -3.02e-12             -1.08e-12             6.1516e-05           
  -1.15                 -6.2082e-05           -2.98e-12             -1.16e-12             6.2136e-05           
  -1.2                  -6.2772e-05           -3e-12                -9.6e-13              6.2784e-05           
  -1.25                 -6.331e-05            -2.96e-12             -9.4e-13              6.3242e-05           
  -1.3                  -6.3886e-05           -2.96e-12             -7.8e-13              6.3904e-05           
  -1.35                 -6.449e-05            -3e-12                -5.2e-13              6.4472e-05           
END_DB

