! VERSION = 6.00
BEGIN_HEADER
 ICCAP_INPUTS
  vd         V  D GROUND SMU1 0.1 LIN        1    -0         -1.35      28   -0.05     
  vg         V  G GROUND SMU2 0.001 LIST       2 3 -0.264 -0.464 -0.664
  vb         V  B GROUND SMU4 0.1 CON        1.2
  vs         V  S GROUND SMU3 0.1 CON        -0
 ICCAP_OUTPUTS
  id         I  D GROUND SMU1 B
  ig         I  G GROUND SMU2 B
  ib         I  B GROUND SMU4 B
  is         I  S GROUND SMU3 B
 ICCAP_VALUES
  MASTER_SETUP_TYPE "~dc_idvd~"
  LINVT_VALUE ""
  LISTVT_VALUE "|idvg|100.0n|-200.0m|1.000m|3|200.0m|200.0m|"
  TYPE "-1"
  TEMP " 70.0000 "
  IS_TNOM " 0.00000 "
  MAIN.W "300.0n"
  MAIN.L "10.00u"
  MAIN.AD "102.0f"
  MAIN.AS "102.0f"
  MAIN.PD "1.280u"
  MAIN.PS "1.280u"
  MAIN.NF "1.000"
  MAIN.M "1"
  MAIN.NRD "0.000"
  MAIN.NRS "0.000"
  MAIN.LDRIFT1 "1E-06"
  MAIN.LDRIFT2 "1E-06"
  MAIN.SA "0.000"
  MAIN.SB "0.000"
  MAIN.SD "0.000"
  MAIN.SCA "0.000"
  MAIN.SCB "0.000"
  MAIN.SCC "0.000"
  MAIN.SC "0.000"
  MODULE "S553"
  PIN_D "18"
  PIN_G "3"
  PIN_S "4"
  PIN_B "17"
  PIN_E ""
  PIN_6 ""
  XY_ID ""
  FUNC "W Scale"
  STI "SA ref"
  WPE "WPE ref"
  COMMENT ""
  DIS_MEAS ""
  TypeTCI "10"
END_HEADER

BEGIN_DB
 ICCAP_VAR vg         -0.264         
 ICCAP_VAR vb         1.2            
 ICCAP_VAR vs         -0             

 #vd                    id                    ig                    ib                    is                   
  -0                    6e-14                 6e-14                 1.39e-11              6e-14                
  -0.05                 -1.17e-11             6e-14                 1.41e-11              1.162e-11            
  -0.1                  -1.41e-11             1.2e-13               1.402e-11             1.396e-11            
  -0.15                 -1.454e-11            1.2e-13               1.4e-11               1.44e-11             
  -0.2                  -1.484e-11            -2e-14                1.414e-11             1.428e-11            
  -0.25                 -1.484e-11            1e-13                 1.4e-11               1.448e-11            
  -0.3                  -1.496e-11            1.8e-13               1.41e-11              1.446e-11            
  -0.35                 -1.498e-11            1.2e-13               1.402e-11             1.44e-11             
  -0.4                  -1.502e-11            1.4e-13               1.404e-11             1.452e-11            
  -0.45                 -1.524e-11            4e-14                 1.412e-11             1.446e-11            
  -0.5                  -1.51e-11             8e-14                 1.404e-11             1.446e-11            
  -0.55                 -1.524e-11            1e-13                 1.408e-11             1.448e-11            
  -0.6                  -1.52e-11             1e-13                 1.398e-11             1.45e-11             
  -0.65                 -1.53e-11             -6e-14                1.408e-11             1.448e-11            
  -0.7                  -1.526e-11            1e-13                 1.406e-11             1.454e-11            
  -0.75                 -1.536e-11            1.8e-13               1.408e-11             1.452e-11            
  -0.8                  -1.532e-11            4e-14                 1.404e-11             1.45e-11             
  -0.85                 -1.538e-11            6e-14                 1.394e-11             1.452e-11            
  -0.9                  -1.544e-11            4e-14                 1.402e-11             1.458e-11            
  -0.95                 -1.548e-11            2e-14                 1.386e-11             1.46e-11             
  -1                    -1.54e-11             1.6e-13               1.402e-11             1.466e-11            
  -1.05                 -1.548e-11            4e-14                 1.398e-11             1.462e-11            
  -1.1                  -1.544e-11            6e-14                 1.39e-11              1.464e-11            
  -1.15                 -1.566e-11            2.4e-13               1.396e-11             1.46e-11             
  -1.2                  -1.568e-11            1.2e-13               1.388e-11             1.456e-11            
  -1.25                 -1.57e-11             1.8e-13               1.392e-11             1.462e-11            
  -1.3                  -1.57e-11             1.2e-13               1.394e-11             1.462e-11            
  -1.35                 -1.576e-11            3.4e-13               1.396e-11             1.454e-11            
END_DB

BEGIN_DB
 ICCAP_VAR vg         -0.464         
 ICCAP_VAR vb         1.2            
 ICCAP_VAR vs         -0             

 #vd                    id                    ig                    ib                    is                   
  -0                    6.8e-12               -1.98e-12             1.386e-11             -4.3e-12             
  -0.05                 -2.4608e-09           -1.52e-12             1.374e-11             2.4614e-09           
  -0.1                  -3.1654e-09           -1.08e-12             1.392e-11             3.166e-09            
  -0.15                 -3.3248e-09           -1.22e-12             1.404e-11             3.3252e-09           
  -0.2                  -3.3624e-09           -1.14e-12             1.384e-11             3.3632e-09           
  -0.25                 -3.3748e-09           -1.16e-12             1.4e-11               3.375e-09            
  -0.3                  -3.3818e-09           -1.16e-12             1.382e-11             3.382e-09            
  -0.35                 -3.389e-09            -1.1e-12              1.396e-11             3.3888e-09           
  -0.4                  -3.3932e-09           -1.2e-12              1.394e-11             3.393e-09            
  -0.45                 -3.3974e-09           -1.14e-12             1.402e-11             3.3972e-09           
  -0.5                  -3.3996e-09           -1.18e-12             1.396e-11             3.4004e-09           
  -0.55                 -3.4028e-09           -1.08e-12             1.392e-11             3.4026e-09           
  -0.6                  -3.4066e-09           -1.12e-12             1.398e-11             3.4072e-09           
  -0.65                 -3.4102e-09           -1.2e-12              1.394e-11             3.4104e-09           
  -0.7                  -3.4132e-09           -1.02e-12             1.388e-11             3.4134e-09           
  -0.75                 -3.415e-09            -1.12e-12             1.4e-11               3.4144e-09           
  -0.8                  -3.4156e-09           -1.22e-12             1.392e-11             3.4178e-09           
  -0.85                 -3.4192e-09           -1.04e-12             1.394e-11             3.419e-09            
  -0.9                  -3.421e-09            -1.12e-12             1.392e-11             3.4204e-09           
  -0.95                 -3.4234e-09           -1.1e-12              1.388e-11             3.4228e-09           
  -1                    -3.4256e-09           -1e-12                1.398e-11             3.4254e-09           
  -1.05                 -3.4272e-09           -1.02e-12             1.386e-11             3.4262e-09           
  -1.1                  -3.4294e-09           -9.4e-13              1.394e-11             3.4278e-09           
  -1.15                 -3.431e-09            -1.04e-12             1.394e-11             3.4308e-09           
  -1.2                  -3.4324e-09           -9.4e-13              1.394e-11             3.4316e-09           
  -1.25                 -3.435e-09            -1.12e-12             1.396e-11             3.435e-09            
  -1.3                  -3.4366e-09           -1.06e-12             1.39e-11              3.4352e-09           
  -1.35                 -3.4386e-09           -9.8e-13              1.396e-11             3.4382e-09           
END_DB

BEGIN_DB
 ICCAP_VAR vg         -0.664         
 ICCAP_VAR vb         1.2            
 ICCAP_VAR vs         -0             

 #vd                    id                    ig                    ib                    is                   
  -0                    4.246e-11             -1.768e-11            1.37e-11              -2.36e-11            
  -0.05                 -2.1826e-08           -1.454e-11            1.39e-11              2.1854e-08           
  -0.1                  -3.674e-08            -1.222e-11            1.392e-11             3.6766e-08           
  -0.15                 -4.5544e-08           -1.098e-11            1.396e-11             4.5576e-08           
  -0.2                  -4.9662e-08           -1.032e-11            1.4e-11               4.9698e-08           
  -0.25                 -5.1124e-08           -1.006e-11            1.4e-11               5.1152e-08           
  -0.3                  -5.157e-08            -1.014e-11            1.388e-11             5.1602e-08           
  -0.35                 -5.1728e-08           -9.9e-12              1.388e-11             5.175e-08            
  -0.4                  -5.1838e-08           -1.014e-11            1.386e-11             5.1856e-08           
  -0.45                 -5.1912e-08           -9.96e-12             1.392e-11             5.195e-08            
  -0.5                  -5.1968e-08           -9.82e-12             1.394e-11             5.201e-08            
  -0.55                 -5.2046e-08           -9.92e-12             1.39e-11              5.2066e-08           
  -0.6                  -5.2106e-08           -9.86e-12             1.402e-11             5.2124e-08           
  -0.65                 -5.216e-08            -9.86e-12             1.41e-11              5.2166e-08           
  -0.7                  -5.2194e-08           -9.86e-12             1.406e-11             5.2214e-08           
  -0.75                 -5.2218e-08           -9.84e-12             1.408e-11             5.2254e-08           
  -0.8                  -5.2274e-08           -9.98e-12             1.39e-11              5.23e-08             
  -0.85                 -5.2306e-08           -9.92e-12             1.394e-11             5.2346e-08           
  -0.9                  -5.2342e-08           -9.78e-12             1.396e-11             5.2376e-08           
  -0.95                 -5.2362e-08           -9.92e-12             1.384e-11             5.24e-08             
  -1                    -5.2408e-08           -9.88e-12             1.394e-11             5.2424e-08           
  -1.05                 -5.2422e-08           -9.76e-12             1.396e-11             5.2464e-08           
  -1.1                  -5.2458e-08           -9.9e-12              1.388e-11             5.247e-08            
  -1.15                 -5.2474e-08           -9.8e-12              1.394e-11             5.2504e-08           
  -1.2                  -5.2504e-08           -9.68e-12             1.394e-11             5.2516e-08           
  -1.25                 -5.2508e-08           -9.76e-12             1.382e-11             5.2528e-08           
  -1.3                  -5.2532e-08           -9.72e-12             1.392e-11             5.2544e-08           
  -1.35                 -5.2546e-08           -9.76e-12             1.396e-11             5.2572e-08           
END_DB

