! VERSION = 6.00
BEGIN_HEADER
 ICCAP_INPUTS
  vg         V  G GROUND SMU2 0.001 LIN        1    0.5        -1.35      38   -0.05     
  vb         V  B GROUND SMU4 0.1 LIN        2    0          1.2        7    0.2       
  vd         V  D GROUND SMU1 0.1 LIST       3 3 -0.05 -0.6 -1.2
  vs         V  S GROUND SMU3 0.1 CON        -0
 ICCAP_OUTPUTS
  id         I  D GROUND SMU1 B
  ig         I  G GROUND SMU2 B
  ib         I  B GROUND SMU4 B
  is         I  S GROUND SMU3 B
 ICCAP_VALUES
  MASTER_SETUP_TYPE "~dc_idvg~"
  LINVT_VALUE ""
  LISTVT_VALUE ""
  TYPE "-1"
  TEMP " 70.0000 "
  IS_TNOM " 0.00000 "
  MAIN.W "150.0n"
  MAIN.L "130.0n"
  MAIN.AD "100.5f"
  MAIN.AS "100.5f"
  MAIN.PD "1.340u"
  MAIN.PS "1.340u"
  MAIN.NF "1.000"
  MAIN.M "1"
  MAIN.NRD "0.000"
  MAIN.NRS "0.000"
  MAIN.LDRIFT1 "1E-06"
  MAIN.LDRIFT2 "1E-06"
  MAIN.SA "0.000"
  MAIN.SB "0.000"
  MAIN.SD "0.000"
  MAIN.SCA "0.000"
  MAIN.SCB "0.000"
  MAIN.SCC "0.000"
  MAIN.SC "0.000"
  MODULE "S554"
  PIN_D "16"
  PIN_G "5"
  PIN_S "6"
  PIN_B "15"
  PIN_E ""
  PIN_6 ""
  XY_ID ""
  FUNC "Small"
  STI "SA ref"
  WPE "WPE ref"
  COMMENT ""
  DIS_MEAS ""
  TypeTCI "10"
END_HEADER

BEGIN_DB
 ICCAP_VAR vb         0              
 ICCAP_VAR vd         -0.05          
 ICCAP_VAR vs         -0             

 #vg                    id                    ig                    ib                    is                   
  0.5                   -6.4e-13              6.3526e-10            -5.279e-10            -3.8e-13             
  0.45                  -1.8e-13              1.1898e-10            -2.444e-10            1.2e-13              
  0.4                   -1e-13                2.262e-11             -1.415e-10            -1e-13               
  0.35                  0                     4.3e-12               -9.914e-11            2.6e-13              
  0.3                   -4e-14                8.4e-13               -7.694e-11            0                    
  0.25                  -4e-14                2.2e-13               -6.342e-11            -4e-14               
  0.2                   -2e-14                -4e-14                -5.434e-11            1.8e-13              
  0.15                  -2.6e-13              -1.8e-13              -4.758e-11            3e-13                
  0.1                   -6e-13                -1.4e-13              -4.232e-11            8e-13                
  0.05                  -2.44e-12             -3.6e-13              -3.802e-11            2.6e-12              
  0                     -8.6e-12              -4.4e-13              -3.458e-11            8.78e-12             
  -0.05                 -3.064e-11            -4e-13                -3.152e-11            3.082e-11            
  -0.1                  -1.1002e-10           -3.6e-13              -2.896e-11            1.1016e-10           
  -0.15                 -3.9578e-10           -4.2e-13              -2.664e-11            3.9492e-10           
  -0.2                  -1.4138e-09           -3e-13                -2.328e-11            1.4144e-09           
  -0.25                 -5.0102e-09           -3.2e-13              -2.158e-11            5.0106e-09           
  -0.3                  -1.7042e-08           -4e-13                -1.984e-11            1.7032e-08           
  -0.35                 -5.2898e-08           -4.8e-13              -1.852e-11            5.3058e-08           
  -0.4                  -1.4208e-07           -6.8e-13              -1.74e-11             1.4228e-07           
  -0.45                 -3.147e-07            -7.4e-13              -1.62e-11             3.1454e-07           
  -0.5                  -5.7572e-07           -5.8e-13              -1.504e-11            5.7602e-07           
  -0.55                 -9.0816e-07           -7.6e-13              -1.416e-11            9.0782e-07           
  -0.6                  -1.2786e-06           -7.6e-13              -1.266e-11            1.2868e-06           
  -0.65                 -1.6786e-06           -7.6e-13              -1.208e-11            1.6816e-06           
  -0.7                  -2.0852e-06           -9e-13                -1.126e-11            2.0944e-06           
  -0.75                 -2.491e-06            -1.08e-12             -1.072e-11            2.4944e-06           
  -0.8                  -2.8676e-06           -1.2e-12              -1.006e-11            2.851e-06            
  -0.85                 -3.2218e-06           -1.38e-12             -9.5e-12              3.2222e-06           
  -0.9                  -3.5946e-06           -1.72e-12             -8.9e-12              3.5972e-06           
  -0.95                 -3.943e-06            -1.76e-12             -8.32e-12             3.9526e-06           
  -1                    -4.2562e-06           -2.16e-12             -7.94e-12             4.2576e-06           
  -1.05                 -4.5814e-06           -2.38e-12             -7.4e-12              4.5822e-06           
  -1.1                  -4.888e-06            -2.88e-12             -6.88e-12             4.8806e-06           
  -1.15                 -5.1794e-06           -3.22e-12             -6.6e-12              5.1734e-06           
  -1.2                  -5.4534e-06           -3.78e-12             -6e-12                5.4568e-06           
  -1.25                 -5.7284e-06           -4.42e-12             -5.7e-12              5.737e-06            
  -1.3                  -5.9808e-06           -5e-12                -5.4e-12              5.98e-06             
  -1.35                 -6.221e-06            -5.7e-12              -4.8e-12              6.2168e-06           
END_DB

BEGIN_DB
 ICCAP_VAR vb         0.2            
 ICCAP_VAR vd         -0.05          
 ICCAP_VAR vs         -0             

 #vg                    id                    ig                    ib                    is                   
  0.5                   -1.4e-13              1.32e-12              1.08e-11              2e-14                
  0.45                  -1.2e-13              3.4e-13               1.09e-11              -2e-14               
  0.4                   -1.2e-13              0                     1.104e-11             -8e-14               
  0.35                  -1e-13                6e-14                 1.102e-11             0                    
  0.3                   -8e-14                -8e-14                1.088e-11             1.4e-13              
  0.25                  -2e-13                -1.6e-13              1.084e-11             -6e-14               
  0.2                   -1.4e-13              -3e-13                1.09e-11              2e-13                
  0.15                  -2.2e-13              -4e-13                1.088e-11             1.2e-13              
  0.1                   -3.2e-13              -3.2e-13              1.09e-11              3.2e-13              
  0.05                  -9.4e-13              -3.6e-13              1.09e-11              6.4e-13              
  0                     -2.94e-12             -3.8e-13              1.08e-11              2.76e-12             
  -0.05                 -1.036e-11            -3.4e-13              1.096e-11             1.02e-11             
  -0.1                  -3.86e-11             -6.8e-13              1.088e-11             3.846e-11            
  -0.15                 -1.4356e-10           -4.4e-13              1.09e-11              1.434e-10            
  -0.2                  -5.3532e-10           -5.4e-13              1.092e-11             5.3488e-10           
  -0.25                 -1.9696e-09           -4.2e-13              1.086e-11             1.9692e-09           
  -0.3                  -7.1152e-09           -5e-13                1.086e-11             7.1114e-09           
  -0.35                 -2.4092e-08           -4.8e-13              1.096e-11             2.4116e-08           
  -0.4                  -7.3368e-08           -5e-13                1.088e-11             7.3192e-08           
  -0.45                 -1.8648e-07           -5.4e-13              1.086e-11             1.865e-07            
  -0.5                  -3.8674e-07           -7.4e-13              1.08e-11              3.8714e-07           
  -0.55                 -6.7112e-07           -6.6e-13              1.084e-11             6.7082e-07           
  -0.6                  -1.0181e-06           -8.2e-13              1.082e-11             1.01784e-06          
  -0.65                 -1.3856e-06           -6.4e-13              1.086e-11             1.3888e-06           
  -0.7                  -1.7798e-06           -9.8e-13              1.082e-11             1.781e-06            
  -0.75                 -2.18e-06             -9.8e-13              1.086e-11             2.1764e-06           
  -0.8                  -2.5684e-06           -1.28e-12             1.078e-11             2.5744e-06           
  -0.85                 -2.9448e-06           -1.36e-12             1.074e-11             2.9496e-06           
  -0.9                  -3.3182e-06           -1.42e-12             1.082e-11             3.3162e-06           
  -0.95                 -3.6528e-06           -1.86e-12             1.07e-11              3.649e-06            
  -1                    -3.9726e-06           -2.14e-12             1.084e-11             3.9906e-06           
  -1.05                 -4.3094e-06           -2.46e-12             1.08e-11              4.315e-06            
  -1.1                  -4.6148e-06           -2.92e-12             1.074e-11             4.6104e-06           
  -1.15                 -4.9064e-06           -3.22e-12             1.07e-11              4.908e-06            
  -1.2                  -5.1986e-06           -3.62e-12             1.072e-11             5.182e-06            
  -1.25                 -5.4522e-06           -4.38e-12             1.068e-11             5.4542e-06           
  -1.3                  -5.716e-06            -5.06e-12             1.07e-11              5.7266e-06           
  -1.35                 -5.9718e-06           -5.72e-12             1.076e-11             5.9738e-06           
END_DB

BEGIN_DB
 ICCAP_VAR vb         0.4            
 ICCAP_VAR vd         -0.05          
 ICCAP_VAR vs         -0             

 #vg                    id                    ig                    ib                    is                   
  0.5                   -1.2e-13              4.4e-13               1.172e-11             -6e-14               
  0.45                  -1.4e-13              3e-13                 1.182e-11             -1.6e-13             
  0.4                   -8e-14                8e-14                 1.182e-11             -6e-14               
  0.35                  -1.4e-13              0                     1.19e-11              2e-14                
  0.3                   -8e-14                -2e-14                1.186e-11             -2e-14               
  0.25                  -1.2e-13              -8e-14                1.17e-11              1.8e-13              
  0.2                   -4e-14                -1e-13                1.188e-11             2e-14                
  0.15                  -1.4e-13              -3.2e-13              1.184e-11             6e-14                
  0.1                   -1e-13                -3e-13                1.172e-11             2.4e-13              
  0.05                  -2.6e-13              -3.4e-13              1.166e-11             4.4e-13              
  0                     -1.28e-12             -4e-13                1.184e-11             1.14e-12             
  -0.05                 -4.32e-12             -4.6e-13              1.184e-11             4.2e-12              
  -0.1                  -1.604e-11            -4e-13                1.172e-11             1.612e-11            
  -0.15                 -6.168e-11            -4.8e-13              1.182e-11             6.154e-11            
  -0.2                  -2.3496e-10           -4.2e-13              1.19e-11              2.3468e-10           
  -0.25                 -8.9076e-10           -4.8e-13              1.174e-11             8.923e-10            
  -0.3                  -3.3248e-09           -3.4e-13              1.17e-11              3.3314e-09           
  -0.35                 -1.1932e-08           -4.8e-13              1.186e-11             1.1944e-08           
  -0.4                  -3.9364e-08           -5e-13                1.178e-11             3.9382e-08           
  -0.45                 -1.11844e-07          -7.2e-13              1.17e-11              1.11954e-07          
  -0.5                  -2.6066e-07           -6.2e-13              1.176e-11             2.6104e-07           
  -0.55                 -4.9876e-07           -6.8e-13              1.176e-11             4.9776e-07           
  -0.6                  -8.1052e-07           -6.8e-13              1.17e-11              8.103e-07            
  -0.65                 -1.1708e-06           -8e-13                1.182e-11             1.1744e-06           
  -0.7                  -1.5518e-06           -9e-13                1.174e-11             1.555e-06            
  -0.75                 -1.9438e-06           -9.4e-13              1.174e-11             1.9516e-06           
  -0.8                  -2.3348e-06           -1.28e-12             1.17e-11              2.3344e-06           
  -0.85                 -2.7164e-06           -1.42e-12             1.164e-11             2.7246e-06           
  -0.9                  -3.0898e-06           -1.62e-12             1.174e-11             3.0684e-06           
  -0.95                 -3.3948e-06           -1.8e-12              1.182e-11             3.3988e-06           
  -1                    -3.7512e-06           -2.04e-12             1.178e-11             3.7508e-06           
  -1.05                 -4.0656e-06           -2.44e-12             1.182e-11             4.0656e-06           
  -1.1                  -4.377e-06            -2.66e-12             1.178e-11             4.3602e-06           
  -1.15                 -4.67e-06             -3.3e-12              1.182e-11             4.6482e-06           
  -1.2                  -4.9488e-06           -3.7e-12              1.174e-11             4.95e-06             
  -1.25                 -5.2226e-06           -4.24e-12             1.178e-11             5.2246e-06           
  -1.3                  -5.4874e-06           -4.88e-12             1.184e-11             5.4918e-06           
  -1.35                 -5.7256e-06           -5.8e-12              1.19e-11              5.7406e-06           
END_DB

BEGIN_DB
 ICCAP_VAR vb         0.6            
 ICCAP_VAR vd         -0.05          
 ICCAP_VAR vs         -0             

 #vg                    id                    ig                    ib                    is                   
  0.5                   -6e-14                5.4e-13               1.204e-11             -1.6e-13             
  0.45                  -1.8e-13              3.4e-13               1.196e-11             -6e-14               
  0.4                   -1.2e-13              8e-14                 1.196e-11             -2e-14               
  0.35                  -1.6e-13              -6e-14                1.202e-11             -2e-14               
  0.3                   -2.4e-13              -4e-14                1.204e-11             8e-14                
  0.25                  -1e-13                -2.4e-13              1.214e-11             -1.6e-13             
  0.2                   -2e-14                -1.2e-13              1.204e-11             8e-14                
  0.15                  -6e-14                -1.6e-13              1.21e-11              -8e-14               
  0.1                   -1.4e-13              -4.2e-13              1.204e-11             1.6e-13              
  0.05                  -2.6e-13              -3e-13                1.202e-11             2.6e-13              
  0                     -5.8e-13              -3.6e-13              1.204e-11             3.4e-13              
  -0.05                 -2.08e-12             -4.4e-13              1.194e-11             1.98e-12             
  -0.1                  -7.76e-12             -5.4e-13              1.208e-11             7.64e-12             
  -0.15                 -2.982e-11            -4.6e-13              1.192e-11             3e-11                
  -0.2                  -1.1646e-10           -4.2e-13              1.204e-11             1.1614e-10           
  -0.25                 -4.5094e-10           -4.6e-13              1.204e-11             4.5046e-10           
  -0.3                  -1.7218e-09           -4.8e-13              1.198e-11             1.723e-09            
  -0.35                 -6.3726e-09           -5.2e-13              1.206e-11             6.378e-09            
  -0.4                  -2.228e-08            -4.6e-13              1.19e-11              2.2306e-08           
  -0.45                 -6.8846e-08           -6e-13                1.19e-11              6.8858e-08           
  -0.5                  -1.774e-07            -7.8e-13              1.202e-11             1.775e-07            
  -0.55                 -3.7184e-07           -6.6e-13              1.192e-11             3.718e-07            
  -0.6                  -6.4448e-07           -9e-13                1.208e-11             6.4474e-07           
  -0.65                 -9.7956e-07           -8e-13                1.202e-11             9.8084e-07           
  -0.7                  -1.3502e-06           -8.4e-13              1.188e-11             1.3508e-06           
  -0.75                 -1.7262e-06           -8.6e-13              1.198e-11             1.733e-06            
  -0.8                  -2.1154e-06           -1.18e-12             1.202e-11             2.1194e-06           
  -0.85                 -2.4914e-06           -1.42e-12             1.204e-11             2.4974e-06           
  -0.9                  -2.8542e-06           -1.6e-12              1.194e-11             2.8522e-06           
  -0.95                 -3.2054e-06           -1.68e-12             1.206e-11             3.2242e-06           
  -1                    -3.5528e-06           -1.98e-12             1.194e-11             3.5522e-06           
  -1.05                 -3.8838e-06           -2.38e-12             1.198e-11             3.8846e-06           
  -1.1                  -4.1986e-06           -2.78e-12             1.202e-11             4.1696e-06           
  -1.15                 -4.4656e-06           -3.16e-12             1.2e-11               4.4636e-06           
  -1.2                  -4.7618e-06           -3.78e-12             1.206e-11             4.7734e-06           
  -1.25                 -5.0444e-06           -4.22e-12             1.206e-11             5.0464e-06           
  -1.3                  -5.3054e-06           -4.88e-12             1.206e-11             5.3104e-06           
  -1.35                 -5.5448e-06           -5.54e-12             1.22e-11              5.5466e-06           
END_DB

BEGIN_DB
 ICCAP_VAR vb         0.8            
 ICCAP_VAR vd         -0.05          
 ICCAP_VAR vs         -0             

 #vg                    id                    ig                    ib                    is                   
  0.5                   -1.4e-13              6e-13                 1.216e-11             -8e-14               
  0.45                  -8e-14                1.6e-13               1.22e-11              -2e-14               
  0.4                   -2e-13                1e-13                 1.218e-11             1.2e-13              
  0.35                  -1.8e-13              -2e-14                1.224e-11             -8e-14               
  0.3                   -8e-14                -1.6e-13              1.224e-11             -2e-14               
