! VERSION = 6.00
BEGIN_HEADER
 ICCAP_INPUTS
  vd         V  D GROUND SMU1 0.1 LIN        1    -0         -1.35      28   -0.05     
  vg         V  G GROUND SMU2 0.001 LIN        2    -0.458     -1.35      5    -0.223    
  vb         V  B GROUND SMU4 0.1 CON        -0
  vs         V  S GROUND SMU3 0.1 CON        -0
 ICCAP_OUTPUTS
  id         I  D GROUND SMU1 B
  ig         I  G GROUND SMU2 B
  ib         I  B GROUND SMU4 B
  is         I  S GROUND SMU3 B
 ICCAP_VALUES
  MASTER_SETUP_TYPE "~dc_idvd~"
  LINVT_VALUE "|idvg|100.0n|100.0m|1.000m|5|1.350|"
  LISTVT_VALUE ""
  TYPE "-1"
  TEMP " 27.0000 "
  IS_TNOM " 1.00000 "
  MAIN.W "300.0n"
  MAIN.L "500.0n"
  MAIN.AD "102.0f"
  MAIN.AS "102.0f"
  MAIN.PD "1.280u"
  MAIN.PS "1.280u"
  MAIN.NF "1.000"
  MAIN.M "1"
  MAIN.NRD "0.000"
  MAIN.NRS "0.000"
  MAIN.LDRIFT1 "1E-06"
  MAIN.LDRIFT2 "1E-06"
  MAIN.SA "0.000"
  MAIN.SB "0.000"
  MAIN.SD "0.000"
  MAIN.SCA "0.000"
  MAIN.SCB "0.000"
  MAIN.SCC "0.000"
  MAIN.SC "0.000"
  MODULE "S553"
  PIN_D "20"
  PIN_G "1"
  PIN_S "2"
  PIN_B "19"
  PIN_E ""
  PIN_6 ""
  XY_ID ""
  FUNC "LW Scale"
  STI "SA ref"
  WPE "WPE ref"
  COMMENT ""
  DIS_MEAS ""
  TypeTCI "10"
END_HEADER

BEGIN_DB
 ICCAP_VAR vg         -0.458         
 ICCAP_VAR vb         -0             
 ICCAP_VAR vs         -0             

 #vd                    id                    ig                    ib                    is                   
  -0                    3.5188e-10            -2.8e-13              -3.12e-12             -4.2484e-10          
  -0.05                 -2.249e-07            -1.8e-13              -2.96e-12             2.2502e-07           
  -0.1                  -3.2596e-07           -1.8e-13              -2.96e-12             3.2636e-07           
  -0.15                 -3.6456e-07           -1.8e-13              -2.9e-12              3.6472e-07           
  -0.2                  -3.818e-07            -2.4e-13              -2.84e-12             3.8194e-07           
  -0.25                 -3.928e-07            -2e-13                -2.76e-12             3.9286e-07           
  -0.3                  -4.0156e-07           -2.4e-13              -2.9e-12              4.0192e-07           
  -0.35                 -4.0924e-07           -1.4e-13              -2.92e-12             4.094e-07            
  -0.4                  -4.16e-07             -1.2e-13              -2.7e-12              4.1634e-07           
  -0.45                 -4.2206e-07           -2e-13                -2.62e-12             4.226e-07            
  -0.5                  -4.2802e-07           -2.4e-13              -2.72e-12             4.2826e-07           
  -0.55                 -4.3362e-07           -1.8e-13              -2.7e-12              4.3362e-07           
  -0.6                  -4.3856e-07           -3e-13                -2.68e-12             4.3828e-07           
  -0.65                 -4.4276e-07           -1.2e-13              -2.56e-12             4.4414e-07           
  -0.7                  -4.477e-07            -1.8e-13              -2.52e-12             4.481e-07            
  -0.75                 -4.5206e-07           -1.6e-13              -2.6e-12              4.5214e-07           
  -0.8                  -4.5594e-07           -2e-13                -2.52e-12             4.5644e-07           
  -0.85                 -4.5954e-07           -8e-14                -2.52e-12             4.5982e-07           
  -0.9                  -4.6326e-07           -1.8e-13              -2.44e-12             4.634e-07            
  -0.95                 -4.6662e-07           -2.4e-13              -2.46e-12             4.6696e-07           
  -1                    -4.7032e-07           -1.8e-13              -2.5e-12              4.7036e-07           
  -1.05                 -4.7308e-07           -2.4e-13              -2.46e-12             4.734e-07            
  -1.1                  -4.757e-07            -1.8e-13              -2.42e-12             4.7662e-07           
  -1.15                 -4.7934e-07           -2.6e-13              -2.48e-12             4.794e-07            
  -1.2                  -4.8224e-07           -2.6e-13              -2.36e-12             4.8222e-07           
  -1.25                 -4.8484e-07           -1e-13                -2.36e-12             4.851e-07            
  -1.3                  -4.8724e-07           2e-14                 -2.16e-12             4.8776e-07           
  -1.35                 -4.8964e-07           -1.8e-13              -1.84e-12             4.9038e-07           
END_DB

BEGIN_DB
 ICCAP_VAR vg         -0.681         
 ICCAP_VAR vb         -0             
 ICCAP_VAR vs         -0             

 #vd                    id                    ig                    ib                    is                   
  -0                    1.4356e-09            -1.34e-12             -2.22e-12             -1.2896e-09          
  -0.05                 -9.439e-07            -1.16e-12             -2e-12                9.438e-07            
  -0.1                  -1.6816e-06           -1.04e-12             -2.02e-12             1.6834e-06           
  -0.15                 -2.2168e-06           -9.6e-13              -2.06e-12             2.2204e-06           
  -0.2                  -2.5706e-06           -8.8e-13              -2.08e-12             2.5732e-06           
  -0.25                 -2.7792e-06           -8.6e-13              -2.1e-12              2.782e-06            
  -0.3                  -2.9038e-06           -8.2e-13              -2e-12                2.9078e-06           
  -0.35                 -2.979e-06            -8e-13                -2.04e-12             2.981e-06            
  -0.4                  -3.0348e-06           -7.4e-13              -2.04e-12             3.0386e-06           
  -0.45                 -3.078e-06            -7.4e-13              -2.04e-12             3.0782e-06           
  -0.5                  -3.1108e-06           -7.8e-13              -1.98e-12             3.115e-06            
  -0.55                 -3.1436e-06           -7.8e-13              -2.12e-12             3.152e-06            
  -0.6                  -3.1828e-06           -7e-13                -2.14e-12             3.1864e-06           
  -0.65                 -3.2076e-06           -7.2e-13              -1.98e-12             3.2136e-06           
  -0.7                  -3.237e-06            -7.2e-13              -1.86e-12             3.2378e-06           
  -0.75                 -3.2608e-06           -8e-13                -2e-12                3.262e-06            
  -0.8                  -3.2838e-06           -7.8e-13              -2.04e-12             3.288e-06            
  -0.85                 -3.3066e-06           -7.6e-13              -1.82e-12             3.3088e-06           
  -0.9                  -3.3234e-06           -7.2e-13              -1.92e-12             3.3214e-06           
  -0.95                 -3.3436e-06           -7.4e-13              -2e-12                3.3468e-06           
  -1                    -3.361e-06            -7.2e-13              -1.9e-12              3.3686e-06           
  -1.05                 -3.3834e-06           -6.2e-13              -1.84e-12             3.3878e-06           
  -1.1                  -3.3988e-06           -6.4e-13              -1.88e-12             3.4036e-06           
  -1.15                 -3.4178e-06           -7.2e-13              -1.94e-12             3.4176e-06           
  -1.2                  -3.4328e-06           -6e-13                -1.86e-12             3.438e-06            
  -1.25                 -3.4498e-06           -6.4e-13              -1.74e-12             3.4554e-06           
  -1.3                  -3.4672e-06           -5.8e-13              -1.68e-12             3.471e-06            
  -1.35                 -3.4892e-06           -6.4e-13              -1.46e-12             3.4928e-06           
END_DB

BEGIN_DB
 ICCAP_VAR vg         -0.904         
 ICCAP_VAR vb         -0             
 ICCAP_VAR vs         -0             

 #vd                    id                    ig                    ib                    is                   
  -0                    2.1784e-09            -4.4e-12              -1.76e-12             -1.9956e-09          
  -0.05                 -1.6436e-06           -4e-12                -1.84e-12             1.6496e-06           
  -0.1                  -3.1076e-06           -3.62e-12             -1.7e-12              3.1134e-06           
  -0.15                 -4.3774e-06           -3.3e-12              -1.66e-12             4.3808e-06           
  -0.2                  -5.45e-06             -3.04e-12             -1.82e-12             5.4536e-06           
  -0.25                 -6.3226e-06           -2.74e-12             -1.7e-12              6.326e-06            
  -0.3                  -7.0018e-06           -2.78e-12             -1.68e-12             7.0082e-06           
  -0.35                 -7.5006e-06           -2.56e-12             -1.68e-12             7.5046e-06           
  -0.4                  -7.8524e-06           -2.54e-12             -1.72e-12             7.8588e-06           
  -0.45                 -8.0918e-06           -2.42e-12             -1.62e-12             8.0948e-06           
  -0.5                  -8.252e-06            -2.34e-12             -1.66e-12             8.26e-06             
  -0.55                 -8.3802e-06           -2.36e-12             -1.72e-12             8.3832e-06           
  -0.6                  -8.4774e-06           -2.32e-12             -1.52e-12             8.475e-06            
  -0.65                 -8.5586e-06           -2.24e-12             -1.58e-12             8.5668e-06           
  -0.7                  -8.6304e-06           -2.26e-12             -1.6e-12              8.6368e-06           
  -0.75                 -8.6944e-06           -2.24e-12             -1.62e-12             8.698e-06            
  -0.8                  -8.755e-06            -2.2e-12              -1.5e-12              8.7592e-06           
  -0.85                 -8.826e-06            -2.26e-12             -1.6e-12              8.8236e-06           
  -0.9                  -8.8718e-06           -2.28e-12             -1.7e-12              8.8752e-06           
  -0.95                 -8.9206e-06           -2.18e-12             -1.64e-12             8.9214e-06           
  -1                    -8.9632e-06           -2.3e-12              -1.56e-12             8.972e-06            
  -1.05                 -9.013e-06            -2.18e-12             -1.52e-12             9.0166e-06           
  -1.1                  -9.0564e-06           -2.18e-12             -1.6e-12              9.0504e-06           
  -1.15                 -9.0892e-06           -2.3e-12              -1.6e-12              9.0912e-06           
  -1.2                  -9.1288e-06           -2.26e-12             -1.48e-12             9.1356e-06           
  -1.25                 -9.174e-06            -2.22e-12             -1.6e-12              9.1684e-06           
  -1.3                  -9.2036e-06           -2.18e-12             -1.6e-12              9.2146e-06           
  -1.35                 -9.2402e-06           -2.12e-12             -1.5e-12              9.2468e-06           
END_DB

BEGIN_DB
 ICCAP_VAR vg         -1.127         
 ICCAP_VAR vb         -0             
 ICCAP_VAR vs         -0             

 #vd                    id                    ig                    ib                    is                   
  -0                    2.5708e-09            -1.152e-11            -1.46e-12             -2.4104e-09          
  -0.05                 -2.229e-06            -1.048e-11            -1.42e-12             2.2344e-06           
  -0.1                  -4.3096e-06           -9.64e-12             -1.32e-12             4.3086e-06           
  -0.15                 -6.2138e-06           -8.98e-12             -1.48e-12             6.2188e-06           
  -0.2                  -7.9476e-06           -8.3e-12              -1.38e-12             7.9548e-06           
  -0.25                 -9.514e-06            -7.78e-12             -1.44e-12             9.519e-06            
  -0.3                  -1.09008e-05          -7.24e-12             -1.54e-12             1.09062e-05          
  -0.35                 -1.208e-05            -6.8e-12              -1.28e-12             1.208e-05            
  -0.4                  -1.3072e-05           -6.58e-12             -1.34e-12             1.31e-05             
  -0.45                 -1.3898e-05           -6.3e-12              -1.46e-12             1.392e-05            
  -0.5                  -1.4528e-05           -6.14e-12             -1.38e-12             1.4546e-05           
  -0.55                 -1.5022e-05           -5.98e-12             -1.32e-12             1.5062e-05           
  -0.6                  -1.5406e-05           -5.84e-12             -1.4e-12              1.5456e-05           
  -0.65                 -1.5714e-05           -5.76e-12             -1.42e-12             1.5726e-05           
  -0.7                  -1.5914e-05           -5.64e-12             -1.28e-12             1.5934e-05           
  -0.75                 -1.6082e-05           -5.68e-12             -1.32e-12             1.6082e-05           
  -0.8                  -1.6198e-05           -5.62e-12             -1.36e-12             1.624e-05            
  -0.85                 -1.6344e-05           -5.54e-12             -1.42e-12             1.6362e-05           
  -0.9                  -1.645e-05            -5.48e-12             -1.38e-12             1.6448e-05           
  -0.95                 -1.6544e-05           -5.54e-12             -1.26e-12             1.6566e-05           
  -1                    -1.6636e-05           -5.42e-12             -1.34e-12             1.6656e-05           
  -1.05                 -1.672e-05            -5.4e-12              -1.42e-12             1.6738e-05           
  -1.1                  -1.6814e-05           -5.46e-12             -1.34e-12             1.6806e-05           
  -1.15                 -1.686e-05            -5.34e-12             -1.38e-12             1.688e-05            
  -1.2                  -1.6916e-05           -5.4e-12              -1.34e-12             1.6966e-05           
  -1.25                 -1.7014e-05           -5.36e-12             -1.24e-12             1.7034e-05           
  -1.3                  -1.708e-05            -5.42e-12             -1.38e-12             1.7106e-05           
  -1.35                 -1.715e-05            -5.36e-12             -1.44e-12             1.7172e-05           
END_DB

BEGIN_DB
 ICCAP_VAR vg         -1.35          
 ICCAP_VAR vb         -0             
 ICCAP_VAR vs         -0             

 #vd                    id                    ig                    ib                    is                   
  -0                    2.8498e-09            -2.646e-11            -1.12e-12             -2.8048e-09          
  -0.05                 -2.6982e-06           -2.38e-11             -1.1e-12              2.7026e-06           
  -0.1                  -5.2648e-06           -2.18e-11             -1e-12                5.2696e-06           
  -0.15                 -7.6932e-06           -2.008e-11            -1.22e-12             7.6944e-06           
  -0.2                  -9.9824e-06           -1.866e-11            -1.18e-12             9.9738e-06           
  -0.25                 -1.2094e-05           -1.732e-11            -1.18e-12             1.212e-05            
  -0.3                  -1.4068e-05           -1.638e-11            -1.16e-12             1.4086e-05           
  -0.35                 -1.5886e-05           -1.544e-11            -1.06e-12             1.5896e-05           
  -0.4                  -1.751e-05            -1.474e-11            -1.18e-12             1.7528e-05           
  -0.45                 -1.897e-05            -1.398e-11            -1.3e-12              1.8978e-05           
  -0.5                  -2.0254e-05           -1.352e-11            -1.34e-12             2.028e-05            
  -0.55                 -2.1368e-05           -1.296e-11            -1.08e-12             2.1392e-05           
  -0.6                  -2.2324e-05           -1.266e-11            -1.02e-12             2.238e-05            
  -0.65                 -2.3126e-05           -1.224e-11            -1.12e-12             2.3146e-05           
  -0.7                  -2.375e-05            -1.2e-11              -1.18e-12             2.3774e-05           
  -0.75                 -2.4244e-05           -1.178e-11            -1.06e-12             2.4256e-05           
  -0.8                  -2.4626e-05           -1.172e-11            -1.2e-12              2.4648e-05           
  -0.85                 -2.4938e-05           -1.152e-11            -1.14e-12             2.4982e-05           
  -0.9                  -2.5204e-05           -1.156e-11            -1.12e-12             2.5214e-05           
  -0.95                 -2.5404e-05           -1.134e-11            -1.18e-12             2.5418e-05           
  -1                    -2.5588e-05           -1.13e-11             -1.22e-12             2.5622e-05           
  -1.05                 -2.5764e-05           -1.122e-11            -1.22e-12             2.578e-05            
  -1.1                  -2.5888e-05           -1.112e-11            -1.1e-12              2.5934e-05           
  -1.15                 -2.605e-05            -1.128e-11            -1.12e-12             2.6068e-05           
  -1.2                  -2.6174e-05           -1.106e-11            -1.2e-12              2.6156e-05           
  -1.25                 -2.6268e-05           -1.102e-11            -1.12e-12             2.6284e-05           
  -1.3                  -2.6374e-05           -1.112e-11            -1.16e-12             2.6392e-05           
  -1.35                 -2.6476e-05           -1.102e-11            -1.06e-12             2.648e-05            
END_DB

