! VERSION = 6.00
BEGIN_HEADER
 ICCAP_INPUTS
  vd         V  D GROUND SMU1 0.1 LIN        1    -0         -1.35      28   -0.05     
  vg         V  G GROUND SMU2 0.001 LIST       2 3 -0.175 -0.375 -0.575
  vb         V  B GROUND SMU4 0.1 CON        -0
  vs         V  S GROUND SMU3 0.1 CON        -0
 ICCAP_OUTPUTS
  id         I  D GROUND SMU1 B
  ig         I  G GROUND SMU2 B
  ib         I  B GROUND SMU4 B
  is         I  S GROUND SMU3 B
 ICCAP_VALUES
  MASTER_SETUP_TYPE "~dc_idvd~"
  LINVT_VALUE ""
  LISTVT_VALUE "|idvg|100.0n|-200.0m|1.000m|3|200.0m|200.0m|"
  TYPE "-1"
  TEMP " 27.0000 "
  IS_TNOM " 1.00000 "
  MAIN.W "150.0n"
  MAIN.L "140.0n"
  MAIN.AD "100.5f"
  MAIN.AS "100.5f"
  MAIN.PD "1.340u"
  MAIN.PS "1.340u"
  MAIN.NF "1.000"
  MAIN.M "1"
  MAIN.NRD "0.000"
  MAIN.NRS "0.000"
  MAIN.LDRIFT1 "1E-06"
  MAIN.LDRIFT2 "1E-06"
  MAIN.SA "0.000"
  MAIN.SB "0.000"
  MAIN.SD "0.000"
  MAIN.SCA "0.000"
  MAIN.SCB "0.000"
  MAIN.SCC "0.000"
  MAIN.SC "0.000"
  MODULE "S554"
  PIN_D "14"
  PIN_G "7"
  PIN_S "8"
  PIN_B "13"
  PIN_E ""
  PIN_6 ""
  XY_ID ""
  FUNC "LW Scale"
  STI "SA ref"
  WPE "WPE ref"
  COMMENT ""
  DIS_MEAS ""
  TypeTCI "10"
END_HEADER

BEGIN_DB
 ICCAP_VAR vg         -0.175         
 ICCAP_VAR vb         -0             
 ICCAP_VAR vs         -0             

 #vd                    id                    ig                    ib                    is                   
  -0                    5.4e-13               1.8e-13               -1.1e-12              -7.8e-13             
  -0.05                 -2.3506e-10           2.8e-13               -1.12e-12             2.358e-10            
  -0.1                  -2.8834e-10           3e-13                 -1.2e-12              2.8834e-10           
  -0.15                 -3.0872e-10           2.6e-13               -1.18e-12             3.0656e-10           
  -0.2                  -3.2316e-10           1.2e-13               -1.12e-12             3.2146e-10           
  -0.25                 -3.4086e-10           2.6e-13               -1.06e-12             3.3946e-10           
  -0.3                  -3.56e-10             1.6e-13               -1.1e-12              3.54e-10             
  -0.35                 -3.696e-10            2.8e-13               -1.18e-12             3.6914e-10           
  -0.4                  -3.8864e-10           4e-14                 -1.2e-12              3.8564e-10           
  -0.45                 -4.014e-10            1.6e-13               -1.14e-12             3.9996e-10           
  -0.5                  -4.2142e-10           1.8e-13               -1.06e-12             4.1744e-10           
  -0.55                 -4.3386e-10           3.2e-13               -1.2e-12              4.3338e-10           
  -0.6                  -4.4972e-10           -1.8e-13              -1.12e-12             4.4908e-10           
  -0.65                 -4.6524e-10           3.4e-13               -1.1e-12              4.638e-10            
  -0.7                  -4.8148e-10           8e-14                 -1.14e-12             4.8082e-10           
  -0.75                 -4.9756e-10           2.8e-13               -1.26e-12             4.9718e-10           
  -0.8                  -5.1852e-10           2.6e-13               -1.18e-12             5.1708e-10           
  -0.85                 -5.3514e-10           3.8e-13               -1.08e-12             5.3412e-10           
  -0.9                  -5.475e-10            6e-14                 -1.14e-12             5.4784e-10           
  -0.95                 -5.697e-10            1.8e-13               -1.1e-12              5.6496e-10           
  -1                    -5.805e-10            4e-13                 -1.02e-12             5.8034e-10           
  -1.05                 -6.032e-10            4e-14                 -1.02e-12             6.0238e-10           
  -1.1                  -6.3208e-10           1.2e-13               -1.18e-12             6.2688e-10           
  -1.15                 -6.3254e-10           4.4e-13               -1.1e-12              6.3178e-10           
  -1.2                  -6.6112e-10           2.6e-13               -1.04e-12             6.6448e-10           
  -1.25                 -6.7254e-10           5e-13                 -1.08e-12             6.7182e-10           
  -1.3                  -6.8486e-10           4.4e-13               -1.04e-12             6.8522e-10           
  -1.35                 -7.0426e-10           1.8e-13               -1.02e-12             7.075e-10            
END_DB

BEGIN_DB
 ICCAP_VAR vg         -0.375         
 ICCAP_VAR vb         -0             
 ICCAP_VAR vs         -0             

 #vd                    id                    ig                    ib                    is                   
  -0                    1.3904e-10            -1.4e-13              -9.8e-13              -1.4472e-10          
  -0.05                 -5.9938e-08           -1.8e-13              -1.08e-12             6.0446e-08           
  -0.1                  -7.9536e-08           -4e-14                -1.08e-12             7.914e-08            
  -0.15                 -8.6722e-08           1e-13                 -1.06e-12             8.6762e-08           
  -0.2                  -9.2388e-08           1.2e-13               -1.04e-12             9.2846e-08           
  -0.25                 -9.7536e-08           8e-14                 -9.8e-13              9.7862e-08           
  -0.3                  -1.02216e-07          1.6e-13               -1.08e-12             1.02766e-07          
  -0.35                 -1.07532e-07          2.2e-13               -1.04e-12             1.07674e-07          
  -0.4                  -1.1184e-07           -1.2e-13              -1.06e-12             1.11758e-07          
  -0.45                 -1.1604e-07           -1.2e-13              -1.02e-12             1.1656e-07           
  -0.5                  -1.2064e-07           0                     -9.8e-13              1.1972e-07           
  -0.55                 -1.2386e-07           -3.2e-13              -1.08e-12             1.2498e-07           
  -0.6                  -1.2844e-07           -3.4e-13              -1e-12                1.286e-07            
  -0.65                 -1.3228e-07           -4e-14                -1.1e-12              1.337e-07            
  -0.7                  -1.3814e-07           -4e-14                -1.2e-12              1.381e-07            
  -0.75                 -1.4166e-07           1.4e-13               -1.14e-12             1.422e-07            
  -0.8                  -1.4566e-07           1e-13                 -1.1e-12              1.4524e-07           
  -0.85                 -1.4874e-07           -2e-14                -1.04e-12             1.497e-07            
  -0.9                  -1.5466e-07           2.2e-13               -1.02e-12             1.5506e-07           
  -0.95                 -1.5934e-07           2.6e-13               -1.06e-12             1.5772e-07           
  -1                    -1.6188e-07           1.4e-13               -9.8e-13              1.617e-07            
  -1.05                 -1.6682e-07           4e-14                 -9.4e-13              1.6724e-07           
  -1.1                  -1.7112e-07           6e-14                 -9.6e-13              1.6998e-07           
  -1.15                 -1.7488e-07           4e-13                 -1.02e-12             1.7548e-07           
  -1.2                  -1.7858e-07           1.6e-13               -1e-12                1.797e-07            
  -1.25                 -1.8374e-07           -2e-14                -8.2e-13              1.8384e-07           
  -1.3                  -1.8816e-07           0                     -6e-13                1.8798e-07           
  -1.35                 -1.9208e-07           4.4e-13               -3.8e-13              1.9238e-07           
END_DB

BEGIN_DB
 ICCAP_VAR vg         -0.575         
 ICCAP_VAR vb         -0             
 ICCAP_VAR vs         -0             

 #vd                    id                    ig                    ib                    is                   
  -0                    1.5962e-09            -3.2e-13              -9e-13                -1.4362e-09          
  -0.05                 -9.6576e-07           -1.4e-13              -8.4e-13              9.6742e-07           
  -0.1                  -1.571e-06            -2.6e-13              -8.4e-13              1.5714e-06           
  -0.15                 -1.9294e-06           -4e-14                -9.4e-13              1.9338e-06           
  -0.2                  -2.1444e-06           -1e-13                -1.06e-12             2.1484e-06           
  -0.25                 -2.2884e-06           4e-14                 -9.8e-13              2.2994e-06           
  -0.3                  -2.4142e-06           0                     -1e-12                2.4098e-06           
  -0.35                 -2.5038e-06           -1.2e-13              -9e-13                2.5118e-06           
  -0.4                  -2.593e-06            -2e-13                -8.8e-13              2.599e-06            
  -0.45                 -2.6652e-06           -6e-14                -9e-13                2.6788e-06           
  -0.5                  -2.7488e-06           -2e-14                -1.02e-12             2.7436e-06           
  -0.55                 -2.8128e-06           4e-14                 -9.6e-13              2.8194e-06           
  -0.6                  -2.8842e-06           -8e-14                -8.8e-13              2.8866e-06           
  -0.65                 -2.9538e-06           -1.2e-13              -9.6e-13              2.9468e-06           
  -0.7                  -3.0126e-06           -6e-14                -1.04e-12             3.0124e-06           
  -0.75                 -3.0652e-06           1.8e-13               -9.8e-13              3.0684e-06           
  -0.8                  -3.1224e-06           -1.2e-13              -9.4e-13              3.1318e-06           
  -0.85                 -3.1932e-06           -2.2e-13              -9.8e-13              3.198e-06            
  -0.9                  -3.2546e-06           -4e-14                -1.04e-12             3.26e-06             
  -0.95                 -3.313e-06            -2e-14                -9.8e-13              3.3194e-06           
  -1                    -3.3756e-06           -2.4e-13              -9.6e-13              3.3834e-06           
  -1.05                 -3.4164e-06           0                     -9e-13                3.4214e-06           
  -1.1                  -3.466e-06            2.8e-13               -9.4e-13              3.4788e-06           
  -1.15                 -3.5222e-06           0                     -9.2e-13              3.5242e-06           
  -1.2                  -3.5804e-06           -4e-14                -7.6e-13              3.5738e-06           
  -1.25                 -3.631e-06            -8e-14                -5.2e-13              3.642e-06            
  -1.3                  -3.6862e-06           -4e-14                -4e-14                3.6944e-06           
  -1.35                 -3.7262e-06           0                     9.2e-13               3.7346e-06           
END_DB

