! VERSION = 6.00
BEGIN_HEADER
 ICCAP_INPUTS
  vd         V  D GROUND SMU1 0.1 LIN        1    -0         -1.35      28   -0.05     
  vg         V  G GROUND SMU2 0.001 LIN        2    -0.406     -1.35      5    -0.236    
  vb         V  B GROUND SMU4 0.1 CON        -0
  vs         V  S GROUND SMU3 0.1 CON        -0
 ICCAP_OUTPUTS
  id         I  D GROUND SMU1 B
  ig         I  G GROUND SMU2 B
  ib         I  B GROUND SMU4 B
  is         I  S GROUND SMU3 B
 ICCAP_VALUES
  MASTER_SETUP_TYPE "~dc_idvd~"
  LINVT_VALUE "|idvg|100.0n|100.0m|1.000m|5|1.350|"
  LISTVT_VALUE ""
  TYPE "-1"
  TEMP " 27.0000 "
  IS_TNOM " 1.00000 "
  MAIN.W "150.0n"
  MAIN.L "10.00u"
  MAIN.AD "100.5f"
  MAIN.AS "100.5f"
  MAIN.PD "1.340u"
  MAIN.PS "1.340u"
  MAIN.NF "1.000"
  MAIN.M "1"
  MAIN.NRD "0.000"
  MAIN.NRS "0.000"
  MAIN.LDRIFT1 "1E-06"
  MAIN.LDRIFT2 "1E-06"
  MAIN.SA "0.000"
  MAIN.SB "0.000"
  MAIN.SD "0.000"
  MAIN.SCA "0.000"
  MAIN.SCB "0.000"
  MAIN.SCC "0.000"
  MAIN.SC "0.000"
  MODULE "S555"
  PIN_D "16"
  PIN_G "5"
  PIN_S "6"
  PIN_B "15"
  PIN_E ""
  PIN_6 ""
  XY_ID ""
  FUNC "Narrow"
  STI "SA ref"
  WPE "WPE ref"
  COMMENT ""
  DIS_MEAS ""
  TypeTCI "10"
END_HEADER

BEGIN_DB
 ICCAP_VAR vg         -0.406         
 ICCAP_VAR vb         -0             
 ICCAP_VAR vs         -0             

 #vd                    id                    ig                    ib                    is                   
  -0                    9.44e-12              -1e-12                -3.38e-12             -1.054e-11           
  -0.05                 -6.6662e-09           -8e-13                -3.2e-12              6.6676e-09           
  -0.1                  -9.5122e-09           -6.8e-13              -3.2e-12              9.512e-09            
  -0.15                 -1.0335e-08           -5e-13                -3.16e-12             1.03336e-08          
  -0.2                  -1.05462e-08          -5.4e-13              -3.04e-12             1.05472e-08          
  -0.25                 -1.0637e-08           -5.6e-13              -3.12e-12             1.0635e-08           
  -0.3                  -1.06956e-08          -6e-13                -3.06e-12             1.06936e-08          
  -0.35                 -1.07422e-08          -6.6e-13              -2.92e-12             1.07434e-08          
  -0.4                  -1.07852e-08          -5e-13                -2.92e-12             1.07828e-08          
  -0.45                 -1.08196e-08          -5.2e-13              -2.86e-12             1.08162e-08          
  -0.5                  -1.08504e-08          -5.2e-13              -2.84e-12             1.08498e-08          
  -0.55                 -1.08866e-08          -6.2e-13              -2.8e-12              1.08856e-08          
  -0.6                  -1.09132e-08          -5.8e-13              -2.88e-12             1.09126e-08          
  -0.65                 -1.09388e-08          -5.6e-13              -2.64e-12             1.09358e-08          
  -0.7                  -1.095e-08            -5.4e-13              -2.78e-12             1.09598e-08          
  -0.75                 -1.0968e-08           -4.2e-13              -2.76e-12             1.0981e-08           
  -0.8                  -1.099e-08            -4.2e-13              -2.72e-12             1.10008e-08          
  -0.85                 -1.1008e-08           -4e-13                -2.66e-12             1.10202e-08          
  -0.9                  -1.1024e-08           -3.6e-13              -2.56e-12             1.10366e-08          
  -0.95                 -1.1044e-08           -6e-13                -2.62e-12             1.10556e-08          
  -1                    -1.106e-08            -6.2e-13              -2.48e-12             1.107e-08            
  -1.05                 -1.1072e-08           -3.6e-13              -2.54e-12             1.10826e-08          
  -1.1                  -1.1088e-08           -4.6e-13              -2.52e-12             1.10998e-08          
  -1.15                 -1.1102e-08           -4.6e-13              -2.48e-12             1.1109e-08           
  -1.2                  -1.111e-08            -4.4e-13              -2.46e-12             1.11234e-08          
  -1.25                 -1.1126e-08           -4e-13                -2.4e-12              1.1138e-08           
  -1.3                  -1.1138e-08           -2.6e-13              -2.34e-12             1.1148e-08           
  -1.35                 -1.1146e-08           -5.4e-13              -2.48e-12             1.1159e-08           
END_DB

BEGIN_DB
 ICCAP_VAR vg         -0.642         
 ICCAP_VAR vb         -0             
 ICCAP_VAR vs         -0             

 #vd                    id                    ig                    ib                    is                   
  -0                    4.3e-11               -7.54e-12             -2.48e-12             -3.354e-11           
  -0.05                 -2.8246e-08           -6.56e-12             -2.34e-12             2.8278e-08           
  -0.1                  -5.0714e-08           -5.58e-12             -2.2e-12              5.0742e-08           
  -0.15                 -6.7392e-08           -5.02e-12             -2.22e-12             6.7426e-08           
  -0.2                  -7.8474e-08           -4.48e-12             -2.26e-12             7.8518e-08           
  -0.25                 -8.453e-08            -4.22e-12             -2.1e-12              8.456e-08            
  -0.3                  -8.6954e-08           -4.28e-12             -2.24e-12             8.7002e-08           
  -0.35                 -8.784e-08            -4.04e-12             -2.16e-12             8.7894e-08           
  -0.4                  -8.8282e-08           -3.98e-12             -2.14e-12             8.8302e-08           
  -0.45                 -8.8562e-08           -4.1e-12              -2.14e-12             8.8604e-08           
  -0.5                  -8.8806e-08           -4e-12                -2.16e-12             8.8852e-08           
  -0.55                 -8.9044e-08           -4.2e-12              -2.08e-12             8.907e-08            
  -0.6                  -8.9212e-08           -3.96e-12             -2.08e-12             8.9252e-08           
  -0.65                 -8.938e-08            -4.06e-12             -2.1e-12              8.9416e-08           
  -0.7                  -8.9528e-08           -4.04e-12             -2.02e-12             8.9576e-08           
  -0.75                 -8.9652e-08           -3.94e-12             -1.98e-12             8.9718e-08           
  -0.8                  -8.9804e-08           -4.04e-12             -1.92e-12             8.9832e-08           
  -0.85                 -8.9938e-08           -3.92e-12             -2.02e-12             8.9978e-08           
  -0.9                  -9.0068e-08           -3.98e-12             -1.96e-12             9.0096e-08           
  -0.95                 -9.0166e-08           -4.04e-12             -1.98e-12             9.0222e-08           
  -1                    -9.0278e-08           -3.96e-12             -1.86e-12             9.0294e-08           
  -1.05                 -9.0372e-08           -4e-12                -1.9e-12              9.041e-08            
  -1.1                  -9.046e-08            -4.02e-12             -2.08e-12             9.0502e-08           
  -1.15                 -9.0546e-08           -3.84e-12             -1.98e-12             9.0584e-08           
  -1.2                  -9.0626e-08           -3.88e-12             -1.92e-12             9.065e-08            
  -1.25                 -9.0702e-08           -3.82e-12             -1.96e-12             9.0754e-08           
  -1.3                  -9.0798e-08           -3.9e-12              -1.88e-12             9.0842e-08           
  -1.35                 -9.085e-08            -3.92e-12             -1.86e-12             9.0902e-08           
END_DB

BEGIN_DB
 ICCAP_VAR vg         -0.878         
 ICCAP_VAR vb         -0             
 ICCAP_VAR vs         -0             

 #vd                    id                    ig                    ib                    is                   
  -0                    7.356e-11             -2.972e-11            -1.9e-12              -4.608e-11           
  -0.05                 -4.9584e-08           -2.634e-11            -1.98e-12             4.9634e-08           
  -0.1                  -9.3876e-08           -2.358e-11            -1.88e-12             9.3972e-08           
  -0.15                 -1.3266e-07           -2.122e-11            -1.74e-12             1.329e-07            
  -0.2                  -1.6594e-07           -1.922e-11            -1.74e-12             1.6616e-07           
  -0.25                 -1.9354e-07           -1.786e-11            -1.76e-12             1.9378e-07           
  -0.3                  -2.155e-07            -1.654e-11            -1.7e-12              2.1568e-07           
  -0.35                 -2.3168e-07           -1.584e-11            -1.72e-12             2.3194e-07           
  -0.4                  -2.4232e-07           -1.508e-11            -1.82e-12             2.4254e-07           
  -0.45                 -2.4808e-07           -1.48e-11             -1.64e-12             2.483e-07            
  -0.5                  -2.5062e-07           -1.468e-11            -1.68e-12             2.5086e-07           
  -0.55                 -2.5176e-07           -1.468e-11            -1.62e-12             2.5204e-07           
  -0.6                  -2.5252e-07           -1.454e-11            -1.52e-12             2.5272e-07           
  -0.65                 -2.5304e-07           -1.454e-11            -1.6e-12              2.5332e-07           
  -0.7                  -2.535e-07            -1.448e-11            -1.72e-12             2.5372e-07           
  -0.75                 -2.5384e-07           -1.448e-11            -1.64e-12             2.5406e-07           
  -0.8                  -2.5424e-07           -1.45e-11             -1.68e-12             2.5446e-07           
  -0.85                 -2.5454e-07           -1.448e-11            -1.66e-12             2.5472e-07           
  -0.9                  -2.5478e-07           -1.452e-11            -1.64e-12             2.55e-07             
  -0.95                 -2.551e-07            -1.454e-11            -1.78e-12             2.5532e-07           
  -1                    -2.5524e-07           -1.44e-11             -1.64e-12             2.5554e-07           
  -1.05                 -2.5552e-07           -1.434e-11            -1.64e-12             2.557e-07            
  -1.1                  -2.5576e-07           -1.438e-11            -1.56e-12             2.5598e-07           
  -1.15                 -2.5604e-07           -1.436e-11            -1.52e-12             2.5626e-07           
  -1.2                  -2.5624e-07           -1.426e-11            -1.5e-12              2.5646e-07           
  -1.25                 -2.5638e-07           -1.438e-11            -1.54e-12             2.5654e-07           
  -1.3                  -2.5656e-07           -1.43e-11             -1.54e-12             2.568e-07            
  -1.35                 -2.5676e-07           -1.444e-11            -1.64e-12             2.57e-07             
END_DB

BEGIN_DB
 ICCAP_VAR vg         -1.114         
 ICCAP_VAR vb         -0             
 ICCAP_VAR vs         -0             

 #vd                    id                    ig                    ib                    is                   
  -0                    1.1614e-10            -8.074e-11            -1.48e-12             -3.624e-11           
  -0.05                 -6.7398e-08           -7.366e-11            -1.46e-12             6.7494e-08           
  -0.1                  -1.3026e-07           -6.754e-11            -1.58e-12             1.3052e-07           
  -0.15                 -1.8852e-07           -6.206e-11            -1.46e-12             1.8886e-07           
  -0.2                  -2.4202e-07           -5.708e-11            -1.34e-12             2.4232e-07           
  -0.25                 -2.9044e-07           -5.306e-11            -1.44e-12             2.9082e-07           
  -0.3                  -3.3386e-07           -4.962e-11            -1.46e-12             3.3416e-07           
  -0.35                 -3.7178e-07           -4.662e-11            -1.38e-12             3.7214e-07           
  -0.4                  -4.0456e-07           -4.408e-11            -1.42e-12             4.049e-07            
  -0.45                 -4.317e-07            -4.212e-11            -1.46e-12             4.3204e-07           
  -0.5                  -4.5336e-07           -4.046e-11            -1.48e-12             4.5372e-07           
  -0.55                 -4.6952e-07           -3.928e-11            -1.38e-12             4.6992e-07           
  -0.6                  -4.8022e-07           -3.858e-11            -1.42e-12             4.805e-07            
  -0.65                 -4.86e-07             -3.822e-11            -1.42e-12             4.8626e-07           
  -0.7                  -4.8888e-07           -3.796e-11            -1.4e-12              4.8896e-07           
  -0.75                 -4.903e-07            -3.788e-11            -1.46e-12             4.9072e-07           
  -0.8                  -4.9138e-07           -3.78e-11             -1.44e-12             4.9148e-07           
  -0.85                 -4.9218e-07           -3.778e-11            -1.32e-12             4.9248e-07           
  -0.9                  -4.9262e-07           -3.78e-11             -1.18e-12             4.93e-07             
  -0.95                 -4.9312e-07           -3.774e-11            -1.26e-12             4.9354e-07           
  -1                    -4.9372e-07           -3.768e-11            -1.32e-12             4.9416e-07           
  -1.05                 -4.9436e-07           -3.738e-11            -1.26e-12             4.9458e-07           
  -1.1                  -4.9492e-07           -3.76e-11             -1.32e-12             4.9506e-07           
  -1.15                 -4.9514e-07           -3.74e-11             -1.34e-12             4.954e-07            
  -1.2                  -4.9552e-07           -3.742e-11            -1.28e-12             4.958e-07            
  -1.25                 -4.9598e-07           -3.754e-11            -1.3e-12              4.9626e-07           
  -1.3                  -4.9622e-07           -3.738e-11            -1.24e-12             4.9642e-07           
  -1.35                 -4.9646e-07           -3.748e-11            -1.24e-12             4.9674e-07           
END_DB

BEGIN_DB
 ICCAP_VAR vg         -1.35          
 ICCAP_VAR vb         -0             
 ICCAP_VAR vs         -0             

 #vd                    id                    ig                    ib                    is                   
  -0                    1.834e-10             -1.7894e-10           -6e-14                -6.98e-12            
  -0.05                 -8.1462e-08           -1.6618e-10           -4.8e-13              8.166e-08            
  -0.1                  -1.5928e-07           -1.547e-10            -7e-13                1.5964e-07           
  -0.15                 -2.3316e-07           -1.4412e-10           -5.6e-13              2.3358e-07           
  -0.2                  -3.0306e-07           -1.3462e-10           -7.6e-13              3.0356e-07           
  -0.25                 -3.6902e-07           -1.2626e-10           -1e-12                3.6938e-07           
  -0.3                  -4.3038e-07           -1.1848e-10           -9.4e-13              4.3092e-07           
  -0.35                 -4.8744e-07           -1.1182e-10           -9.6e-13              4.8784e-07           
  -0.4                  -5.3992e-07           -1.057e-10            -9.6e-13              5.4052e-07           
  -0.45                 -5.8762e-07           -1.006e-10            -9.4e-13              5.8798e-07           
  -0.5                  -6.3012e-07           -9.624e-11            -9.4e-13              6.307e-07            
  -0.55                 -6.6788e-07           -9.216e-11            -9.8e-13              6.6818e-07           
  -0.6                  -6.9998e-07           -8.862e-11            -8.4e-13              7.0024e-07           
  -0.65                 -7.2702e-07           -8.624e-11            -1.06e-12             7.2748e-07           
  -0.7                  -7.4872e-07           -8.416e-11            -1e-12                7.4922e-07           
  -0.75                 -7.651e-07            -8.262e-11            -9.4e-13              7.6556e-07           
  -0.8                  -7.7606e-07           -8.136e-11            -9.6e-13              7.7652e-07           
  -0.85                 -7.822e-07            -8.072e-11            -1e-12                7.826e-07            
  -0.9                  -7.8562e-07           -8.056e-11            -8.8e-13              7.8616e-07           
  -0.95                 -7.8746e-07           -8.028e-11            -8.4e-13              7.8792e-07           
  -1                    -7.8906e-07           -8.022e-11            -9.2e-13              7.8938e-07           
  -1.05                 -7.899e-07            -8.012e-11            -1.12e-12             7.9032e-07           
  -1.1                  -7.9088e-07           -8.008e-11            -1.02e-12             7.9102e-07           
  -1.15                 -7.9142e-07           -7.98e-11             -8.8e-13              7.9194e-07           
  -1.2                  -7.9214e-07           -8.014e-11            -9.8e-13              7.9254e-07           
  -1.25                 -7.9276e-07           -7.998e-11            -9.8e-13              7.9304e-07           
  -1.3                  -7.9326e-07           -7.974e-11            -9.2e-13              7.9354e-07           
  -1.35                 -7.9378e-07           -7.972e-11            -8.4e-13              7.9426e-07           
END_DB

