! VERSION = 6.00
BEGIN_HEADER
 ICCAP_INPUTS
  vd         V  D GROUND SMU1 0.1 LIN        1    -0         -1.35      28   -0.05     
  vg         V  G GROUND SMU2 0.001 LIST       2 3 -0.275 -0.475 -0.675
  vb         V  B GROUND SMU4 0.1 CON        1.2
  vs         V  S GROUND SMU3 0.1 CON        -0
 ICCAP_OUTPUTS
  id         I  D GROUND SMU1 B
  ig         I  G GROUND SMU2 B
  ib         I  B GROUND SMU4 B
  is         I  S GROUND SMU3 B
 ICCAP_VALUES
  MASTER_SETUP_TYPE "~dc_idvd~"
  LINVT_VALUE ""
  LISTVT_VALUE "|idvg|100.0n|-200.0m|1.000m|3|200.0m|200.0m|"
  TYPE "-1"
  TEMP " 27.0000 "
  IS_TNOM " 1.00000 "
  MAIN.W "180.0n"
  MAIN.L "10.00u"
  MAIN.AD "102.6f"
  MAIN.AS "102.6f"
  MAIN.PD "1.340u"
  MAIN.PS "1.340u"
  MAIN.NF "1.000"
  MAIN.M "1"
  MAIN.NRD "0.000"
  MAIN.NRS "0.000"
  MAIN.LDRIFT1 "1E-06"
  MAIN.LDRIFT2 "1E-06"
  MAIN.SA "0.000"
  MAIN.SB "0.000"
  MAIN.SD "0.000"
  MAIN.SCA "0.000"
  MAIN.SCB "0.000"
  MAIN.SCC "0.000"
  MAIN.SC "0.000"
  MODULE "S554"
  PIN_D "20"
  PIN_G "1"
  PIN_S "2"
  PIN_B "19"
  PIN_E ""
  PIN_6 ""
  XY_ID ""
  FUNC "W Scale"
  STI "SA ref"
  WPE "WPE ref"
  COMMENT ""
  DIS_MEAS ""
  TypeTCI "10"
END_HEADER

BEGIN_DB
 ICCAP_VAR vg         -0.275         
 ICCAP_VAR vb         1.2            
 ICCAP_VAR vs         -0             

 #vd                    id                    ig                    ib                    is                   
  -0                    2.4e-13               4e-14                 2.8e-13               1.2e-13              
  -0.05                 -3.36e-12             -8e-14                1.6e-13               3.44e-12             
  -0.1                  -4.1e-12              6e-14                 1.6e-13               3.84e-12             
  -0.15                 -4.1e-12              0                     2e-14                 4.02e-12             
  -0.2                  -4.3e-12              2e-14                 2.2e-13               3.9e-12              
  -0.25                 -4.24e-12             -2e-14                -8e-14                4.18e-12             
  -0.3                  -4.46e-12             2e-14                 1.4e-13               3.94e-12             
  -0.35                 -4.3e-12              -4e-14                6e-14                 4.02e-12             
  -0.4                  -4.42e-12             6e-14                 4e-14                 4.1e-12              
  -0.45                 -4.56e-12             1.2e-13               -2e-14                4e-12                
  -0.5                  -4.44e-12             -2e-14                6e-14                 4.12e-12             
  -0.55                 -4.64e-12             -4e-14                8e-14                 4.02e-12             
  -0.6                  -4.66e-12             -6e-14                1.4e-13               4.04e-12             
  -0.65                 -4.64e-12             -2e-14                8e-14                 4.06e-12             
  -0.7                  -4.66e-12             2e-14                 4e-14                 4.08e-12             
  -0.75                 -4.72e-12             2e-14                 8e-14                 4.02e-12             
  -0.8                  -4.66e-12             -6e-14                0                     3.98e-12             
  -0.85                 -4.66e-12             0                     -6e-14                4.12e-12             
  -0.9                  -4.74e-12             -6e-14                2e-14                 3.96e-12             
  -0.95                 -4.74e-12             -2e-14                1e-13                 3.98e-12             
  -1                    -4.86e-12             -4e-14                4e-14                 4.08e-12             
  -1.05                 -4.72e-12             -6e-14                6e-14                 4.02e-12             
  -1.1                  -4.76e-12             -6e-14                0                     4.02e-12             
  -1.15                 -4.8e-12              -4e-14                4e-14                 4.04e-12             
  -1.2                  -4.74e-12             2e-14                 -4e-14                4.1e-12              
  -1.25                 -4.86e-12             0                     2e-14                 4.02e-12             
  -1.3                  -4.94e-12             -2e-14                -8e-14                4.04e-12             
  -1.35                 -4.88e-12             2e-14                 4e-14                 4.04e-12             
END_DB

BEGIN_DB
 ICCAP_VAR vg         -0.475         
 ICCAP_VAR vb         1.2            
 ICCAP_VAR vs         -0             

 #vd                    id                    ig                    ib                    is                   
  -0                    5.82e-12              -1.62e-12             8e-14                 -3.62e-12            
  -0.05                 -1.5326e-09           -1.02e-12             -1.4e-13              1.5352e-09           
  -0.1                  -1.9106e-09           -8e-13                4e-14                 1.9136e-09           
  -0.15                 -1.984e-09            -7.8e-13              0                     1.9856e-09           
  -0.2                  -1.9978e-09           -8.8e-13              2e-14                 2.0004e-09           
  -0.25                 -2.0022e-09           -7.8e-13              -8e-14                2.0054e-09           
  -0.3                  -2.0076e-09           -8.6e-13              0                     2.0094e-09           
  -0.35                 -2.0106e-09           -7.8e-13              0                     2.0134e-09           
  -0.4                  -2.014e-09            -7.4e-13              -6e-14                2.015e-09            
  -0.45                 -2.0142e-09           -7.2e-13              -2e-14                2.016e-09            
  -0.5                  -2.0178e-09           -7.4e-13              -1.8e-13              2.019e-09            
  -0.55                 -2.0196e-09           -7.8e-13              6e-14                 2.0214e-09           
  -0.6                  -2.0222e-09           -8.2e-13              -1.4e-13              2.0236e-09           
  -0.65                 -2.0244e-09           -7.4e-13              1e-13                 2.0258e-09           
  -0.7                  -2.0246e-09           -7e-13                -2e-13                2.0258e-09           
  -0.75                 -2.0256e-09           -8e-13                4e-14                 2.026e-09            
  -0.8                  -2.0262e-09           -7.2e-13              -8e-14                2.0276e-09           
  -0.85                 -2.028e-09            -7.6e-13              6e-14                 2.0288e-09           
  -0.9                  -2.0276e-09           -8e-13                4e-14                 2.0282e-09           
  -0.95                 -2.029e-09            -8e-13                -4e-14                2.0294e-09           
  -1                    -2.03e-09             -6.2e-13              0                     2.0312e-09           
  -1.05                 -2.0312e-09           -8e-13                0                     2.0308e-09           
  -1.1                  -2.0318e-09           -7e-13                0                     2.0326e-09           
  -1.15                 -2.0326e-09           -7.2e-13              0                     2.0328e-09           
  -1.2                  -2.033e-09            -7.8e-13              -1e-13                2.0346e-09           
  -1.25                 -2.0336e-09           -7.6e-13              2e-14                 2.0332e-09           
  -1.3                  -2.0342e-09           -7.2e-13              -2.2e-13              2.0354e-09           
  -1.35                 -2.0352e-09           -7.6e-13              -2e-14                2.036e-09            
END_DB

BEGIN_DB
 ICCAP_VAR vg         -0.675         
 ICCAP_VAR vb         1.2            
 ICCAP_VAR vs         -0             

 #vd                    id                    ig                    ib                    is                   
  -0                    3.534e-11             -1.036e-11            0                     -2.494e-11           
  -0.05                 -1.5582e-08           -8.62e-12             -4e-14                1.5612e-08           
  -0.1                  -2.6168e-08           -7.36e-12             -4e-14                2.6202e-08           
  -0.15                 -3.2338e-08           -6.56e-12             -1.8e-13              3.2366e-08           
  -0.2                  -3.5126e-08           -6e-12                -8e-14                3.5156e-08           
  -0.25                 -3.6042e-08           -5.8e-12              2e-14                 3.6082e-08           
  -0.3                  -3.6304e-08           -5.74e-12             -2e-14                3.636e-08            
  -0.35                 -3.6432e-08           -5.78e-12             -8e-14                3.6462e-08           
  -0.4                  -3.6506e-08           -5.62e-12             -6e-14                3.653e-08            
  -0.45                 -3.655e-08            -5.68e-12             -2e-14                3.6582e-08           
  -0.5                  -3.6594e-08           -5.68e-12             6e-14                 3.6628e-08           
  -0.55                 -3.6638e-08           -5.5e-12              8e-14                 3.6658e-08           
  -0.6                  -3.6658e-08           -5.64e-12             2e-14                 3.6694e-08           
  -0.65                 -3.6688e-08           -5.66e-12             0                     3.6714e-08           
  -0.7                  -3.6692e-08           -5.58e-12             6e-14                 3.6746e-08           
  -0.75                 -3.6742e-08           -5.62e-12             -2e-14                3.6772e-08           
  -0.8                  -3.6776e-08           -5.58e-12             6e-14                 3.6808e-08           
  -0.85                 -3.6786e-08           -5.66e-12             -1.8e-13              3.6812e-08           
  -0.9                  -3.6818e-08           -5.48e-12             -4e-14                3.6842e-08           
  -0.95                 -3.6828e-08           -5.58e-12             -4e-14                3.6858e-08           
  -1                    -3.6854e-08           -5.58e-12             0                     3.6892e-08           
  -1.05                 -3.6874e-08           -5.52e-12             -4e-14                3.6904e-08           
  -1.1                  -3.6888e-08           -5.54e-12             0                     3.6912e-08           
  -1.15                 -3.6896e-08           -5.54e-12             0                     3.6928e-08           
  -1.2                  -3.6908e-08           -5.56e-12             1.2e-13               3.695e-08            
  -1.25                 -3.6928e-08           -5.54e-12             4e-14                 3.6956e-08           
  -1.3                  -3.6934e-08           -5.5e-12              0                     3.6964e-08           
  -1.35                 -3.694e-08            -5.6e-12              -2e-14                3.697e-08            
END_DB

