! VERSION = 6.00
BEGIN_HEADER
 ICCAP_INPUTS
  vd         V  D GROUND SMU1 0.1 LIN        1    -0         -1.35      28   -0.05     
  vg         V  G GROUND SMU2 0.001 LIN        2    -0.678     -1.35      5    -0.168    
  vb         V  B GROUND SMU4 0.1 CON        1.2
  vs         V  S GROUND SMU3 0.1 CON        -0
 ICCAP_OUTPUTS
  id         I  D GROUND SMU1 B
  ig         I  G GROUND SMU2 B
  ib         I  B GROUND SMU4 B
  is         I  S GROUND SMU3 B
 ICCAP_VALUES
  MASTER_SETUP_TYPE "~dc_idvd~"
  LINVT_VALUE "|idvg|100.0n|100.0m|1.000m|5|1.350|"
  LISTVT_VALUE ""
  TYPE "-1"
  TEMP "-40.0000 "
  IS_TNOM " 0.00000 "
  MAIN.W "10.00u"
  MAIN.L "130.0n"
  MAIN.AD "3.400p"
  MAIN.AS "3.400p"
  MAIN.PD "20.68u"
  MAIN.PS "20.68u"
  MAIN.NF "1.000"
  MAIN.M "1"
  MAIN.NRD "0.000"
  MAIN.NRS "0.000"
  MAIN.LDRIFT1 "1E-06"
  MAIN.LDRIFT2 "1E-06"
  MAIN.SA "0.000"
  MAIN.SB "0.000"
  MAIN.SD "0.000"
  MAIN.SCA "0.000"
  MAIN.SCB "0.000"
  MAIN.SCC "0.000"
  MAIN.SC "0.000"
  MODULE "S548"
  PIN_D "18"
  PIN_G "3"
  PIN_S "4"
  PIN_B "17"
  PIN_E ""
  PIN_6 ""
  XY_ID ""
  FUNC "Short"
  STI "SA ref"
  WPE "WPE ref"
  COMMENT ""
  DIS_MEAS ""
  TypeTCI "10"
END_HEADER

BEGIN_DB
 ICCAP_VAR vg         -0.678         
 ICCAP_VAR vb         1.2            
 ICCAP_VAR vs         -0             

 #vd                    id                    ig                    ib                    is                   
  -0                    3.5504e-08            -1.304e-11            4.2e-13               -3.906e-08           
  -0.05                 -1.8802e-05           -1.134e-11            3.4e-13               1.881e-05            
  -0.1                  -2.8606e-05           -1.004e-11            4e-13                 2.8628e-05           
  -0.15                 -3.4338e-05           -9.24e-12             3.2e-13               3.434e-05            
  -0.2                  -3.8418e-05           -8.6e-12              3.4e-13               3.844e-05            
  -0.25                 -4.1828e-05           -8.32e-12             3.8e-13               4.1862e-05           
  -0.3                  -4.496e-05            -8.02e-12             3.2e-13               4.4982e-05           
  -0.35                 -4.792e-05            -7.86e-12             3e-13                 4.7934e-05           
  -0.4                  -5.0818e-05           -7.68e-12             2.6e-13               5.0852e-05           
  -0.45                 -5.3704e-05           -7.62e-12             2.6e-13               5.3756e-05           
  -0.5                  -5.6646e-05           -7.62e-12             2.8e-13               5.6648e-05           
  -0.55                 -5.9558e-05           -7.48e-12             2.8e-13               5.9616e-05           
  -0.6                  -6.246e-05            -7.46e-12             3.2e-13               6.2476e-05           
  -0.65                 -6.5452e-05           -7.46e-12             3e-13                 6.5434e-05           
  -0.7                  -6.8422e-05           -7.5e-12              1.8e-13               6.8446e-05           
  -0.75                 -7.1488e-05           -7.44e-12             1.6e-13               7.1498e-05           
  -0.8                  -7.4592e-05           -7.44e-12             2.4e-13               7.4656e-05           
  -0.85                 -7.777e-05            -7.34e-12             2.6e-13               7.779e-05            
  -0.9                  -8.1002e-05           -7.18e-12             3.4e-13               8.1e-05              
  -0.95                 -8.4268e-05           -7.04e-12             2.6e-13               8.4302e-05           
  -1                    -8.7652e-05           -6.96e-12             1.4e-13               8.7648e-05           
  -1.05                 -9.1074e-05           -6.64e-12             3.6e-13               9.1014e-05           
  -1.1                  -9.4474e-05           -6.52e-12             3e-13                 9.4456e-05           
  -1.15                 -9.8002e-05           -6.2e-12              5.2e-13               9.799e-05            
  -1.2                  -0.00010162           -5.88e-12             1.26e-12              0.000101692          
  -1.25                 -0.000105418          -5.6e-12              3.02e-12              0.00010539           
  -1.3                  -0.00010922           -5.06e-12             7.4e-12               0.000109238          
  -1.35                 -0.000113132          -4.6e-12              1.78e-11              0.000113148          
END_DB

BEGIN_DB
 ICCAP_VAR vg         -0.846         
 ICCAP_VAR vb         1.2            
 ICCAP_VAR vs         -0             

 #vd                    id                    ig                    ib                    is                   
  -0                    1.1493e-07            -3.492e-11            1.4e-13               -1.10866e-07         
  -0.05                 -7.4966e-05           -3.084e-11            1e-13                 7.4936e-05           
  -0.1                  -0.0001316            -2.764e-11            1.4e-13               0.00013196           
  -0.15                 -0.00017322           -2.516e-11            4e-14                 0.00017358           
  -0.2                  -0.00020352           -2.296e-11            1e-13                 0.00020386           
  -0.25                 -0.00022588           -2.162e-11            1.8e-13               0.00022634           
  -0.3                  -0.00024344           -2.066e-11            1.4e-13               0.00024362           
  -0.35                 -0.00025768           -1.996e-11            1.8e-13               0.00025824           
  -0.4                  -0.00027044           -1.938e-11            2e-13                 0.00027076           
  -0.45                 -0.00028166           -1.89e-11             1e-13                 0.0002822            
  -0.5                  -0.00029236           -1.854e-11            -2e-14                0.00029274           
  -0.55                 -0.00030248           -1.846e-11            -6e-14                0.00030282           
  -0.6                  -0.00031232           -1.816e-11            1.4e-13               0.0003126            
  -0.65                 -0.00032182           -1.798e-11            1.2e-13               0.00032196           
  -0.7                  -0.00033112           -1.788e-11            8e-14                 0.00033132           
  -0.75                 -0.00034036           -1.776e-11            4e-14                 0.00034046           
  -0.8                  -0.00034936           -1.752e-11            1.2e-13               0.00034972           
  -0.85                 -0.00035868           -1.752e-11            2e-14                 0.00035872           
  -0.9                  -0.00036762           -1.742e-11            1e-13                 0.00036786           
  -0.95                 -0.00037674           -1.738e-11            1.4e-13               0.00037696           
  -1                    -0.00038568           -1.722e-11            2e-14                 0.00038608           
  -1.05                 -0.00039502           -1.704e-11            1e-13                 0.00039518           
  -1.1                  -0.00040394           -1.684e-11            2e-13                 0.00040422           
  -1.15                 -0.00041306           -1.658e-11            4.2e-13               0.00041336           
  -1.2                  -0.0004223            -1.65e-11             8.8e-13               0.00042248           
  -1.25                 -0.00043128           -1.628e-11            2.3e-12               0.00043164           
  -1.3                  -0.00044074           -1.594e-11            6.12e-12              0.00044136           
  -1.35                 -0.0004505            -1.55e-11             1.554e-11             0.00045066           
END_DB

BEGIN_DB
 ICCAP_VAR vg         -1.014         
 ICCAP_VAR vb         1.2            
 ICCAP_VAR vs         -0             

 #vd                    id                    ig                    ib                    is                   
  -0                    3.8012e-07            -7.572e-11            6e-14                 -1.5272e-07          
  -0.05                 -0.00013406           -6.858e-11            6e-14                 0.00013442           
  -0.1                  -0.00025022           -6.244e-11            1e-13                 0.00025058           
  -0.15                 -0.00034812           -5.718e-11            1.4e-13               0.0003486            
  -0.2                  -0.00042932           -5.262e-11            6e-14                 0.00042968           
  -0.25                 -0.00049506           -4.896e-11            8e-14                 0.0004955            
  -0.3                  -0.00054802           -4.598e-11            8e-14                 0.00054846           
  -0.35                 -0.00059044           -4.356e-11            6e-14                 0.00059048           
  -0.4                  -0.0006249            -4.18e-11             0                     0.0006251            
  -0.45                 -0.00065386           -4.042e-11            1e-13                 0.00065408           
  -0.5                  -0.0006784            -3.914e-11            2e-13                 0.00067876           
  -0.55                 -0.00070086           -3.842e-11            4e-14                 0.00070114           
  -0.6                  -0.0007212            -3.784e-11            1e-13                 0.0007215            
  -0.65                 -0.00074008           -3.708e-11            1.4e-13               0.0007408            
  -0.7                  -0.00075826           -3.676e-11            2e-14                 0.00075864           
  -0.75                 -0.00077538           -3.644e-11            8e-14                 0.00077576           
  -0.8                  -0.0007921            -3.606e-11            1.2e-13               0.00079216           
  -0.85                 -0.00080748           -3.57e-11             -2e-14                0.00080792           
  -0.9                  -0.00082372           -3.558e-11            2e-14                 0.00082412           
  -0.95                 -0.00083944           -3.538e-11            -4e-14                0.0008399            
  -1                    -0.00085484           -3.502e-11            0                     0.00085506           
  -1.05                 -0.00087008           -3.496e-11            4e-14                 0.00087048           
  -1.1                  -0.00088492           -3.466e-11            8e-14                 0.00088496           
  -1.15                 -0.00089946           -3.452e-11            2.6e-13               0.00089978           
  -1.2                  -0.00091398           -3.434e-11            5.4e-13               0.00091436           
  -1.25                 -0.00092888           -3.404e-11            1.44e-12              0.00092882           
  -1.3                  -0.00094336           -3.378e-11            3.92e-12              0.00094398           
  -1.35                 -0.00095874           -3.36e-11             9.8e-12               0.00095888           
END_DB

BEGIN_DB
 ICCAP_VAR vg         -1.182         
 ICCAP_VAR vb         1.2            
 ICCAP_VAR vs         -0             

 #vd                    id                    ig                    ib                    is                   
  -0                    5.3636e-07            -1.4464e-10           0                     -1.9684e-07          
  -0.05                 -0.00018382           -1.3294e-10           1e-13                 0.0001842            
  -0.1                  -0.0003521            -1.2256e-10           8e-14                 0.00035238           
  -0.15                 -0.00050326           -1.1328e-10           4e-14                 0.00050364           
  -0.2                  -0.00063688           -1.0504e-10           1.6e-13               0.00063736           
  -0.25                 -0.00075348           -9.79e-11             8e-14                 0.00075384           
  -0.3                  -0.0008537            -9.19e-11             2e-13                 0.0008539            
  -0.35                 -0.00093816           -8.672e-11            1.8e-13               0.00093888           
  -0.4                  -0.00100958           -8.234e-11            6e-14                 0.00100992           
  -0.45                 -0.00106952           -7.898e-11            -2e-14                0.00107036           
  -0.5                  -0.00112098           -7.614e-11            1e-13                 0.00112144           
  -0.55                 -0.0011642            -7.384e-11            6e-14                 0.0011656            
  -0.6                  -0.0012018            -7.198e-11            8e-14                 0.0012034            
  -0.65                 -0.0012354            -7.022e-11            4e-14                 0.0012368            
  -0.7                  -0.0012652            -6.916e-11            6e-14                 0.0012672            
  -0.75                 -0.0012934            -6.824e-11            6e-14                 0.0012952            
  -0.8                  -0.0013198            -6.72e-11             -2e-14                0.0013206            
  -0.85                 -0.001345             -6.67e-11             -1e-13                0.0013468            
  -0.9                  -0.001369             -6.606e-11            4e-14                 0.0013704            
  -0.95                 -0.0013914            -6.544e-11            1.6e-13               0.0013934            
  -1                    -0.001414             -6.484e-11            8e-14                 0.0014158            
  -1.05                 -0.0014354            -6.426e-11            1.8e-13               0.001437             
  -1.1                  -0.0014566            -6.394e-11            2e-13                 0.0014584            
  -1.15                 -0.001478             -6.36e-11             4e-14                 0.0014796            
  -1.2                  -0.0014986            -6.328e-11            2.6e-13               0.0015               
  -1.25                 -0.0015186            -6.286e-11            1e-12                 0.0015202            
  -1.3                  -0.001539             -6.258e-11            2.4e-12               0.0015408            
  -1.35                 -0.0015586            -6.218e-11            5.92e-12              0.0015606            
END_DB

BEGIN_DB
 ICCAP_VAR vg         -1.35          
 ICCAP_VAR vb         1.2            
 ICCAP_VAR vs         -0             

 #vd                    id                    ig                    ib                    is                   
  -0                    5.8164e-07            -2.5394e-10           1.5e-12               -2.2622e-07          
  -0.05                 -0.000224             -2.359e-10            1.02e-12              0.00022434           
  -0.1                  -0.00043488           -2.1956e-10           7e-13                 0.00043514           
  -0.15                 -0.00063074           -2.0472e-10           5.8e-13               0.00063102           
  -0.2                  -0.0008106            -1.907e-10            5.4e-13               0.00081096           
  -0.25                 -0.00097362           -1.7882e-10           6e-13                 0.00097414           
  -0.3                  -0.00112056           -1.6788e-10           5e-13                 0.00112038           
  -0.35                 -0.001249             -1.5886e-10           3.4e-13               0.0012506            
  -0.4                  -0.0013634            -1.5072e-10           4.2e-13               0.0013646            
  -0.45                 -0.0014628            -1.4342e-10           4e-13                 0.0014638            
  -0.5                  -0.0015486            -1.3764e-10           4.2e-13               0.00155              
  -0.55                 -0.0016234            -1.326e-10            3.4e-13               0.0016258            
  -0.6                  -0.001688             -1.2854e-10           2e-13                 0.0016902            
  -0.65                 -0.0017456            -1.251e-10            3.2e-13               0.001748             
  -0.7                  -0.0017962            -1.2226e-10           3.6e-13               0.0017974            
  -0.75                 -0.0018404            -1.1946e-10           3.4e-13               0.0018414            
  -0.8                  -0.001881             -1.174e-10            2.6e-13               0.001882             
  -0.85                 -0.0019186            -1.1558e-10           3.6e-13               0.0019198            
  -0.9                  -0.0019532            -1.1424e-10           1.4e-13               0.001955             
  -0.95                 -0.0019856            -1.129e-10            1.4e-13               0.0019878            
  -1                    -0.0020174            -1.1178e-10           2.2e-13               0.002018             
  -1.05                 -0.0020462            -1.1082e-10           2.6e-13               0.0020472            
  -1.1                  -0.002075             -1.0994e-10           2.8e-13               0.002076             
  -1.15                 -0.0021018            -1.0918e-10           2.2e-13               0.0021034            
  -1.2                  -0.0021282            -1.0838e-10           4.4e-13               0.0021292            
  -1.25                 -0.002154             -1.0778e-10           6.4e-13               0.0021558            
  -1.3                  -0.0021796            -1.0716e-10           1.44e-12              0.0021816            
  -1.35                 -0.0022064            -1.0648e-10           3.62e-12              0.002207             
END_DB

