! VERSION = 6.00
BEGIN_HEADER
 ICCAP_INPUTS
  vd         V  D GROUND SMU1 0.1 LIN        1    -0         -1.35      28   -0.05     
  vg         V  G GROUND SMU2 0.001 LIN        2    -0.446     -1.35      5    -0.226    
  vb         V  B GROUND SMU4 0.1 CON        -0
  vs         V  S GROUND SMU3 0.1 CON        -0
 ICCAP_OUTPUTS
  id         I  D GROUND SMU1 B
  ig         I  G GROUND SMU2 B
  ib         I  B GROUND SMU4 B
  is         I  S GROUND SMU3 B
 ICCAP_VALUES
  MASTER_SETUP_TYPE "~dc_idvd~"
  LINVT_VALUE "|idvg|100.0n|100.0m|1.000m|5|1.350|"
  LISTVT_VALUE ""
  TYPE "-1"
  TEMP " 27.0000 "
  IS_TNOM " 1.00000 "
  MAIN.W "10.00u"
  MAIN.L "10.00u"
  MAIN.AD "3.400p"
  MAIN.AS "3.400p"
  MAIN.PD "20.68u"
  MAIN.PS "20.68u"
  MAIN.NF "1.000"
  MAIN.M "1"
  MAIN.NRD "0.000"
  MAIN.NRS "0.000"
  MAIN.LDRIFT1 "1E-06"
  MAIN.LDRIFT2 "1E-06"
  MAIN.SA "0.000"
  MAIN.SB "0.000"
  MAIN.SD "0.000"
  MAIN.SCA "0.000"
  MAIN.SCB "0.000"
  MAIN.SCC "0.000"
  MAIN.SC "0.000"
  MODULE "S549"
  PIN_D "12"
  PIN_G "9"
  PIN_S "10"
  PIN_B "11"
  PIN_E ""
  PIN_6 ""
  XY_ID ""
  FUNC "Large"
  STI "SA ref"
  WPE "WPE ref"
  COMMENT ""
  DIS_MEAS ""
  TypeTCI "10"
END_HEADER

BEGIN_DB
 ICCAP_VAR vg         -0.446         
 ICCAP_VAR vb         -0             
 ICCAP_VAR vs         -0             

 #vd                    id                    ig                    ib                    is                   
  -0                    7.3648e-10            -9.104e-11            -4.28e-12             -7.4524e-10          
  -0.05                 -3.911e-07            -6.91e-11             -4.16e-12             3.9136e-07           
  -0.1                  -5.7466e-07           -5.806e-11            -4.1e-12              5.75e-07             
  -0.15                 -6.342e-07            -5.39e-11             -4.04e-12             6.3452e-07           
  -0.2                  -6.4872e-07           -5.274e-11            -4e-12                6.49e-07             
  -0.25                 -6.5304e-07           -5.244e-11            -3.92e-12             6.5338e-07           
  -0.3                  -6.5542e-07           -5.214e-11            -3.94e-12             6.557e-07            
  -0.35                 -6.5714e-07           -5.196e-11            -3.84e-12             6.5748e-07           
  -0.4                  -6.5862e-07           -5.192e-11            -3.86e-12             6.589e-07            
  -0.45                 -6.599e-07            -5.182e-11            -3.76e-12             6.6026e-07           
  -0.5                  -6.6108e-07           -5.178e-11            -3.62e-12             6.6138e-07           
  -0.55                 -6.6214e-07           -5.168e-11            -3.58e-12             6.6242e-07           
  -0.6                  -6.63e-07             -5.174e-11            -3.58e-12             6.6334e-07           
  -0.65                 -6.639e-07            -5.138e-11            -3.48e-12             6.642e-07            
  -0.7                  -6.6468e-07           -5.122e-11            -3.5e-12              6.6496e-07           
  -0.75                 -6.6536e-07           -5.094e-11            -3.48e-12             6.6566e-07           
  -0.8                  -6.6602e-07           -5.084e-11            -3.4e-12              6.6634e-07           
  -0.85                 -6.6666e-07           -5.042e-11            -3.46e-12             6.6698e-07           
  -0.9                  -6.6722e-07           -5.018e-11            -3.4e-12              6.6756e-07           
  -0.95                 -6.6778e-07           -4.972e-11            -3.2e-12              6.681e-07            
  -1                    -6.6824e-07           -4.936e-11            -3.2e-12              6.6856e-07           
  -1.05                 -6.687e-07            -4.866e-11            -3.16e-12             6.6902e-07           
  -1.1                  -6.6916e-07           -4.822e-11            -3.14e-12             6.6942e-07           
  -1.15                 -6.6952e-07           -4.752e-11            -3.08e-12             6.6982e-07           
  -1.2                  -6.6986e-07           -4.686e-11            -2.98e-12             6.7016e-07           
  -1.25                 -6.7026e-07           -4.602e-11            -2.84e-12             6.7054e-07           
  -1.3                  -6.7058e-07           -4.504e-11            -2.62e-12             6.7086e-07           
  -1.35                 -6.7088e-07           -4.37e-11             -2.2e-12              6.712e-07            
END_DB

BEGIN_DB
 ICCAP_VAR vg         -0.672         
 ICCAP_VAR vb         -0             
 ICCAP_VAR vs         -0             

 #vd                    id                    ig                    ib                    is                   
  -0                    2.3412e-09            -6.3e-10              -2.82e-12             -1.6136e-09          
  -0.05                 -1.4128e-06           -5.3252e-10           -2.84e-12             1.417e-06            
  -0.1                  -2.5464e-06           -4.5738e-10           -2.68e-12             2.5504e-06           
  -0.15                 -3.3974e-06           -4.0234e-10           -2.68e-12             3.4016e-06           
  -0.2                  -3.9744e-06           -3.6524e-10           -2.66e-12             3.9786e-06           
  -0.25                 -4.303e-06            -3.4384e-10           -2.74e-12             4.3072e-06           
  -0.3                  -4.4452e-06           -3.3434e-10           -2.62e-12             4.4494e-06           
  -0.35                 -4.4946e-06           -3.3108e-10           -2.64e-12             4.4988e-06           
  -0.4                  -4.5144e-06           -3.2956e-10           -2.64e-12             4.5184e-06           
  -0.45                 -4.5266e-06           -3.286e-10            -2.52e-12             4.5308e-06           
  -0.5                  -4.5358e-06           -3.2802e-10           -2.54e-12             4.5396e-06           
  -0.55                 -4.5434e-06           -3.2748e-10           -2.5e-12              4.5476e-06           
  -0.6                  -4.5502e-06           -3.2698e-10           -2.46e-12             4.5542e-06           
  -0.65                 -4.556e-06            -3.2656e-10           -2.56e-12             4.5602e-06           
  -0.7                  -4.5616e-06           -3.2626e-10           -2.6e-12              4.5656e-06           
  -0.75                 -4.5668e-06           -3.2572e-10           -2.52e-12             4.5708e-06           
  -0.8                  -4.5712e-06           -3.2538e-10           -2.38e-12             4.5752e-06           
  -0.85                 -4.5754e-06           -3.251e-10            -2.36e-12             4.5794e-06           
  -0.9                  -4.5794e-06           -3.246e-10            -2.48e-12             4.5832e-06           
  -0.95                 -4.5828e-06           -3.2426e-10           -2.42e-12             4.5868e-06           
  -1                    -4.5862e-06           -3.2404e-10           -2.36e-12             4.5904e-06           
  -1.05                 -4.5896e-06           -3.2342e-10           -2.24e-12             4.5932e-06           
  -1.1                  -4.5922e-06           -3.231e-10            -2.28e-12             4.5962e-06           
  -1.15                 -4.5952e-06           -3.2258e-10           -2.34e-12             4.599e-06            
  -1.2                  -4.5978e-06           -3.2196e-10           -2.32e-12             4.6018e-06           
  -1.25                 -4.6004e-06           -3.2142e-10           -2.18e-12             4.6042e-06           
  -1.3                  -4.6024e-06           -3.2088e-10           -2.08e-12             4.6066e-06           
  -1.35                 -4.6048e-06           -3.1998e-10           -2e-12                4.6088e-06           
END_DB

BEGIN_DB
 ICCAP_VAR vg         -0.898         
 ICCAP_VAR vb         -0             
 ICCAP_VAR vs         -0             

 #vd                    id                    ig                    ib                    is                   
  -0                    3.5718e-09            -2.2786e-09           -2.06e-12             -1.794e-09           
  -0.05                 -2.3572e-06           -2.0168e-09           -1.96e-12             2.3628e-06           
  -0.1                  -4.4702e-06           -1.7944e-09           -1.94e-12             4.4758e-06           
  -0.15                 -6.3264e-06           -1.6104e-09           -2.22e-12             6.332e-06            
  -0.2                  -7.9192e-06           -1.4574e-09           -2.16e-12             7.9246e-06           
  -0.25                 -9.2434e-06           -1.3352e-09           -1.98e-12             9.2488e-06           
  -0.3                  -1.02948e-05          -1.2406e-09           -1.96e-12             1.03002e-05          
  -0.35                 -1.1071e-05           -1.1732e-09           -1.94e-12             1.10766e-05          
  -0.4                  -1.1576e-05           -1.129e-09            -2.04e-12             1.1596e-05           
  -0.45                 -1.1856e-05           -1.1048e-09           -1.92e-12             1.1874e-05           
  -0.5                  -1.198e-05            -1.0942e-09           -2.04e-12             1.1998e-05           
  -0.55                 -1.2032e-05           -1.0884e-09           -1.96e-12             1.205e-05            
  -0.6                  -1.206e-05            -1.0864e-09           -1.86e-12             1.208e-05            
  -0.65                 -1.2082e-05           -1.0844e-09           -1.98e-12             1.21e-05             
  -0.7                  -1.2098e-05           -1.0828e-09           -1.9e-12              1.2116e-05           
  -0.75                 -1.2114e-05           -1.0816e-09           -1.9e-12              1.2132e-05           
  -0.8                  -1.2126e-05           -1.0808e-09           -1.9e-12              1.2146e-05           
  -0.85                 -1.2138e-05           -1.0792e-09           -1.9e-12              1.2156e-05           
  -0.9                  -1.215e-05            -1.0786e-09           -1.78e-12             1.2168e-05           
  -0.95                 -1.216e-05            -1.0776e-09           -1.92e-12             1.2178e-05           
  -1                    -1.2168e-05           -1.078e-09            -1.82e-12             1.2186e-05           
  -1.05                 -1.2178e-05           -1.076e-09            -1.94e-12             1.2196e-05           
  -1.1                  -1.2184e-05           -1.0752e-09           -1.96e-12             1.2204e-05           
  -1.15                 -1.2192e-05           -1.0746e-09           -1.86e-12             1.221e-05            
  -1.2                  -1.22e-05             -1.0738e-09           -1.7e-12              1.2216e-05           
  -1.25                 -1.2206e-05           -1.0732e-09           -1.9e-12              1.2224e-05           
  -1.3                  -1.2212e-05           -1.0724e-09           -1.84e-12             1.223e-05            
  -1.35                 -1.2218e-05           -1.0716e-09           -1.78e-12             1.2236e-05           
END_DB

BEGIN_DB
 ICCAP_VAR vg         -1.124         
 ICCAP_VAR vb         -0             
 ICCAP_VAR vs         -0             

 #vd                    id                    ig                    ib                    is                   
  -0                    5.128e-09             -5.975e-09            0                     -1.248e-09           
  -0.05                 -3.121e-06            -5.4378e-09           -6.6e-13              3.13e-06             
  -0.1                  -6.0404e-06           -4.9558e-09           -9.4e-13              6.0494e-06           
  -0.15                 -8.7434e-06           -4.532e-09            -1.12e-12             8.7518e-06           
  -0.2                  -1.12214e-05          -4.1648e-09           -1.28e-12             1.12298e-05          
  -0.25                 -1.3462e-05           -3.8456e-09           -1.24e-12             1.3484e-05           
  -0.3                  -1.547e-05            -3.5712e-09           -1.24e-12             1.5492e-05           
  -0.35                 -1.723e-05            -3.3418e-09           -1.42e-12             1.725e-05            
  -0.4                  -1.8738e-05           -3.1496e-09           -1.42e-12             1.876e-05            
  -0.45                 -1.9986e-05           -2.9972e-09           -1.5e-12              2.0008e-05           
  -0.5                  -2.0972e-05           -2.8802e-09           -1.52e-12             2.0992e-05           
  -0.55                 -2.169e-05            -2.7948e-09           -1.34e-12             2.1712e-05           
  -0.6                  -2.2156e-05           -2.7406e-09           -1.26e-12             2.2178e-05           
  -0.65                 -2.2412e-05           -2.7104e-09           -1.46e-12             2.243e-05            
  -0.7                  -2.2532e-05           -2.6966e-09           -1.4e-12              2.2552e-05           
  -0.75                 -2.2592e-05           -2.6872e-09           -1.32e-12             2.2614e-05           
  -0.8                  -2.263e-05            -2.6846e-09           -1.26e-12             2.2652e-05           
  -0.85                 -2.266e-05            -2.6784e-09           -1.32e-12             2.268e-05            
  -0.9                  -2.2684e-05           -2.6776e-09           -1.36e-12             2.2704e-05           
  -0.95                 -2.2706e-05           -2.675e-09            -1.34e-12             2.2726e-05           
  -1                    -2.2724e-05           -2.6732e-09           -1.34e-12             2.2744e-05           
  -1.05                 -2.2742e-05           -2.6718e-09           -1.22e-12             2.2762e-05           
  -1.1                  -2.2758e-05           -2.6698e-09           -1.34e-12             2.2778e-05           
  -1.15                 -2.2772e-05           -2.6654e-09           -1.26e-12             2.2792e-05           
  -1.2                  -2.2786e-05           -2.6664e-09           -1.24e-12             2.2806e-05           
  -1.25                 -2.28e-05             -2.666e-09            -1.2e-12              2.282e-05            
  -1.3                  -2.2812e-05           -2.6644e-09           -1.28e-12             2.2832e-05           
  -1.35                 -2.2822e-05           -2.6632e-09           -1.26e-12             2.2842e-05           
END_DB

BEGIN_DB
 ICCAP_VAR vg         -1.35          
 ICCAP_VAR vb         -0             
 ICCAP_VAR vs         -0             

 #vd                    id                    ig                    ib                    is                   
  -0                    1.2414e-08            -1.2884e-08           8.826e-11             4.8998e-10           
  -0.05                 -3.7192e-06           -1.1912e-08           6.316e-11             3.7346e-06           
  -0.1                  -7.2762e-06           -1.1044e-08           4.656e-11             7.2914e-06           
  -0.15                 -1.06532e-05          -1.0254e-08           3.582e-11             1.06674e-05          
  -0.2                  -1.3836e-05           -9.5464e-09           2.836e-11             1.3862e-05           
  -0.25                 -1.6832e-05           -8.9128e-09           2.37e-11              1.6858e-05           
  -0.3                  -1.9628e-05           -8.3376e-09           2.032e-11             1.9654e-05           
  -0.35                 -2.2214e-05           -7.8292e-09           1.772e-11             2.224e-05            
  -0.4                  -2.4588e-05           -7.3824e-09           1.608e-11             2.4614e-05           
  -0.45                 -2.674e-05            -6.9952e-09           1.478e-11             2.6766e-05           
  -0.5                  -2.866e-05            -6.6512e-09           1.366e-11             2.8686e-05           
  -0.55                 -3.0346e-05           -6.364e-09            1.296e-11             3.0372e-05           
  -0.6                  -3.1786e-05           -6.1266e-09           1.236e-11             3.181e-05            
  -0.65                 -3.2974e-05           -5.9374e-09           1.194e-11             3.3e-05              
  -0.7                  -3.3908e-05           -5.7906e-09           1.148e-11             3.3932e-05           
  -0.75                 -3.4582e-05           -5.6824e-09           1.118e-11             3.4608e-05           
  -0.8                  -3.502e-05            -5.6134e-09           1.11e-11              3.5046e-05           
  -0.85                 -3.5266e-05           -5.5782e-09           1.106e-11             3.529e-05            
  -0.9                  -3.5392e-05           -5.5602e-09           1.102e-11             3.5416e-05           
  -0.95                 -3.5462e-05           -5.5492e-09           1.108e-11             3.5486e-05           
  -1                    -3.551e-05            -5.5408e-09           1.108e-11             3.5532e-05           
  -1.05                 -3.5546e-05           -5.5354e-09           1.094e-11             3.557e-05            
  -1.1                  -3.5578e-05           -5.5306e-09           1.104e-11             3.56e-05             
  -1.15                 -3.5604e-05           -5.5246e-09           1.092e-11             3.5626e-05           
  -1.2                  -3.5628e-05           -5.5266e-09           1.096e-11             3.5652e-05           
  -1.25                 -3.565e-05            -5.5206e-09           1.096e-11             3.5674e-05           
  -1.3                  -3.5672e-05           -5.5146e-09           1.094e-11             3.5694e-05           
  -1.35                 -3.5692e-05           -5.511e-09            1.098e-11             3.5714e-05           
END_DB

