! VERSION = 6.00
BEGIN_HEADER
 ICCAP_INPUTS
  vd         V  D GROUND SMU1 0.1 LIN        1    -0         -1.35      28   -0.05     
  vg         V  G GROUND SMU2 0.001 LIST       2 3 -0.339 -0.539 -0.739
  vb         V  B GROUND SMU4 0.1 CON        1.2
  vs         V  S GROUND SMU3 0.1 CON        -0
 ICCAP_OUTPUTS
  id         I  D GROUND SMU1 B
  ig         I  G GROUND SMU2 B
  ib         I  B GROUND SMU4 B
  is         I  S GROUND SMU3 B
 ICCAP_VALUES
  MASTER_SETUP_TYPE "~dc_idvd~"
  LINVT_VALUE ""
  LISTVT_VALUE "|idvg|100.0n|-200.0m|1.000m|3|200.0m|200.0m|"
  TYPE "-1"
  TEMP " 27.0000 "
  IS_TNOM " 1.00000 "
  MAIN.W "10.00u"
  MAIN.L "180.0n"
  MAIN.AD "3.400p"
  MAIN.AS "3.400p"
  MAIN.PD "20.68u"
  MAIN.PS "20.68u"
  MAIN.NF "1.000"
  MAIN.M "1"
  MAIN.NRD "0.000"
  MAIN.NRS "0.000"
  MAIN.LDRIFT1 "1E-06"
  MAIN.LDRIFT2 "1E-06"
  MAIN.SA "0.000"
  MAIN.SB "0.000"
  MAIN.SD "0.000"
  MAIN.SCA "0.000"
  MAIN.SCB "0.000"
  MAIN.SCC "0.000"
  MAIN.SC "0.000"
  MODULE "S548"
  PIN_D "12"
  PIN_G "9"
  PIN_S "10"
  PIN_B "11"
  PIN_E ""
  PIN_6 ""
  XY_ID ""
  FUNC "L Scale"
  STI "SA ref"
  WPE "WPE ref"
  COMMENT ""
  DIS_MEAS ""
  TypeTCI "10"
END_HEADER

BEGIN_DB
 ICCAP_VAR vg         -0.339         
 ICCAP_VAR vb         1.2            
 ICCAP_VAR vs         -0             

 #vd                    id                    ig                    ib                    is                   
  -0                    2.478e-11             -8.6e-13              1e-13                 -4.13e-11            
  -0.05                 -1.1364e-08           -6e-13                8e-14                 1.1386e-08           
  -0.1                  -1.3848e-08           -5.8e-13              4e-14                 1.3872e-08           
  -0.15                 -1.4924e-08           -5e-13                8e-14                 1.494e-08            
  -0.2                  -1.5738e-08           -3.6e-13              1.6e-13               1.5756e-08           
  -0.25                 -1.652e-08            -4.6e-13              1.4e-13               1.6542e-08           
  -0.3                  -1.7312e-08           -3.8e-13              1e-13                 1.7322e-08           
  -0.35                 -1.8078e-08           -4.6e-13              1e-13                 1.809e-08            
  -0.4                  -1.8836e-08           -5.2e-13              2e-14                 1.8856e-08           
  -0.45                 -1.9618e-08           -2.4e-13              1e-13                 1.9644e-08           
  -0.5                  -2.0386e-08           -3.6e-13              4e-14                 2.0412e-08           
  -0.55                 -2.1172e-08           -2.6e-13              8e-14                 2.1184e-08           
  -0.6                  -2.1914e-08           -1.2e-13              8e-14                 2.1964e-08           
  -0.65                 -2.2718e-08           -2e-13                1e-13                 2.2744e-08           
  -0.7                  -2.3492e-08           6e-14                 8e-14                 2.3538e-08           
  -0.75                 -2.4316e-08           2.2e-13               0                     2.4356e-08           
  -0.8                  -2.5112e-08           3.2e-13               1.4e-13               2.5148e-08           
  -0.85                 -2.594e-08            7.6e-13               4e-14                 2.597e-08            
  -0.9                  -2.6754e-08           1.08e-12              6e-14                 2.6784e-08           
  -0.95                 -2.7588e-08           1.34e-12              2e-14                 2.7612e-08           
  -1                    -2.8422e-08           1.92e-12              1e-13                 2.8452e-08           
  -1.05                 -2.9292e-08           2.36e-12              6e-14                 2.9276e-08           
  -1.1                  -3.0108e-08           2.82e-12              1.4e-13               3.0128e-08           
  -1.15                 -3.1e-08              3.6e-12               2.2e-13               3.1004e-08           
  -1.2                  -3.1882e-08           4.12e-12              3.8e-13               3.188e-08            
  -1.25                 -3.2758e-08           5e-12                 5.2e-13               3.2748e-08           
  -1.3                  -3.364e-08            5.8e-12               8.4e-13               3.3622e-08           
  -1.35                 -3.4536e-08           6.72e-12              1.24e-12              3.4542e-08           
END_DB

BEGIN_DB
 ICCAP_VAR vg         -0.539         
 ICCAP_VAR vb         1.2            
 ICCAP_VAR vs         -0             

 #vd                    id                    ig                    ib                    is                   
  -0                    3.287e-09             -4.44e-12             -1.2e-13              -5.2888e-09          
  -0.05                 -3.2916e-06           -3.82e-12             0                     3.2934e-06           
  -0.1                  -4.4076e-06           -3.2e-12              -8e-14                4.41e-06             
  -0.15                 -4.8758e-06           -3.06e-12             -1e-13                4.8812e-06           
  -0.2                  -5.1744e-06           -2.84e-12             4e-14                 5.1742e-06           
  -0.25                 -5.4154e-06           -2.78e-12             0                     5.424e-06            
  -0.3                  -5.6454e-06           -2.54e-12             1e-13                 5.6516e-06           
  -0.35                 -5.8618e-06           -2.64e-12             -2e-14                5.8666e-06           
  -0.4                  -6.0652e-06           -2.52e-12             -1.6e-13              6.0726e-06           
  -0.45                 -6.2662e-06           -2.58e-12             0                     6.271e-06            
  -0.5                  -6.4626e-06           -2.46e-12             6e-14                 6.4654e-06           
  -0.55                 -6.6558e-06           -2.4e-12              -2e-14                6.66e-06             
  -0.6                  -6.8456e-06           -2.46e-12             -2e-14                6.8526e-06           
  -0.65                 -7.036e-06            -2.32e-12             4e-14                 7.0384e-06           
  -0.7                  -7.223e-06            -2.4e-12              0                     7.2188e-06           
  -0.75                 -7.4032e-06           -2.12e-12             0                     7.4086e-06           
  -0.8                  -7.5864e-06           -2.02e-12             -8e-14                7.5896e-06           
  -0.85                 -7.7548e-06           -2.04e-12             6e-14                 7.7564e-06           
  -0.9                  -7.9438e-06           -1.96e-12             6e-14                 7.9414e-06           
  -0.95                 -8.1202e-06           -1.64e-12             2e-14                 8.119e-06            
  -1                    -8.2974e-06           -1.38e-12             6e-14                 8.3034e-06           
  -1.05                 -8.464e-06            -1.16e-12             1.4e-13               8.4722e-06           
  -1.1                  -8.6338e-06           -9e-13                2.6e-13               8.6524e-06           
  -1.15                 -8.8248e-06           -4.4e-13              5.6e-13               8.8126e-06           
  -1.2                  -9.0026e-06           0                     1.28e-12              8.9982e-06           
  -1.25                 -9.1684e-06           4.2e-13               2.8e-12               9.1776e-06           
  -1.3                  -9.3518e-06           1.16e-12              5.7e-12               9.345e-06            
  -1.35                 -9.5228e-06           1.54e-12              1.102e-11             9.5196e-06           
END_DB

BEGIN_DB
 ICCAP_VAR vg         -0.739         
 ICCAP_VAR vb         1.2            
 ICCAP_VAR vs         -0             

 #vd                    id                    ig                    ib                    is                   
  -0                    6.5802e-08            -1.884e-11            -1.6e-13              -5.914e-08           
  -0.05                 -3.4156e-05           -1.616e-11            -1.6e-13              3.4166e-05           
  -0.1                  -5.773e-05            -1.424e-11            8e-14                 5.7726e-05           
  -0.15                 -7.2784e-05           -1.288e-11            0                     7.281e-05            
  -0.2                  -8.2064e-05           -1.194e-11            -4e-14                8.2064e-05           
  -0.25                 -8.796e-05            -1.126e-11            -2e-14                8.7976e-05           
  -0.3                  -9.2148e-05           -1.068e-11            2e-14                 9.2144e-05           
  -0.35                 -9.547e-05            -1.028e-11            0                     9.5506e-05           
  -0.4                  -9.832e-05            -1.012e-11            -2e-14                9.8368e-05           
  -0.45                 -0.00010085           -9.88e-12             -2e-14                0.00010092           
  -0.5                  -0.00010329           -9.88e-12             8e-14                 0.000103272          
  -0.55                 -0.00010551           -9.58e-12             6e-14                 0.00010556           
  -0.6                  -0.000107686          -9.4e-12              -6e-14                0.000107744          
  -0.65                 -0.000109808          -9.4e-12              -8e-14                0.000109796          
  -0.7                  -0.000111838          -9.42e-12             -4e-14                0.000111836          
  -0.75                 -0.000113776          -9.18e-12             6e-14                 0.000113774          
  -0.8                  -0.00011552           -9.28e-12             -1e-13                0.0001159            
  -0.85                 -0.00011734           -9.2e-12              4e-14                 0.00011776           
  -0.9                  -0.00011926           -9.12e-12             -4e-14                0.00011962           
  -0.95                 -0.00012108           -9e-12                -1.6e-13              0.00012138           
  -1                    -0.0001228            -9.04e-12             -1.4e-13              0.00012314           
  -1.05                 -0.00012458           -8.68e-12             2.4e-13               0.00012496           
  -1.1                  -0.00012634           -8.6e-12              2.2e-13               0.00012668           
  -1.15                 -0.00012802           -8.26e-12             5e-13                 0.00012836           
  -1.2                  -0.00012972           -7.96e-12             1.44e-12              0.00013012           
  -1.25                 -0.00013142           -7.72e-12             3.44e-12              0.00013178           
  -1.3                  -0.00013308           -7.34e-12             8.26e-12              0.00013342           
  -1.35                 -0.00013468           -7.06e-12             1.834e-11             0.00013506           
END_DB

