! VERSION = 6.00
BEGIN_HEADER
 ICCAP_INPUTS
  vd         V  D GROUND SMU1 0.1 LIN        1    -0         -1.35      28   -0.05     
  vg         V  G GROUND SMU2 0.001 LIN        2    -0.654     -1.35      5    -0.174    
  vb         V  B GROUND SMU4 0.1 CON        1.2
  vs         V  S GROUND SMU3 0.1 CON        -0
 ICCAP_OUTPUTS
  id         I  D GROUND SMU1 B
  ig         I  G GROUND SMU2 B
  ib         I  B GROUND SMU4 B
  is         I  S GROUND SMU3 B
 ICCAP_VALUES
  MASTER_SETUP_TYPE "~dc_idvd~"
  LINVT_VALUE "|idvg|100.0n|100.0m|1.000m|5|1.350|"
  LISTVT_VALUE ""
  TYPE "-1"
  TEMP "-40.0000 "
  IS_TNOM " 0.00000 "
  MAIN.W "150.0n"
  MAIN.L "130.0n"
  MAIN.AD "100.5f"
  MAIN.AS "100.5f"
  MAIN.PD "1.340u"
  MAIN.PS "1.340u"
  MAIN.NF "1.000"
  MAIN.M "1"
  MAIN.NRD "0.000"
  MAIN.NRS "0.000"
  MAIN.LDRIFT1 "1E-06"
  MAIN.LDRIFT2 "1E-06"
  MAIN.SA "0.000"
  MAIN.SB "0.000"
  MAIN.SD "0.000"
  MAIN.SCA "0.000"
  MAIN.SCB "0.000"
  MAIN.SCC "0.000"
  MAIN.SC "0.000"
  MODULE "S554"
  PIN_D "16"
  PIN_G "5"
  PIN_S "6"
  PIN_B "15"
  PIN_E ""
  PIN_6 ""
  XY_ID ""
  FUNC "Small"
  STI "SA ref"
  WPE "WPE ref"
  COMMENT ""
  DIS_MEAS ""
  TypeTCI "10"
END_HEADER

BEGIN_DB
 ICCAP_VAR vg         -0.654         
 ICCAP_VAR vb         1.2            
 ICCAP_VAR vs         -0             

 #vd                    id                    ig                    ib                    is                   
  -0                    4.7456e-10            -7.6e-13              2.8e-13               -6.6924e-10          
  -0.05                 -3.7688e-07           -4.6e-13              3e-13                 3.7778e-07           
  -0.1                  -5.574e-07            -1.4e-13              2.4e-13               5.5652e-07           
  -0.15                 -6.5678e-07           -2.4e-13              2.2e-13               6.5618e-07           
  -0.2                  -7.2812e-07           -4e-13                3e-13                 7.2914e-07           
  -0.25                 -7.9218e-07           -8.2e-13              8e-14                 7.8982e-07           
  -0.3                  -8.4926e-07           -2e-13                1.8e-13               8.46e-07             
  -0.35                 -9.037e-07            8e-14                 3e-13                 9.0514e-07           
  -0.4                  -9.6652e-07           -6.8e-13              2.4e-13               9.6278e-07           
  -0.45                 -1.02232e-06          -4e-14                2.2e-13               1.02114e-06          
  -0.5                  -1.08262e-06          -1.6e-13              2.4e-13               1.0807e-06           
  -0.55                 -1.14282e-06          -1.2e-13              1.6e-13               1.14162e-06          
  -0.6                  -1.2062e-06           2.6e-13               1.8e-13               1.2122e-06           
  -0.65                 -1.2712e-06           -2.2e-13              2.6e-13               1.2726e-06           
  -0.7                  -1.3386e-06           -1e-13                2.2e-13               1.34e-06             
  -0.75                 -1.4074e-06           -5.2e-13              8e-14                 1.4126e-06           
  -0.8                  -1.4806e-06           -5.8e-13              2.2e-13               1.4822e-06           
  -0.85                 -1.5512e-06           -4e-13                1.2e-13               1.5546e-06           
  -0.9                  -1.6302e-06           0                     1.2e-13               1.6332e-06           
  -0.95                 -1.7094e-06           -8e-14                2.6e-13               1.712e-06            
  -1                    -1.7862e-06           -1e-13                2.2e-13               1.791e-06            
  -1.05                 -1.8732e-06           -4e-13                1.4e-13               1.874e-06            
  -1.1                  -1.9628e-06           -2.4e-13              1.2e-13               1.9632e-06           
  -1.15                 -2.0498e-06           2.4e-13               1.4e-13               2.0556e-06           
  -1.2                  -2.1474e-06           1.8e-13               4e-14                 2.1474e-06           
  -1.25                 -2.241e-06            -1e-13                2e-13                 2.2428e-06           
  -1.3                  -2.3424e-06           -6e-14                3e-13                 2.3432e-06           
  -1.35                 -2.4418e-06           1.6e-13               6.2e-13               2.4462e-06           
END_DB

BEGIN_DB
 ICCAP_VAR vg         -0.828         
 ICCAP_VAR vb         1.2            
 ICCAP_VAR vs         -0             

 #vd                    id                    ig                    ib                    is                   
  -0                    2.1128e-09            -1.06e-12             4e-14                 -1.9026e-09          
  -0.05                 -2.0362e-06           -9.4e-13              0                     2.0402e-06           
  -0.1                  -3.5274e-06           -7e-13                0                     3.5302e-06           
  -0.15                 -4.5786e-06           -4.8e-13              6e-14                 4.58e-06             
  -0.2                  -5.3064e-06           -3.8e-13              6e-14                 5.3108e-06           
  -0.25                 -5.8508e-06           -5.8e-13              8e-14                 5.853e-06            
  -0.3                  -6.2726e-06           -2.8e-13              1.4e-13               6.2702e-06           
  -0.35                 -6.6174e-06           -6.6e-13              1.4e-13               6.6286e-06           
  -0.4                  -6.929e-06            -4e-13                6e-14                 6.9334e-06           
  -0.45                 -7.2038e-06           -3.4e-13              2e-14                 7.2072e-06           
  -0.5                  -7.45e-06             -6.6e-13              1e-13                 7.4492e-06           
  -0.55                 -7.7234e-06           2.2e-13               6e-14                 7.7164e-06           
  -0.6                  -7.9728e-06           -4.6e-13              8e-14                 7.9746e-06           
  -0.65                 -8.2226e-06           -2.4e-13              1.4e-13               8.2334e-06           
  -0.7                  -8.479e-06            -5.2e-13              1.4e-13               8.4868e-06           
  -0.75                 -8.7222e-06           -2e-14                6e-14                 8.7292e-06           
  -0.8                  -8.9678e-06           -1.4e-13              1.2e-13               8.9722e-06           
  -0.85                 -9.22e-06             -6e-14                0                     9.223e-06            
  -0.9                  -9.4678e-06           -3.4e-13              0                     9.475e-06            
  -0.95                 -9.7236e-06           -4.8e-13              2e-13                 9.724e-06            
  -1                    -9.9698e-06           -4.8e-13              -4e-14                9.9738e-06           
  -1.05                 -1.02232e-05          -1.2e-13              4e-14                 1.02324e-05          
  -1.1                  -1.0481e-05           -4.2e-13              8e-14                 1.0479e-05           
  -1.15                 -1.07336e-05          -4.2e-13              4e-14                 1.07342e-05          
  -1.2                  -1.09894e-05          -3.2e-13              -6e-14                1.09952e-05          
  -1.25                 -1.1236e-05           -8.8e-13              6e-14                 1.12526e-05          
  -1.3                  -1.1508e-05           -5e-13                2.6e-13               1.1528e-05           
  -1.35                 -1.1766e-05           -1.4e-13              6.2e-13               1.1784e-05           
END_DB

BEGIN_DB
 ICCAP_VAR vg         -1.002         
 ICCAP_VAR vb         1.2            
 ICCAP_VAR vs         -0             

 #vd                    id                    ig                    ib                    is                   
  -0                    2.7396e-09            -1.4e-12              -6e-14                -2.912e-09           
  -0.05                 -3.8752e-06           -1.08e-12             -4e-14                3.8802e-06           
  -0.1                  -7.1684e-06           -1.32e-12             -1e-13                7.1718e-06           
  -0.15                 -9.7486e-06           -1.44e-12             -4e-14                9.754e-06            
  -0.2                  -1.2006e-05           -1.2e-12              2e-14                 1.2024e-05           
  -0.25                 -1.3692e-05           -4.6e-13              -6e-14                1.3706e-05           
  -0.3                  -1.5002e-05           -9.8e-13              -4e-14                1.5014e-05           
  -0.35                 -1.6038e-05           -8.4e-13              -6e-14                1.6052e-05           
  -0.4                  -1.688e-05            -7e-13                -4e-14                1.6892e-05           
  -0.45                 -1.7592e-05           -6.4e-13              0                     1.7458e-05           
  -0.5                  -1.7966e-05           -5.8e-13              0                     1.8092e-05           
  -0.55                 -1.8774e-05           -1.16e-12             -6e-14                1.8792e-05           
  -0.6                  -1.9298e-05           -7.2e-13              -2e-14                1.9314e-05           
  -0.65                 -1.9788e-05           -1.12e-12             -2e-14                1.9808e-05           
  -0.7                  -2.0268e-05           -6e-13                0                     2.0286e-05           
  -0.75                 -2.0724e-05           -8.4e-13              4e-14                 2.0742e-05           
  -0.8                  -2.1164e-05           -1.06e-12             0                     2.1186e-05           
  -0.85                 -2.1604e-05           -2.4e-13              -2e-14                2.1622e-05           
  -0.9                  -2.204e-05            -4.4e-13              0                     2.206e-05            
  -0.95                 -2.2354e-05           -4.6e-13              -2e-14                2.2148e-05           
  -1                    -2.2544e-05           -8.8e-13              2e-14                 2.256e-05            
  -1.05                 -2.2946e-05           -9.6e-13              0                     2.2964e-05           
  -1.1                  -2.3368e-05           -2.2e-13              1.4e-13               2.3382e-05           
  -1.15                 -2.376e-05            -4.8e-13              4e-14                 2.3786e-05           
  -1.2                  -2.4162e-05           -9.6e-13              4e-14                 2.409e-05            
  -1.25                 -2.456e-05            -6.2e-13              1.2e-13               2.4592e-05           
  -1.3                  -2.4964e-05           -8.4e-13              2.6e-13               2.5028e-05           
  -1.35                 -2.5776e-05           -4e-13                5.2e-13               2.579e-05            
END_DB

BEGIN_DB
 ICCAP_VAR vg         -1.176         
 ICCAP_VAR vb         1.2            
 ICCAP_VAR vs         -0             

 #vd                    id                    ig                    ib                    is                   
  -0                    3.0744e-09            -2.26e-12             -6e-14                -3.781e-09           
  -0.05                 -5.4076e-06           -2.72e-12             -8e-14                5.4104e-06           
  -0.1                  -1.02728e-05          -2.3e-12              -2e-14                1.02764e-05          
  -0.15                 -1.4528e-05           -2.36e-12             0                     1.4554e-05           
  -0.2                  -1.8188e-05           -2.12e-12             -4e-14                1.8206e-05           
  -0.25                 -2.1264e-05           -1.74e-12             0                     2.1284e-05           
  -0.3                  -2.3824e-05           -1.56e-12             4e-14                 2.3832e-05           
  -0.35                 -2.5918e-05           -1.8e-12              0                     2.5934e-05           
  -0.4                  -2.7672e-05           -1.66e-12             -4e-14                2.7692e-05           
  -0.45                 -2.9118e-05           -1.44e-12             4e-14                 2.9138e-05           
  -0.5                  -3.0336e-05           -1.28e-12             0                     3.0354e-05           
  -0.55                 -3.1378e-05           -1.24e-12             4e-14                 3.1396e-05           
  -0.6                  -3.2298e-05           -1.8e-12              1.6e-13               3.231e-05            
  -0.65                 -3.3128e-05           -1.2e-12              6e-14                 3.3144e-05           
  -0.7                  -3.3892e-05           -1.56e-12             -2e-14                3.3902e-05           
  -0.75                 -3.4606e-05           -1.32e-12             0                     3.462e-05            
  -0.8                  -3.5278e-05           -1.1e-12              -6e-14                3.5626e-05           
  -0.85                 -3.626e-05            -1.58e-12             0                     3.6288e-05           
  -0.9                  -3.6672e-05           -1.08e-12             4e-14                 3.6566e-05           
  -0.95                 -3.7162e-05           -1.14e-12             6e-14                 3.718e-05            
  -1                    -3.7748e-05           -1.3e-12              6e-14                 3.7772e-05           
  -1.05                 -3.834e-05            -1.16e-12             2e-14                 3.8348e-05           
  -1.1                  -3.891e-05            -1.46e-12             0                     3.8926e-05           
  -1.15                 -3.947e-05            -9.8e-13              0                     3.9488e-05           
  -1.2                  -4.003e-05            -1.22e-12             6e-14                 4.0042e-05           
  -1.25                 -4.0568e-05           -1.18e-12             4e-14                 4.0592e-05           
  -1.3                  -4.1122e-05           -1.14e-12             8e-14                 4.1064e-05           
  -1.35                 -4.154e-05            -1.34e-12             3.4e-13               4.1558e-05           
END_DB

BEGIN_DB
 ICCAP_VAR vg         -1.35          
 ICCAP_VAR vb         1.2            
 ICCAP_VAR vs         -0             

 #vd                    id                    ig                    ib                    is                   
  -0                    2.8168e-09            -4.92e-12             -6e-14                -4.368e-09           
  -0.05                 -6.7074e-06           -4.34e-12             -2e-14                6.7118e-06           
  -0.1                  -1.2922e-05           -4.54e-12             2e-14                 1.2938e-05           
  -0.15                 -1.8554e-05           -4.26e-12             6e-14                 1.8538e-05           
  -0.2                  -2.3518e-05           -3.7e-12              1e-13                 2.354e-05            
  -0.25                 -2.7972e-05           -3.62e-12             2e-14                 2.799e-05            
  -0.3                  -3.1794e-05           -2.76e-12             -6e-14                3.1782e-05           
  -0.35                 -3.5086e-05           -2.98e-12             -1.2e-13              3.5108e-05           
  -0.4                  -3.792e-05            -3.16e-12             -1.8e-13              3.793e-05            
  -0.45                 -4.0334e-05           -2.78e-12             0                     4.035e-05            
  -0.5                  -4.2408e-05           -2.88e-12             2e-14                 4.243e-05            
  -0.55                 -4.4184e-05           -2.6e-12              -2e-14                4.4214e-05           
  -0.6                  -4.5732e-05           -2.76e-12             0                     4.5738e-05           
  -0.65                 -4.706e-05            -2.46e-12             2e-14                 4.7096e-05           
  -0.7                  -4.828e-05            -2.1e-12              6e-14                 4.818e-05            
  -0.75                 -4.9242e-05           -2.24e-12             -1e-13                4.9296e-05           
  -0.8                  -5.035e-05            -2.12e-12             0                     5.0244e-05           
  -0.85                 -5.1154e-05           -2.5e-12              4e-14                 5.1228e-05           
  -0.9                  -5.2138e-05           -1.86e-12             -4e-14                5.2152e-05           
  -0.95                 -5.2974e-05           -2.02e-12             2e-14                 5.2884e-05           
  -1                    -5.3668e-05           -2.4e-12              2e-14                 5.3434e-05           
  -1.05                 -5.445e-05            -2.32e-12             8e-14                 5.446e-05            
  -1.1                  -5.5204e-05           -2.5e-12              2e-14                 5.5218e-05           
  -1.15                 -5.5944e-05           -2.16e-12             -4e-14                5.5926e-05           
  -1.2                  -5.6654e-05           -1.6e-12              -2e-14                5.667e-05            
  -1.25                 -5.736e-05            -2.08e-12             8e-14                 5.7258e-05           
  -1.3                  -5.8026e-05           -2.12e-12             1.2e-13               5.8074e-05           
  -1.35                 -5.8736e-05           -2.34e-12             1.8e-13               5.8754e-05           
END_DB

