! VERSION = 6.00
BEGIN_HEADER
 ICCAP_INPUTS
  vd         V  D GROUND SMU1 0.1 LIN        1    -0         -1.35      28   -0.05     
  vg         V  G GROUND SMU2 0.001 LIST       2 3 -0.325 -0.525 -0.725
  vb         V  B GROUND SMU4 0.1 CON        1.2
  vs         V  S GROUND SMU3 0.1 CON        -0
 ICCAP_OUTPUTS
  id         I  D GROUND SMU1 B
  ig         I  G GROUND SMU2 B
  ib         I  B GROUND SMU4 B
  is         I  S GROUND SMU3 B
 ICCAP_VALUES
  MASTER_SETUP_TYPE "~dc_idvd~"
  LINVT_VALUE ""
  LISTVT_VALUE "|idvg|100.0n|-200.0m|1.000m|3|200.0m|200.0m|"
  TYPE "-1"
  TEMP "-40.0000 "
  IS_TNOM " 0.00000 "
  MAIN.W "300.0n"
  MAIN.L "10.00u"
  MAIN.AD "102.0f"
  MAIN.AS "102.0f"
  MAIN.PD "1.280u"
  MAIN.PS "1.280u"
  MAIN.NF "1.000"
  MAIN.M "1"
  MAIN.NRD "0.000"
  MAIN.NRS "0.000"
  MAIN.LDRIFT1 "1E-06"
  MAIN.LDRIFT2 "1E-06"
  MAIN.SA "0.000"
  MAIN.SB "0.000"
  MAIN.SD "0.000"
  MAIN.SCA "0.000"
  MAIN.SCB "0.000"
  MAIN.SCC "0.000"
  MAIN.SC "0.000"
  MODULE "S553"
  PIN_D "18"
  PIN_G "3"
  PIN_S "4"
  PIN_B "17"
  PIN_E ""
  PIN_6 ""
  XY_ID ""
  FUNC "W Scale"
  STI "SA ref"
  WPE "WPE ref"
  COMMENT ""
  DIS_MEAS ""
  TypeTCI "10"
END_HEADER

BEGIN_DB
 ICCAP_VAR vg         -0.325         
 ICCAP_VAR vb         1.2            
 ICCAP_VAR vs         -0             

 #vd                    id                    ig                    ib                    is                   
  -0                    0                     6e-14                 8e-14                 1.6e-13              
  -0.05                 -1.04e-12             1e-13                 1.4e-13               1.3e-12              
  -0.1                  -1.26e-12             6e-14                 1.8e-13               1.28e-12             
  -0.15                 -1.28e-12             -4e-14                1.6e-13               1.42e-12             
  -0.2                  -1.5e-12              1.8e-13               -8e-14                1.42e-12             
  -0.25                 -1.44e-12             2e-14                 2e-14                 1.46e-12             
  -0.3                  -1.54e-12             1.2e-13               2e-14                 1.3e-12              
  -0.35                 -1.58e-12             0                     -1.6e-13              1.48e-12             
  -0.4                  -1.6e-12              1.8e-13               6e-14                 1.24e-12             
  -0.45                 -1.5e-12              1.2e-13               6e-14                 1.48e-12             
  -0.5                  -1.62e-12             2e-14                 -4e-14                1.28e-12             
  -0.55                 -1.64e-12             1.6e-13               0                     1.24e-12             
  -0.6                  -1.66e-12             -2e-14                8e-14                 1.34e-12             
  -0.65                 -1.72e-12             1.4e-13               1e-13                 1.32e-12             
  -0.7                  -1.88e-12             1.6e-13               0                     1.34e-12             
  -0.75                 -1.84e-12             1e-13                 2e-14                 1.46e-12             
  -0.8                  -1.76e-12             1.8e-13               2e-14                 1.32e-12             
  -0.85                 -1.68e-12             6e-14                 -6e-14                1.32e-12             
  -0.9                  -1.82e-12             1e-13                 6e-14                 1.22e-12             
  -0.95                 -1.9e-12              1.4e-13               -4e-14                1.42e-12             
  -1                    -1.84e-12             6e-14                 -4e-14                1.38e-12             
  -1.05                 -1.84e-12             1.4e-13               0                     1.38e-12             
  -1.1                  -1.88e-12             8e-14                 -2e-14                1.38e-12             
  -1.15                 -1.98e-12             -4e-14                -6e-14                1.42e-12             
  -1.2                  -1.86e-12             8e-14                 -2e-14                1.54e-12             
  -1.25                 -1.96e-12             1.4e-13               -4e-14                1.42e-12             
  -1.3                  -2.14e-12             2e-14                 0                     1.36e-12             
  -1.35                 -1.98e-12             1.8e-13               -4e-14                1.6e-12              
END_DB

BEGIN_DB
 ICCAP_VAR vg         -0.525         
 ICCAP_VAR vb         1.2            
 ICCAP_VAR vs         -0             

 #vd                    id                    ig                    ib                    is                   
  -0                    8.38e-12              -2.32e-12             4e-14                 -5.8e-12             
  -0.05                 -2.7482e-09           -1.52e-12             -4e-14                2.7512e-09           
  -0.1                  -3.2546e-09           -1.44e-12             -1.2e-13              3.2566e-09           
  -0.15                 -3.326e-09            -1.46e-12             -6e-14                3.3276e-09           
  -0.2                  -3.3452e-09           -1.42e-12             0                     3.347e-09            
  -0.25                 -3.3578e-09           -1.26e-12             -6e-14                3.3598e-09           
  -0.3                  -3.3658e-09           -1.38e-12             -1.4e-13              3.3672e-09           
  -0.35                 -3.373e-09            -1.44e-12             -8e-14                3.374e-09            
  -0.4                  -3.38e-09             -1.36e-12             -4e-14                3.383e-09            
  -0.45                 -3.3878e-09           -1.48e-12             -2e-14                3.3872e-09           
  -0.5                  -3.3918e-09           -1.24e-12             4e-14                 3.3942e-09           
  -0.55                 -3.397e-09            -1.4e-12              1.2e-13               3.399e-09            
  -0.6                  -3.4012e-09           -1.3e-12              0                     3.4026e-09           
  -0.65                 -3.4064e-09           -1.42e-12             -1e-13                3.4088e-09           
  -0.7                  -3.41e-09             -1.36e-12             -4e-14                3.4118e-09           
  -0.75                 -3.413e-09            -1.36e-12             6e-14                 3.4144e-09           
  -0.8                  -3.418e-09            -1.22e-12             2e-14                 3.4188e-09           
  -0.85                 -3.4206e-09           -1.34e-12             -4e-14                3.4234e-09           
  -0.9                  -3.4234e-09           -1.3e-12              -8e-14                3.4256e-09           
  -0.95                 -3.4266e-09           -1.28e-12             0                     3.428e-09            
  -1                    -3.4286e-09           -1.3e-12              -1.2e-13              3.4318e-09           
  -1.05                 -3.4332e-09           -1.22e-12             0                     3.4346e-09           
  -1.1                  -3.435e-09            -1.1e-12              -2e-14                3.4368e-09           
  -1.15                 -3.4378e-09           -1.42e-12             2e-14                 3.4384e-09           
  -1.2                  -3.439e-09            -1.24e-12             -2e-14                3.4396e-09           
  -1.25                 -3.44e-09             -1.2e-12              0                     3.4426e-09           
  -1.3                  -3.4424e-09           -1.4e-12              8e-14                 3.4432e-09           
  -1.35                 -3.444e-09            -1.18e-12             0                     3.4442e-09           
END_DB

BEGIN_DB
 ICCAP_VAR vg         -0.725         
 ICCAP_VAR vb         1.2            
 ICCAP_VAR vs         -0             

 #vd                    id                    ig                    ib                    is                   
  -0                    6.144e-11             -2.01e-11             -1.2e-13              -4.08e-11            
  -0.05                 -3.368e-08            -1.654e-11            0                     3.3726e-08           
  -0.1                  -5.6338e-08           -1.426e-11            -6e-14                5.639e-08            
  -0.15                 -6.9098e-08           -1.264e-11            6e-14                 6.9146e-08           
  -0.2                  -7.4324e-08           -1.198e-11            -4e-14                7.437e-08            
  -0.25                 -7.5786e-08           -1.19e-11             -8e-14                7.582e-08            
  -0.3                  -7.6224e-08           -1.182e-11            -4e-14                7.6268e-08           
  -0.35                 -7.646e-08            -1.194e-11            -6e-14                7.65e-08             
  -0.4                  -7.6644e-08           -1.184e-11            0                     7.6688e-08           
  -0.45                 -7.6778e-08           -1.168e-11            0                     7.6824e-08           
  -0.5                  -7.6922e-08           -1.182e-11            -1.2e-13              7.6962e-08           
  -0.55                 -7.7032e-08           -1.17e-11             -2e-14                7.706e-08            
  -0.6                  -7.7116e-08           -1.166e-11            -2e-14                7.7178e-08           
  -0.65                 -7.7218e-08           -1.182e-11            2e-14                 7.726e-08            
  -0.7                  -7.7306e-08           -1.152e-11            4e-14                 7.735e-08            
  -0.75                 -7.7386e-08           -1.156e-11            4e-14                 7.7426e-08           
  -0.8                  -7.7456e-08           -1.176e-11            6e-14                 7.7498e-08           
  -0.85                 -7.7504e-08           -1.162e-11            0                     7.7562e-08           
  -0.9                  -7.7602e-08           -1.17e-11             -2e-14                7.7652e-08           
  -0.95                 -7.7646e-08           -1.168e-11            -1e-13                7.7664e-08           
  -1                    -7.7708e-08           -1.168e-11            4e-14                 7.7744e-08           
  -1.05                 -7.7738e-08           -1.17e-11             -8e-14                7.7786e-08           
  -1.1                  -7.7808e-08           -1.156e-11            0                     7.7848e-08           
  -1.15                 -7.787e-08            -1.174e-11            2e-14                 7.79e-08             
  -1.2                  -7.7888e-08           -1.168e-11            -1.2e-13              7.7926e-08           
  -1.25                 -7.7922e-08           -1.156e-11            2e-14                 7.7958e-08           
  -1.3                  -7.7968e-08           -1.162e-11            4e-14                 7.8012e-08           
  -1.35                 -7.8016e-08           -1.16e-11             0                     7.805e-08            
END_DB

