! VERSION = 6.00
BEGIN_HEADER
 ICCAP_INPUTS
  vd         V  D GROUND SMU1 0.1 LIN        1    -0         -1.35      28   -0.05     
  vg         V  G GROUND SMU2 0.001 LIST       2 3 -0.193 -0.393 -0.593
  vb         V  B GROUND SMU4 0.1 CON        -0
  vs         V  S GROUND SMU3 0.1 CON        -0
 ICCAP_OUTPUTS
  id         I  D GROUND SMU1 B
  ig         I  G GROUND SMU2 B
  ib         I  B GROUND SMU4 B
  is         I  S GROUND SMU3 B
 ICCAP_VALUES
  MASTER_SETUP_TYPE "~dc_idvd~"
  LINVT_VALUE ""
  LISTVT_VALUE "|idvg|100.0n|-200.0m|1.000m|3|200.0m|200.0m|"
  TYPE "-1"
  TEMP " 27.0000 "
  IS_TNOM " 1.00000 "
  MAIN.W "300.0n"
  MAIN.L "140.0n"
  MAIN.AD "102.0f"
  MAIN.AS "102.0f"
  MAIN.PD "1.280u"
  MAIN.PS "1.280u"
  MAIN.NF "1.000"
  MAIN.M "1"
  MAIN.NRD "0.000"
  MAIN.NRS "0.000"
  MAIN.LDRIFT1 "1E-06"
  MAIN.LDRIFT2 "1E-06"
  MAIN.SA "0.000"
  MAIN.SB "0.000"
  MAIN.SD "0.000"
  MAIN.SCA "0.000"
  MAIN.SCB "0.000"
  MAIN.SCC "0.000"
  MAIN.SC "0.000"
  MODULE "S552"
  PIN_D "16"
  PIN_G "5"
  PIN_S "6"
  PIN_B "15"
  PIN_E ""
  PIN_6 ""
  XY_ID ""
  FUNC "LW Scale"
  STI "SA ref"
  WPE "WPE ref"
  COMMENT ""
  DIS_MEAS ""
  TypeTCI "10"
END_HEADER

BEGIN_DB
 ICCAP_VAR vg         -0.193         
 ICCAP_VAR vb         -0             
 ICCAP_VAR vs         -0             

 #vd                    id                    ig                    ib                    is                   
  -0                    1.72e-12              2.2e-13               -1.28e-12             -1.92e-12            
  -0.05                 -6.097e-10            1.2e-13               -1.2e-12              6.0956e-10           
  -0.1                  -7.4914e-10           8e-14                 -1e-12                7.4864e-10           
  -0.15                 -8.1068e-10           8e-14                 -1.18e-12             8.1054e-10           
  -0.2                  -8.5948e-10           1.8e-13               -1.12e-12             8.6064e-10           
  -0.25                 -9.0728e-10           4e-14                 -1.12e-12             9.0712e-10           
  -0.3                  -9.5212e-10           1e-13                 -1.18e-12             9.5246e-10           
  -0.35                 -9.9044e-10           1e-13                 -1.12e-12             9.9228e-10           
  -0.4                  -1.0352e-09           1.8e-13               -1.2e-12              1.03772e-09          
  -0.45                 -1.0806e-09           1.4e-13               -1.14e-12             1.08114e-09          
  -0.5                  -1.125e-09            1.2e-13               -1.08e-12             1.12754e-09          
  -0.55                 -1.1752e-09           1.4e-13               -1.14e-12             1.1712e-09           
  -0.6                  -1.2156e-09           2.2e-13               -1.08e-12             1.2198e-09           
  -0.65                 -1.2636e-09           1.6e-13               -1.12e-12             1.2636e-09           
  -0.7                  -1.3072e-09           2e-13                 -1.02e-12             1.3038e-09           
  -0.75                 -1.3462e-09           2.4e-13               -1.06e-12             1.3486e-09           
  -0.8                  -1.3992e-09           1.6e-13               -9.8e-13              1.4e-09              
  -0.85                 -1.4422e-09           8e-14                 -1.1e-12              1.4428e-09           
  -0.9                  -1.4882e-09           2.6e-13               -1.04e-12             1.4928e-09           
  -0.95                 -1.54e-09             1.6e-13               -1.1e-12              1.54e-09             
  -1                    -1.5888e-09           3.4e-13               -1e-12                1.5882e-09           
  -1.05                 -1.6306e-09           2e-13                 -1.04e-12             1.6368e-09           
  -1.1                  -1.6794e-09           2.4e-13               -1.04e-12             1.6798e-09           
  -1.15                 -1.7296e-09           3.4e-13               -1.08e-12             1.728e-09            
  -1.2                  -1.7838e-09           1.4e-13               -1.04e-12             1.7834e-09           
  -1.25                 -1.8344e-09           4.2e-13               -9.8e-13              1.8272e-09           
  -1.3                  -1.8778e-09           2.6e-13               -1.1e-12              1.8784e-09           
  -1.35                 -1.9374e-09           4.4e-13               -1.1e-12              1.9378e-09           
END_DB

BEGIN_DB
 ICCAP_VAR vg         -0.393         
 ICCAP_VAR vb         -0             
 ICCAP_VAR vs         -0             

 #vd                    id                    ig                    ib                    is                   
  -0                    3.0728e-10            -1.6e-13              -1.04e-12             -3.1006e-10          
  -0.05                 -1.1392e-07           -1e-13                -9e-13                1.1416e-07           
  -0.1                  -1.5366e-07           6e-14                 -9.6e-13              1.5378e-07           
  -0.15                 -1.7246e-07           1e-13                 -9.8e-13              1.7288e-07           
  -0.2                  -1.8564e-07           8e-14                 -1.04e-12             1.8538e-07           
  -0.25                 -1.9624e-07           0                     -1e-12                1.966e-07            
  -0.3                  -2.0596e-07           -2e-14                -9.8e-13              2.062e-07            
  -0.35                 -2.153e-07            4e-14                 -9.4e-13              2.1536e-07           
  -0.4                  -2.2406e-07           8e-14                 -9.4e-13              2.2424e-07           
  -0.45                 -2.3296e-07           1e-13                 -1e-12                2.3332e-07           
  -0.5                  -2.413e-07            0                     -1e-12                2.4166e-07           
  -0.55                 -2.4988e-07           -2e-14                -1.04e-12             2.5024e-07           
  -0.6                  -2.5784e-07           1.2e-13               -1e-12                2.578e-07            
  -0.65                 -2.6556e-07           -4e-14                -9.2e-13              2.6614e-07           
  -0.7                  -2.7386e-07           0                     -9.6e-13              2.7394e-07           
  -0.75                 -2.8122e-07           6e-14                 -1.08e-12             2.8146e-07           
  -0.8                  -2.8812e-07           8e-14                 -9.2e-13              2.8838e-07           
  -0.85                 -2.963e-07            1.8e-13               -9.2e-13              2.9676e-07           
  -0.9                  -3.0404e-07           6e-14                 -9.2e-13              3.0464e-07           
  -0.95                 -3.1214e-07           1.8e-13               -9.4e-13              3.1158e-07           
  -1                    -3.1894e-07           2.4e-13               -9.8e-13              3.1882e-07           
  -1.05                 -3.2702e-07           6e-14                 -9.4e-13              3.2632e-07           
  -1.1                  -3.3446e-07           1.4e-13               -8.8e-13              3.3444e-07           
  -1.15                 -3.4174e-07           2e-14                 -8.4e-13              3.4224e-07           
  -1.2                  -3.4936e-07           1e-13                 -8.2e-13              3.484e-07            
  -1.25                 -3.5686e-07           2e-13                 -7.4e-13              3.5702e-07           
  -1.3                  -3.644e-07            2e-13                 -4e-13                3.6428e-07           
  -1.35                 -3.71e-07             1e-13                 0                     3.7144e-07           
END_DB

BEGIN_DB
 ICCAP_VAR vg         -0.593         
 ICCAP_VAR vb         -0             
 ICCAP_VAR vs         -0             

 #vd                    id                    ig                    ib                    is                   
  -0                    2.3274e-09            -2.6e-13              -9.4e-13              -2.106e-09           
  -0.05                 -1.4888e-06           -1.6e-13              -1e-12                1.492e-06            
  -0.1                  -2.42e-06             -1.6e-13              -1.02e-12             2.4252e-06           
  -0.15                 -2.9778e-06           -1.8e-13              -9.8e-13              2.9828e-06           
  -0.2                  -3.327e-06            0                     -8.6e-13              3.329e-06            
  -0.25                 -3.574e-06            -6e-14                -9e-13                3.5776e-06           
  -0.3                  -3.7604e-06           0                     -9.4e-13              3.741e-06            
  -0.35                 -3.8928e-06           -1e-13                -8.4e-13              3.8988e-06           
  -0.4                  -4.0322e-06           -1.6e-13              -9.6e-13              4.0378e-06           
  -0.45                 -4.1594e-06           -2.2e-13              -9.2e-13              4.1612e-06           
  -0.5                  -4.2736e-06           -4e-14                -7.6e-13              4.2784e-06           
  -0.55                 -4.3872e-06           -6e-14                -9.2e-13              4.3878e-06           
  -0.6                  -4.4926e-06           -1.4e-13              -9.6e-13              4.496e-06            
  -0.65                 -4.5966e-06           -1.4e-13              -9.2e-13              4.595e-06            
  -0.7                  -4.6906e-06           -2e-14                -8.2e-13              4.6974e-06           
  -0.75                 -4.7886e-06           -2e-14                -8.6e-13              4.7936e-06           
  -0.8                  -4.8838e-06           -2e-14                -7.8e-13              4.8892e-06           
  -0.85                 -4.983e-06            -1.2e-13              -8.2e-13              4.989e-06            
  -0.9                  -5.0742e-06           -4e-14                -9e-13                5.0784e-06           
  -0.95                 -5.1694e-06           -1.6e-13              -9.2e-13              5.1698e-06           
  -1                    -5.254e-06            0                     -7.8e-13              5.2562e-06           
  -1.05                 -5.3442e-06           -8e-14                -7.8e-13              5.3474e-06           
  -1.1                  -5.4334e-06           8e-14                 -7.8e-13              5.4364e-06           
  -1.15                 -5.519e-06            0                     -8.2e-13              5.5236e-06           
  -1.2                  -5.6046e-06           -4e-14                -7e-13                5.6118e-06           
  -1.25                 -5.691e-06            -4e-14                -3.6e-13              5.6942e-06           
  -1.3                  -5.774e-06            -2e-14                4.8e-13               5.7782e-06           
  -1.35                 -5.8548e-06           6e-14                 1.82e-12              5.8634e-06           
END_DB

