! VERSION = 6.00
BEGIN_HEADER
 ICCAP_INPUTS
  vg         V  G GROUND SMU2 0.001 LIN        1    0.5        -1.35      38   -0.05     
  vb         V  B GROUND SMU4 0.1 LIN        2    0          1.2        7    0.2       
  vd         V  D GROUND SMU1 0.1 LIST       3 3 -0.05 -0.6 -1.2
  vs         V  S GROUND SMU3 0.1 CON        -0
 ICCAP_OUTPUTS
  id         I  D GROUND SMU1 B
  ig         I  G GROUND SMU2 B
  ib         I  B GROUND SMU4 B
  is         I  S GROUND SMU3 B
 ICCAP_VALUES
  MASTER_SETUP_TYPE "~dc_idvg~"
  LINVT_VALUE ""
  LISTVT_VALUE ""
  TYPE "-1"
  TEMP " 27.0000 "
  IS_TNOM " 1.00000 "
  MAIN.W "10.00u"
  MAIN.L "140.0n"
  MAIN.AD "3.400p"
  MAIN.AS "3.400p"
  MAIN.PD "20.68u"
  MAIN.PS "20.68u"
  MAIN.NF "1.000"
  MAIN.M "1"
  MAIN.NRD "0.000"
  MAIN.NRS "0.000"
  MAIN.LDRIFT1 "1E-06"
  MAIN.LDRIFT2 "1E-06"
  MAIN.SA "0.000"
  MAIN.SB "0.000"
  MAIN.SD "0.000"
  MAIN.SCA "0.000"
  MAIN.SCB "0.000"
  MAIN.SCC "0.000"
  MAIN.SC "0.000"
  MODULE "S548"
  PIN_D "16"
  PIN_G "5"
  PIN_S "6"
  PIN_B "15"
  PIN_E ""
  PIN_6 ""
  XY_ID ""
  FUNC "L Scale"
  STI "SA ref"
  WPE "WPE ref"
  COMMENT ""
  DIS_MEAS ""
  TypeTCI "10"
END_HEADER

BEGIN_DB
 ICCAP_VAR vb         0              
 ICCAP_VAR vd         -0.05          
 ICCAP_VAR vs         -0             

 #vg                    id                    ig                    ib                    is                   
  0.5                   -1.98e-12             2.258e-11             -5.92e-12             -2.04e-12            
  0.45                  -1.5e-12              5.92e-12              -1.82e-12             -1.4e-12             
  0.4                   -1.26e-12             2.84e-12              -1.06e-12             -1.16e-12            
  0.35                  -8.8e-13              1.84e-12              -1.12e-12             -8.8e-13             
  0.3                   -7.4e-13              1.22e-12              -1e-12                -6e-13               
  0.25                  -4.8e-13              6.6e-13               -9.8e-13              -4.2e-13             
  0.2                   -5.4e-13              5.2e-13               -9e-13                -2.2e-13             
  0.15                  -8.6e-13              2e-13                 -8.6e-13              3.8e-13              
  0.1                   -2.74e-12             -6e-14                -1e-12                2.6e-12              
  0.05                  -1.144e-11            -1.2e-13              -8.6e-13              1.128e-11            
  0                     -4.992e-11            -2.6e-13              -1e-12                4.982e-11            
  -0.05                 -2.1876e-10           -3e-13                -1.02e-12             2.1878e-10           
  -0.1                  -9.6682e-10           -3.8e-13              -9.2e-13              9.6648e-10           
  -0.15                 -4.2872e-09           -4.8e-13              -9e-13                4.2846e-09           
  -0.2                  -1.8844e-08           -5.2e-13              -8.8e-13              1.8884e-08           
  -0.25                 -8.1728e-08           -8e-13                -9.2e-13              8.1752e-08           
  -0.3                  -3.3638e-07           -1.16e-12             -9.4e-13              3.3616e-07           
  -0.35                 -1.2364e-06           -1.44e-12             -9e-13                1.2372e-06           
  -0.4                  -3.789e-06            -2.16e-12             -9.6e-13              3.7928e-06           
  -0.45                 -9.3026e-06           -3.02e-12             -8e-13                9.3002e-06           
  -0.5                  -1.84e-05             -4.42e-12             -8.8e-13              1.8416e-05           
  -0.55                 -3.061e-05            -6.38e-12             -1e-12                3.0616e-05           
  -0.6                  -4.4846e-05           -8.64e-12             -8.4e-13              4.4852e-05           
  -0.65                 -6.0032e-05           -1.206e-11            -9e-13                6.0038e-05           
  -0.7                  -7.5598e-05           -1.638e-11            -1.04e-12             7.555e-05            
  -0.75                 -9.0868e-05           -2.174e-11            -8e-13                9.0846e-05           
  -0.8                  -0.000105708          -2.88e-11             -9.6e-13              0.00010572           
  -0.85                 -0.00011984           -3.734e-11            -1.02e-12             0.00012014           
  -0.9                  -0.00013354           -4.774e-11            -8e-13                0.00013388           
  -0.95                 -0.00014652           -6.082e-11            -9.2e-13              0.0001469            
  -1                    -0.00015892           -7.57e-11             -9e-13                0.00015918           
  -1.05                 -0.00017044           -9.324e-11            -9.2e-13              0.00017074           
  -1.1                  -0.00018148           -1.1324e-10           -8.6e-13              0.00018182           
  -1.15                 -0.00019182           -1.3648e-10           -7.4e-13              0.0001922            
  -1.2                  -0.00020158           -1.6292e-10           -6e-13                0.00020196           
  -1.25                 -0.00021086           -1.9366e-10           -4.4e-13              0.00021114           
  -1.3                  -0.00021946           -2.274e-10            2e-13                 0.00021976           
  -1.35                 -0.00022762           -2.6738e-10           1.08e-12              0.00022788           
END_DB

BEGIN_DB
 ICCAP_VAR vb         0.2            
 ICCAP_VAR vd         -0.05          
 ICCAP_VAR vs         -0             

 #vg                    id                    ig                    ib                    is                   
  0.5                   -1.84e-12             4.14e-12              1.2e-13               -1.96e-12            
  0.45                  -1.44e-12             3.18e-12              0                     -1.4e-12             
  0.4                   -1.1e-12              2.18e-12              -6e-14                -1e-12               
  0.35                  -9e-13                1.68e-12              6e-14                 -8.2e-13             
  0.3                   -5.6e-13              1.14e-12              -6e-14                -3.8e-13             
  0.25                  -3.8e-13              7.6e-13               0                     -3e-13               
  0.2                   -4.2e-13              4.8e-13               -1e-13                -1.6e-13             
  0.15                  -3.2e-13              1.6e-13               -4e-14                -6e-14               
  0.1                   -7.8e-13              8e-14                 6e-14                 6e-13                
  0.05                  -3.18e-12             -2.2e-13              -8e-14                3.26e-12             
  0                     -1.43e-11             -1.8e-13              6e-14                 1.406e-11            
  -0.05                 -6.468e-11            -2.4e-13              -4e-14                6.504e-11            
  -0.1                  -2.9758e-10           -4.6e-13              1.2e-13               2.9708e-10           
  -0.15                 -1.364e-09            -3.8e-13              -6e-14                1.3634e-09           
  -0.2                  -6.2288e-09           -6e-13                -1.8e-13              6.2292e-09           
  -0.25                 -2.822e-08            -7.4e-13              6e-14                 2.8244e-08           
  -0.3                  -1.241e-07            -1.02e-12             -1.6e-13              1.2416e-07           
  -0.35                 -5.069e-07            -1.5e-12              4e-14                 5.0692e-07           
  -0.4                  -1.793e-06            -2.02e-12             6e-14                 1.7938e-06           
  -0.45                 -5.171e-06            -2.98e-12             -2e-14                5.1732e-06           
  -0.5                  -1.1808e-05           -4.14e-12             8e-14                 1.1814e-05           
  -0.55                 -2.191e-05            -5.92e-12             -6e-14                2.191e-05            
  -0.6                  -3.4748e-05           -8.46e-12             -1.4e-13              3.4774e-05           
  -0.65                 -4.915e-05            -1.17e-11             -2e-14                4.9122e-05           
  -0.7                  -6.4144e-05           -1.594e-11            -1.4e-13              6.414e-05            
  -0.75                 -7.9292e-05           -2.138e-11            -2e-14                7.9234e-05           
  -0.8                  -9.4074e-05           -2.804e-11            -2e-14                9.409e-05            
  -0.85                 -0.000108414          -3.662e-11            -8e-14                0.000108426          
  -0.9                  -0.00012202           -4.712e-11            2e-14                 0.00012232           
  -0.95                 -0.00013514           -5.994e-11            -4e-14                0.0001354            
  -1                    -0.00014754           -7.494e-11            -6e-14                0.0001479            
  -1.05                 -0.00015936           -9.23e-11             2e-14                 0.0001597            
  -1.1                  -0.0001705            -1.124e-10            -8e-14                0.00017072           
  -1.15                 -0.00018094           -1.3556e-10           4e-14                 0.00018136           
  -1.2                  -0.0001909            -1.6224e-10           2.4e-13               0.00019116           
  -1.25                 -0.00020024           -1.9256e-10           3.8e-13               0.00020054           
  -1.3                  -0.00020912           -2.2732e-10           9e-13                 0.00020938           
  -1.35                 -0.0002174            -2.6654e-10           1.94e-12              0.00021772           
END_DB

BEGIN_DB
 ICCAP_VAR vb         0.4            
 ICCAP_VAR vd         -0.05          
 ICCAP_VAR vs         -0             

 #vg                    id                    ig                    ib                    is                   
  0.5                   -1.8e-12              4.14e-12              0                     -1.96e-12            
  0.45                  -1.4e-12              3.02e-12              6e-14                 -1.44e-12            
  0.4                   -1.1e-12              2.26e-12              1e-13                 -1.1e-12             
  0.35                  -6.8e-13              1.58e-12              -4e-14                -7e-13               
  0.3                   -6e-13                1.18e-12              -8e-14                -5.6e-13             
  0.25                  -3.6e-13              6.6e-13               -6e-14                -3.4e-13             
  0.2                   -2.6e-13              5e-13                 -4e-14                -1e-13               
  0.15                  -2.4e-13              2.2e-13               -2e-14                0                    
  0.1                   -3.6e-13              4e-14                 2e-14                 1.6e-13              
  0.05                  -1.14e-12             -2.2e-13              -2e-14                1.26e-12             
  0                     -4.86e-12             -1.4e-13              8e-14                 4.82e-12             
  -0.05                 -2.27e-11             -1.4e-13              4e-14                 2.29e-11             
  -0.1                  -1.075e-10            -4e-13                -8e-14                1.0762e-10           
  -0.15                 -5.0652e-10           -4.6e-13              1e-13                 5.0616e-10           
  -0.2                  -2.3764e-09           -6.8e-13              -4e-14                2.3772e-09           
  -0.25                 -1.1102e-08           -8e-13                6e-14                 1.10992e-08          
  -0.3                  -5.0952e-08           -1.12e-12             0                     5.0904e-08           
  -0.35                 -2.2186e-07           -1.6e-12              0                     2.2204e-07           
  -0.4                  -8.6996e-07           -2.02e-12             4e-14                 8.6954e-07           
  -0.45                 -2.8618e-06           -2.7e-12              -4e-14                2.862e-06            
  -0.5                  -7.4904e-06           -3.94e-12             1.4e-13               7.4862e-06           
  -0.55                 -1.5564e-05           -5.58e-12             -8e-14                1.5564e-05           
  -0.6                  -2.6828e-05           -8.08e-12             -6e-14                2.6844e-05           
  -0.65                 -4.0242e-05           -1.134e-11            -6e-14                4.0272e-05           
  -0.7                  -5.4798e-05           -1.536e-11            2e-14                 5.4762e-05           
  -0.75                 -6.953e-05            -2.084e-11            -1.4e-13              6.9492e-05           
  -0.8                  -8.4262e-05           -2.746e-11            -8e-14                8.423e-05            
  -0.85                 -9.869e-05            -3.596e-11            8e-14                 9.8636e-05           
  -0.9                  -0.000112474          -4.648e-11            -6e-14                0.000112508          
  -0.95                 -0.00012552           -5.906e-11            0                     0.0001258            
  -1                    -0.00013806           -7.414e-11            -2e-14                0.0001384            
  -1.05                 -0.00014994           -9.136e-11            -6e-14                0.00015026           
  -1.1                  -0.00016122           -1.1148e-10           4e-14                 0.00016156           
  -1.15                 -0.00017202           -1.347e-10            4e-14                 0.00017224           
  -1.2                  -0.00018198           -1.6114e-10           1.8e-13               0.00018232           
  -1.25                 -0.0001914            -1.9152e-10           3.8e-13               0.00019172           
  -1.3                  -0.00020022           -2.2638e-10           9.6e-13               0.0002006            
  -1.35                 -0.00020866           -2.6558e-10           2e-12                 0.00020892           
END_DB

BEGIN_DB
 ICCAP_VAR vb         0.6            
 ICCAP_VAR vd         -0.05          
 ICCAP_VAR vs         -0             

 #vg                    id                    ig                    ib                    is                   
  0.5                   -1.76e-12             4.06e-12              0                     -1.78e-12            
  0.45                  -1.48e-12             2.98e-12              4e-14                 -1.46e-12            
  0.4                   -1.04e-12             2.14e-12              8e-14                 -1.08e-12            
  0.35                  -8.6e-13              1.64e-12              -6e-14                -6.8e-13             
  0.3                   -6.8e-13              1.2e-12               6e-14                 -4.8e-13             
  0.25                  -4e-13                7.6e-13               4e-14                 -4.2e-13             
  0.2                   -3e-13                3.6e-13               -2e-14                -1.4e-13             
  0.15                  -2e-13                2.2e-13               6e-14                 -1.4e-13             
  0.1                   -2.6e-13              0                     4e-14                 1.8e-13              
  0.05                  -3.6e-13              -1e-13                0                     4e-13                
  0                     -1.84e-12             -3e-13                2e-14                 1.94e-12             
  -0.05                 -9.16e-12             -3.2e-13              -6e-14                9.48e-12             
  -0.1                  -4.43e-11             -4.2e-13              2e-14                 4.44e-11             
  -0.15                 -2.1276e-10           -5.6e-13              4e-14                 2.1302e-10           
  -0.2                  -1.0184e-09           -7.6e-13              -6e-14                1.01874e-09          
  -0.25                 -4.854e-09            -7.4e-13              0                     4.8542e-09           
  -0.3                  -2.2894e-08           -1e-12                -8e-14                2.2926e-08           
  -0.35                 -1.04322e-07          -1.44e-12             0                     1.04272e-07          
  -0.4                  -4.4016e-07           -2e-12                8e-14                 4.3852e-07           
  -0.45                 -1.6008e-06           -2.82e-12             -8e-14                1.604e-06            
  -0.5                  -4.7336e-06           -3.72e-12             1.2e-13               4.733e-06            
  -0.55                 -1.10056e-05          -5.62e-12             -8e-14                1.1019e-05           
  -0.6                  -2.0682e-05           -7.78e-12             0                     2.0692e-05           
  -0.65                 -3.3012e-05           -1.09e-11             -8e-14                3.298e-05            
  -0.7                  -4.683e-05            -1.5e-11              2e-14                 4.684e-05            
  -0.75                 -6.1348e-05           -2.028e-11            -1.6e-13              6.1334e-05           
  -0.8                  -7.5914e-05           -2.69e-11             -2e-14                7.59e-05             
  -0.85                 -9.0242e-05           -3.534e-11            6e-14                 9.0256e-05           
  -0.9                  -0.000104086          -4.576e-11            0                     0.000104042          
  -0.95                 -0.00011706           -5.84e-11             -2e-14                0.00011738           
  -1                    -0.00012974           -7.322e-11            4e-14                 0.00013006           
  -1.05                 -0.00014174           -9.102e-11            -8e-14                0.0001421            
  -1.1                  -0.00015324           -1.107e-10            6e-14                 0.00015348           
  -1.15                 -0.00016388           -1.337e-10            2e-14                 0.00016416           
  -1.2                  -0.00017408           -1.5994e-10           2e-13                 0.0001744            
  -1.25                 -0.00018368           -1.8996e-10           4.6e-13               0.000184             
  -1.3                  -0.0001928            -2.2456e-10           9.4e-13               0.0001931            
  -1.35                 -0.00020124           -2.6438e-10           2.02e-12              0.00020162           
END_DB

BEGIN_DB
 ICCAP_VAR vb         0.8            
 ICCAP_VAR vd         -0.05          
 ICCAP_VAR vs         -0             

 #vg                    id                    ig                    ib                    is                   
  0.5                   -1.7e-12              4e-12                 6e-14                 -2.04e-12            
  0.45                  -1.36e-12             3.02e-12              1.4e-13               -1.56e-12            
  0.4                   -9.8e-13              2.2e-12               4e-14                 -1.12e-12            
  0.35                  -7.2e-13              1.6e-12               6e-14                 -8.6e-13             
  0.3                   -5.6e-13              1.12e-12              0                     -4.4e-13             
