! VERSION = 6.00
BEGIN_HEADER
 ICCAP_INPUTS
  vg         V  G GROUND SMU2 0.001 LIN        1    0.5        -1.35      38   -0.05     
  vb         V  B GROUND SMU4 0.1 LIN        2    0          1.2        7    0.2       
  vd         V  D GROUND SMU1 0.1 LIST       3 3 -0.05 -0.6 -1.2
  vs         V  S GROUND SMU3 0.1 CON        -0
 ICCAP_OUTPUTS
  id         I  D GROUND SMU1 B
  ig         I  G GROUND SMU2 B
  ib         I  B GROUND SMU4 B
  is         I  S GROUND SMU3 B
 ICCAP_VALUES
  MASTER_SETUP_TYPE "~dc_idvg~"
  LINVT_VALUE ""
  LISTVT_VALUE ""
  TYPE "-1"
  TEMP " 27.0000 "
  IS_TNOM " 1.00000 "
  MAIN.W "150.0n"
  MAIN.L "140.0n"
  MAIN.AD "100.5f"
  MAIN.AS "100.5f"
  MAIN.PD "1.340u"
  MAIN.PS "1.340u"
  MAIN.NF "1.000"
  MAIN.M "1"
  MAIN.NRD "0.000"
  MAIN.NRS "0.000"
  MAIN.LDRIFT1 "1E-06"
  MAIN.LDRIFT2 "1E-06"
  MAIN.SA "0.000"
  MAIN.SB "0.000"
  MAIN.SD "0.000"
  MAIN.SCA "0.000"
  MAIN.SCB "0.000"
  MAIN.SCC "0.000"
  MAIN.SC "0.000"
  MODULE "S554"
  PIN_D "14"
  PIN_G "7"
  PIN_S "8"
  PIN_B "13"
  PIN_E ""
  PIN_6 ""
  XY_ID ""
  FUNC "LW Scale"
  STI "SA ref"
  WPE "WPE ref"
  COMMENT ""
  DIS_MEAS ""
  TypeTCI "10"
END_HEADER

BEGIN_DB
 ICCAP_VAR vb         0              
 ICCAP_VAR vd         -0.05          
 ICCAP_VAR vs         -0             

 #vg                    id                    ig                    ib                    is                   
  0.5                   -2e-14                1.974e-11             -6.46e-12             2e-14                
  0.45                  -6e-14                3.3e-12               -2.04e-12             1.4e-13              
  0.4                   -2e-14                5.4e-13               -1.22e-12             8e-14                
  0.35                  -4e-14                -1.8e-13              -9.2e-13              1.4e-13              
  0.3                   -8e-14                2e-13                 -9.2e-13              -6e-14               
  0.25                  -2e-14                -3.4e-13              -8.4e-13              1.4e-13              
  0.2                   -1.2e-13              -1.8e-13              -9.2e-13              6e-14                
  0.15                  -1e-13                -2.4e-13              -8.4e-13              1.2e-13              
  0.1                   -6e-14                -2.4e-13              -7.8e-13              6e-14                
  0.05                  -2.8e-13              -3.2e-13              -8.2e-13              3e-13                
  0                     -1.28e-12             -4.4e-13              -8.8e-13              1.2e-12              
  -0.05                 -5.46e-12             -4.4e-13              -9.4e-13              5.68e-12             
  -0.1                  -2.496e-11            -5e-13                -9e-13                2.476e-11            
  -0.15                 -1.1162e-10           -5.2e-13              -9e-13                1.1174e-10           
  -0.2                  -4.9628e-10           -6e-13                -8.4e-13              4.9574e-10           
  -0.25                 -2.1696e-09           -5e-13                -8.4e-13              2.1886e-09           
  -0.3                  -9.0454e-09           -6e-13                -9e-13                9.0748e-09           
  -0.35                 -3.3538e-08           -4.8e-13              -8.2e-13              3.365e-08            
  -0.4                  -1.02418e-07          -5.8e-13              -7.8e-13              1.02538e-07          
  -0.45                 -2.4794e-07           -4.8e-13              -8.8e-13              2.478e-07            
  -0.5                  -4.8298e-07           -7.4e-13              -8.2e-13              4.8268e-07           
  -0.55                 -7.9254e-07           -6.8e-13              -8.2e-13              7.9504e-07           
  -0.6                  -1.1532e-06           -6e-13                -7.6e-13              1.1594e-06           
  -0.65                 -1.544e-06            -8e-13                -7.2e-13              1.5482e-06           
  -0.7                  -1.9474e-06           -8.2e-13              -8.8e-13              1.9508e-06           
  -0.75                 -2.3448e-06           -1.12e-12             -7e-13                2.3494e-06           
  -0.8                  -2.7292e-06           -1.1e-12              -8.6e-13              2.7478e-06           
  -0.85                 -3.1304e-06           -1.14e-12             -7e-13                3.1344e-06           
  -0.9                  -3.5024e-06           -1.44e-12             -7.8e-13              3.501e-06            
  -0.95                 -3.8468e-06           -1.62e-12             -7.4e-13              3.8576e-06           
  -1                    -4.1802e-06           -1.86e-12             -8.6e-13              4.1834e-06           
  -1.05                 -4.5096e-06           -2.16e-12             -8e-13                4.5016e-06           
  -1.1                  -4.8068e-06           -2.1e-12              -8.2e-13              4.8142e-06           
  -1.15                 -5.0898e-06           -3.08e-12             -8.2e-13              5.106e-06            
  -1.2                  -5.382e-06            -2.98e-12             -8.2e-13              5.381e-06            
  -1.25                 -5.6296e-06           -3.86e-12             -7.4e-13              5.6336e-06           
  -1.3                  -5.8884e-06           -4.4e-12              -7.8e-13              5.8818e-06           
  -1.35                 -6.0948e-06           -5.4e-12              -7.2e-13              6.1068e-06           
END_DB

BEGIN_DB
 ICCAP_VAR vb         0.2            
 ICCAP_VAR vd         -0.05          
 ICCAP_VAR vs         -0             

 #vg                    id                    ig                    ib                    is                   
  0.5                   -2e-14                5.6e-13               1.4e-13               6e-14                
  0.45                  6e-14                 2.6e-13               4e-14                 0                    
  0.4                   -4e-14                6e-14                 8e-14                 1.2e-13              
  0.35                  2e-14                 -2.2e-13              -6e-14                2.8e-13              
  0.3                   -4e-14                -1.2e-13              2e-14                 1e-13                
  0.25                  -2e-14                -6e-14                -6e-14                1e-13                
  0.2                   4e-14                 -2.8e-13              1.2e-13               1.4e-13              
  0.15                  -1.2e-13              -4.6e-13              0                     4e-14                
  0.1                   2e-14                 -3e-13                1e-13                 1e-13                
  0.05                  -4e-14                -2.8e-13              -4e-14                2.2e-13              
  0                     -3.6e-13              -5.4e-13              -2e-14                3.4e-13              
  -0.05                 -1.6e-12              -3e-13                1e-13                 1.72e-12             
  -0.1                  -7.46e-12             -2.4e-13              -2e-14                7.4e-12              
  -0.15                 -3.42e-11             -7e-13                4e-14                 3.444e-11            
  -0.2                  -1.6008e-10           -1.4e-13              -6e-14                1.5992e-10           
  -0.25                 -7.3578e-10           -7.6e-13              0                     7.3602e-10           
  -0.3                  -3.2814e-09           -4.2e-13              -2e-14                3.2752e-09           
  -0.35                 -1.35e-08             -3.2e-13              -8e-14                1.3648e-08           
  -0.4                  -4.9044e-08           -5e-13                2e-14                 4.858e-08            
  -0.45                 -1.3952e-07           -6.6e-13              4e-14                 1.3882e-07           
  -0.5                  -3.1242e-07           -5.8e-13              -6e-14                3.1278e-07           
  -0.55                 -5.7342e-07           -5.8e-13              6e-14                 5.7458e-07           
  -0.6                  -9.0174e-07           -5.8e-13              -4e-14                9.0086e-07           
  -0.65                 -1.2674e-06           -5.8e-13              -2e-14                1.2714e-06           
  -0.7                  -1.658e-06            -7.6e-13              0                     1.6618e-06           
  -0.75                 -2.0552e-06           -8.4e-13              0                     2.0586e-06           
  -0.8                  -2.4484e-06           -1.16e-12             2e-14                 2.4518e-06           
  -0.85                 -2.8316e-06           -1e-12                -1e-13                2.835e-06            
  -0.9                  -3.204e-06            -1.66e-12             -6e-14                3.2082e-06           
  -0.95                 -3.5628e-06           -1.54e-12             -2e-14                3.5668e-06           
  -1                    -3.9052e-06           -1.76e-12             -6e-14                3.8964e-06           
  -1.05                 -4.2256e-06           -2.26e-12             -4e-14                4.2226e-06           
  -1.1                  -4.5398e-06           -2.34e-12             -8e-14                4.5494e-06           
  -1.15                 -4.8202e-06           -2.74e-12             -6e-14                4.8246e-06           
  -1.2                  -5.102e-06            -3.2e-12              -4e-14                5.105e-06            
  -1.25                 -5.36e-06             -3.7e-12              -8e-14                5.3648e-06           
  -1.3                  -5.608e-06            -4.4e-12              1.2e-13               5.6122e-06           
  -1.35                 -5.8576e-06           -5.16e-12             -1.4e-13              5.8562e-06           
END_DB

BEGIN_DB
 ICCAP_VAR vb         0.4            
 ICCAP_VAR vd         -0.05          
 ICCAP_VAR vs         -0             

 #vg                    id                    ig                    ib                    is                   
  0.5                   0                     6.4e-13               1.2e-13               1.4e-13              
  0.45                  2e-14                 3.6e-13               1e-13                 -2e-14               
  0.4                   0                     6e-14                 -2e-14                1.6e-13              
  0.35                  0                     -4e-14                8e-14                 -1.2e-13             
  0.3                   1e-13                 -4e-13                6e-14                 1.4e-13              
  0.25                  4e-14                 -1.2e-13              8e-14                 6e-14                
  0.2                   -6e-14                -3.2e-13              0                     2.2e-13              
  0.15                  2e-14                 -5e-13                -4e-14                0                    
  0.1                   4e-14                 -2.8e-13              2e-14                 1.4e-13              
  0.05                  0                     -3.2e-13              -1e-13                1.2e-13              
  0                     -1e-13                -6.8e-13              6e-14                 2.8e-13              
  -0.05                 -6.6e-13              -1.6e-13              0                     5.4e-13              
  -0.1                  -2.74e-12             -5.4e-13              -2e-14                3.04e-12             
  -0.15                 -1.304e-11            -4.8e-13              2e-14                 1.31e-11             
  -0.2                  -6.214e-11            -4e-13                2e-14                 6.188e-11            
  -0.25                 -2.9342e-10           -5.4e-13              0                     2.9484e-10           
  -0.3                  -1.3708e-09           -2.4e-13              -1.4e-13              1.3646e-09           
  -0.35                 -6.0814e-09           -3.8e-13              -8e-14                5.9826e-09           
  -0.4                  -2.4024e-08           -4e-13                -4e-14                2.4012e-08           
  -0.45                 -7.903e-08            -5e-13                -4e-14                7.9216e-08           
  -0.5                  -2.0316e-07           -5.6e-13              0                     2.0382e-07           
  -0.55                 -4.1658e-07           -7e-13                -8e-14                4.1666e-07           
  -0.6                  -7.0772e-07           -7.6e-13              -2e-14                7.0804e-07           
  -0.65                 -1.05234e-06          -6.4e-13              1e-13                 1.05354e-06          
  -0.7                  -1.428e-06            -4e-13                -2e-14                1.434e-06            
  -0.75                 -1.817e-06            -8.4e-13              2e-14                 1.8214e-06           
  -0.8                  -2.2068e-06           -1.08e-12             -4e-14                2.2108e-06           
  -0.85                 -2.5894e-06           -1.16e-12             -4e-14                2.5928e-06           
  -0.9                  -2.9624e-06           -1.24e-12             -2e-14                2.9656e-06           
  -0.95                 -3.3216e-06           -1.52e-12             -6e-14                3.3244e-06           
  -1                    -3.6462e-06           -1.82e-12             4e-14                 3.648e-06            
  -1.05                 -3.9752e-06           -1.9e-12              4e-14                 3.9798e-06           
  -1.1                  -4.3048e-06           -2.32e-12             -4e-14                4.301e-06            
  -1.15                 -4.606e-06            -2.58e-12             6e-14                 4.5912e-06           
  -1.2                  -4.872e-06            -3.06e-12             -1.2e-13              4.8712e-06           
  -1.25                 -5.1362e-06           -3.5e-12              1e-13                 5.1392e-06           
  -1.3                  -5.3964e-06           -4.36e-12             -2e-14                5.3986e-06           
  -1.35                 -5.6236e-06           -5.3e-12              0                     5.6436e-06           
END_DB

BEGIN_DB
 ICCAP_VAR vb         0.6            
 ICCAP_VAR vd         -0.05          
 ICCAP_VAR vs         -0             

 #vg                    id                    ig                    ib                    is                   
  0.5                   0                     4e-13                 1e-13                 1.8e-13              
  0.45                  -4e-14                3.4e-13               8e-14                 8e-14                
  0.4                   -2e-14                4e-14                 6e-14                 -6e-14               
  0.35                  -8e-14                -1.8e-13              6e-14                 8e-14                
  0.3                   -8e-14                6e-14                 0                     4e-14                
  0.25                  1.4e-13               -2e-14                1.4e-13               2e-14                
  0.2                   -2e-14                -1.8e-13              0                     1.4e-13              
  0.15                  4e-14                 -2.8e-13              6e-14                 8e-14                
  0.1                   2e-14                 -2.6e-13              6e-14                 -8e-14               
  0.05                  -4e-14                -4.4e-13              8e-14                 2e-14                
  0                     0                     -3.8e-13              4e-14                 0                    
  -0.05                 -3e-13                -5e-13                0                     3.8e-13              
  -0.1                  -1.18e-12             -4e-13                4e-14                 1.26e-12             
  -0.15                 -5.98e-12             -5.8e-13              -8e-14                6.08e-12             
  -0.2                  -2.904e-11            -5.2e-13              4e-14                 2.91e-11             
  -0.25                 -1.4012e-10           -7e-13                2e-14                 1.4038e-10           
  -0.3                  -6.6932e-10           -5.6e-13              -4e-14                6.6996e-10           
  -0.35                 -3.0652e-09           -3.2e-13              6e-14                 3.068e-09            
  -0.4                  -1.2906e-08           -5.6e-13              -4e-14                1.2958e-08           
  -0.45                 -4.6424e-08           -4e-13                0                     4.677e-08            
  -0.5                  -1.3386e-07           -7e-13                -4e-14                1.3444e-07           
  -0.55                 -3.0388e-07           -6.2e-13              -4e-14                3.0412e-07           
  -0.6                  -5.5526e-07           -8e-13                0                     5.5696e-07           
  -0.65                 -8.754e-07            -9.2e-13              -4e-14                8.7736e-07           
  -0.7                  -1.235e-06            -7e-13                6e-14                 1.239e-06            
  -0.75                 -1.6172e-06           -1.1e-12              4e-14                 1.6208e-06           
  -0.8                  -2.002e-06            -8.8e-13              -2e-14                1.991e-06            
  -0.85                 -2.3834e-06           -1.3e-12              2e-14                 2.3872e-06           
  -0.9                  -2.755e-06            -1.38e-12             0                     2.7586e-06           
  -0.95                 -3.1162e-06           -1.5e-12              -2e-14                3.1198e-06           
  -1                    -3.4592e-06           -1.8e-12              -2e-14                3.4602e-06           
  -1.05                 -3.78e-06             -1.92e-12             4e-14                 3.7942e-06           
  -1.1                  -4.0874e-06           -2.22e-12             -1e-13                4.0948e-06           
  -1.15                 -4.3898e-06           -2.82e-12             0                     4.4004e-06           
  -1.2                  -4.6754e-06           -3.06e-12             -2e-14                4.6814e-06           
  -1.25                 -4.9374e-06           -3.72e-12             0                     4.9502e-06           
  -1.3                  -5.2018e-06           -4.18e-12             -4e-14                5.2156e-06           
  -1.35                 -5.4416e-06           -5.1e-12              4e-14                 5.4356e-06           
END_DB

BEGIN_DB
 ICCAP_VAR vb         0.8            
 ICCAP_VAR vd         -0.05          
 ICCAP_VAR vs         -0             

 #vg                    id                    ig                    ib                    is                   
  0.5                   0                     4.2e-13               1.6e-13               0                    
  0.45                  -2e-14                0                     1.2e-13               0                    
  0.4                   8e-14                 1.2e-13               6e-14                 2e-13                
  0.35                  -2e-14                -1.8e-13              0                     0                    
  0.3                   1.2e-13               -1.8e-13              1e-13                 0                    
