! VERSION = 6.00
BEGIN_HEADER
 ICCAP_INPUTS
  vg         V  G GROUND SMU2 0.001 LIN        1    0.5        -1.35      38   -0.05     
  vb         V  B GROUND SMU4 0.1 LIN        2    0          1.2        7    0.2       
  vd         V  D GROUND SMU1 0.1 LIST       3 3 -0.05 -0.6 -1.2
  vs         V  S GROUND SMU3 0.1 CON        -0
 ICCAP_OUTPUTS
  id         I  D GROUND SMU1 B
  ig         I  G GROUND SMU2 B
  ib         I  B GROUND SMU4 B
  is         I  S GROUND SMU3 B
 ICCAP_VALUES
  MASTER_SETUP_TYPE "~dc_idvg~"
  LINVT_VALUE ""
  LISTVT_VALUE ""
  TYPE "-1"
  TEMP " 125.000 "
  IS_TNOM " 0.00000 "
  MAIN.W "300.0n"
  MAIN.L "10.00u"
  MAIN.AD "102.0f"
  MAIN.AS "102.0f"
  MAIN.PD "1.280u"
  MAIN.PS "1.280u"
  MAIN.NF "1.000"
  MAIN.M "1"
  MAIN.NRD "0.000"
  MAIN.NRS "0.000"
  MAIN.LDRIFT1 "1E-06"
  MAIN.LDRIFT2 "1E-06"
  MAIN.SA "0.000"
  MAIN.SB "0.000"
  MAIN.SD "0.000"
  MAIN.SCA "0.000"
  MAIN.SCB "0.000"
  MAIN.SCC "0.000"
  MAIN.SC "0.000"
  MODULE "S553"
  PIN_D "18"
  PIN_G "3"
  PIN_S "4"
  PIN_B "17"
  PIN_E ""
  PIN_6 ""
  XY_ID ""
  FUNC "W Scale"
  STI "SA ref"
  WPE "WPE ref"
  COMMENT ""
  DIS_MEAS ""
  TypeTCI "10"
END_HEADER

BEGIN_DB
 ICCAP_VAR vb         0              
 ICCAP_VAR vd         -0.05          
 ICCAP_VAR vs         -0             

 #vg                    id                    ig                    ib                    is                   
  0.5                   -1.6e-13              2.08e-08              -2.0766e-08           0                    
  0.45                  6.04e-12              4.8656e-09            -4.8756e-09           6e-14                
  0.4                   3e-13                 1.1388e-09            -1.1536e-09           6e-14                
  0.35                  1.4e-13               2.6714e-10            -2.7894e-10           0                    
  0.3                   -4e-14                6.254e-11             -7.388e-11            4e-14                
  0.25                  0                     1.46e-11              -2.558e-11            1.6e-13              
  0.2                   -6e-14                3.24e-12              -1.328e-11            2.6e-13              
  0.15                  -3.4e-13              6e-13                 -1.04e-11             4.4e-13              
  0.1                   -9.4e-13              -1e-13                -9.82e-12             1.16e-12             
  0.05                  -3.04e-12             -2.6e-13              -9.02e-12             3.06e-12             
  0                     -9.58e-12             -3.4e-13              -9.1e-12              9.82e-12             
  -0.05                 -3.108e-11            -3.8e-13              -8.22e-12             3.126e-11            
  -0.1                  -1.0092e-10           -3.6e-13              -8.72e-12             1.0104e-10           
  -0.15                 -3.2016e-10           -6e-13                -8.32e-12             3.2046e-10           
  -0.2                  -9.485e-10            -5.8e-13              -7.96e-12             9.4852e-10           
  -0.25                 -2.4486e-09           -6.8e-13              -7.96e-12             2.4486e-09           
  -0.3                  -5.2488e-09           -1.24e-12             -7.8e-12              5.2494e-09           
  -0.35                 -9.3718e-09           -1.98e-12             -7.26e-12             9.3706e-09           
  -0.4                  -1.4506e-08           -3.04e-12             -6.62e-12             1.4522e-08           
  -0.45                 -2.0258e-08           -4.92e-12             -7.1e-12              2.0276e-08           
  -0.5                  -2.6344e-08           -7.46e-12             -7.34e-12             2.637e-08            
  -0.55                 -3.256e-08            -1.108e-11            -6.3e-12              3.2594e-08           
  -0.6                  -3.881e-08            -1.58e-11             -7e-12                3.8846e-08           
  -0.65                 -4.5e-08              -2.194e-11            -6.14e-12             4.5052e-08           
  -0.7                  -5.1094e-08           -2.988e-11            -6.56e-12             5.1158e-08           
  -0.75                 -5.7044e-08           -4.004e-11            -6e-12                5.7112e-08           
  -0.8                  -6.2852e-08           -5.262e-11            -6.46e-12             6.293e-08            
  -0.85                 -6.851e-08            -6.822e-11            -6.24e-12             6.8582e-08           
  -0.9                  -7.3968e-08           -8.718e-11            -6.14e-12             7.408e-08            
  -0.95                 -7.9268e-08           -1.0958e-10           -5.68e-12             7.9398e-08           
  -1                    -8.4384e-08           -1.3636e-10           -6.22e-12             8.4546e-08           
  -1.05                 -8.9322e-08           -1.672e-10            -5.44e-12             8.9486e-08           
  -1.1                  -9.4064e-08           -2.0304e-10           -5.48e-12             9.4274e-08           
  -1.15                 -9.8642e-08           -2.4422e-10           -4.86e-12             9.8906e-08           
  -1.2                  -1.03034e-07          -2.9146e-10           -5.36e-12             1.03324e-07          
  -1.25                 -1.07264e-07          -3.4508e-10           -3.94e-12             1.07614e-07          
  -1.3                  -1.11296e-07          -4.0616e-10           -2.6e-12              1.11706e-07          
  -1.35                 -1.1514e-07           -4.7524e-10           4.2e-13               1.1566e-07           
END_DB

BEGIN_DB
 ICCAP_VAR vb         0.2            
 ICCAP_VAR vd         -0.05          
 ICCAP_VAR vs         -0             

 #vg                    id                    ig                    ib                    is                   
  0.5                   -1.4e-13              6.318e-11             -5.734e-11            -6e-14               
  0.45                  -3.4e-13              1.5e-11               -1.102e-11            -2.4e-13             
  0.4                   -1.6e-13              3.6e-12               6e-14                 -1.4e-13             
  0.35                  -1.4e-13              7.6e-13               1.82e-12              -1e-13               
  0.3                   -2.4e-13              2e-13                 2.66e-12              -4e-14               
  0.25                  -2.8e-13              -2e-14                1.92e-12              -2e-13               
  0.2                   -2.2e-13              -1e-13                1.64e-12              -1.2e-13             
  0.15                  -3.4e-13              -2.6e-13              1.36e-12              0                    
  0.1                   -4.8e-13              -3.8e-13              1.52e-12              2.8e-13              
  0.05                  -1.18e-12             -3.2e-13              1.22e-12              1.08e-12             
  0                     -3.54e-12             -3.4e-13              9e-13                 3.42e-12             
  -0.05                 -1.136e-11            -4.4e-13              5.6e-13               1.134e-11            
  -0.1                  -3.798e-11            -4.6e-13              8e-13                 3.81e-11             
  -0.15                 -1.2656e-10           -5.6e-13              0                     1.266e-10            
  -0.2                  -4.0698e-10           -6e-13                4.4e-13               4.0674e-10           
  -0.25                 -1.1942e-09           -6.6e-13              -2e-14                1.1946e-09           
  -0.3                  -2.9744e-09           -1.12e-12             3.6e-13               2.9748e-09           
  -0.35                 -6.0776e-09           -1.64e-12             -1.2e-13              6.0778e-09           
  -0.4                  -1.04142e-08          -2.84e-12             -3.8e-13              1.04132e-08          
  -0.45                 -1.5596e-08           -4.52e-12             -2e-14                1.562e-08            
  -0.5                  -2.1312e-08           -6.96e-12             -1.6e-13              2.134e-08            
  -0.55                 -2.7284e-08           -1.038e-11            -3.2e-13              2.7314e-08           
  -0.6                  -3.3366e-08           -1.514e-11            -2.2e-13              3.3396e-08           
  -0.65                 -3.9436e-08           -2.104e-11            -5.2e-13              3.9474e-08           
  -0.7                  -4.5442e-08           -2.892e-11            -5.8e-13              4.549e-08            
  -0.75                 -5.1338e-08           -3.892e-11            -1.1e-12              5.1398e-08           
  -0.8                  -5.71e-08             -5.142e-11            -2.6e-13              5.7172e-08           
  -0.85                 -6.2714e-08           -6.696e-11            -3.2e-13              6.2802e-08           
  -0.9                  -6.8166e-08           -8.57e-11             -7e-13                6.8272e-08           
  -0.95                 -7.3442e-08           -1.0812e-10           -1e-12                7.3562e-08           
  -1                    -7.857e-08            -1.3482e-10           -3.6e-13              7.872e-08            
  -1.05                 -8.3506e-08           -1.6542e-10           -3.4e-13              8.3676e-08           
  -1.1                  -8.824e-08            -2.0114e-10           -4.8e-13              8.8456e-08           
  -1.15                 -9.2836e-08           -2.422e-10            -2.6e-13              9.3094e-08           
  -1.2                  -9.7248e-08           -2.8934e-10           1e-13                 9.7546e-08           
  -1.25                 -1.01472e-07          -3.4256e-10           8.2e-13               1.01828e-07          
  -1.3                  -1.05528e-07          -4.0336e-10           2.08e-12              1.0594e-07           
  -1.35                 -1.09438e-07          -4.732e-10            4.48e-12              1.09914e-07          
END_DB

BEGIN_DB
 ICCAP_VAR vb         0.4            
 ICCAP_VAR vd         -0.05          
 ICCAP_VAR vs         -0             

 #vg                    id                    ig                    ib                    is                   
  0.5                   -2.8e-13              8e-13                 9.8e-12               -3e-13               
  0.45                  -2.2e-13              2.4e-13               8.04e-12              -2.4e-13             
  0.4                   -2.4e-13              3e-13                 7.64e-12              -1.8e-13             
  0.35                  -2.4e-13              2e-14                 6.6e-12               -2e-13               
  0.3                   -2.4e-13              2e-14                 5.92e-12              -1.4e-13             
  0.25                  -1.6e-13              -1.6e-13              5.6e-12               -2.2e-13             
  0.2                   -2.6e-13              -2.2e-13              5.88e-12              -1e-13               
  0.15                  -2.4e-13              -2e-13                5.18e-12              -2e-14               
  0.1                   -2.2e-13              -3.8e-13              4.44e-12              1e-13                
  0.05                  -6.8e-13              -2.8e-13              3.98e-12              3.8e-13              
  0                     -1.44e-12             -4.4e-13              4.16e-12              1.2e-12              
  -0.05                 -4.56e-12             -4.2e-13              3.7e-12               4.54e-12             
  -0.1                  -1.552e-11            -4.6e-13              3.54e-12              1.554e-11            
  -0.15                 -5.326e-11            -5.2e-13              3.04e-12              5.326e-11            
  -0.2                  -1.7946e-10           -4.8e-13              3.1e-12               1.7962e-10           
  -0.25                 -5.7488e-10           -6.6e-13              3.12e-12              5.749e-10            
  -0.3                  -1.625e-09            -9.2e-13              2.86e-12              1.6254e-09           
  -0.35                 -3.8006e-09           -1.44e-12             2.7e-12               3.8008e-09           
  -0.4                  -7.2884e-09           -2.52e-12             2.42e-12              7.2898e-09           
  -0.45                 -1.1844e-08           -4.1e-12              2.04e-12              1.1864e-08           
  -0.5                  -1.7124e-08           -6.48e-12             2.34e-12              1.7146e-08           
  -0.55                 -2.2792e-08           -9.76e-12             2.3e-12               2.2824e-08           
  -0.6                  -2.8672e-08           -1.422e-11            2.06e-12              2.8702e-08           
  -0.65                 -3.461e-08            -2.026e-11            2.06e-12              3.4644e-08           
  -0.7                  -4.0508e-08           -2.8e-11              2.22e-12              4.055e-08            
  -0.75                 -4.633e-08            -3.786e-11            1.6e-12               4.6382e-08           
  -0.8                  -5.204e-08            -5.036e-11            1.86e-12              5.2098e-08           
  -0.85                 -5.7622e-08           -6.57e-11             1.76e-12              5.7698e-08           
  -0.9                  -6.3046e-08           -8.416e-11            1.48e-12              6.3148e-08           
  -0.95                 -6.833e-08            -1.0642e-10           2.22e-12              6.8442e-08           
  -1                    -7.341e-08            -1.3298e-10           1.72e-12              7.3554e-08           
  -1.05                 -7.8328e-08           -1.6336e-10           1.72e-12              7.8508e-08           
  -1.1                  -8.3092e-08           -1.9916e-10           1.72e-12              8.3302e-08           
  -1.15                 -8.7686e-08           -2.4004e-10           1.96e-12              8.7948e-08           
  -1.2                  -9.2102e-08           -2.8694e-10           1.96e-12              9.238e-08            
  -1.25                 -9.6346e-08           -3.4072e-10           3.4e-12               9.6684e-08           
  -1.3                  -1.00422e-07          -4.0178e-10           4.7e-12               1.0082e-07           
  -1.35                 -1.04316e-07          -4.7056e-10           6.46e-12              1.04796e-07          
END_DB

BEGIN_DB
 ICCAP_VAR vb         0.6            
 ICCAP_VAR vd         -0.05          
 ICCAP_VAR vs         -0             

 #vg                    id                    ig                    ib                    is                   
  0.5                   -2.4e-13              6.4e-13               1.15e-11              -3.6e-13             
  0.45                  -2.4e-13              3e-13                 1.032e-11             -2.2e-13             
  0.4                   -2.6e-13              4e-14                 9.4e-12               -2.6e-13             
  0.35                  -2.8e-13              8e-14                 8.4e-12               -2.8e-13             
  0.3                   -3.8e-13              -2e-14                8.12e-12              -2.2e-13             
  0.25                  -1.4e-13              -2e-13                7.48e-12              -1e-13               
  0.2                   -1.8e-13              -1e-13                7.02e-12              -1.2e-13             
  0.15                  -1.2e-13              -3.6e-13              6.32e-12              -1.8e-13             
  0.1                   -1.8e-13              -3e-13                6.3e-12               -4e-14               
  0.05                  -3.4e-13              -3.2e-13              6.38e-12              4e-14                
  0                     -6.8e-13              -3.6e-13              5.08e-12              5.2e-13              
  -0.05                 -2.02e-12             -4.4e-13              5.28e-12              1.98e-12             
  -0.1                  -6.92e-12             -5e-13                5.2e-12               6.84e-12             
  -0.15                 -2.378e-11            -4.4e-13              4.98e-12              2.37e-11             
  -0.2                  -8.206e-11            -5.6e-13              4.48e-12              8.198e-11            
  -0.25                 -2.768e-10            -5.6e-13              5.3e-12               2.7668e-10           
  -0.3                  -8.6e-10              -7.8e-13              4.62e-12              8.6008e-10           
  -0.35                 -2.2798e-09           -1.22e-12             4.3e-12               2.2808e-09           
  -0.4                  -4.9318e-09           -2.2e-12              4.04e-12              4.9314e-09           
  -0.45                 -8.8004e-09           -3.62e-12             4.1e-12               8.802e-09            
  -0.5                  -1.3576e-08           -5.92e-12             3.82e-12              1.3598e-08           
  -0.55                 -1.8906e-08           -9.16e-12             3.7e-12               1.893e-08            
  -0.6                  -2.4548e-08           -1.348e-11            3.66e-12              2.4578e-08           
  -0.65                 -3.0316e-08           -1.924e-11            3.72e-12              3.0348e-08           
  -0.7                  -3.6106e-08           -2.704e-11            3.74e-12              3.6148e-08           
  -0.75                 -4.1848e-08           -3.68e-11             3.48e-12              4.1894e-08           
  -0.8                  -4.7496e-08           -4.9e-11              3.5e-12               4.7564e-08           
  -0.85                 -5.3034e-08           -6.42e-11             3.7e-12               5.312e-08            
  -0.9                  -5.8432e-08           -8.258e-11            3.1e-12               5.854e-08            
  -0.95                 -6.369e-08            -1.0474e-10           3.56e-12              6.3816e-08           
  -1                    -6.8776e-08           -1.3082e-10           3.1e-12               6.8916e-08           
  -1.05                 -7.3692e-08           -1.6136e-10           3.14e-12              7.3868e-08           
  -1.1                  -7.8464e-08           -1.9694e-10           3.32e-12              7.8678e-08           
  -1.15                 -8.3054e-08           -2.3742e-10           3.16e-12              8.3288e-08           
  -1.2                  -8.7464e-08           -2.8438e-10           4.3e-12               8.7746e-08           
  -1.25                 -9.1728e-08           -3.3762e-10           4.06e-12              9.208e-08            
  -1.3                  -9.5828e-08           -3.9782e-10           5.86e-12              9.6238e-08           
  -1.35                 -9.9766e-08           -4.6688e-10           8.36e-12              1.00216e-07          
END_DB

BEGIN_DB
 ICCAP_VAR vb         0.8            
 ICCAP_VAR vd         -0.05          
 ICCAP_VAR vs         -0             

 #vg                    id                    ig                    ib                    is                   
  0.5                   -3.6e-13              8e-13                 1.268e-11             -2.6e-13             
  0.45                  -2.2e-13              1.8e-13               1.1e-11               -2.2e-13             
  0.4                   -4e-13                2e-13                 1.076e-11             -2.6e-13             
  0.35                  -1.8e-13              -6e-14                9.58e-12              -1.4e-13             
  0.3                   -2.2e-13              -4e-14                9.62e-12              -1.2e-13             
