! VERSION = 6.00
BEGIN_HEADER
 ICCAP_INPUTS
  vd         V  D GROUND SMU1 0.1 LIN        1    -0         -1.35      28   -0.05     
  vg         V  G GROUND SMU2 0.001 LIST       2 3 -0.039 -0.239 -0.439
  vb         V  B GROUND SMU4 0.1 CON        -0
  vs         V  S GROUND SMU3 0.1 CON        -0
 ICCAP_OUTPUTS
  id         I  D GROUND SMU1 B
  ig         I  G GROUND SMU2 B
  ib         I  B GROUND SMU4 B
  is         I  S GROUND SMU3 B
 ICCAP_VALUES
  MASTER_SETUP_TYPE "~dc_idvd~"
  LINVT_VALUE ""
  LISTVT_VALUE "|idvg|100.0n|-200.0m|1.000m|3|200.0m|200.0m|"
  TYPE "-1"
  TEMP " 125.000 "
  IS_TNOM " 0.00000 "
  MAIN.W "150.0n"
  MAIN.L "10.00u"
  MAIN.AD "100.5f"
  MAIN.AS "100.5f"
  MAIN.PD "1.340u"
  MAIN.PS "1.340u"
  MAIN.NF "1.000"
  MAIN.M "1"
  MAIN.NRD "0.000"
  MAIN.NRS "0.000"
  MAIN.LDRIFT1 "1E-06"
  MAIN.LDRIFT2 "1E-06"
  MAIN.SA "0.000"
  MAIN.SB "0.000"
  MAIN.SD "0.000"
  MAIN.SCA "0.000"
  MAIN.SCB "0.000"
  MAIN.SCC "0.000"
  MAIN.SC "0.000"
  MODULE "S555"
  PIN_D "16"
  PIN_G "5"
  PIN_S "6"
  PIN_B "15"
  PIN_E ""
  PIN_6 ""
  XY_ID ""
  FUNC "Narrow"
  STI "SA ref"
  WPE "WPE ref"
  COMMENT ""
  DIS_MEAS ""
  TypeTCI "10"
END_HEADER

BEGIN_DB
 ICCAP_VAR vg         -0.039         
 ICCAP_VAR vb         -0             
 ICCAP_VAR vs         -0             

 #vd                    id                    ig                    ib                    is                   
  -0                    2.4e-13               3.6e-13               -6.5e-12              2.2e-13              
  -0.05                 -1.456e-11            4e-13                 -6.44e-12             1.432e-11            
  -0.1                  -1.8e-11              2.4e-13               -6.06e-12             1.77e-11             
  -0.15                 -1.886e-11            2.2e-13               -5.86e-12             1.86e-11             
  -0.2                  -1.912e-11            2.8e-13               -6.02e-12             1.866e-11            
  -0.25                 -1.93e-11             2e-13                 -6.4e-12              1.898e-11            
  -0.3                  -1.956e-11            2.8e-13               -5.64e-12             1.87e-11             
  -0.35                 -1.952e-11            2.2e-13               -5.36e-12             1.904e-11            
  -0.4                  -1.96e-11             2.8e-13               -5.04e-12             1.904e-11            
  -0.45                 -1.984e-11            3e-13                 -5.48e-12             1.876e-11            
  -0.5                  -1.976e-11            1.4e-13               -4.72e-12             1.898e-11            
  -0.55                 -1.98e-11             3e-13                 -4.74e-12             1.916e-11            
  -0.6                  -1.988e-11            2.6e-13               -4.74e-12             1.882e-11            
  -0.65                 -2.004e-11            3.2e-13               -4.66e-12             1.898e-11            
  -0.7                  -2.012e-11            2e-13                 -3.98e-12             1.91e-11             
  -0.75                 -2.014e-11            2.2e-13               -4.16e-12             1.9e-11              
  -0.8                  -2.022e-11            2e-13                 -4.16e-12             1.888e-11            
  -0.85                 -2.004e-11            1e-13                 -4.42e-12             1.92e-11             
  -0.9                  -2.032e-11            3.2e-13               -3.56e-12             1.898e-11            
  -0.95                 -2.04e-11             2.6e-13               -3.96e-12             1.912e-11            
  -1                    -2.044e-11            2.2e-13               -3.32e-12             1.918e-11            
  -1.05                 -2.062e-11            3.4e-13               -3.48e-12             1.906e-11            
  -1.1                  -2.066e-11            2e-13                 -3.14e-12             1.92e-11             
  -1.15                 -2.072e-11            3e-13                 -3.5e-12              1.928e-11            
  -1.2                  -2.088e-11            2.4e-13               -3.04e-12             1.928e-11            
  -1.25                 -2.108e-11            3.8e-13               -2.72e-12             1.916e-11            
  -1.3                  -2.136e-11            4e-13                 -2.72e-12             1.92e-11             
  -1.35                 -2.124e-11            3.4e-13               -2.94e-12             1.924e-11            
END_DB

BEGIN_DB
 ICCAP_VAR vg         -0.239         
 ICCAP_VAR vb         -0             
 ICCAP_VAR vs         -0             

 #vd                    id                    ig                    ib                    is                   
  -0                    3.02e-12              -2.2e-13              -5.32e-12             -2.32e-12            
  -0.05                 -1.1712e-09           -1e-13                -4.58e-12             1.1718e-09           
  -0.1                  -1.5334e-09           -1.6e-13              -5.14e-12             1.5334e-09           
  -0.15                 -1.6298e-09           -1e-13                -4.36e-12             1.6304e-09           
  -0.2                  -1.6574e-09           -2e-13                -4.1e-12              1.657e-09            
  -0.25                 -1.6666e-09           -1e-13                -4.44e-12             1.6662e-09           
  -0.3                  -1.6716e-09           -1.4e-13              -4.22e-12             1.6714e-09           
  -0.35                 -1.6746e-09           -1.2e-13              -4.46e-12             1.6748e-09           
  -0.4                  -1.6784e-09           -4e-14                -3.98e-12             1.6778e-09           
  -0.45                 -1.6814e-09           -1e-13                -3.94e-12             1.68e-09             
  -0.5                  -1.6838e-09           -1e-13                -3.64e-12             1.6826e-09           
  -0.55                 -1.6854e-09           -1e-13                -3.58e-12             1.6848e-09           
  -0.6                  -1.6892e-09           -4e-14                -3.54e-12             1.6884e-09           
  -0.65                 -1.6908e-09           -1e-13                -3.78e-12             1.6902e-09           
  -0.7                  -1.6932e-09           8e-14                 -3.66e-12             1.691e-09            
  -0.75                 -1.6942e-09           -1.6e-13              -2.98e-12             1.6938e-09           
  -0.8                  -1.6972e-09           -8e-14                -3.3e-12              1.6958e-09           
  -0.85                 -1.6976e-09           -8e-14                -3.2e-12              1.6976e-09           
  -0.9                  -1.6998e-09           0                     -2.82e-12             1.6996e-09           
  -0.95                 -1.701e-09            -2e-14                -3.04e-12             1.7008e-09           
  -1                    -1.7028e-09           -1.4e-13              -2.66e-12             1.701e-09            
  -1.05                 -1.7038e-09           -2e-14                -2.86e-12             1.7028e-09           
  -1.1                  -1.705e-09            -8e-14                -2.66e-12             1.7042e-09           
  -1.15                 -1.7066e-09           -2e-14                -3.18e-12             1.7062e-09           
  -1.2                  -1.7084e-09           -8e-14                -2.76e-12             1.7072e-09           
  -1.25                 -1.7098e-09           0                     -2.52e-12             1.7082e-09           
  -1.3                  -1.7116e-09           -6e-14                -2.26e-12             1.7094e-09           
  -1.35                 -1.7118e-09           4e-14                 -1.9e-12              1.7098e-09           
END_DB

BEGIN_DB
 ICCAP_VAR vg         -0.439         
 ICCAP_VAR vb         -0             
 ICCAP_VAR vs         -0             

 #vd                    id                    ig                    ib                    is                   
  -0                    1.64e-11              -2.36e-12             -3.82e-12             -1.302e-11           
  -0.05                 -1.0174e-08           -1.96e-12             -4.14e-12             1.0188e-08           
  -0.1                  -1.6798e-08           -1.64e-12             -3.34e-12             1.6816e-08           
  -0.15                 -2.0418e-08           -1.38e-12             -3.26e-12             2.0434e-08           
  -0.2                  -2.198e-08            -1.44e-12             -3.28e-12             2.1992e-08           
  -0.25                 -2.2524e-08           -1.3e-12              -2.78e-12             2.255e-08            
  -0.3                  -2.2718e-08           -1.44e-12             -2.66e-12             2.2738e-08           
  -0.35                 -2.2806e-08           -1.36e-12             -2.84e-12             2.2828e-08           
  -0.4                  -2.287e-08            -1.26e-12             -2.86e-12             2.2886e-08           
  -0.45                 -2.2914e-08           -1.26e-12             -2.6e-12              2.2942e-08           
  -0.5                  -2.2964e-08           -1.32e-12             -2.32e-12             2.2976e-08           
  -0.55                 -2.3e-08              -1.3e-12              -2.38e-12             2.301e-08            
  -0.6                  -2.3032e-08           -1.32e-12             -2.58e-12             2.3042e-08           
  -0.65                 -2.3048e-08           -1.22e-12             -2.22e-12             2.3068e-08           
  -0.7                  -2.3078e-08           -1.36e-12             -1.78e-12             2.3102e-08           
  -0.75                 -2.3116e-08           -1.16e-12             -1.78e-12             2.3136e-08           
  -0.8                  -2.3146e-08           -1.16e-12             -2e-12                2.3168e-08           
  -0.85                 -2.3172e-08           -1.24e-12             -2.18e-12             2.3192e-08           
  -0.9                  -2.3198e-08           -1.14e-12             -1.9e-12              2.3216e-08           
  -0.95                 -2.3222e-08           -1.24e-12             -1.68e-12             2.3236e-08           
  -1                    -2.3238e-08           -1.26e-12             -2.08e-12             2.3254e-08           
  -1.05                 -2.326e-08            -1.12e-12             -1.66e-12             2.3278e-08           
  -1.1                  -2.3274e-08           -1.24e-12             -1.5e-12              2.3284e-08           
  -1.15                 -2.3292e-08           -1.16e-12             -1.42e-12             2.3314e-08           
  -1.2                  -2.3312e-08           -1.18e-12             -1.48e-12             2.3332e-08           
  -1.25                 -2.3326e-08           -1.16e-12             -1e-12                2.3348e-08           
  -1.3                  -2.3354e-08           -1.14e-12             -1.08e-12             2.3362e-08           
  -1.35                 -2.3368e-08           -1.18e-12             -1.42e-12             2.3378e-08           
END_DB

