! VERSION = 6.00
BEGIN_HEADER
 ICCAP_INPUTS
  vg         V  G GROUND SMU2 0.001 LIN        1    0.5        -1.35      38   -0.05     
  vb         V  B GROUND SMU4 0.1 LIN        2    0          1.2        7    0.2       
  vd         V  D GROUND SMU1 0.1 LIST       3 3 -0.05 -0.6 -1.2
  vs         V  S GROUND SMU3 0.1 CON        -0
 ICCAP_OUTPUTS
  id         I  D GROUND SMU1 B
  ig         I  G GROUND SMU2 B
  ib         I  B GROUND SMU4 B
  is         I  S GROUND SMU3 B
 ICCAP_VALUES
  MASTER_SETUP_TYPE "~dc_idvg~"
  LINVT_VALUE ""
  LISTVT_VALUE ""
  TYPE "-1"
  TEMP " 27.0000 "
  IS_TNOM " 1.00000 "
  MAIN.W "10.00u"
  MAIN.L "500.0n"
  MAIN.AD "3.400p"
  MAIN.AS "3.400p"
  MAIN.PD "20.68u"
  MAIN.PS "20.68u"
  MAIN.NF "1.000"
  MAIN.M "1"
  MAIN.NRD "0.000"
  MAIN.NRS "0.000"
  MAIN.LDRIFT1 "1E-06"
  MAIN.LDRIFT2 "1E-06"
  MAIN.SA "0.000"
  MAIN.SB "0.000"
  MAIN.SD "0.000"
  MAIN.SCA "0.000"
  MAIN.SCB "0.000"
  MAIN.SCC "0.000"
  MAIN.SC "0.000"
  MODULE "S549"
  PIN_D "20"
  PIN_G "1"
  PIN_S "2"
  PIN_B "19"
  PIN_E ""
  PIN_6 ""
  XY_ID ""
  FUNC "L Scale"
  STI "SA ref"
  WPE "WPE ref"
  COMMENT ""
  DIS_MEAS ""
  TypeTCI "10"
END_HEADER

BEGIN_DB
 ICCAP_VAR vb         0              
 ICCAP_VAR vd         -0.05          
 ICCAP_VAR vs         -0             

 #vg                    id                    ig                    ib                    is                   
  0.5                   -1.78e-12             2.392e-11             -1.462e-11            -2.62e-12            
  0.45                  -1.42e-12             6.46e-12              -1.048e-11            -2.1e-12             
  0.4                   -1.16e-12             3.2e-12               -9.38e-12             -1.66e-12            
  0.35                  -8.6e-13              2.06e-12              -8.94e-12             -1.16e-12            
  0.3                   -7.2e-13              1.44e-12              -8.58e-12             -7.8e-13             
  0.25                  -4.6e-13              9.2e-13               -8.18e-12             -4e-13               
  0.2                   -4.6e-13              3.8e-13               -8.08e-12             -1.6e-13             
  0.15                  -6.2e-13              4e-14                 -7.66e-12             1.6e-13              
  0.1                   -1.72e-12             -2e-14                -7.48e-12             1.5e-12              
  0.05                  -7.12e-12             -2.2e-13              -7.22e-12             7e-12                
  0                     -3.232e-11            -3e-13                -6.82e-12             3.226e-11            
  -0.05                 -1.5122e-10           -4.6e-13              -6.82e-12             1.5132e-10           
  -0.1                  -7.1392e-10           -6e-13                -6.56e-12             7.139e-10            
  -0.15                 -3.378e-09            -6e-13                -6.24e-12             3.3792e-09           
  -0.2                  -1.5858e-08           -7.4e-13              -5.98e-12             1.5886e-08           
  -0.25                 -7.2386e-08           -1.06e-12             -5.9e-12              7.243e-08            
  -0.3                  -2.9928e-07           -1.58e-12             -5.6e-12              2.9936e-07           
  -0.35                 -1.0101e-06           -2.62e-12             -5.54e-12             1.0099e-06           
  -0.4                  -2.632e-06            -4.26e-12             -5.32e-12             2.6342e-06           
  -0.45                 -5.3558e-06           -7.14e-12             -5.22e-12             5.3578e-06           
  -0.5                  -9.0062e-06           -1.124e-11            -5.1e-12              9.0076e-06           
  -0.55                 -1.32e-05             -1.694e-11            -4.86e-12             1.3214e-05           
  -0.6                  -1.7668e-05           -2.49e-11             -4.82e-12             1.768e-05            
  -0.65                 -2.218e-05            -3.55e-11             -4.66e-12             2.2188e-05           
  -0.7                  -2.663e-05            -4.948e-11            -4.5e-12              2.6644e-05           
  -0.75                 -3.0944e-05           -6.712e-11            -4.46e-12             3.0962e-05           
  -0.8                  -3.5104e-05           -8.932e-11            -4.32e-12             3.511e-05            
  -0.85                 -3.9098e-05           -1.1676e-10           -4.34e-12             3.911e-05            
  -0.9                  -4.291e-05            -1.5038e-10           -4.12e-12             4.292e-05            
  -0.95                 -4.6534e-05           -1.9066e-10           -4.14e-12             4.655e-05            
  -1                    -4.9988e-05           -2.3852e-10           -4.02e-12             4.9996e-05           
  -1.05                 -5.3254e-05           -2.9528e-10           -3.94e-12             5.3264e-05           
  -1.1                  -5.635e-05            -3.615e-10            -3.8e-12              5.6364e-05           
  -1.15                 -5.929e-05            -4.3846e-10           -3.62e-12             5.9296e-05           
  -1.2                  -6.2064e-05           -5.2822e-10           -3.22e-12             6.2072e-05           
  -1.25                 -6.4686e-05           -6.2962e-10           -2.38e-12             6.4688e-05           
  -1.3                  -6.7164e-05           -7.4478e-10           -8.8e-13              6.716e-05            
  -1.35                 -6.951e-05            -8.7608e-10           1.98e-12              6.9504e-05           
END_DB

BEGIN_DB
 ICCAP_VAR vb         0.2            
 ICCAP_VAR vd         -0.05          
 ICCAP_VAR vs         -0             

 #vg                    id                    ig                    ib                    is                   
  0.5                   -1.6e-12              4.72e-12              8e-14                 -2.6e-12             
  0.45                  -1.36e-12             3.44e-12              4e-14                 -2.04e-12            
  0.4                   -1.02e-12             2.54e-12              -4e-14                -1.64e-12            
  0.35                  -8.4e-13              1.82e-12              1.2e-13               -1.28e-12            
  0.3                   -6.2e-13              1.32e-12              -6e-14                -7.4e-13             
  0.25                  -3.4e-13              8e-13                 -8e-14                -5e-13               
  0.2                   -2.4e-13              4.2e-13               4e-14                 -3.8e-13             
  0.15                  -2.2e-13              1.6e-13               -1.2e-13              -2e-14               
  0.1                   -4.4e-13              -2e-14                -1e-13                3.6e-13              
  0.05                  -1.86e-12             -1.6e-13              -6e-14                1.9e-12              
  0                     -8.82e-12             -3.6e-13              -1.4e-13              8.84e-12             
  -0.05                 -4.262e-11            -5.2e-13              2e-14                 4.264e-11            
  -0.1                  -2.0792e-10           -6.2e-13              -4e-14                2.082e-10            
  -0.15                 -1.01914e-09          -6.2e-13              -2e-14                1.01918e-09          
  -0.2                  -4.9798e-09           -7e-13                -6e-14                4.9762e-09           
  -0.25                 -2.4026e-08           -9.8e-13              0                     2.4054e-08           
  -0.3                  -1.10252e-07          -1.62e-12             -8e-14                1.10308e-07          
  -0.35                 -4.4004e-07           -2.32e-12             -6e-14                4.4014e-07           
  -0.4                  -1.3858e-06           -3.82e-12             0                     1.3876e-06           
  -0.45                 -3.323e-06            -6.48e-12             -1.6e-13              3.3254e-06           
  -0.5                  -6.3102e-06           -1.046e-11            -4e-14                6.3136e-06           
  -0.55                 -1.00654e-05          -1.61e-11             -1.6e-13              1.00692e-05          
  -0.6                  -1.424e-05            -2.378e-11            -4e-14                1.425e-05            
  -0.65                 -1.8584e-05           -3.42e-11             0                     1.8592e-05           
  -0.7                  -2.2944e-05           -4.792e-11            -1.4e-13              2.2956e-05           
  -0.75                 -2.7204e-05           -6.544e-11            0                     2.7218e-05           
  -0.8                  -3.134e-05            -8.758e-11            -4e-14                3.1348e-05           
  -0.85                 -3.5324e-05           -1.1498e-10           -1.4e-13              3.5334e-05           
  -0.9                  -3.913e-05            -1.4828e-10           8e-14                 3.9144e-05           
  -0.95                 -4.2768e-05           -1.8856e-10           -4e-14                4.2778e-05           
  -1                    -4.623e-05            -2.365e-10            -4e-14                4.6236e-05           
  -1.05                 -4.9522e-05           -2.9292e-10           -8e-14                4.9528e-05           
  -1.1                  -5.264e-05            -3.595e-10            -1.6e-13              5.2652e-05           
  -1.15                 -5.5596e-05           -4.353e-10            1e-13                 5.5598e-05           
  -1.2                  -5.8396e-05           -5.2464e-10           3.4e-13               5.841e-05            
  -1.25                 -6.1062e-05           -6.263e-10            9.6e-13               6.1076e-05           
  -1.3                  -6.358e-05            -7.4052e-10           2.34e-12              6.3572e-05           
  -1.35                 -6.5946e-05           -8.714e-10            5.24e-12              6.5932e-05           
END_DB

BEGIN_DB
 ICCAP_VAR vb         0.4            
 ICCAP_VAR vd         -0.05          
 ICCAP_VAR vs         -0             

 #vg                    id                    ig                    ib                    is                   
  0.5                   -1.64e-12             4.66e-12              2e-13                 -2.6e-12             
  0.45                  -1.26e-12             3.44e-12              -2e-14                -2.04e-12            
  0.4                   -1.02e-12             2.62e-12              -6e-14                -1.48e-12            
  0.35                  -8.2e-13              1.92e-12              1e-13                 -1.32e-12            
  0.3                   -5.4e-13              1.34e-12              -4e-14                -8.6e-13             
  0.25                  -4.2e-13              7.6e-13               -2e-14                -4.8e-13             
  0.2                   -3.6e-13              4.6e-13               -4e-14                -3.4e-13             
  0.15                  -2.2e-13              2.4e-13               6e-14                 -1.8e-13             
  0.1                   -1.6e-13              -6e-14                -1.2e-13              1.2e-13              
  0.05                  -6e-13                -2.2e-13              -1.2e-13              6e-13                
  0                     -2.74e-12             -3.8e-13              2e-14                 2.6e-12              
  -0.05                 -1.342e-11            -5e-13                -2e-13                1.36e-11             
  -0.1                  -6.788e-11            -5.2e-13              0                     6.824e-11            
  -0.15                 -3.4182e-10           -6e-13                2e-14                 3.418e-10            
  -0.2                  -1.7148e-09           -5.8e-13              0                     1.7152e-09           
  -0.25                 -8.5798e-09           -1.04e-12             -1e-13                8.5828e-09           
  -0.3                  -4.1866e-08           -1.52e-12             -2e-13                4.1886e-08           
  -0.35                 -1.875e-07            -2.14e-12             2e-14                 1.876e-07            
  -0.4                  -6.9896e-07           -3.48e-12             0                     6.9916e-07           
  -0.45                 -1.9826e-06           -5.66e-12             -6e-14                1.9852e-06           
  -0.5                  -4.3068e-06           -9.38e-12             -4e-14                4.3084e-06           
  -0.55                 -7.5568e-06           -1.478e-11            2e-14                 7.5554e-06           
  -0.6                  -1.14072e-05          -2.242e-11            -4e-14                1.1408e-05           
  -0.65                 -1.5544e-05           -3.256e-11            -1e-13                1.5554e-05           
  -0.7                  -1.9778e-05           -4.606e-11            0                     1.979e-05            
  -0.75                 -2.397e-05            -6.34e-11             4e-14                 2.398e-05            
  -0.8                  -2.8064e-05           -8.532e-11            -8e-14                2.8068e-05           
  -0.85                 -3.202e-05            -1.1238e-10           0                     3.203e-05            
  -0.9                  -3.5814e-05           -1.4552e-10           -6e-14                3.5824e-05           
  -0.95                 -3.9452e-05           -1.8532e-10           0                     3.946e-05            
  -1                    -4.2922e-05           -2.3318e-10           -2e-14                4.293e-05            
  -1.05                 -4.6222e-05           -2.8926e-10           -4e-14                4.623e-05            
  -1.1                  -4.9358e-05           -3.5496e-10           0                     4.9362e-05           
  -1.15                 -5.2336e-05           -4.323e-10            2.4e-13               5.2348e-05           
  -1.2                  -5.5168e-05           -5.1922e-10           4e-13                 5.5178e-05           
  -1.25                 -5.7846e-05           -6.2106e-10           1.1e-12               5.7858e-05           
  -1.3                  -6.0376e-05           -7.3516e-10           2.5e-12               6.038e-05            
  -1.35                 -6.2768e-05           -8.6676e-10           5.22e-12              6.2776e-05           
END_DB

BEGIN_DB
 ICCAP_VAR vb         0.6            
 ICCAP_VAR vd         -0.05          
 ICCAP_VAR vs         -0             

 #vg                    id                    ig                    ib                    is                   
  0.5                   -1.56e-12             4.64e-12              -4e-14                -2.68e-12            
  0.45                  -1.36e-12             3.48e-12              1e-13                 -2.06e-12            
  0.4                   -9.2e-13              2.62e-12              -1e-13                -1.44e-12            
  0.35                  -7.4e-13              1.88e-12              6e-14                 -1.2e-12             
  0.3                   -6.2e-13              1.22e-12              -1e-13                -8e-13               
  0.25                  -3.8e-13              8.4e-13               8e-14                 -5e-13               
  0.2                   -3.2e-13              4.8e-13               1e-13                 -3.4e-13             
  0.15                  -2e-13                1.2e-13               -2e-14                -1.4e-13             
  0.1                   -2.2e-13              -4e-14                6e-14                 -1.2e-13             
  0.05                  -1.2e-13              -2.8e-13              -1.6e-13              1.8e-13              
  0                     -8.8e-13              -3.6e-13              -6e-14                8.6e-13              
  -0.05                 -4.66e-12             -4.8e-13              0                     4.68e-12             
  -0.1                  -2.386e-11            -4.2e-13              -1e-13                2.416e-11            
  -0.15                 -1.2316e-10           -6.6e-13              8e-14                 1.2344e-10           
  -0.2                  -6.3154e-10           -7.2e-13              -4e-14                6.3196e-10           
  -0.25                 -3.2388e-09           -1e-12                2e-14                 3.24e-09             
  -0.3                  -1.6402e-08           -1.24e-12             6e-14                 1.6428e-08           
  -0.35                 -7.929e-08            -1.82e-12             -4e-14                7.9388e-08           
  -0.4                  -3.3818e-07           -3.08e-12             0                     3.3796e-07           
  -0.45                 -1.12954e-06          -5.12e-12             -4e-14                1.1297e-06           
  -0.5                  -2.8406e-06           -8.36e-12             6e-14                 2.839e-06            
  -0.55                 -5.5444e-06           -1.362e-11            0                     5.5494e-06           
  -0.6                  -9.0196e-06           -2.098e-11            0                     9.0228e-06           
  -0.65                 -1.291e-05            -3.086e-11            -8e-14                1.2924e-05           
  -0.7                  -1.6996e-05           -4.414e-11            -1.2e-13              1.701e-05            
  -0.75                 -2.1098e-05           -6.102e-11            -4e-14                2.1108e-05           
  -0.8                  -2.5142e-05           -8.28e-11             -2e-14                2.5158e-05           
  -0.85                 -2.9068e-05           -1.0944e-10           -1.8e-13              2.908e-05            
  -0.9                  -3.2856e-05           -1.423e-10            0                     3.2862e-05           
  -0.95                 -3.6478e-05           -1.8178e-10           -8e-14                3.6484e-05           
  -1                    -3.9954e-05           -2.2936e-10           -6e-14                3.996e-05            
  -1.05                 -4.3258e-05           -2.8528e-10           4e-14                 4.3266e-05           
  -1.1                  -4.642e-05            -3.5102e-10           -4e-14                4.6426e-05           
  -1.15                 -4.9408e-05           -4.2776e-10           2.6e-13               4.9414e-05           
  -1.2                  -5.2248e-05           -5.149e-10            5e-13                 5.225e-05            
  -1.25                 -5.4952e-05           -6.1686e-10           1.06e-12              5.4946e-05           
  -1.3                  -5.7484e-05           -7.3082e-10           2.52e-12              5.749e-05            
  -1.35                 -5.9906e-05           -8.6246e-10           5.28e-12              5.9896e-05           
END_DB

BEGIN_DB
 ICCAP_VAR vb         0.8            
 ICCAP_VAR vd         -0.05          
 ICCAP_VAR vs         -0             

 #vg                    id                    ig                    ib                    is                   
  0.5                   -1.6e-12              4.58e-12              0                     -2.58e-12            
  0.45                  -1.2e-12              3.52e-12              0                     -2e-12               
  0.4                   -9.6e-13              2.62e-12              4e-14                 -1.5e-12             
  0.35                  -6.6e-13              1.84e-12              -2e-14                -1.08e-12            
  0.3                   -6e-13                1.3e-12               6e-14                 -7.8e-13             
