! VERSION = 6.00
BEGIN_HEADER
 ICCAP_INPUTS
  vd         V  D GROUND SMU1 0.1 LIN        1    -0         -1.35      28   -0.05     
  vg         V  G GROUND SMU2 0.001 LIN        2    -0.626     -1.35      5    -0.181    
  vb         V  B GROUND SMU4 0.1 CON        1.2
  vs         V  S GROUND SMU3 0.1 CON        -0
 ICCAP_OUTPUTS
  id         I  D GROUND SMU1 B
  ig         I  G GROUND SMU2 B
  ib         I  B GROUND SMU4 B
  is         I  S GROUND SMU3 B
 ICCAP_VALUES
  MASTER_SETUP_TYPE "~dc_idvd~"
  LINVT_VALUE "|idvg|100.0n|100.0m|1.000m|5|1.350|"
  LISTVT_VALUE ""
  TYPE "-1"
  TEMP "-40.0000 "
  IS_TNOM " 0.00000 "
  MAIN.W "300.0n"
  MAIN.L "10.00u"
  MAIN.AD "102.0f"
  MAIN.AS "102.0f"
  MAIN.PD "1.280u"
  MAIN.PS "1.280u"
  MAIN.NF "1.000"
  MAIN.M "1"
  MAIN.NRD "0.000"
  MAIN.NRS "0.000"
  MAIN.LDRIFT1 "1E-06"
  MAIN.LDRIFT2 "1E-06"
  MAIN.SA "0.000"
  MAIN.SB "0.000"
  MAIN.SD "0.000"
  MAIN.SCA "0.000"
  MAIN.SCB "0.000"
  MAIN.SCC "0.000"
  MAIN.SC "0.000"
  MODULE "S553"
  PIN_D "18"
  PIN_G "3"
  PIN_S "4"
  PIN_B "17"
  PIN_E ""
  PIN_6 ""
  XY_ID ""
  FUNC "W Scale"
  STI "SA ref"
  WPE "WPE ref"
  COMMENT ""
  DIS_MEAS ""
  TypeTCI "10"
END_HEADER

BEGIN_DB
 ICCAP_VAR vg         -0.626         
 ICCAP_VAR vb         1.2            
 ICCAP_VAR vs         -0             

 #vd                    id                    ig                    ib                    is                   
  -0                    2.672e-11             -8.38e-12             4.8e-13               -2.272e-11           
  -0.05                 -1.5164e-08           -6.76e-12             3.8e-13               1.5196e-08           
  -0.1                  -2.2094e-08           -5.58e-12             4.4e-13               2.212e-08            
  -0.15                 -2.4104e-08           -5.42e-12             3.2e-13               2.4132e-08           
  -0.2                  -2.4508e-08           -5.28e-12             3.6e-13               2.4542e-08           
  -0.25                 -2.4648e-08           -5.18e-12             2.8e-13               2.4678e-08           
  -0.3                  -2.4724e-08           -5.22e-12             3.4e-13               2.4762e-08           
  -0.35                 -2.4792e-08           -5.02e-12             2e-13                 2.4824e-08           
  -0.4                  -2.4844e-08           -5.26e-12             2e-13                 2.4886e-08           
  -0.45                 -2.4894e-08           -5.16e-12             2.2e-13               2.4922e-08           
  -0.5                  -2.4928e-08           -5.2e-12              2.2e-13               2.4962e-08           
  -0.55                 -2.4964e-08           -5.28e-12             2.6e-13               2.5e-08              
  -0.6                  -2.5e-08              -5.16e-12             2.8e-13               2.5036e-08           
  -0.65                 -2.5032e-08           -5.1e-12              3.2e-13               2.5056e-08           
  -0.7                  -2.5058e-08           -5.12e-12             1.4e-13               2.5084e-08           
  -0.75                 -2.508e-08            -5.1e-12              2.2e-13               2.511e-08            
  -0.8                  -2.5104e-08           -5.12e-12             1.4e-13               2.5138e-08           
  -0.85                 -2.5128e-08           -5.14e-12             3.6e-13               2.5158e-08           
  -0.9                  -2.5154e-08           -5.04e-12             2.6e-13               2.5174e-08           
  -0.95                 -2.5168e-08           -5.14e-12             2e-13                 2.5198e-08           
  -1                    -2.519e-08            -5.08e-12             3.2e-13               2.522e-08            
  -1.05                 -2.5212e-08           -5.04e-12             1.8e-13               2.524e-08            
  -1.1                  -2.5228e-08           -5.14e-12             1.6e-13               2.525e-08            
  -1.15                 -2.5232e-08           -5.04e-12             1.8e-13               2.5272e-08           
  -1.2                  -2.5246e-08           -5e-12                1.2e-13               2.5278e-08           
  -1.25                 -2.5258e-08           -5.12e-12             6e-14                 2.5288e-08           
  -1.3                  -2.5268e-08           -4.94e-12             1.6e-13               2.5298e-08           
  -1.35                 -2.5284e-08           -4.96e-12             1.2e-13               2.5314e-08           
END_DB

BEGIN_DB
 ICCAP_VAR vg         -0.807         
 ICCAP_VAR vb         1.2            
 ICCAP_VAR vs         -0             

 #vd                    id                    ig                    ib                    is                   
  -0                    8.616e-11             -3.538e-11            6e-14                 -5.248e-11           
  -0.05                 -5.0146e-08           -3.03e-11             1.2e-13               5.0204e-08           
  -0.1                  -8.8804e-08           -2.632e-11            6e-14                 8.8854e-08           
  -0.15                 -1.161e-07            -2.344e-11            1.6e-13               1.1626e-07           
  -0.2                  -1.3294e-07           -2.156e-11            1.6e-13               1.331e-07            
  -0.25                 -1.4108e-07           -2.052e-11            8e-14                 1.4126e-07           
  -0.3                  -1.4382e-07           -2.02e-11             2e-14                 1.44e-07             
  -0.35                 -1.4466e-07           -2.03e-11             4e-14                 1.449e-07            
  -0.4                  -1.4512e-07           -1.992e-11            2e-14                 1.4532e-07           
  -0.45                 -1.4546e-07           -2.012e-11            0                     1.4566e-07           
  -0.5                  -1.457e-07            -2.004e-11            4e-14                 1.4588e-07           
  -0.55                 -1.4594e-07           -1.998e-11            8e-14                 1.4616e-07           
  -0.6                  -1.461e-07            -2.006e-11            -6e-14                1.4634e-07           
  -0.65                 -1.4626e-07           -1.984e-11            2e-14                 1.465e-07            
  -0.7                  -1.4648e-07           -1.982e-11            8e-14                 1.4664e-07           
  -0.75                 -1.466e-07            -2e-11                2e-14                 1.4684e-07           
  -0.8                  -1.4676e-07           -1.984e-11            1.8e-13               1.4694e-07           
  -0.85                 -1.468e-07            -1.976e-11            1.2e-13               1.4698e-07           
  -0.9                  -1.469e-07            -1.988e-11            8e-14                 1.4712e-07           
  -0.95                 -1.4704e-07           -1.98e-11             2.2e-13               1.4722e-07           
  -1                    -1.471e-07            -1.974e-11            8e-14                 1.4732e-07           
  -1.05                 -1.4724e-07           -1.986e-11            8e-14                 1.474e-07            
  -1.1                  -1.4732e-07           -1.968e-11            8e-14                 1.4746e-07           
  -1.15                 -1.474e-07            -1.976e-11            -4e-14                1.4762e-07           
  -1.2                  -1.4744e-07           -1.984e-11            0                     1.4764e-07           
  -1.25                 -1.4754e-07           -1.974e-11            1e-13                 1.4774e-07           
  -1.3                  -1.4762e-07           -1.974e-11            -4e-14                1.4782e-07           
  -1.35                 -1.4766e-07           -1.97e-11             8e-14                 1.4786e-07           
END_DB

BEGIN_DB
 ICCAP_VAR vg         -0.988         
 ICCAP_VAR vb         1.2            
 ICCAP_VAR vs         -0             

 #vd                    id                    ig                    ib                    is                   
  -0                    1.5966e-10            -9.564e-11            8e-14                 -6.322e-11           
  -0.05                 -8.4806e-08           -8.488e-11            0                     8.4928e-08           
  -0.1                  -1.5886e-07           -7.59e-11             -1e-13                1.5914e-07           
  -0.15                 -2.22e-07             -6.848e-11            -2e-14                2.2224e-07           
  -0.2                  -2.737e-07            -6.242e-11            -4e-14                2.7396e-07           
  -0.25                 -3.1404e-07           -5.786e-11            0                     3.1438e-07           
  -0.3                  -3.432e-07            -5.43e-11             -4e-14                3.435e-07            
  -0.35                 -3.6186e-07           -5.216e-11            -2e-14                3.6212e-07           
  -0.4                  -3.7154e-07           -5.1e-11              4e-14                 3.7182e-07           
  -0.45                 -3.7546e-07           -5.046e-11            8e-14                 3.757e-07            
  -0.5                  -3.7692e-07           -5.026e-11            0                     3.7718e-07           
  -0.55                 -3.7778e-07           -5.002e-11            4e-14                 3.7798e-07           
  -0.6                  -3.7836e-07           -5.004e-11            8e-14                 3.7862e-07           
  -0.65                 -3.7886e-07           -5.03e-11             1e-13                 3.7914e-07           
  -0.7                  -3.7922e-07           -4.994e-11            2e-14                 3.7954e-07           
  -0.75                 -3.797e-07            -4.986e-11            -1.4e-13              3.7998e-07           
  -0.8                  -3.8e-07              -4.996e-11            6e-14                 3.802e-07            
  -0.85                 -3.8022e-07           -4.986e-11            0                     3.805e-07            
  -0.9                  -3.805e-07            -4.982e-11            0                     3.8082e-07           
  -0.95                 -3.8074e-07           -4.982e-11            -2e-14                3.8104e-07           
  -1                    -3.8102e-07           -4.974e-11            8e-14                 3.8134e-07           
  -1.05                 -3.8128e-07           -4.972e-11            8e-14                 3.815e-07            
  -1.1                  -3.8148e-07           -4.972e-11            -6e-14                3.8176e-07           
  -1.15                 -3.8178e-07           -4.988e-11            0                     3.8194e-07           
  -1.2                  -3.8184e-07           -4.972e-11            -1.4e-13              3.822e-07            
  -1.25                 -3.8212e-07           -4.966e-11            -4e-14                3.8234e-07           
  -1.3                  -3.8228e-07           -4.962e-11            2e-14                 3.8254e-07           
  -1.35                 -3.8246e-07           -4.96e-11             0                     3.8262e-07           
END_DB

BEGIN_DB
 ICCAP_VAR vg         -1.169         
 ICCAP_VAR vb         1.2            
 ICCAP_VAR vs         -0             

 #vd                    id                    ig                    ib                    is                   
  -0                    2.4674e-10            -2.107e-10            2e-14                 -4.74e-11            
  -0.05                 -1.1448e-07           -1.8886e-10           6e-14                 1.1484e-07           
  -0.1                  -2.199e-07            -1.7218e-10           1e-13                 2.203e-07            
  -0.15                 -3.1572e-07           -1.6056e-10           1.2e-13               3.1604e-07           
  -0.2                  -4.012e-07            -1.4794e-10           0                     4.0156e-07           
  -0.25                 -4.7628e-07           -1.3724e-10           -6e-14                4.7678e-07           
  -0.3                  -5.4076e-07           -1.2608e-10           -8e-14                5.412e-07            
  -0.35                 -5.9406e-07           -1.185e-10            -6e-14                5.9432e-07           
  -0.4                  -6.3626e-07           -1.1272e-10           4e-14                 6.3666e-07           
  -0.45                 -6.6746e-07           -1.0866e-10           -8e-14                6.6784e-07           
  -0.5                  -6.882e-07            -1.0578e-10           4e-14                 6.8854e-07           
  -0.55                 -6.9948e-07           -1.0416e-10           6e-14                 6.9988e-07           
  -0.6                  -7.0476e-07           -1.0486e-10           4e-14                 7.0518e-07           
  -0.65                 -7.0704e-07           -1.034e-10            8e-14                 7.0734e-07           
  -0.7                  -7.0842e-07           -1.0296e-10           1.8e-13               7.0866e-07           
  -0.75                 -7.0944e-07           -1.028e-10            8e-14                 7.0984e-07           
  -0.8                  -7.1022e-07           -1.0268e-10           1.4e-13               7.1052e-07           
  -0.85                 -7.1072e-07           -1.0256e-10           8e-14                 7.11e-07             
  -0.9                  -7.1124e-07           -1.0542e-10           0                     7.1158e-07           
  -0.95                 -7.1174e-07           -1.0502e-10           -4e-14                7.122e-07            
  -1                    -7.1238e-07           -1.0484e-10           -6e-14                7.126e-07            
  -1.05                 -7.1278e-07           -1.0484e-10           2e-14                 7.1304e-07           
  -1.1                  -7.1312e-07           -1.0238e-10           4e-14                 7.1344e-07           
  -1.15                 -7.1352e-07           -1.0226e-10           2e-14                 7.1388e-07           
  -1.2                  -7.1392e-07           -1.0226e-10           -2e-14                7.142e-07            
  -1.25                 -7.1424e-07           -1.0246e-10           0                     7.1454e-07           
  -1.3                  -7.1468e-07           -1.0464e-10           -2e-14                7.15e-07             
  -1.35                 -7.1502e-07           -1.0454e-10           -1e-13                7.1536e-07           
END_DB

BEGIN_DB
 ICCAP_VAR vg         -1.35          
 ICCAP_VAR vb         1.2            
 ICCAP_VAR vs         -0             

 #vd                    id                    ig                    ib                    is                   
  -0                    3.6484e-10            -3.957e-10            2e-12                 2.26e-11             
  -0.05                 -1.388e-07            -3.6496e-10           1.48e-12              1.3934e-07           
  -0.1                  -2.702e-07            -3.3764e-10           1.12e-12              2.7078e-07           
  -0.15                 -3.9342e-07           -3.1378e-10           8.8e-13               3.9392e-07           
  -0.2                  -5.0782e-07           -2.886e-10            7.8e-13               5.0838e-07           
  -0.25                 -6.1332e-07           -2.7228e-10           6e-13                 6.139e-07            
  -0.3                  -7.0948e-07           -2.5466e-10           5.2e-13               7.1008e-07           
  -0.35                 -7.9574e-07           -2.4068e-10           5.2e-13               7.9632e-07           
  -0.4                  -8.7172e-07           -2.279e-10            5.8e-13               8.7236e-07           
  -0.45                 -9.3776e-07           -2.1712e-10           4.8e-13               9.3806e-07           
  -0.5                  -9.9274e-07           -2.0836e-10           2.8e-13               9.9312e-07           
  -0.55                 -1.03674e-06          -1.9856e-10           3.8e-13               1.0372e-06           
  -0.6                  -1.07004e-06          -1.9612e-10           4.6e-13               1.0705e-06           
  -0.65                 -1.09328e-06          -1.9204e-10           4.6e-13               1.09358e-06          
  -0.7                  -1.10666e-06          -1.9028e-10           4e-13                 1.1072e-06           
  -0.75                 -1.11356e-06          -1.89e-10             2.6e-13               1.11404e-06          
  -0.8                  -1.11684e-06          -1.8862e-10           3.6e-13               1.1173e-06           
  -0.85                 -1.11862e-06          -1.8826e-10           3.4e-13               1.11924e-06          
  -0.9                  -1.12e-06             -1.8818e-10           3e-13                 1.12064e-06          
  -0.95                 -1.12102e-06          -1.8792e-10           3.4e-13               1.12156e-06          
  -1                    -1.1217e-06           -1.8484e-10           3e-13                 1.1223e-06           
  -1.05                 -1.1227e-06           -1.8784e-10           3e-13                 1.12306e-06          
  -1.1                  -1.1233e-06           -1.8748e-10           4.2e-13               1.12386e-06          
  -1.15                 -1.1238e-06           -1.8762e-10           3.4e-13               1.12422e-06          
  -1.2                  -1.1244e-06           -1.8748e-10           3e-13                 1.12494e-06          
  -1.25                 -1.12496e-06          -1.873e-10            3e-13                 1.1255e-06           
  -1.3                  -1.1255e-06           -1.8728e-10           3.4e-13               1.12604e-06          
  -1.35                 -1.1259e-06           -1.8724e-10           3.2e-13               1.12662e-06          
END_DB

