! VERSION = 6.00
BEGIN_HEADER
 ICCAP_INPUTS
  vd         V  D GROUND SMU1 0.1 LIN        1    -0         -1.35      28   -0.05     
  vg         V  G GROUND SMU2 0.001 LIN        2    -0.614     -1.35      5    -0.184    
  vb         V  B GROUND SMU4 0.1 CON        1.2
  vs         V  S GROUND SMU3 0.1 CON        -0
 ICCAP_OUTPUTS
  id         I  D GROUND SMU1 B
  ig         I  G GROUND SMU2 B
  ib         I  B GROUND SMU4 B
  is         I  S GROUND SMU3 B
 ICCAP_VALUES
  MASTER_SETUP_TYPE "~dc_idvd~"
  LINVT_VALUE "|idvg|100.0n|100.0m|1.000m|5|1.350|"
  LISTVT_VALUE ""
  TYPE "-1"
  TEMP " 27.0000 "
  IS_TNOM " 1.00000 "
  MAIN.W "150.0n"
  MAIN.L "130.0n"
  MAIN.AD "100.5f"
  MAIN.AS "100.5f"
  MAIN.PD "1.340u"
  MAIN.PS "1.340u"
  MAIN.NF "1.000"
  MAIN.M "1"
  MAIN.NRD "0.000"
  MAIN.NRS "0.000"
  MAIN.LDRIFT1 "1E-06"
  MAIN.LDRIFT2 "1E-06"
  MAIN.SA "0.000"
  MAIN.SB "0.000"
  MAIN.SD "0.000"
  MAIN.SCA "0.000"
  MAIN.SCB "0.000"
  MAIN.SCC "0.000"
  MAIN.SC "0.000"
  MODULE "S554"
  PIN_D "16"
  PIN_G "5"
  PIN_S "6"
  PIN_B "15"
  PIN_E ""
  PIN_6 ""
  XY_ID ""
  FUNC "Small"
  STI "SA ref"
  WPE "WPE ref"
  COMMENT ""
  DIS_MEAS ""
  TypeTCI "10"
END_HEADER

BEGIN_DB
 ICCAP_VAR vg         -0.614         
 ICCAP_VAR vb         1.2            
 ICCAP_VAR vs         -0             

 #vd                    id                    ig                    ib                    is                   
  -0                    5.631e-10             -1.2e-13              5.2e-13               -6.8912e-10          
  -0.05                 -3.3618e-07           -2.8e-13              3.6e-13               3.3534e-07           
  -0.1                  -5.0056e-07           -1.2e-13              4.6e-13               5.0086e-07           
  -0.15                 -5.8904e-07           -1.8e-13              4.8e-13               5.895e-07            
  -0.2                  -6.4822e-07           -1.2e-13              3e-13                 6.4936e-07           
  -0.25                 -6.9846e-07           -8e-14                3.6e-13               6.991e-07            
  -0.3                  -7.4494e-07           -1.6e-13              2.6e-13               7.4382e-07           
  -0.35                 -7.8986e-07           -1.8e-13              2.4e-13               7.9088e-07           
  -0.4                  -8.3496e-07           0                     2.6e-13               8.3472e-07           
  -0.45                 -8.8018e-07           0                     3.4e-13               8.808e-07            
  -0.5                  -9.2732e-07           -6e-14                3.6e-13               9.2838e-07           
  -0.55                 -9.7614e-07           -4e-14                4.6e-13               9.7542e-07           
  -0.6                  -1.0265e-06           -1.4e-13              2e-13                 1.0242e-06           
  -0.65                 -1.07492e-06          -2.2e-13              1.4e-13               1.07484e-06          
  -0.7                  -1.12768e-06          -1e-13                2.6e-13               1.12728e-06          
  -0.75                 -1.1766e-06           -6e-14                1.4e-13               1.1824e-06           
  -0.8                  -1.2318e-06           -4e-14                1.6e-13               1.2364e-06           
  -0.85                 -1.2886e-06           -1.4e-13              1.4e-13               1.292e-06            
  -0.9                  -1.3456e-06           -1e-13                3.2e-13               1.3506e-06           
  -0.95                 -1.4044e-06           2e-14                 1.8e-13               1.4086e-06           
  -1                    -1.4666e-06           -1e-13                1.4e-13               1.4694e-06           
  -1.05                 -1.5282e-06           -4e-14                1.6e-13               1.5326e-06           
  -1.1                  -1.5946e-06           -8e-14                2.4e-13               1.598e-06            
  -1.15                 -1.6632e-06           -4e-14                2.4e-13               1.6674e-06           
  -1.2                  -1.732e-06            -2e-14                3.4e-13               1.738e-06            
  -1.25                 -1.8046e-06           8e-14                 6e-13                 1.808e-06            
  -1.3                  -1.8782e-06           -2e-14                9.2e-13               1.883e-06            
  -1.35                 -1.9556e-06           1.6e-13               1.54e-12              1.9618e-06           
END_DB

BEGIN_DB
 ICCAP_VAR vg         -0.798         
 ICCAP_VAR vb         1.2            
 ICCAP_VAR vs         -0             

 #vd                    id                    ig                    ib                    is                   
  -0                    2.4048e-09            -6.2e-13              -2e-14                -2.1364e-09          
  -0.05                 -1.6918e-06           -4.6e-13              1.2e-13               1.6962e-06           
  -0.1                  -2.9564e-06           -5.4e-13              8e-14                 2.9682e-06           
  -0.15                 -3.8628e-06           -4.6e-13              8e-14                 3.8666e-06           
  -0.2                  -4.502e-06            -3.8e-13              1.8e-13               4.5068e-06           
  -0.25                 -4.9486e-06           -4.4e-13              1.4e-13               4.9834e-06           
  -0.3                  -5.3294e-06           -2.4e-13              1e-13                 5.3334e-06           
  -0.35                 -5.6198e-06           -2.4e-13              4e-14                 5.6274e-06           
  -0.4                  -5.8716e-06           -2e-13                1.6e-13               5.8788e-06           
  -0.45                 -6.092e-06            -2.4e-13              1.4e-13               6.1066e-06           
  -0.5                  -6.3214e-06           -3.6e-13              2e-14                 6.328e-06            
  -0.55                 -6.5312e-06           -2.4e-13              2.2e-13               6.538e-06            
  -0.6                  -6.7386e-06           -2.4e-13              1.2e-13               6.738e-06            
  -0.65                 -6.9364e-06           -2.4e-13              4e-14                 6.9372e-06           
  -0.7                  -7.1384e-06           -2.8e-13              1.6e-13               7.1152e-06           
  -0.75                 -7.3358e-06           -1.8e-13              2.2e-13               7.3382e-06           
  -0.8                  -7.5368e-06           -3.2e-13              1e-13                 7.54e-06             
  -0.85                 -7.7364e-06           -3e-13                6e-14                 7.7404e-06           
  -0.9                  -7.9358e-06           -1.4e-13              2.4e-13               7.9378e-06           
  -0.95                 -8.1386e-06           -2.4e-13              1.4e-13               8.1542e-06           
  -1                    -8.3452e-06           -2.4e-13              1.2e-13               8.3486e-06           
  -1.05                 -8.546e-06            -2.4e-13              1.6e-13               8.5466e-06           
  -1.1                  -8.7514e-06           -2.2e-13              1e-13                 8.7488e-06           
  -1.15                 -8.9572e-06           -2.6e-13              1.6e-13               8.9622e-06           
  -1.2                  -9.1592e-06           -2.8e-13              2.2e-13               9.1488e-06           
  -1.25                 -9.3738e-06           -2.6e-13              3.2e-13               9.3754e-06           
  -1.3                  -9.5844e-06           -1.6e-13              7.8e-13               9.5862e-06           
  -1.35                 -9.7954e-06           -6e-14                1.78e-12              9.7934e-06           
END_DB

BEGIN_DB
 ICCAP_VAR vg         -0.982         
 ICCAP_VAR vb         1.2            
 ICCAP_VAR vs         -0             

 #vd                    id                    ig                    ib                    is                   
  -0                    3.0448e-09            -1.42e-12             4e-14                 -3.1944e-09          
  -0.05                 -3.2268e-06           -1.24e-12             -2e-14                3.2324e-06           
  -0.1                  -6.0134e-06           -1.2e-12              1.4e-13               6.021e-06            
  -0.15                 -8.3322e-06           -1.1e-12              4e-14                 8.3408e-06           
  -0.2                  -1.02288e-05          -1.02e-12             8e-14                 1.0289e-05           
  -0.25                 -1.175e-05            -9.8e-13              1.2e-13               1.1758e-05           
  -0.3                  -1.2946e-05           -8e-13                1e-13                 1.3032e-05           
  -0.35                 -1.3952e-05           -6.8e-13              1.8e-13               1.397e-05            
  -0.4                  -1.4724e-05           -7.2e-13              1.4e-13               1.4744e-05           
  -0.45                 -1.523e-05            -6.6e-13              1.2e-13               1.5284e-05           
  -0.5                  -1.5924e-05           -6.6e-13              6e-14                 1.5946e-05           
  -0.55                 -1.646e-05            -7e-13                1e-13                 1.6378e-05           
  -0.6                  -1.6864e-05           -6.8e-13              6e-14                 1.6924e-05           
  -0.65                 -1.7322e-05           -6e-13                0                     1.7284e-05           
  -0.7                  -1.7674e-05           -6e-13                2e-14                 1.769e-05            
  -0.75                 -1.807e-05            -5.4e-13              -2e-14                1.8094e-05           
  -0.8                  -1.8472e-05           -6.4e-13              -1e-13                1.8478e-05           
  -0.85                 -1.8828e-05           -6.8e-13              2e-14                 1.8982e-05           
  -0.9                  -1.9342e-05           -6.8e-13              1.6e-13               1.9366e-05           
  -0.95                 -1.971e-05            -6.4e-13              1e-13                 1.9738e-05           
  -1                    -2.0078e-05           -6.4e-13              2e-14                 2.004e-05            
  -1.05                 -2.04e-05             -5.2e-13              6e-14                 2.0414e-05           
  -1.1                  -2.0822e-05           -6e-13                0                     2.0834e-05           
  -1.15                 -2.116e-05            -7e-13                2e-14                 2.1094e-05           
  -1.2                  -2.1406e-05           -6.4e-13              2.2e-13               2.1418e-05           
  -1.25                 -2.1826e-05           -4.8e-13              3e-13                 2.1838e-05           
  -1.3                  -2.2112e-05           -5.4e-13              5.8e-13               2.2114e-05           
  -1.35                 -2.2524e-05           -6.2e-13              1.2e-12               2.2554e-05           
END_DB

BEGIN_DB
 ICCAP_VAR vg         -1.166         
 ICCAP_VAR vb         1.2            
 ICCAP_VAR vs         -0             

 #vd                    id                    ig                    ib                    is                   
  -0                    3.4226e-09            -2.8e-12              1.6e-13               -4.0564e-09          
  -0.05                 -4.5392e-06           -2.48e-12             -8e-14                4.5408e-06           
  -0.1                  -8.6712e-06           -2.38e-12             4e-14                 8.674e-06            
  -0.15                 -1.2358e-05           -2.26e-12             2e-14                 1.2376e-05           
  -0.2                  -1.5596e-05           -1.92e-12             -2e-14                1.5592e-05           
  -0.25                 -1.8318e-05           -1.84e-12             2e-14                 1.8394e-05           
  -0.3                  -2.0752e-05           -1.74e-12             -2e-14                2.0726e-05           
  -0.35                 -2.2678e-05           -1.82e-12             -4e-14                2.28e-05             
  -0.4                  -2.4356e-05           -1.7e-12              2e-14                 2.4388e-05           
  -0.45                 -2.5734e-05           -1.48e-12             -2e-14                2.579e-05            
  -0.5                  -2.6916e-05           -1.52e-12             0                     2.6808e-05           
  -0.55                 -2.7804e-05           -1.3e-12              4e-14                 2.7942e-05           
  -0.6                  -2.8832e-05           -1.4e-12              4e-14                 2.8824e-05           
  -0.65                 -2.9602e-05           -1.42e-12             2e-14                 2.9598e-05           
  -0.7                  -3.0288e-05           -1.42e-12             0                     3.0306e-05           
  -0.75                 -3.1004e-05           -1.36e-12             8e-14                 3.1112e-05           
  -0.8                  -3.1566e-05           -1.32e-12             0                     3.1642e-05           
  -0.85                 -3.2228e-05           -1.28e-12             2e-14                 3.2234e-05           
  -0.9                  -3.2908e-05           -1.22e-12             4e-14                 3.2768e-05           
  -0.95                 -3.3292e-05           -1.3e-12              6e-14                 3.3286e-05           
  -1                    -3.3768e-05           -1.18e-12             4e-14                 3.3838e-05           
  -1.05                 -3.4322e-05           -1.12e-12             8e-14                 3.4438e-05           
  -1.1                  -3.4932e-05           -1.12e-12             1.4e-13               3.4888e-05           
  -1.15                 -3.5448e-05           -1.26e-12             1.2e-13               3.5542e-05           
  -1.2                  -3.5924e-05           -1.28e-12             2.2e-13               3.5926e-05           
  -1.25                 -3.638e-05            -1.18e-12             2e-13                 3.644e-05            
  -1.3                  -3.6894e-05           -1.14e-12             3.8e-13               3.708e-05            
  -1.35                 -3.753e-05            -1.24e-12             9.2e-13               3.7592e-05           
END_DB

BEGIN_DB
 ICCAP_VAR vg         -1.35          
 ICCAP_VAR vb         1.2            
 ICCAP_VAR vs         -0             

 #vd                    id                    ig                    ib                    is                   
  -0                    3.181e-09             -5.04e-12             2e-14                 -4.6782e-09          
  -0.05                 -5.6454e-06           -4.72e-12             -4e-14                5.6458e-06           
  -0.1                  -1.09396e-05          -4.42e-12             2e-14                 1.09318e-05          
  -0.15                 -1.5848e-05           -4.14e-12             1e-13                 1.5866e-05           
  -0.2                  -2.0226e-05           -3.82e-12             6e-14                 2.024e-05            
  -0.25                 -2.4206e-05           -3.56e-12             4e-14                 2.4218e-05           
  -0.3                  -2.772e-05            -3.5e-12              8e-14                 2.775e-05            
  -0.35                 -3.081e-05            -3.24e-12             -6e-14                3.0824e-05           
  -0.4                  -3.3404e-05           -2.94e-12             4e-14                 3.3518e-05           
  -0.45                 -3.5688e-05           -2.86e-12             1.6e-13               3.5804e-05           
  -0.5                  -3.7846e-05           -2.82e-12             1.4e-13               3.7882e-05           
  -0.55                 -3.9564e-05           -2.68e-12             6e-14                 3.961e-05            
  -0.6                  -4.113e-05            -2.56e-12             6e-14                 4.1116e-05           
  -0.65                 -4.2466e-05           -2.52e-12             4e-14                 4.2458e-05           
  -0.7                  -4.3622e-05           -2.58e-12             8e-14                 4.3636e-05           
  -0.75                 -4.471e-05            -2.42e-12             1e-13                 4.4734e-05           
  -0.8                  -4.5618e-05           -2.36e-12             1.2e-13               4.5708e-05           
  -0.85                 -4.6608e-05           -2.2e-12              1.2e-13               4.6556e-05           
  -0.9                  -4.7422e-05           -2.34e-12             4e-14                 4.7496e-05           
  -0.95                 -4.8242e-05           -2.34e-12             2e-14                 4.8234e-05           
  -1                    -4.902e-05            -2.26e-12             8e-14                 4.9006e-05           
  -1.05                 -4.9754e-05           -2.4e-12              6e-14                 4.973e-05            
  -1.1                  -5.0442e-05           -2.14e-12             6e-14                 5.0476e-05           
  -1.15                 -5.1096e-05           -2.32e-12             1.4e-13               5.1206e-05           
  -1.2                  -5.1812e-05           -2.06e-12             1e-13                 5.1832e-05           
  -1.25                 -5.2542e-05           -2.16e-12             1.6e-13               5.251e-05            
  -1.3                  -5.3168e-05           -2.28e-12             2e-13                 5.3208e-05           
  -1.35                 -5.378e-05            -2.12e-12             5e-13                 5.4004e-05           
END_DB

