! VERSION = 6.00
BEGIN_HEADER
 ICCAP_INPUTS
  vd         V  D GROUND SMU1 0.1 LIN        1    -0         -1.35      28   -0.05     
  vg         V  G GROUND SMU2 0.001 LIST       2 3 -0.192 -0.392 -0.592
  vb         V  B GROUND SMU4 0.1 CON        -0
  vs         V  S GROUND SMU3 0.1 CON        -0
 ICCAP_OUTPUTS
  id         I  D GROUND SMU1 B
  ig         I  G GROUND SMU2 B
  ib         I  B GROUND SMU4 B
  is         I  S GROUND SMU3 B
 ICCAP_VALUES
  MASTER_SETUP_TYPE "~dc_idvd~"
  LINVT_VALUE ""
  LISTVT_VALUE "|idvg|100.0n|-200.0m|1.000m|3|200.0m|200.0m|"
  TYPE "-1"
  TEMP " 27.0000 "
  IS_TNOM " 1.00000 "
  MAIN.W "180.0n"
  MAIN.L "140.0n"
  MAIN.AD "102.6f"
  MAIN.AS "102.6f"
  MAIN.PD "1.340u"
  MAIN.PS "1.340u"
  MAIN.NF "1.000"
  MAIN.M "1"
  MAIN.NRD "0.000"
  MAIN.NRS "0.000"
  MAIN.LDRIFT1 "1E-06"
  MAIN.LDRIFT2 "1E-06"
  MAIN.SA "0.000"
  MAIN.SB "0.000"
  MAIN.SD "0.000"
  MAIN.SCA "0.000"
  MAIN.SCB "0.000"
  MAIN.SCC "0.000"
  MAIN.SC "0.000"
  MODULE "S553"
  PIN_D "14"
  PIN_G "7"
  PIN_S "8"
  PIN_B "13"
  PIN_E ""
  PIN_6 ""
  XY_ID ""
  FUNC "LW Scale"
  STI "SA ref"
  WPE "WPE ref"
  COMMENT ""
  DIS_MEAS ""
  TypeTCI "10"
END_HEADER

BEGIN_DB
 ICCAP_VAR vg         -0.192         
 ICCAP_VAR vb         -0             
 ICCAP_VAR vs         -0             

 #vd                    id                    ig                    ib                    is                   
  -0                    5.8e-13               1.2e-13               -1.28e-12             -5.6e-13             
  -0.05                 -2.6654e-10           2e-13                 -1.22e-12             2.6766e-10           
  -0.1                  -3.287e-10            1e-13                 -1.34e-12             3.2918e-10           
  -0.15                 -3.567e-10            2.8e-13               -1.14e-12             3.5766e-10           
  -0.2                  -3.8016e-10           4e-14                 -1.34e-12             3.8002e-10           
  -0.25                 -3.9972e-10           0                     -1.24e-12             3.9978e-10           
  -0.3                  -4.2014e-10           1.8e-13               -1.24e-12             4.205e-10            
  -0.35                 -4.4178e-10           1.8e-13               -1.16e-12             4.4242e-10           
  -0.4                  -4.618e-10            4e-13                 -1.22e-12             4.601e-10            
  -0.45                 -4.789e-10            0                     -1.2e-12              4.7866e-10           
  -0.5                  -4.9934e-10           2.8e-13               -1.08e-12             4.9834e-10           
  -0.55                 -5.1948e-10           2.8e-13               -1.22e-12             5.2092e-10           
  -0.6                  -5.3882e-10           6e-14                 -1.2e-12              5.4268e-10           
  -0.65                 -5.6362e-10           1e-13                 -1.16e-12             5.6422e-10           
  -0.7                  -5.843e-10            2.8e-13               -1.18e-12             5.8358e-10           
  -0.75                 -6.0442e-10           1e-13                 -1.22e-12             6.0752e-10           
  -0.8                  -6.27e-10             1.2e-13               -1.18e-12             6.2738e-10           
  -0.85                 -6.5236e-10           1.2e-13               -1.2e-12              6.5518e-10           
  -0.9                  -6.7198e-10           1.8e-13               -1.16e-12             6.7566e-10           
  -0.95                 -6.987e-10            2e-14                 -1.28e-12             6.9838e-10           
  -1                    -7.2766e-10           -1.4e-13              -1.1e-12              7.2378e-10           
  -1.05                 -7.4808e-10           3.4e-13               -1.12e-12             7.4938e-10           
  -1.1                  -7.7396e-10           -4e-14                -1.08e-12             7.738e-10            
  -1.15                 -8.0386e-10           3e-13                 -1.06e-12             7.968e-10            
  -1.2                  -8.2978e-10           4.6e-13               -1.2e-12              8.2862e-10           
  -1.25                 -8.5186e-10           3.4e-13               -1.2e-12              8.5518e-10           
  -1.3                  -8.8806e-10           4.4e-13               -1.1e-12              8.9364e-10           
  -1.35                 -9.2566e-10           4.6e-13               -1.14e-12             9.1366e-10           
END_DB

BEGIN_DB
 ICCAP_VAR vg         -0.392         
 ICCAP_VAR vb         -0             
 ICCAP_VAR vs         -0             

 #vd                    id                    ig                    ib                    is                   
  -0                    1.552e-10             1.8e-13               -1.08e-12             -1.5178e-10          
  -0.05                 -6.7444e-08           -2e-14                -1e-12                6.7516e-08           
  -0.1                  -8.879e-08            -3.4e-13              -1.04e-12             8.8422e-08           
  -0.15                 -9.8808e-08           -1.2e-13              -1.08e-12             9.927e-08            
  -0.2                  -1.06886e-07          -1e-13                -1.1e-12              1.0694e-07           
  -0.25                 -1.1328e-07           1.8e-13               -1.08e-12             1.1348e-07           
  -0.3                  -1.1896e-07           -1.2e-13              -1e-12                1.1954e-07           
  -0.35                 -1.2518e-07           1.6e-13               -1.12e-12             1.2584e-07           
  -0.4                  -1.3184e-07           1e-13                 -1.06e-12             1.3174e-07           
  -0.45                 -1.3714e-07           0                     -1.08e-12             1.376e-07            
  -0.5                  -1.4368e-07           -1.6e-13              -1e-12                1.4346e-07           
  -0.55                 -1.4826e-07           -1.2e-13              -1.04e-12             1.4844e-07           
  -0.6                  -1.5364e-07           0                     -1.12e-12             1.5384e-07           
  -0.65                 -1.5946e-07           4e-14                 -1.04e-12             1.5954e-07           
  -0.7                  -1.6516e-07           4e-14                 -1e-12                1.653e-07            
  -0.75                 -1.714e-07            0                     -1.02e-12             1.713e-07            
  -0.8                  -1.7652e-07           2e-14                 -1.1e-12              1.7716e-07           
  -0.85                 -1.8226e-07           2.2e-13               -1.14e-12             1.8236e-07           
  -0.9                  -1.8736e-07           0                     -1.08e-12             1.8758e-07           
  -0.95                 -1.9326e-07           0                     -1.02e-12             1.9386e-07           
  -1                    -1.994e-07            -1e-13                -1.04e-12             1.9984e-07           
  -1.05                 -2.057e-07            0                     -1e-12                2.0602e-07           
  -1.1                  -2.1174e-07           -2e-14                -1.02e-12             2.1204e-07           
  -1.15                 -2.1764e-07           -4e-14                -1.06e-12             2.1796e-07           
  -1.2                  -2.2426e-07           -2e-14                -9.6e-13              2.2418e-07           
  -1.25                 -2.3038e-07           -4e-14                -9e-13                2.3034e-07           
  -1.3                  -2.3664e-07           -1.2e-13              -6.4e-13              2.3656e-07           
  -1.35                 -2.4348e-07           -1.4e-13              -2.8e-13              2.4322e-07           
END_DB

BEGIN_DB
 ICCAP_VAR vg         -0.592         
 ICCAP_VAR vb         -0             
 ICCAP_VAR vs         -0             

 #vd                    id                    ig                    ib                    is                   
  -0                    1.638e-09             -4.4e-13              -9e-13                -1.5178e-09          
  -0.05                 -1.05122e-06          -2.2e-13              -9.4e-13              1.0517e-06           
  -0.1                  -1.704e-06            -1.6e-13              -9.4e-13              1.7082e-06           
  -0.15                 -2.0824e-06           -2.4e-13              -1e-12                2.0862e-06           
  -0.2                  -2.3098e-06           -6e-14                -1.1e-12              2.313e-06            
  -0.25                 -2.4654e-06           -3.2e-13              -9.6e-13              2.4666e-06           
  -0.3                  -2.5822e-06           -2.8e-13              -1.1e-12              2.5858e-06           
  -0.35                 -2.687e-06            -1.6e-13              -9.4e-13              2.6902e-06           
  -0.4                  -2.7848e-06           -2.6e-13              -9.8e-13              2.7876e-06           
  -0.45                 -2.8722e-06           -3.2e-13              -9.4e-13              2.8772e-06           
  -0.5                  -2.9582e-06           -2.2e-13              -1.06e-12             2.955e-06            
  -0.55                 -3.0344e-06           -2e-14                -1.06e-12             3.0348e-06           
  -0.6                  -3.112e-06            0                     -9.6e-13              3.1144e-06           
  -0.65                 -3.1806e-06           -2.8e-13              -9.4e-13              3.18e-06             
  -0.7                  -3.2564e-06           -6e-14                -9.4e-13              3.2562e-06           
  -0.75                 -3.3224e-06           4e-14                 -1.06e-12             3.328e-06            
  -0.8                  -3.4008e-06           -1.2e-13              -9.4e-13              3.4006e-06           
  -0.85                 -3.463e-06            -2.2e-13              -1.04e-12             3.4656e-06           
  -0.9                  -3.535e-06            -1.4e-13              -9.8e-13              3.533e-06            
  -0.95                 -3.6022e-06           1e-13                 -1e-12                3.6012e-06           
  -1                    -3.6684e-06           -1.6e-13              -9.4e-13              3.6704e-06           
  -1.05                 -3.7338e-06           -2e-14                -9e-13                3.7362e-06           
  -1.1                  -3.799e-06            0                     -9.2e-13              3.8024e-06           
  -1.15                 -3.864e-06            -1.8e-13              -8.6e-13              3.8686e-06           
  -1.2                  -3.93e-06             -6e-14                -7.2e-13              3.9324e-06           
  -1.25                 -3.994e-06            4e-14                 -5.2e-13              4.0002e-06           
  -1.3                  -4.0574e-06           0                     1.4e-13               4.0626e-06           
  -1.35                 -4.1256e-06           -2.4e-13              1.3e-12               4.1304e-06           
END_DB

