! VERSION = 6.00
BEGIN_HEADER
 ICCAP_INPUTS
  vd         V  D GROUND SMU1 0.1 LIN        1    -0         -1.35      28   -0.05     
  vg         V  G GROUND SMU2 0.001 LIN        2    -0.606     -1.35      5    -0.186    
  vb         V  B GROUND SMU4 0.1 CON        1.2
  vs         V  S GROUND SMU3 0.1 CON        -0
 ICCAP_OUTPUTS
  id         I  D GROUND SMU1 B
  ig         I  G GROUND SMU2 B
  ib         I  B GROUND SMU4 B
  is         I  S GROUND SMU3 B
 ICCAP_VALUES
  MASTER_SETUP_TYPE "~dc_idvd~"
  LINVT_VALUE "|idvg|100.0n|100.0m|1.000m|5|1.350|"
  LISTVT_VALUE ""
  TYPE "-1"
  TEMP " 70.0000 "
  IS_TNOM " 0.00000 "
  MAIN.W "10.00u"
  MAIN.L "130.0n"
  MAIN.AD "3.400p"
  MAIN.AS "3.400p"
  MAIN.PD "20.68u"
  MAIN.PS "20.68u"
  MAIN.NF "1.000"
  MAIN.M "1"
  MAIN.NRD "0.000"
  MAIN.NRS "0.000"
  MAIN.LDRIFT1 "1E-06"
  MAIN.LDRIFT2 "1E-06"
  MAIN.SA "0.000"
  MAIN.SB "0.000"
  MAIN.SD "0.000"
  MAIN.SCA "0.000"
  MAIN.SCB "0.000"
  MAIN.SCC "0.000"
  MAIN.SC "0.000"
  MODULE "S548"
  PIN_D "18"
  PIN_G "3"
  PIN_S "4"
  PIN_B "17"
  PIN_E ""
  PIN_6 ""
  XY_ID ""
  FUNC "Short"
  STI "SA ref"
  WPE "WPE ref"
  COMMENT ""
  DIS_MEAS ""
  TypeTCI "10"
END_HEADER

BEGIN_DB
 ICCAP_VAR vg         -0.606         
 ICCAP_VAR vb         1.2            
 ICCAP_VAR vs         -0             

 #vd                    id                    ig                    ib                    is                   
  -0                    2.4878e-08            -1.038e-11            1.514e-11             -2.8762e-08          
  -0.05                 -1.4922e-05           -8.76e-12             1.51e-11              1.4916e-05           
  -0.1                  -2.291e-05            -7.84e-12             1.506e-11             2.2922e-05           
  -0.15                 -2.74e-05             -7.26e-12             1.496e-11             2.742e-05            
  -0.2                  -3.041e-05            -6.84e-12             1.498e-11             3.04e-05             
  -0.25                 -3.2794e-05           -6.5e-12              1.502e-11             3.282e-05            
  -0.3                  -3.4904e-05           -6.42e-12             1.508e-11             3.4918e-05           
  -0.35                 -3.6902e-05           -6.28e-12             1.504e-11             3.6996e-05           
  -0.4                  -3.8914e-05           -6.08e-12             1.498e-11             3.8906e-05           
  -0.45                 -4.086e-05            -6.04e-12             1.492e-11             4.0814e-05           
  -0.5                  -4.278e-05            -5.84e-12             1.504e-11             4.2778e-05           
  -0.55                 -4.4718e-05           -5.9e-12              1.498e-11             4.4734e-05           
  -0.6                  -4.6712e-05           -5.94e-12             1.5e-11               4.67e-05             
  -0.65                 -4.871e-05            -5.8e-12              1.492e-11             4.872e-05            
  -0.7                  -5.0748e-05           -5.76e-12             1.5e-11               5.0764e-05           
  -0.75                 -5.2834e-05           -5.62e-12             1.488e-11             5.28e-05             
  -0.8                  -5.4848e-05           -5.54e-12             1.494e-11             5.4874e-05           
  -0.85                 -5.6992e-05           -5.52e-12             1.496e-11             5.7004e-05           
  -0.9                  -5.9154e-05           -5.3e-12              1.496e-11             5.9174e-05           
  -0.95                 -6.1366e-05           -5.22e-12             1.51e-11              6.1382e-05           
  -1                    -6.3614e-05           -4.92e-12             1.542e-11             6.36e-05             
  -1.05                 -6.5864e-05           -4.72e-12             1.618e-11             6.5896e-05           
  -1.1                  -6.8242e-05           -4.34e-12             1.792e-11             6.8268e-05           
  -1.15                 -7.0602e-05           -3.96e-12             2.148e-11             7.0588e-05           
  -1.2                  -7.311e-05            -3.64e-12             2.908e-11             7.3162e-05           
  -1.25                 -7.5628e-05           -3.02e-12             4.4e-11               7.5606e-05           
  -1.3                  -7.81e-05             -2.5e-12              7.242e-11             7.807e-05            
  -1.35                 -8.0658e-05           -1.74e-12             1.237e-10             8.0706e-05           
END_DB

BEGIN_DB
 ICCAP_VAR vg         -0.792         
 ICCAP_VAR vb         1.2            
 ICCAP_VAR vs         -0             

 #vd                    id                    ig                    ib                    is                   
  -0                    9.594e-08             -3.122e-11            1.452e-11             -8.532e-08           
  -0.05                 -6.0468e-05           -2.774e-11            1.458e-11             6.0434e-05           
  -0.1                  -0.000106888          -2.48e-11             1.45e-11              0.000106944          
  -0.15                 -0.0001412            -2.246e-11            1.462e-11             0.00014154           
  -0.2                  -0.0001661            -2.074e-11            1.468e-11             0.00016644           
  -0.25                 -0.00018424           -1.944e-11            1.48e-11              0.00018464           
  -0.3                  -0.0001982            -1.876e-11            1.464e-11             0.00019852           
  -0.35                 -0.00020932           -1.804e-11            1.472e-11             0.0002097            
  -0.4                  -0.0002189            -1.752e-11            1.47e-11              0.00021934           
  -0.45                 -0.0002276            -1.708e-11            1.472e-11             0.00022796           
  -0.5                  -0.0002358            -1.686e-11            1.474e-11             0.00023596           
  -0.55                 -0.00024336           -1.666e-11            1.486e-11             0.00024372           
  -0.6                  -0.00025068           -1.636e-11            1.468e-11             0.00025102           
  -0.65                 -0.00025786           -1.63e-11             1.468e-11             0.0002581            
  -0.7                  -0.00026496           -1.63e-11             1.462e-11             0.00026532           
  -0.75                 -0.0002719            -1.622e-11            1.464e-11             0.00027216           
  -0.8                  -0.00027884           -1.612e-11            1.468e-11             0.0002791            
  -0.85                 -0.0002855            -1.594e-11            1.476e-11             0.00028592           
  -0.9                  -0.0002926            -1.574e-11            1.474e-11             0.00029286           
  -0.95                 -0.00029934           -1.566e-11            1.482e-11             0.00029974           
  -1                    -0.00030624           -1.56e-11             1.498e-11             0.0003065            
  -1.05                 -0.00031316           -1.536e-11            1.56e-11              0.00031336           
  -1.1                  -0.00032006           -1.52e-11             1.676e-11             0.00032044           
  -1.15                 -0.0003269            -1.502e-11            1.974e-11             0.00032708           
  -1.2                  -0.00033372           -1.472e-11            2.63e-11              0.00033418           
  -1.25                 -0.00034124           -1.432e-11            4.018e-11             0.0003415            
  -1.3                  -0.00034824           -1.412e-11            6.868e-11             0.00034846           
  -1.35                 -0.00035542           -1.372e-11            1.244e-10             0.00035566           
END_DB

BEGIN_DB
 ICCAP_VAR vg         -0.978         
 ICCAP_VAR vb         1.2            
 ICCAP_VAR vs         -0             

 #vd                    id                    ig                    ib                    is                   
  -0                    2.854e-07             -7.536e-11            1.448e-11             -1.4104e-07          
  -0.05                 -0.00010992           -6.826e-11            1.444e-11             0.00011022           
  -0.1                  -0.00020614           -6.196e-11            1.458e-11             0.00020646           
  -0.15                 -0.00028852           -5.678e-11            1.456e-11             0.0002888            
  -0.2                  -0.00035768           -5.234e-11            1.466e-11             0.00035808           
  -0.25                 -0.00041442           -4.87e-11             1.456e-11             0.00041506           
  -0.3                  -0.00046078           -4.566e-11            1.466e-11             0.0004609            
  -0.35                 -0.00049768           -4.354e-11            1.482e-11             0.00049816           
  -0.4                  -0.00052816           -4.174e-11            1.472e-11             0.00052854           
  -0.45                 -0.00055316           -4.022e-11            1.46e-11              0.00055346           
  -0.5                  -0.00057452           -3.926e-11            1.47e-11              0.00057508           
  -0.55                 -0.00059352           -3.854e-11            1.474e-11             0.00059382           
  -0.6                  -0.00061032           -3.78e-11             1.464e-11             0.00061104           
  -0.65                 -0.00062646           -3.736e-11            1.48e-11              0.0006264            
  -0.7                  -0.00064102           -3.684e-11            1.47e-11              0.00064122           
  -0.75                 -0.00065494           -3.644e-11            1.47e-11              0.00065516           
  -0.8                  -0.00066814           -3.61e-11             1.466e-11             0.00066842           
  -0.85                 -0.00068132           -3.578e-11            1.468e-11             0.00068156           
  -0.9                  -0.00069448           -3.588e-11            1.452e-11             0.00069464           
  -0.95                 -0.00070692           -3.562e-11            1.474e-11             0.00070732           
  -1                    -0.00071998           -3.538e-11            1.488e-11             0.00072026           
  -1.05                 -0.00073226           -3.51e-11             1.508e-11             0.0007323            
  -1.1                  -0.00074458           -3.486e-11            1.568e-11             0.00074506           
  -1.15                 -0.000757             -3.466e-11            1.73e-11              0.00075734           
  -1.2                  -0.00076918           -3.454e-11            2.09e-11              0.00076964           
  -1.25                 -0.00078144           -3.426e-11            2.9e-11               0.0007817            
  -1.3                  -0.00079318           -3.398e-11            4.616e-11             0.0007938            
  -1.35                 -0.00080558           -3.37e-11             8.156e-11             0.0008061            
END_DB

BEGIN_DB
 ICCAP_VAR vg         -1.164         
 ICCAP_VAR vb         1.2            
 ICCAP_VAR vs         -0             

 #vd                    id                    ig                    ib                    is                   
  -0                    4.1296e-07            -1.5196e-10           1.468e-11             -1.4724e-07          
  -0.05                 -0.00015234           -1.3964e-10           1.452e-11             0.00015262           
  -0.1                  -0.0002927            -1.2928e-10           1.468e-11             0.00029324           
  -0.15                 -0.00042066           -1.1954e-10           1.462e-11             0.00042086           
  -0.2                  -0.0005353            -1.1106e-10           1.464e-11             0.0005359            
  -0.25                 -0.00063686           -1.0386e-10           1.46e-11              0.00063728           
  -0.3                  -0.00072618           -9.758e-11            1.454e-11             0.00072658           
  -0.35                 -0.00080288           -9.21e-11             1.47e-11              0.00080358           
  -0.4                  -0.00086874           -8.738e-11            1.462e-11             0.00086882           
  -0.45                 -0.0009241            -8.364e-11            1.466e-11             0.00092448           
  -0.5                  -0.00097188           -8.076e-11            1.472e-11             0.00097186           
  -0.55                 -0.00101226           -7.826e-11            1.472e-11             0.00101282           
  -0.6                  -0.00104762           -7.64e-11             1.452e-11             0.00104854           
  -0.65                 -0.00107902           -7.492e-11            1.448e-11             0.00107974           
  -0.7                  -0.00110722           -7.44e-11             1.464e-11             0.00110686           
  -0.75                 -0.00113178           -7.388e-11            1.468e-11             0.0011321            
  -0.8                  -0.0011558            -7.162e-11            1.468e-11             0.001156             
  -0.85                 -0.001178             -7.072e-11            1.478e-11             0.001178             
  -0.9                  -0.0011988            -7.006e-11            1.466e-11             0.0011996            
  -0.95                 -0.0012188            -6.954e-11            1.478e-11             0.0012194            
  -1                    -0.0012382            -6.904e-11            1.48e-11              0.0012392            
  -1.05                 -0.0012572            -6.854e-11            1.48e-11              0.0012576            
  -1.1                  -0.0012752            -6.936e-11            1.514e-11             0.001276             
  -1.15                 -0.0012932            -6.916e-11            1.608e-11             0.0012938            
  -1.2                  -0.001311             -6.726e-11            1.772e-11             0.0013116            
  -1.25                 -0.001328             -6.694e-11            2.212e-11             0.001329             
  -1.3                  -0.0013458            -6.67e-11             3.13e-11              0.0013464            
  -1.35                 -0.0013632            -6.646e-11            5.058e-11             0.0013646            
END_DB

BEGIN_DB
 ICCAP_VAR vg         -1.35          
 ICCAP_VAR vb         1.2            
 ICCAP_VAR vs         -0             

 #vd                    id                    ig                    ib                    is                   
  -0                    4.5364e-07            -2.819e-10            1.834e-11             -1.741e-07           
  -0.05                 -0.00018722           -2.6752e-10           1.732e-11             0.00018752           
  -0.1                  -0.00036434           -2.4884e-10           1.652e-11             0.00036472           
  -0.15                 -0.00053044           -2.3228e-10           1.612e-11             0.00053108           
  -0.2                  -0.00068518           -2.1766e-10           1.612e-11             0.00068586           
  -0.25                 -0.00082788           -2.0406e-10           1.592e-11             0.00082818           
  -0.3                  -0.00095808           -1.918e-10            1.576e-11             0.00095766           
  -0.35                 -0.00107484           -1.8134e-10           1.558e-11             0.00107522           
  -0.4                  -0.00118              -1.7202e-10           1.556e-11             0.0011806            
  -0.45                 -0.0012736            -1.647e-10            1.546e-11             0.0012736            
  -0.5                  -0.0013554            -1.577e-10            1.522e-11             0.0013564            
  -0.55                 -0.0014278            -1.4912e-10           1.532e-11             0.0014294            
  -0.6                  -0.0014926            -1.445e-10            1.524e-11             0.001494             
  -0.65                 -0.0015488            -1.3956e-10           1.524e-11             0.0015492            
  -0.7                  -0.0015976            -1.3624e-10           1.542e-11             0.0015982            
  -0.75                 -0.0016404            -1.3332e-10           1.526e-11             0.001641             
  -0.8                  -0.0016796            -1.3402e-10           1.526e-11             0.0016804            
  -0.85                 -0.0017158            -1.3154e-10           1.532e-11             0.0017162            
  -0.9                  -0.0017482            -1.2758e-10           1.512e-11             0.0017494            
  -0.95                 -0.0017796            -1.2602e-10           1.532e-11             0.0017796            
  -1                    -0.0018076            -1.246e-10            1.534e-11             0.001808             
  -1.05                 -0.0018338            -1.2382e-10           1.54e-11              0.0018356            
  -1.1                  -0.0018602            -1.2264e-10           1.54e-11              0.0018606            
  -1.15                 -0.0018852            -1.2176e-10           1.58e-11              0.001886             
  -1.2                  -0.00191              -1.2104e-10           1.688e-11             0.0019104            
  -1.25                 -0.0019328            -1.201e-10            1.898e-11             0.001934             
  -1.3                  -0.0019564            -1.1954e-10           2.384e-11             0.0019574            
  -1.35                 -0.001979             -1.1884e-10           3.42e-11              0.0019804            
END_DB

