! VERSION = 6.00
BEGIN_HEADER
 ICCAP_INPUTS
  vd         V  D GROUND SMU1 0.1 LIN        1    -0         -1.35      28   -0.05     
  vg         V  G GROUND SMU2 0.001 LIST       2 3 -0.247 -0.447 -0.647
  vb         V  B GROUND SMU4 0.1 CON        1.2
  vs         V  S GROUND SMU3 0.1 CON        -0
 ICCAP_OUTPUTS
  id         I  D GROUND SMU1 B
  ig         I  G GROUND SMU2 B
  ib         I  B GROUND SMU4 B
  is         I  S GROUND SMU3 B
 ICCAP_VALUES
  MASTER_SETUP_TYPE "~dc_idvd~"
  LINVT_VALUE ""
  LISTVT_VALUE "|idvg|100.0n|-200.0m|1.000m|3|200.0m|200.0m|"
  TYPE "-1"
  TEMP " 70.0000 "
  IS_TNOM " 0.00000 "
  MAIN.W "150.0n"
  MAIN.L "10.00u"
  MAIN.AD "100.5f"
  MAIN.AS "100.5f"
  MAIN.PD "1.340u"
  MAIN.PS "1.340u"
  MAIN.NF "1.000"
  MAIN.M "1"
  MAIN.NRD "0.000"
  MAIN.NRS "0.000"
  MAIN.LDRIFT1 "1E-06"
  MAIN.LDRIFT2 "1E-06"
  MAIN.SA "0.000"
  MAIN.SB "0.000"
  MAIN.SD "0.000"
  MAIN.SCA "0.000"
  MAIN.SCB "0.000"
  MAIN.SCC "0.000"
  MAIN.SC "0.000"
  MODULE "S555"
  PIN_D "16"
  PIN_G "5"
  PIN_S "6"
  PIN_B "15"
  PIN_E ""
  PIN_6 ""
  XY_ID ""
  FUNC "Narrow"
  STI "SA ref"
  WPE "WPE ref"
  COMMENT ""
  DIS_MEAS ""
  TypeTCI "10"
END_HEADER

BEGIN_DB
 ICCAP_VAR vg         -0.247         
 ICCAP_VAR vb         1.2            
 ICCAP_VAR vs         -0             

 #vd                    id                    ig                    ib                    is                   
  -0                    1.4e-13               2.6e-13               1.326e-11             -2e-14               
  -0.05                 -5.6e-12              2e-13                 1.338e-11             5.48e-12             
  -0.1                  -6.8e-12              1.4e-13               1.336e-11             6.6e-12              
  -0.15                 -7.08e-12             1.6e-13               1.344e-11             6.8e-12              
  -0.2                  -7.24e-12             8e-14                 1.346e-11             6.66e-12             
  -0.25                 -7.3e-12              0                     1.336e-11             6.9e-12              
  -0.3                  -7.32e-12             8e-14                 1.346e-11             6.92e-12             
  -0.35                 -7.48e-12             4e-14                 1.342e-11             6.94e-12             
  -0.4                  -7.44e-12             -2e-14                1.34e-11              6.9e-12              
  -0.45                 -7.5e-12              8e-14                 1.338e-11             6.86e-12             
  -0.5                  -7.5e-12              2e-14                 1.334e-11             7e-12                
  -0.55                 -7.58e-12             1.4e-13               1.342e-11             7.02e-12             
  -0.6                  -7.66e-12             4e-14                 1.338e-11             6.96e-12             
  -0.65                 -7.66e-12             1.4e-13               1.338e-11             6.96e-12             
  -0.7                  -7.74e-12             1.2e-13               1.334e-11             6.98e-12             
  -0.75                 -7.72e-12             2e-14                 1.336e-11             6.98e-12             
  -0.8                  -7.72e-12             1e-13                 1.34e-11              6.84e-12             
  -0.85                 -7.8e-12              1e-13                 1.346e-11             6.94e-12             
  -0.9                  -7.74e-12             0                     1.338e-11             7.04e-12             
  -0.95                 -7.86e-12             4e-14                 1.338e-11             6.88e-12             
  -1                    -7.92e-12             2.4e-13               1.336e-11             7.02e-12             
  -1.05                 -8e-12                1.8e-13               1.344e-11             6.92e-12             
  -1.1                  -7.94e-12             4e-14                 1.338e-11             7.06e-12             
  -1.15                 -8e-12                1e-13                 1.348e-11             7.06e-12             
  -1.2                  -8.12e-12             2.2e-13               1.342e-11             7.02e-12             
  -1.25                 -8.12e-12             8e-14                 1.334e-11             7.1e-12              
  -1.3                  -8.1e-12              6e-14                 1.35e-11              7.08e-12             
  -1.35                 -8.22e-12             2e-14                 1.336e-11             7.18e-12             
END_DB

BEGIN_DB
 ICCAP_VAR vg         -0.447         
 ICCAP_VAR vb         1.2            
 ICCAP_VAR vs         -0             

 #vd                    id                    ig                    ib                    is                   
  -0                    3.68e-12              -8e-13                1.312e-11             -2.38e-12            
  -0.05                 -1.2166e-09           -6e-13                1.328e-11             1.2164e-09           
  -0.1                  -1.5588e-09           -5.6e-13              1.33e-11              1.5598e-09           
  -0.15                 -1.6396e-09           -4.4e-13              1.326e-11             1.6394e-09           
  -0.2                  -1.66e-09             -5.6e-13              1.318e-11             1.6598e-09           
  -0.25                 -1.6676e-09           -5.6e-13              1.336e-11             1.6678e-09           
  -0.3                  -1.6722e-09           -3.2e-13              1.336e-11             1.673e-09            
  -0.35                 -1.677e-09            -6e-13                1.324e-11             1.6762e-09           
  -0.4                  -1.6806e-09           -4.4e-13              1.334e-11             1.6808e-09           
  -0.45                 -1.6856e-09           -4.6e-13              1.332e-11             1.685e-09            
  -0.5                  -1.6888e-09           -4.4e-13              1.322e-11             1.689e-09            
  -0.55                 -1.6926e-09           -3.6e-13              1.336e-11             1.692e-09            
  -0.6                  -1.6952e-09           -4.2e-13              1.336e-11             1.6952e-09           
  -0.65                 -1.698e-09            -3.8e-13              1.334e-11             1.6974e-09           
  -0.7                  -1.7004e-09           -3.8e-13              1.33e-11              1.6998e-09           
  -0.75                 -1.7016e-09           -4.4e-13              1.338e-11             1.701e-09            
  -0.8                  -1.7032e-09           -2.8e-13              1.34e-11              1.7026e-09           
  -0.85                 -1.7052e-09           -4.6e-13              1.328e-11             1.7044e-09           
  -0.9                  -1.707e-09            -4.4e-13              1.33e-11              1.706e-09            
  -0.95                 -1.7084e-09           -4.4e-13              1.336e-11             1.7078e-09           
  -1                    -1.7104e-09           -4.6e-13              1.328e-11             1.709e-09            
  -1.05                 -1.7106e-09           -5.4e-13              1.344e-11             1.7116e-09           
  -1.1                  -1.7138e-09           -3.2e-13              1.33e-11              1.7114e-09           
  -1.15                 -1.7152e-09           -4.2e-13              1.334e-11             1.7134e-09           
  -1.2                  -1.7156e-09           -5.6e-13              1.334e-11             1.7146e-09           
  -1.25                 -1.7166e-09           -3.8e-13              1.324e-11             1.7156e-09           
  -1.3                  -1.717e-09            -4.8e-13              1.336e-11             1.7164e-09           
  -1.35                 -1.7178e-09           -4.6e-13              1.326e-11             1.7182e-09           
END_DB

BEGIN_DB
 ICCAP_VAR vg         -0.647         
 ICCAP_VAR vb         1.2            
 ICCAP_VAR vs         -0             

 #vd                    id                    ig                    ib                    is                   
  -0                    2.138e-11             -6.94e-12             1.318e-11             -1.37e-11            
  -0.05                 -1.1262e-08           -5.82e-12             1.32e-11              1.1282e-08           
  -0.1                  -1.8904e-08           -4.94e-12             1.328e-11             1.8928e-08           
  -0.15                 -2.3348e-08           -4.52e-12             1.33e-11              2.3378e-08           
  -0.2                  -2.5366e-08           -4.14e-12             1.332e-11             2.539e-08            
  -0.25                 -2.606e-08            -4.08e-12             1.332e-11             2.608e-08            
  -0.3                  -2.6296e-08           -4.14e-12             1.322e-11             2.6308e-08           
  -0.35                 -2.6396e-08           -4e-12                1.328e-11             2.6412e-08           
  -0.4                  -2.6468e-08           -3.98e-12             1.33e-11              2.6494e-08           
  -0.45                 -2.653e-08            -4.04e-12             1.334e-11             2.6556e-08           
  -0.5                  -2.6588e-08           -4e-12                1.332e-11             2.6614e-08           
  -0.55                 -2.6638e-08           -4.08e-12             1.338e-11             2.6658e-08           
  -0.6                  -2.6676e-08           -4.04e-12             1.322e-11             2.67e-08             
  -0.65                 -2.6722e-08           -4.08e-12             1.332e-11             2.674e-08            
  -0.7                  -2.6756e-08           -4.02e-12             1.342e-11             2.678e-08            
  -0.75                 -2.6792e-08           -3.96e-12             1.336e-11             2.6798e-08           
  -0.8                  -2.6818e-08           -3.9e-12              1.34e-11              2.684e-08            
  -0.85                 -2.6854e-08           -3.86e-12             1.336e-11             2.687e-08            
  -0.9                  -2.6878e-08           -3.9e-12              1.332e-11             2.689e-08            
  -0.95                 -2.6892e-08           -3.92e-12             1.332e-11             2.6908e-08           
  -1                    -2.6926e-08           -3.9e-12              1.328e-11             2.6936e-08           
  -1.05                 -2.6942e-08           -3.94e-12             1.338e-11             2.6966e-08           
  -1.1                  -2.697e-08            -3.9e-12              1.34e-11              2.6992e-08           
  -1.15                 -2.6986e-08           -3.88e-12             1.34e-11              2.7012e-08           
  -1.2                  -2.701e-08            -3.88e-12             1.34e-11              2.7026e-08           
  -1.25                 -2.702e-08            -3.82e-12             1.326e-11             2.7042e-08           
  -1.3                  -2.7044e-08           -3.92e-12             1.334e-11             2.706e-08            
  -1.35                 -2.705e-08            -3.86e-12             1.336e-11             2.707e-08            
END_DB

