! VERSION = 6.00
BEGIN_HEADER
 ICCAP_INPUTS
  vd         V  D GROUND SMU1 0.1 LIN        1    -0         -1.35      28   -0.05     
  vg         V  G GROUND SMU2 0.001 LIN        2    -0.378     -1.35      5    -0.243    
  vb         V  B GROUND SMU4 0.1 CON        -0
  vs         V  S GROUND SMU3 0.1 CON        -0
 ICCAP_OUTPUTS
  id         I  D GROUND SMU1 B
  ig         I  G GROUND SMU2 B
  ib         I  B GROUND SMU4 B
  is         I  S GROUND SMU3 B
 ICCAP_VALUES
  MASTER_SETUP_TYPE "~dc_idvd~"
  LINVT_VALUE "|idvg|100.0n|100.0m|1.000m|5|1.350|"
  LISTVT_VALUE ""
  TYPE "-1"
  TEMP " 125.000 "
  IS_TNOM " 0.00000 "
  MAIN.W "150.0n"
  MAIN.L "180.0n"
  MAIN.AD "100.5f"
  MAIN.AS "100.5f"
  MAIN.PD "1.340u"
  MAIN.PS "1.340u"
  MAIN.NF "1.000"
  MAIN.M "1"
  MAIN.NRD "0.000"
  MAIN.NRS "0.000"
  MAIN.LDRIFT1 "1E-06"
  MAIN.LDRIFT2 "1E-06"
  MAIN.SA "0.000"
  MAIN.SB "0.000"
  MAIN.SD "0.000"
  MAIN.SCA "0.000"
  MAIN.SCB "0.000"
  MAIN.SCC "0.000"
  MAIN.SC "0.000"
  MODULE "S555"
  PIN_D "20"
  PIN_G "1"
  PIN_S "2"
  PIN_B "19"
  PIN_E ""
  PIN_6 ""
  XY_ID ""
  FUNC "LW Scale"
  STI "SA ref"
  WPE "WPE ref"
  COMMENT ""
  DIS_MEAS ""
  TypeTCI "10"
END_HEADER

BEGIN_DB
 ICCAP_VAR vg         -0.378         
 ICCAP_VAR vb         -0             
 ICCAP_VAR vs         -0             

 #vd                    id                    ig                    ib                    is                   
  -0                    3.2534e-10            -1.8e-13              -3.094e-11            -4.0956e-10          
  -0.05                 -2.1256e-07           -6e-14                -3.008e-11            2.125e-07            
  -0.1                  -3.1218e-07           -2e-13                -2.786e-11            3.1246e-07           
  -0.15                 -3.593e-07            -2.4e-13              -2.64e-11             3.5934e-07           
  -0.2                  -3.8574e-07           -1.4e-13              -2.602e-11            3.8558e-07           
  -0.25                 -4.042e-07            -1.6e-13              -2.5e-11              4.0454e-07           
  -0.3                  -4.2e-07              -1.4e-13              -2.408e-11            4.2014e-07           
  -0.35                 -4.3394e-07           -1.4e-13              -2.308e-11            4.3302e-07           
  -0.4                  -4.4714e-07           -1.4e-13              -2.218e-11            4.468e-07            
  -0.45                 -4.5942e-07           -1.2e-13              -2.218e-11            4.598e-07            
  -0.5                  -4.7126e-07           -1.4e-13              -2.11e-11             4.715e-07            
  -0.55                 -4.8272e-07           -8e-14                -2.03e-11             4.83e-07             
  -0.6                  -4.948e-07            -1.2e-13              -1.964e-11            4.9486e-07           
  -0.65                 -5.0576e-07           -1.8e-13              -1.908e-11            5.0522e-07           
  -0.7                  -5.1578e-07           -1e-13                -1.872e-11            5.1556e-07           
  -0.75                 -5.2628e-07           -1.2e-13              -1.83e-11             5.2608e-07           
  -0.8                  -5.3584e-07           -2.2e-13              -1.772e-11            5.3648e-07           
  -0.85                 -5.4568e-07           -1.6e-13              -1.702e-11            5.458e-07            
  -0.9                  -5.5516e-07           -1.8e-13              -1.672e-11            5.554e-07            
  -0.95                 -5.6498e-07           -1.8e-13              -1.636e-11            5.6508e-07           
  -1                    -5.7408e-07           -1.6e-13              -1.604e-11            5.7444e-07           
  -1.05                 -5.8306e-07           -2e-14                -1.538e-11            5.8328e-07           
  -1.1                  -5.9202e-07           -1.8e-13              -1.48e-11             5.9204e-07           
  -1.15                 -6.0058e-07           -6e-14                -1.422e-11            5.9994e-07           
  -1.2                  -6.0912e-07           -2.2e-13              -1.35e-11             6.0934e-07           
  -1.25                 -6.175e-07            0                     -1.216e-11            6.1728e-07           
  -1.3                  -6.2568e-07           -1e-13                -1.086e-11            6.2594e-07           
  -1.35                 -6.3402e-07           0                     -9.52e-12             6.3386e-07           
END_DB

BEGIN_DB
 ICCAP_VAR vg         -0.621         
 ICCAP_VAR vb         -0             
 ICCAP_VAR vs         -0             

 #vd                    id                    ig                    ib                    is                   
  -0                    1.5878e-09            -6e-13                -1.37e-11             -1.4562e-09          
  -0.05                 -1.11792e-06          -4.8e-13              -1.408e-11            1.11622e-06          
  -0.1                  -1.9748e-06           -4.8e-13              -1.246e-11            1.9752e-06           
  -0.15                 -2.5872e-06           -4.4e-13              -1.214e-11            2.5926e-06           
  -0.2                  -3.0146e-06           -5e-13                -1.186e-11            3.013e-06            
  -0.25                 -3.2896e-06           -4.8e-13              -1.132e-11            3.292e-06            
  -0.3                  -3.4792e-06           -3.6e-13              -1.156e-11            3.4814e-06           
  -0.35                 -3.616e-06            -4e-13                -1.134e-11            3.6172e-06           
  -0.4                  -3.7582e-06           -5e-13                -1.066e-11            3.76e-06             
  -0.45                 -3.8226e-06           -3.2e-13              -1.04e-11             3.847e-06            
  -0.5                  -3.901e-06            -4.6e-13              -1.05e-11             3.9352e-06           
  -0.55                 -4.0056e-06           -4.2e-13              -9.74e-12             3.9878e-06           
  -0.6                  -4.069e-06            -4.6e-13              -9.82e-12             4.08e-06             
  -0.65                 -4.1714e-06           -3.2e-13              -9.94e-12             4.1738e-06           
  -0.7                  -4.2116e-06           -4e-13                -9.34e-12             4.2148e-06           
  -0.75                 -4.2742e-06           -4.6e-13              -9.22e-12             4.276e-06            
  -0.8                  -4.334e-06            -4.4e-13              -8.74e-12             4.3282e-06           
  -0.85                 -4.3684e-06           -3e-13                -8.64e-12             4.3954e-06           
  -0.9                  -4.4496e-06           -3.6e-13              -9.18e-12             4.4526e-06           
  -0.95                 -4.5024e-06           -3.6e-13              -8.62e-12             4.509e-06            
  -1                    -4.5596e-06           -4.6e-13              -8.48e-12             4.5626e-06           
  -1.05                 -4.6136e-06           -3.4e-13              -8.44e-12             4.6324e-06           
  -1.1                  -4.6868e-06           -4e-13                -7.66e-12             4.6678e-06           
  -1.15                 -4.7484e-06           -3.8e-13              -7.7e-12              4.733e-06            
  -1.2                  -4.7816e-06           -3.8e-13              -7.32e-12             4.7898e-06           
  -1.25                 -4.8434e-06           -4e-13                -5.8e-12              4.8504e-06           
  -1.3                  -4.9014e-06           -2.6e-13              -5e-12                4.9038e-06           
  -1.35                 -4.95e-06             -3.2e-13              -3.14e-12             4.9526e-06           
END_DB

BEGIN_DB
 ICCAP_VAR vg         -0.864         
 ICCAP_VAR vb         -0             
 ICCAP_VAR vs         -0             

 #vd                    id                    ig                    ib                    is                   
  -0                    2.4544e-09            -2.02e-12             -8.78e-12             -2.4014e-09          
  -0.05                 -2.1314e-06           -1.76e-12             -8.82e-12             2.1358e-06           
  -0.1                  -4.0078e-06           -1.64e-12             -8.1e-12              4.0182e-06           
  -0.15                 -5.6268e-06           -1.52e-12             -8.02e-12             5.6458e-06           
  -0.2                  -7.0218e-06           -1.42e-12             -7.64e-12             7.0216e-06           
  -0.25                 -8.1386e-06           -1.4e-12              -7.44e-12             8.1576e-06           
  -0.3                  -9.0442e-06           -1.24e-12             -7.08e-12             8.9946e-06           
  -0.35                 -9.7416e-06           -1.14e-12             -7.02e-12             9.7402e-06           
  -0.4                  -1.02502e-05          -1.14e-12             -7.3e-12              1.02662e-05          
  -0.45                 -1.06648e-05          -1.22e-12             -6.7e-12              1.0685e-05           
  -0.5                  -1.09948e-05          -1.08e-12             -6.96e-12             1.10144e-05          
  -0.55                 -1.1272e-05           -1.06e-12             -7.24e-12             1.12672e-05          
  -0.6                  -1.1444e-05           -1.04e-12             -6.92e-12             1.14476e-05          
  -0.65                 -1.1666e-05           -9.4e-13              -6.82e-12             1.1636e-05           
  -0.7                  -1.1806e-05           -1.04e-12             -6.02e-12             1.185e-05            
  -0.75                 -1.1992e-05           -1e-12                -5.68e-12             1.2032e-05           
  -0.8                  -1.212e-05            -1.14e-12             -5.74e-12             1.2184e-05           
  -0.85                 -1.2286e-05           -9.4e-13              -5.74e-12             1.2306e-05           
  -0.9                  -1.246e-05            -1e-12                -5.66e-12             1.246e-05            
  -0.95                 -1.2608e-05           -1.04e-12             -5.78e-12             1.2602e-05           
  -1                    -1.267e-05            -1.06e-12             -5.32e-12             1.273e-05            
  -1.05                 -1.28e-05             -8.8e-13              -5.28e-12             1.2864e-05           
  -1.1                  -1.2988e-05           -9.4e-13              -4.74e-12             1.2962e-05           
  -1.15                 -1.306e-05            -1e-12                -5.16e-12             1.309e-05            
  -1.2                  -1.3216e-05           -9.8e-13              -4.8e-12              1.3234e-05           
  -1.25                 -1.327e-05            -9.2e-13              -4.56e-12             1.3336e-05           
  -1.3                  -1.343e-05            -9.6e-13              -4.18e-12             1.3454e-05           
  -1.35                 -1.3554e-05           -1.08e-12             -3.28e-12             1.3558e-05           
END_DB

BEGIN_DB
 ICCAP_VAR vg         -1.107         
 ICCAP_VAR vb         -0             
 ICCAP_VAR vs         -0             

 #vd                    id                    ig                    ib                    is                   
  -0                    3.1398e-09            -5.16e-12             -6.6e-12              -3.0688e-09          
  -0.05                 -2.9922e-06           -4.8e-12              -6.3e-12              3.0034e-06           
  -0.1                  -5.7836e-06           -4.48e-12             -5.44e-12             5.786e-06            
  -0.15                 -8.3296e-06           -4.28e-12             -5.34e-12             8.3364e-06           
  -0.2                  -1.06556e-05          -3.9e-12              -4.82e-12             1.06576e-05          
  -0.25                 -1.2714e-05           -3.54e-12             -5.8e-12              1.2712e-05           
  -0.3                  -1.453e-05            -3.4e-12              -4.98e-12             1.4536e-05           
  -0.35                 -1.6084e-05           -3.22e-12             -5.08e-12             1.6128e-05           
  -0.4                  -1.7484e-05           -3.02e-12             -5.26e-12             1.7466e-05           
  -0.45                 -1.8606e-05           -3e-12                -4.7e-12              1.8586e-05           
  -0.5                  -1.956e-05            -2.96e-12             -4.98e-12             1.9562e-05           
  -0.55                 -2.0346e-05           -2.82e-12             -4.78e-12             2.0318e-05           
  -0.6                  -2.0988e-05           -2.76e-12             -4.56e-12             2.0946e-05           
  -0.65                 -2.1552e-05           -2.64e-12             -4.42e-12             2.1524e-05           
  -0.7                  -2.1942e-05           -2.8e-12              -4.52e-12             2.19e-05             
  -0.75                 -2.2336e-05           -2.7e-12              -4.4e-12              2.2332e-05           
  -0.8                  -2.2698e-05           -2.52e-12             -4.88e-12             2.2608e-05           
  -0.85                 -2.291e-05            -2.58e-12             -4.64e-12             2.2918e-05           
  -0.9                  -2.32e-05             -2.64e-12             -3.94e-12             2.3212e-05           
  -0.95                 -2.3466e-05           -2.58e-12             -4e-12                2.3508e-05           
  -1                    -2.3632e-05           -2.5e-12              -3.54e-12             2.3684e-05           
  -1.05                 -2.3972e-05           -2.54e-12             -3.46e-12             2.3896e-05           
  -1.1                  -2.4166e-05           -2.44e-12             -4.12e-12             2.4094e-05           
  -1.15                 -2.437e-05            -2.44e-12             -3.44e-12             2.4436e-05           
  -1.2                  -2.4586e-05           -2.4e-12              -3.54e-12             2.4606e-05           
  -1.25                 -2.4702e-05           -2.48e-12             -3.48e-12             2.475e-05            
  -1.3                  -2.4946e-05           -2.42e-12             -2.82e-12             2.49e-05             
  -1.35                 -2.5132e-05           -2.42e-12             -2.7e-12              2.5122e-05           
END_DB

BEGIN_DB
 ICCAP_VAR vg         -1.35          
 ICCAP_VAR vb         -0             
 ICCAP_VAR vs         -0             

 #vd                    id                    ig                    ib                    is                   
  -0                    3.2182e-09            -1.272e-11            -4.72e-12             -3.5206e-09          
  -0.05                 -3.6932e-06           -1.172e-11            -4.36e-12             3.6924e-06           
  -0.1                  -7.1986e-06           -1.102e-11            -4.02e-12             7.1926e-06           
  -0.15                 -1.05032e-05          -1.028e-11            -4.32e-12             1.04812e-05          
  -0.2                  -1.3578e-05           -9.58e-12             -4.7e-12              1.3622e-05           
  -0.25                 -1.6486e-05           -9e-12                -4.36e-12             1.648e-05            
  -0.3                  -1.913e-05            -8.5e-12              -3.84e-12             1.9168e-05           
  -0.35                 -2.157e-05            -8.18e-12             -3.68e-12             2.156e-05            
  -0.4                  -2.3814e-05           -7.68e-12             -3.32e-12             2.3754e-05           
  -0.45                 -2.574e-05            -7.4e-12              -3.58e-12             2.5746e-05           
  -0.5                  -2.7438e-05           -7e-12                -3.58e-12             2.7536e-05           
  -0.55                 -2.9094e-05           -6.72e-12             -3.58e-12             2.9094e-05           
  -0.6                  -3.0448e-05           -6.64e-12             -3.18e-12             3.0448e-05           
  -0.65                 -3.1528e-05           -6.3e-12              -3.26e-12             3.1542e-05           
  -0.7                  -3.2562e-05           -6.3e-12              -3.16e-12             3.2598e-05           
  -0.75                 -3.3398e-05           -6.18e-12             -3.24e-12             3.3388e-05           
  -0.8                  -3.4102e-05           -5.96e-12             -3.54e-12             3.4174e-05           
  -0.85                 -3.4768e-05           -5.88e-12             -2.84e-12             3.4784e-05           
  -0.9                  -3.5298e-05           -5.74e-12             -3.24e-12             3.5318e-05           
  -0.95                 -3.5798e-05           -5.8e-12              -3.4e-12              3.5816e-05           
  -1                    -3.6182e-05           -5.7e-12              -2.84e-12             3.621e-05            
  -1.05                 -3.6564e-05           -5.72e-12             -3.06e-12             3.6606e-05           
  -1.1                  -3.6936e-05           -5.64e-12             -3.22e-12             3.6866e-05           
  -1.15                 -3.7322e-05           -5.66e-12             -2.66e-12             3.7282e-05           
  -1.2                  -3.7618e-05           -5.58e-12             -2.88e-12             3.7574e-05           
  -1.25                 -3.7944e-05           -5.5e-12              -3e-12                3.7934e-05           
  -1.3                  -3.8174e-05           -5.44e-12             -2.34e-12             3.8182e-05           
  -1.35                 -3.8506e-05           -5.46e-12             -2.48e-12             3.849e-05            
END_DB

