! VERSION = 6.00
BEGIN_HEADER
 ICCAP_INPUTS
  vd         V  D GROUND SMU1 0.1 LIN        1    -0         -1.35      28   -0.05     
  vg         V  G GROUND SMU2 0.001 LIN        2    -0.454     -1.35      5    -0.224    
  vb         V  B GROUND SMU4 0.1 CON        -0
  vs         V  S GROUND SMU3 0.1 CON        -0
 ICCAP_OUTPUTS
  id         I  D GROUND SMU1 B
  ig         I  G GROUND SMU2 B
  ib         I  B GROUND SMU4 B
  is         I  S GROUND SMU3 B
 ICCAP_VALUES
  MASTER_SETUP_TYPE "~dc_idvd~"
  LINVT_VALUE "|idvg|100.0n|100.0m|1.000m|5|1.350|"
  LISTVT_VALUE ""
  TYPE "-1"
  TEMP " 27.0000 "
  IS_TNOM " 1.00000 "
  MAIN.W "150.0n"
  MAIN.L "150.0n"
  MAIN.AD "100.5f"
  MAIN.AS "100.5f"
  MAIN.PD "1.340u"
  MAIN.PS "1.340u"
  MAIN.NF "1.000"
  MAIN.M "1"
  MAIN.NRD "0.000"
  MAIN.NRS "0.000"
  MAIN.LDRIFT1 "1E-06"
  MAIN.LDRIFT2 "1E-06"
  MAIN.SA "0.000"
  MAIN.SB "0.000"
  MAIN.SD "0.000"
  MAIN.SCA "0.000"
  MAIN.SCB "0.000"
  MAIN.SCC "0.000"
  MAIN.SC "0.000"
  MODULE "S554"
  PIN_D "12"
  PIN_G "9"
  PIN_S "10"
  PIN_B "11"
  PIN_E ""
  PIN_6 ""
  XY_ID ""
  FUNC "LW Scale"
  STI "SA ref"
  WPE "WPE ref"
  COMMENT ""
  DIS_MEAS ""
  TypeTCI "10"
END_HEADER

BEGIN_DB
 ICCAP_VAR vg         -0.454         
 ICCAP_VAR vb         -0             
 ICCAP_VAR vs         -0             

 #vd                    id                    ig                    ib                    is                   
  -0                    7.118e-10             -2.4e-13              -2.84e-12             -8.5752e-10          
  -0.05                 -3.7604e-07           -8e-14                -2.74e-12             3.761e-07            
  -0.1                  -5.4192e-07           -1.6e-13              -2.62e-12             5.4216e-07           
  -0.15                 -6.1418e-07           -1.2e-13              -2.62e-12             6.1466e-07           
  -0.2                  -6.5268e-07           -8e-14                -2.62e-12             6.5378e-07           
  -0.25                 -6.8192e-07           -2e-13                -2.6e-12              6.8198e-07           
  -0.3                  -7.0642e-07           -1.4e-13              -2.6e-12              7.0706e-07           
  -0.35                 -7.3012e-07           -1.2e-13              -2.46e-12             7.3032e-07           
  -0.4                  -7.5136e-07           -1e-13                -2.48e-12             7.5192e-07           
  -0.45                 -7.7258e-07           -1.6e-13              -2.52e-12             7.7332e-07           
  -0.5                  -7.926e-07            -1.2e-13              -2.46e-12             7.929e-07            
  -0.55                 -8.1286e-07           -1e-13                -2.46e-12             8.1302e-07           
  -0.6                  -8.3224e-07           0                     -2.56e-12             8.3198e-07           
  -0.65                 -8.515e-07            -1.2e-13              -2.48e-12             8.525e-07            
  -0.7                  -8.703e-07            -2e-14                -2.44e-12             8.7066e-07           
  -0.75                 -8.898e-07            -1.6e-13              -2.3e-12              8.8994e-07           
  -0.8                  -9.0824e-07           -2.6e-13              -2.2e-12              9.0814e-07           
  -0.85                 -9.2592e-07           8e-14                 -2.3e-12              9.2574e-07           
  -0.9                  -9.4382e-07           -4e-14                -2.32e-12             9.4388e-07           
  -0.95                 -9.616e-07            0                     -2.24e-12             9.6228e-07           
  -1                    -9.7934e-07           -1.2e-13              -2.26e-12             9.8038e-07           
  -1.05                 -9.9736e-07           -2e-14                -2.18e-12             9.9694e-07           
  -1.1                  -1.01444e-06          2e-14                 -2.32e-12             1.0149e-06           
  -1.15                 -1.03142e-06          8e-14                 -2.24e-12             1.03296e-06          
  -1.2                  -1.04908e-06          -1e-13                -2.06e-12             1.04954e-06          
  -1.25                 -1.0666e-06           -8e-14                -1.8e-12              1.06686e-06          
  -1.3                  -1.08398e-06          8e-14                 -1.52e-12             1.0841e-06           
  -1.35                 -1.10118e-06          0                     -9e-13                1.10084e-06          
END_DB

BEGIN_DB
 ICCAP_VAR vg         -0.678         
 ICCAP_VAR vb         -0             
 ICCAP_VAR vs         -0             

 #vd                    id                    ig                    ib                    is                   
  -0                    2.7094e-09            -4.6e-13              -2.06e-12             -2.4512e-09          
  -0.05                 -1.9134e-06           -5e-13                -2.04e-12             1.9168e-06           
  -0.1                  -3.3866e-06           -4.4e-13              -2.08e-12             3.3904e-06           
  -0.15                 -4.4548e-06           -5.2e-13              -2.18e-12             4.46e-06             
  -0.2                  -5.1866e-06           -4.4e-13              -1.94e-12             5.1904e-06           
  -0.25                 -5.6758e-06           -2.2e-13              -1.76e-12             5.6778e-06           
  -0.3                  -6.0012e-06           -3.2e-13              -1.84e-12             6.0086e-06           
  -0.35                 -6.2438e-06           -4e-13                -2.02e-12             6.2442e-06           
  -0.4                  -6.4296e-06           -2.2e-13              -1.98e-12             6.4306e-06           
  -0.45                 -6.589e-06            -2e-13                -1.88e-12             6.5918e-06           
  -0.5                  -6.7302e-06           -2.8e-13              -1.84e-12             6.737e-06            
  -0.55                 -6.8602e-06           -2.4e-13              -1.98e-12             6.8628e-06           
  -0.6                  -6.9816e-06           -2e-13                -1.88e-12             6.9834e-06           
  -0.65                 -7.096e-06            -4e-13                -1.88e-12             7.101e-06            
  -0.7                  -7.21e-06             -2.2e-13              -1.84e-12             7.213e-06            
  -0.75                 -7.3152e-06           -1.4e-13              -1.82e-12             7.3138e-06           
  -0.8                  -7.4178e-06           -1.8e-13              -1.84e-12             7.4218e-06           
  -0.85                 -7.5236e-06           -2.2e-13              -1.78e-12             7.5236e-06           
  -0.9                  -7.6212e-06           -1.4e-13              -1.9e-12              7.624e-06            
  -0.95                 -7.7158e-06           -1.6e-13              -1.86e-12             7.7186e-06           
  -1                    -7.8136e-06           -4e-14                -1.72e-12             7.819e-06            
  -1.05                 -7.9064e-06           -8e-14                -1.74e-12             7.9114e-06           
  -1.1                  -7.9966e-06           -2.8e-13              -1.72e-12             7.997e-06            
  -1.15                 -8.0908e-06           -2.6e-13              -1.62e-12             8.0904e-06           
  -1.2                  -8.1778e-06           -1.6e-13              -1.6e-12              8.1812e-06           
  -1.25                 -8.2694e-06           -2.4e-13              -1.48e-12             8.2746e-06           
  -1.3                  -8.3584e-06           -1.8e-13              -1.18e-12             8.356e-06            
  -1.35                 -8.438e-06            -1.4e-13              -4e-13                8.4444e-06           
END_DB

BEGIN_DB
 ICCAP_VAR vg         -0.902         
 ICCAP_VAR vb         -0             
 ICCAP_VAR vs         -0             

 #vd                    id                    ig                    ib                    is                   
  -0                    3.4754e-09            -1.38e-12             -1.74e-12             -3.742e-09           
  -0.05                 -3.4942e-06           -1.18e-12             -1.66e-12             3.4988e-06           
  -0.1                  -6.5662e-06           -1.2e-12              -1.8e-12              6.5696e-06           
  -0.15                 -9.1894e-06           -1.02e-12             -1.6e-12              9.1574e-06           
  -0.2                  -1.13154e-05          -9.2e-13              -1.66e-12             1.13182e-05          
  -0.25                 -1.3142e-05           -7.8e-13              -1.7e-12              1.3166e-05           
  -0.3                  -1.4532e-05           -6.8e-13              -1.62e-12             1.455e-05            
  -0.35                 -1.5592e-05           -6.4e-13              -1.58e-12             1.5612e-05           
  -0.4                  -1.6406e-05           -7.8e-13              -1.62e-12             1.6426e-05           
  -0.45                 -1.7034e-05           -6.8e-13              -1.58e-12             1.7054e-05           
  -0.5                  -1.7526e-05           -6.8e-13              -1.48e-12             1.7546e-05           
  -0.55                 -1.791e-05            -6.8e-13              -1.52e-12             1.7968e-05           
  -0.6                  -1.8298e-05           -7.2e-13              -1.56e-12             1.8314e-05           
  -0.65                 -1.861e-05            -5.8e-13              -1.48e-12             1.8602e-05           
  -0.7                  -1.8866e-05           -6.6e-13              -1.46e-12             1.8892e-05           
  -0.75                 -1.9132e-05           -6.8e-13              -1.5e-12              1.9152e-05           
  -0.8                  -1.9376e-05           -6.4e-13              -1.5e-12              1.942e-05            
  -0.85                 -1.9624e-05           -5.2e-13              -1.54e-12             1.965e-05            
  -0.9                  -1.985e-05            -6e-13                -1.38e-12             1.9872e-05           
  -0.95                 -2.007e-05            -5.8e-13              -1.42e-12             2.0088e-05           
  -1                    -2.0264e-05           -4.2e-13              -1.48e-12             2.0296e-05           
  -1.05                 -2.0474e-05           -5.8e-13              -1.4e-12              2.0496e-05           
  -1.1                  -2.0674e-05           -4.2e-13              -1.36e-12             2.0694e-05           
  -1.15                 -2.0862e-05           -4e-13                -1.42e-12             2.0886e-05           
  -1.2                  -2.1052e-05           -5.8e-13              -1.46e-12             2.1076e-05           
  -1.25                 -2.1244e-05           -5.2e-13              -1.34e-12             2.126e-05            
  -1.3                  -2.1418e-05           -6e-13                -1.14e-12             2.1446e-05           
  -1.35                 -2.1594e-05           -6.8e-13              -9e-13                2.1702e-05           
END_DB

BEGIN_DB
 ICCAP_VAR vg         -1.126         
 ICCAP_VAR vb         -0             
 ICCAP_VAR vs         -0             

 #vd                    id                    ig                    ib                    is                   
  -0                    3.8962e-09            -3.12e-12             -1.54e-12             -4.6492e-09          
  -0.05                 -4.7956e-06           -2.88e-12             -1.46e-12             4.8e-06              
  -0.1                  -9.2262e-06           -2.62e-12             -1.32e-12             9.238e-06            
  -0.15                 -1.3232e-05           -2.52e-12             -1.48e-12             1.3244e-05           
  -0.2                  -1.6802e-05           -2.26e-12             -1.32e-12             1.6854e-05           
  -0.25                 -1.9978e-05           -2.06e-12             -1.32e-12             1.9984e-05           
  -0.3                  -2.2642e-05           -1.86e-12             -1.32e-12             2.2666e-05           
  -0.35                 -2.4984e-05           -1.84e-12             -1.36e-12             2.4988e-05           
  -0.4                  -2.6902e-05           -1.7e-12              -1.24e-12             2.6912e-05           
  -0.45                 -2.8476e-05           -1.58e-12             -1.34e-12             2.8504e-05           
  -0.5                  -2.9728e-05           -1.48e-12             -1.24e-12             2.9746e-05           
  -0.55                 -3.098e-05            -1.42e-12             -1.26e-12             3.1032e-05           
  -0.6                  -3.1832e-05           -1.4e-12              -1.28e-12             3.1864e-05           
  -0.65                 -3.2588e-05           -1.4e-12              -1.34e-12             3.2654e-05           
  -0.7                  -3.3222e-05           -1.32e-12             -1.3e-12              3.3228e-05           
  -0.75                 -3.3798e-05           -1.38e-12             -1.16e-12             3.379e-05            
  -0.8                  -3.426e-05            -1.5e-12              -1.26e-12             3.4326e-05           
  -0.85                 -3.4736e-05           -1.4e-12              -1.28e-12             3.4742e-05           
  -0.9                  -3.5134e-05           -1.36e-12             -1.32e-12             3.5162e-05           
  -0.95                 -3.5534e-05           -1.36e-12             -1.3e-12              3.5566e-05           
  -1                    -3.589e-05            -1.38e-12             -1.32e-12             3.5832e-05           
  -1.05                 -3.6204e-05           -1.2e-12              -1.22e-12             3.6234e-05           
  -1.1                  -3.6484e-05           -1.18e-12             -1.24e-12             3.6578e-05           
  -1.15                 -3.686e-05            -1.34e-12             -1.16e-12             3.69e-05             
  -1.2                  -3.7176e-05           -1.22e-12             -1.22e-12             3.7192e-05           
  -1.25                 -3.7558e-05           -1.12e-12             -1.2e-12              3.7478e-05           
  -1.3                  -3.7704e-05           -1.24e-12             -1.06e-12             3.7714e-05           
  -1.35                 -3.7974e-05           -1.28e-12             -8.4e-13              3.803e-05            
END_DB

BEGIN_DB
 ICCAP_VAR vg         -1.35          
 ICCAP_VAR vb         -0             
 ICCAP_VAR vs         -0             

 #vd                    id                    ig                    ib                    is                   
  -0                    9.26e-09              -6.52e-12             -1.26e-12             -3.1014e-09          
  -0.05                 -5.8392e-06           -5.96e-12             -1.24e-12             5.8412e-06           
  -0.1                  -1.13674e-05          -5.44e-12             -1.26e-12             1.13642e-05          
  -0.15                 -1.6506e-05           -5.04e-12             -1.24e-12             1.6554e-05           
  -0.2                  -2.1294e-05           -4.82e-12             -1.18e-12             2.1302e-05           
  -0.25                 -2.5664e-05           -4.52e-12             -1.24e-12             2.5684e-05           
  -0.3                  -2.957e-05            -4.12e-12             -1.14e-12             2.9598e-05           
  -0.35                 -3.3034e-05           -3.88e-12             -1.14e-12             3.3054e-05           
  -0.4                  -3.6154e-05           -3.64e-12             -1.08e-12             3.6192e-05           
  -0.45                 -3.8872e-05           -3.44e-12             -1.1e-12              3.8892e-05           
  -0.5                  -4.1226e-05           -3.38e-12             -1.24e-12             4.1254e-05           
  -0.55                 -4.3288e-05           -3.24e-12             -1.04e-12             4.3264e-05           
  -0.6                  -4.496e-05            -3.14e-12             -1.08e-12             4.4992e-05           
  -0.65                 -4.6458e-05           -2.94e-12             -1.12e-12             4.65e-05             
  -0.7                  -4.7754e-05           -2.84e-12             -9.8e-13              4.7726e-05           
  -0.75                 -4.878e-05            -2.86e-12             -1.12e-12             4.8788e-05           
  -0.8                  -4.9756e-05           -2.7e-12              -1.16e-12             4.981e-05            
  -0.85                 -5.0618e-05           -2.64e-12             -1.14e-12             5.0628e-05           
  -0.9                  -5.14e-05             -2.56e-12             -9.8e-13              5.1392e-05           
  -0.95                 -5.1974e-05           -2.6e-12              -1.12e-12             5.2042e-05           
  -1                    -5.26e-05             -2.38e-12             -9.2e-13              5.2688e-05           
  -1.05                 -5.3196e-05           -2.5e-12              -1.06e-12             5.3162e-05           
  -1.1                  -5.3636e-05           -2.46e-12             -1.14e-12             5.3654e-05           
  -1.15                 -5.412e-05            -2.5e-12              -1.04e-12             5.419e-05            
  -1.2                  -5.4636e-05           -2.42e-12             -1e-12                5.4592e-05           
  -1.25                 -5.4984e-05           -2.42e-12             -1e-12                5.501e-05            
  -1.3                  -5.5428e-05           -2.34e-12             -9.8e-13              5.5438e-05           
  -1.35                 -5.5872e-05           -2.4e-12              -8.8e-13              5.5822e-05           
END_DB

