! VERSION = 6.00
BEGIN_HEADER
 ICCAP_INPUTS
  vg         V  G GROUND SMU2 0.001 LIN        1    0.5        -1.35      38   -0.05     
  vb         V  B GROUND SMU4 0.1 LIN        2    0          1.2        7    0.2       
  vd         V  D GROUND SMU1 0.1 LIST       3 3 -0.05 -0.6 -1.2
  vs         V  S GROUND SMU3 0.1 CON        -0
 ICCAP_OUTPUTS
  id         I  D GROUND SMU1 B
  ig         I  G GROUND SMU2 B
  ib         I  B GROUND SMU4 B
  is         I  S GROUND SMU3 B
 ICCAP_VALUES
  MASTER_SETUP_TYPE "~dc_idvg~"
  LINVT_VALUE ""
  LISTVT_VALUE ""
  TYPE "-1"
  TEMP " 27.0000 "
  IS_TNOM " 1.00000 "
  MAIN.W "2.000u"
  MAIN.L "130.0n"
  MAIN.AD "680.0f"
  MAIN.AS "680.0f"
  MAIN.PD "4.680u"
  MAIN.PS "4.680u"
  MAIN.NF "1.000"
  MAIN.M "1"
  MAIN.NRD "0.000"
  MAIN.NRS "0.000"
  MAIN.LDRIFT1 "1E-06"
  MAIN.LDRIFT2 "1E-06"
  MAIN.SA "0.000"
  MAIN.SB "0.000"
  MAIN.SD "0.000"
  MAIN.SCA "0.000"
  MAIN.SCB "0.000"
  MAIN.SCC "0.000"
  MAIN.SC "0.000"
  MODULE "S550"
  PIN_D "14"
  PIN_G "7"
  PIN_S "8"
  PIN_B "13"
  PIN_E ""
  PIN_6 ""
  XY_ID ""
  FUNC "LW Scale"
  STI "SA ref"
  WPE "WPE ref"
  COMMENT ""
  DIS_MEAS ""
  TypeTCI "10"
END_HEADER

BEGIN_DB
 ICCAP_VAR vb         0              
 ICCAP_VAR vd         -0.05          
 ICCAP_VAR vs         -0             

 #vg                    id                    ig                    ib                    is                   
  0.5                   -7.2e-13              2.07e-11              -6.34e-12             -5.6e-13             
  0.45                  -6e-13                4.16e-12              -1.86e-12             -4.8e-13             
  0.4                   -4.8e-13              1.42e-12              -1.08e-12             -3.6e-13             
  0.35                  -3.8e-13              7.6e-13               -9.6e-13              -2.6e-13             
  0.3                   -3.6e-13              3.6e-13               -9.4e-13              -1.4e-13             
  0.25                  -2e-13                6e-14                 -9e-13                0                    
  0.2                   -2.2e-13              8e-14                 -9.4e-13              2e-14                
  0.15                  -2.8e-13              -4e-14                -9.4e-13              1.8e-13              
  0.1                   -9.6e-13              -3.2e-13              -9.2e-13              7.8e-13              
  0.05                  -3.86e-12             -2.2e-13              -1.06e-12             3.68e-12             
  0                     -1.64e-11             -7.2e-13              -8.8e-13              1.628e-11            
  -0.05                 -7.134e-11            -3.8e-13              -9e-13                7.156e-11            
  -0.1                  -3.1326e-10           -3.8e-13              -9.8e-13              3.1348e-10           
  -0.15                 -1.3732e-09           -4.2e-13              -8.4e-13              1.3734e-09           
  -0.2                  -5.9434e-09           -5.6e-13              -9.8e-13              5.9402e-09           
  -0.25                 -2.5132e-08           -7.4e-13              -8.8e-13              2.512e-08            
  -0.3                  -9.8782e-08           -8.6e-13              -9.4e-13              9.8934e-08           
  -0.35                 -3.424e-07            -7.2e-13              -9.8e-13              3.4268e-07           
  -0.4                  -9.9002e-07           -1.1e-12              -9.4e-13              9.8892e-07           
  -0.45                 -2.3154e-06           -1e-12                -9.4e-13              2.3146e-06           
  -0.5                  -4.436e-06            -1.54e-12             -8.8e-13              4.4414e-06           
  -0.55                 -7.2576e-06           -1.66e-12             -8.6e-13              7.2518e-06           
  -0.6                  -1.05164e-05          -2.46e-12             -9e-13                1.05188e-05          
  -0.65                 -1.399e-05            -3.04e-12             -9.4e-13              1.3996e-05           
  -0.7                  -1.7582e-05           -3.78e-12             -9.4e-13              1.7604e-05           
  -0.75                 -2.113e-05            -4.88e-12             -8.6e-13              2.1136e-05           
  -0.8                  -2.4536e-05           -6.2e-12              -9.4e-13              2.4552e-05           
  -0.85                 -2.7834e-05           -7.74e-12             -9.6e-13              2.7852e-05           
  -0.9                  -3.1044e-05           -9.78e-12             -8.6e-13              3.1042e-05           
  -0.95                 -3.4084e-05           -1.2e-11              -8.8e-13              3.4052e-05           
  -1                    -3.696e-05            -1.466e-11            -9.4e-13              3.69e-05             
  -1.05                 -3.9624e-05           -1.788e-11            -8.2e-13              3.964e-05            
  -1.1                  -4.221e-05            -2.164e-11            -8.2e-13              4.222e-05            
  -1.15                 -4.4654e-05           -2.592e-11            -8.4e-13              4.4646e-05           
  -1.2                  -4.6962e-05           -3.056e-11            -7.8e-13              4.698e-05            
  -1.25                 -4.9106e-05           -3.656e-11            -9e-13                4.91e-05             
  -1.3                  -5.1122e-05           -4.342e-11            -6.8e-13              5.1116e-05           
  -1.35                 -5.2998e-05           -5.056e-11            -4.8e-13              5.299e-05            
END_DB

BEGIN_DB
 ICCAP_VAR vb         0.2            
 ICCAP_VAR vd         -0.05          
 ICCAP_VAR vs         -0             

 #vg                    id                    ig                    ib                    is                   
  0.5                   -5.8e-13              1.92e-12              1e-13                 -5.4e-13             
  0.45                  -5e-13                9.8e-13               0                     -3.4e-13             
  0.4                   -4.6e-13              8.4e-13               2e-14                 -2.4e-13             
  0.35                  -3e-13                7.2e-13               -4e-14                -2.2e-13             
  0.3                   -3.4e-13              2.2e-13               -6e-14                2e-14                
  0.25                  -1.6e-13              2.6e-13               0                     -8e-14               
  0.2                   -6e-14                -8e-14                2e-14                 8e-14                
  0.15                  -1.8e-13              -6e-14                -2e-14                8e-14                
  0.1                   -1.8e-13              -3.4e-13              0                     3.6e-13              
  0.05                  -1.12e-12             -3.2e-13              -4e-14                1.08e-12             
  0                     -4.82e-12             -3.6e-13              0                     4.96e-12             
  -0.05                 -2.21e-11             -4e-13                4e-14                 2.222e-11            
  -0.1                  -1.0078e-10           -5e-13                -2e-14                1.0094e-10           
  -0.15                 -4.5786e-10           -5.6e-13              0                     4.5826e-10           
  -0.2                  -2.0596e-09           -2.8e-13              -6e-14                2.0604e-09           
  -0.25                 -9.149e-09            -5.8e-13              -4e-14                9.1482e-09           
  -0.3                  -3.8848e-08           -5.2e-13              -2e-14                3.8878e-08           
  -0.35                 -1.5014e-07           -7.4e-13              -1.4e-13              1.505e-07            
  -0.4                  -4.9804e-07           -1.08e-12             -4e-14                4.9756e-07           
  -0.45                 -1.3408e-06           -1.2e-12              0                     1.344e-06            
  -0.5                  -2.928e-06            -1.44e-12             -2e-14                2.9202e-06           
  -0.55                 -5.2746e-06           -1.72e-12             -4e-14                5.2832e-06           
  -0.6                  -8.2338e-06           -2.4e-12              -1.2e-13              8.2366e-06           
  -0.65                 -1.1526e-05           -2.78e-12             -4e-14                1.155e-05            
  -0.7                  -1.5022e-05           -3.82e-12             -6e-14                1.5034e-05           
  -0.75                 -1.8492e-05           -4.58e-12             -1e-13                1.8494e-05           
  -0.8                  -2.1912e-05           -6.5e-12              -1e-13                2.191e-05            
  -0.85                 -2.524e-05            -7.42e-12             -4e-14                2.5236e-05           
  -0.9                  -2.8414e-05           -9.74e-12             -4e-14                2.8442e-05           
  -0.95                 -3.1472e-05           -1.196e-11            -1.6e-13              3.1486e-05           
  -1                    -3.4416e-05           -1.462e-11            -8e-14                3.4438e-05           
  -1.05                 -3.7196e-05           -1.776e-11            -6e-14                3.7194e-05           
  -1.1                  -3.9758e-05           -2.144e-11            -1.8e-13              3.9768e-05           
  -1.15                 -4.2212e-05           -2.662e-11            -2e-14                4.2228e-05           
  -1.2                  -4.4552e-05           -3.066e-11            4e-14                 4.4578e-05           
  -1.25                 -4.6768e-05           -3.65e-11             0                     4.6734e-05           
  -1.3                  -4.88e-05             -4.314e-11            1.4e-13               4.8784e-05           
  -1.35                 -5.0754e-05           -5.014e-11            3e-13                 5.0738e-05           
END_DB

BEGIN_DB
 ICCAP_VAR vb         0.4            
 ICCAP_VAR vd         -0.05          
 ICCAP_VAR vs         -0             

 #vg                    id                    ig                    ib                    is                   
  0.5                   -6e-13                1.82e-12              -6e-14                -6.2e-13             
  0.45                  -4.8e-13              1.08e-12              1e-13                 -5.6e-13             
  0.4                   -3.6e-13              8.8e-13               -2e-14                -2.4e-13             
  0.35                  -2.8e-13              4.4e-13               -2e-14                -1.4e-13             
  0.3                   -2.8e-13              3.4e-13               0                     -2.2e-13             
  0.25                  -2e-13                2.4e-13               6e-14                 -1.4e-13             
  0.2                   -1e-13                -2e-14                4e-14                 -6e-14               
  0.15                  -6e-14                -8e-14                -6e-14                -6e-14               
  0.1                   -2e-14                -2.8e-13              8e-14                 1.2e-13              
  0.05                  -3.8e-13              -2.6e-13              -6e-14                5.4e-13              
  0                     -1.8e-12              -5.4e-13              -6e-14                1.8e-12              
  -0.05                 -8.2e-12              -2.4e-13              4e-14                 8.46e-12             
  -0.1                  -3.888e-11            -4.8e-13              2e-14                 3.882e-11            
  -0.15                 -1.802e-10            -5.6e-13              0                     1.8042e-10           
  -0.2                  -8.3564e-10           -5.2e-13              -1e-13                8.3802e-10           
  -0.25                 -3.8222e-09           -5.6e-13              -4e-14                3.8206e-09           
  -0.3                  -1.6964e-08           -6e-13                0                     1.701e-08            
  -0.35                 -7.065e-08            -9e-13                -1e-13                7.067e-08            
  -0.4                  -2.5926e-07           -9.6e-13              -1e-13                2.5934e-07           
  -0.45                 -7.8878e-07           -1.28e-12             -1.6e-13              7.8876e-07           
  -0.5                  -1.9334e-06           -1.2e-12              -8e-14                1.9372e-06           
  -0.55                 -3.8504e-06           -1.78e-12             0                     3.8484e-06           
  -0.6                  -6.47e-06             -2.3e-12              -1.6e-13              6.4744e-06           
  -0.65                 -9.5802e-06           -2.88e-12             -2e-14                9.5814e-06           
  -0.7                  -1.2918e-05           -3.62e-12             -1.4e-13              1.2918e-05           
  -0.75                 -1.6322e-05           -4.64e-12             0                     1.6326e-05           
  -0.8                  -1.9682e-05           -5.98e-12             0                     1.97e-05             
  -0.85                 -2.3016e-05           -7.46e-12             2e-14                 2.3028e-05           
  -0.9                  -2.624e-05            -9.5e-12              -2e-14                2.6262e-05           
  -0.95                 -2.934e-05            -1.16e-11             -4e-14                2.9342e-05           
  -1                    -3.23e-05             -1.462e-11            0                     3.2264e-05           
  -1.05                 -3.5094e-05           -1.754e-11            8e-14                 3.5036e-05           
  -1.1                  -3.7646e-05           -2.12e-11             -1e-13                3.7692e-05           
  -1.15                 -4.0148e-05           -2.572e-11            -8e-14                4.0186e-05           
  -1.2                  -4.2548e-05           -3.032e-11            -2e-14                4.2562e-05           
  -1.25                 -4.478e-05            -3.768e-11            -6e-14                4.4758e-05           
  -1.3                  -4.6806e-05           -4.384e-11            1.2e-13               4.6842e-05           
  -1.35                 -4.8802e-05           -4.992e-11            3.2e-13               4.8794e-05           
END_DB

BEGIN_DB
 ICCAP_VAR vb         0.6            
 ICCAP_VAR vd         -0.05          
 ICCAP_VAR vs         -0             

 #vg                    id                    ig                    ib                    is                   
  0.5                   -6.6e-13              1.68e-12              8e-14                 -5e-13               
  0.45                  -4.8e-13              1.16e-12              1e-13                 -3.6e-13             
  0.4                   -3.8e-13              8e-13                 1e-13                 -5e-13               
  0.35                  -2e-13                5.4e-13               0                     -1.2e-13             
  0.3                   -2.8e-13              5.6e-13               0                     -1e-13               
  0.25                  -1.6e-13              -8e-14                0                     0                    
  0.2                   -1.4e-13              -1.6e-13              2e-14                 4e-14                
  0.15                  -6e-14                -2.8e-13              0                     2e-14                
  0.1                   -1e-13                -3.2e-13              4e-14                 1.2e-13              
  0.05                  -2e-13                -4.8e-13              -8e-14                3.6e-13              
  0                     -7.2e-13              -2.2e-13              -6e-14                8.8e-13              
  -0.05                 -3.58e-12             -5e-13                -2e-14                3.68e-12             
  -0.1                  -1.694e-11            -6.4e-13              -1.4e-13              1.71e-11             
  -0.15                 -8.062e-11            -4.6e-13              1.2e-13               8.06e-11             
  -0.2                  -3.8072e-10           -6.6e-13              -6e-14                3.8086e-10           
  -0.25                 -1.7848e-09           -5.4e-13              -1e-13                1.783e-09            
  -0.3                  -8.197e-09            -7.6e-13              6e-14                 8.1946e-09           
  -0.35                 -3.5714e-08           -5.6e-13              0                     3.5734e-08           
  -0.4                  -1.4078e-07           -9.6e-13              0                     1.4096e-07           
  -0.45                 -4.7236e-07           -9.8e-13              -6e-14                4.7274e-07           
  -0.5                  -1.285e-06            -1.44e-12             -8e-14                1.2876e-06           
  -0.55                 -2.814e-06            -1.78e-12             -8e-14                2.807e-06            
  -0.6                  -5.0792e-06           -2.18e-12             -1e-13                5.073e-06            
  -0.65                 -7.9308e-06           -2.8e-12              4e-14                 7.9326e-06           
  -0.7                  -1.11256e-05          -3.64e-12             -6e-14                1.11338e-05          
  -0.75                 -1.4454e-05           -4.34e-12             -4e-14                1.4488e-05           
  -0.8                  -1.7864e-05           -5.78e-12             8e-14                 1.785e-05            
  -0.85                 -2.1158e-05           -7.54e-12             -1.2e-13              2.116e-05            
  -0.9                  -2.434e-05            -9.52e-12             0                     2.4326e-05           
  -0.95                 -2.7454e-05           -1.16e-11             0                     2.7462e-05           
  -1                    -3.0446e-05           -1.438e-11            -4e-14                3.0444e-05           
  -1.05                 -3.3236e-05           -1.738e-11            -6e-14                3.3248e-05           
  -1.1                  -3.5902e-05           -2.128e-11            -1.4e-13              3.5904e-05           
  -1.15                 -3.8398e-05           -2.546e-11            0                     3.8398e-05           
  -1.2                  -4.0742e-05           -3.028e-11            0                     4.0744e-05           
  -1.25                 -4.3006e-05           -3.642e-11            -4e-14                4.302e-05            
  -1.3                  -4.5124e-05           -4.268e-11            1.4e-13               4.5148e-05           
  -1.35                 -4.7154e-05           -5.024e-11            2.6e-13               4.7134e-05           
END_DB

BEGIN_DB
 ICCAP_VAR vb         0.8            
 ICCAP_VAR vd         -0.05          
 ICCAP_VAR vs         -0             

 #vg                    id                    ig                    ib                    is                   
  0.5                   -6.2e-13              1.64e-12              0                     -4.6e-13             
  0.45                  -6e-13                1.18e-12              8e-14                 -5e-13               
  0.4                   -4.6e-13              9e-13                 4e-14                 -3.6e-13             
  0.35                  -3.2e-13              6e-13                 1e-13                 -2e-13               
  0.3                   -1.8e-13              4e-13                 6e-14                 -2.6e-13             
