! VERSION = 6.00
BEGIN_HEADER
 ICCAP_INPUTS
  vg         V  G GROUND SMU2 0.001 LIN        1    0.5        -1.35      38   -0.05     
  vb         V  B GROUND SMU4 0.1 LIN        2    0          1.2        7    0.2       
  vd         V  D GROUND SMU1 0.1 LIST       3 3 -0.05 -0.6 -1.2
  vs         V  S GROUND SMU3 0.1 CON        -0
 ICCAP_OUTPUTS
  id         I  D GROUND SMU1 B
  ig         I  G GROUND SMU2 B
  ib         I  B GROUND SMU4 B
  is         I  S GROUND SMU3 B
 ICCAP_VALUES
  MASTER_SETUP_TYPE "~dc_idvg~"
  LINVT_VALUE ""
  LISTVT_VALUE ""
  TYPE "-1"
  TEMP " 27.0000 "
  IS_TNOM " 1.00000 "
  MAIN.W "2.000u"
  MAIN.L "2.000u"
  MAIN.AD "680.0f"
  MAIN.AS "680.0f"
  MAIN.PD "4.680u"
  MAIN.PS "4.680u"
  MAIN.NF "1.000"
  MAIN.M "1"
  MAIN.NRD "0.000"
  MAIN.NRS "0.000"
  MAIN.LDRIFT1 "1E-06"
  MAIN.LDRIFT2 "1E-06"
  MAIN.SA "0.000"
  MAIN.SB "0.000"
  MAIN.SD "0.000"
  MAIN.SCA "0.000"
  MAIN.SCB "0.000"
  MAIN.SCC "0.000"
  MAIN.SC "0.000"
  MODULE "S550"
  PIN_D "12"
  PIN_G "9"
  PIN_S "10"
  PIN_B "11"
  PIN_E ""
  PIN_6 ""
  XY_ID ""
  FUNC "LW Scale"
  STI "SA ref"
  WPE "WPE ref"
  COMMENT ""
  DIS_MEAS ""
  TypeTCI "10"
END_HEADER

BEGIN_DB
 ICCAP_VAR vb         0              
 ICCAP_VAR vd         -0.05          
 ICCAP_VAR vs         -0             

 #vg                    id                    ig                    ib                    is                   
  0.5                   -3e-13                1.942e-11             -1.53e-11             -3.2e-13             
  0.45                  -4.4e-13              3.6e-12               -1.116e-11            -3e-13               
  0.4                   4e-14                 8.6e-13               -1.01e-11             -4e-14               
  0.35                  -4e-14                5.6e-13               -9.7e-12              -1.4e-13             
  0.3                   -6e-14                2.4e-13               -9.28e-12             0                    
  0.25                  1e-13                 6e-14                 -8.82e-12             1e-13                
  0.2                   0                     2e-14                 -8.66e-12             6e-14                
  0.15                  -2e-14                -1.4e-13              -8.24e-12             2e-13                
  0.1                   -6e-14                -2e-14                -7.98e-12             1.6e-13              
  0.05                  -6.6e-13              -1.6e-13              -7.82e-12             7.2e-13              
  0                     -2.96e-12             -2.4e-13              -7.52e-12             3.1e-12              
  -0.05                 -1.402e-11            -2.8e-13              -7.2e-12              1.406e-11            
  -0.1                  -6.786e-11            -1.8e-13              -6.98e-12             6.798e-11            
  -0.15                 -3.3084e-10           -3.8e-13              -6.76e-12             3.309e-10            
  -0.2                  -1.5944e-09           -2.8e-13              -6.54e-12             1.5962e-09           
  -0.25                 -7.3696e-09           -5.4e-13              -6.28e-12             7.3704e-09           
  -0.3                  -2.9564e-08           -8.2e-13              -5.98e-12             2.957e-08            
  -0.35                 -9.185e-08            -1.42e-12             -5.96e-12             9.1906e-08           
  -0.4                  -2.1494e-07           -2.48e-12             -5.72e-12             2.1508e-07           
  -0.45                 -3.961e-07            -4.22e-12             -5.58e-12             3.963e-07            
  -0.5                  -6.1628e-07           -6.64e-12             -5.48e-12             6.1644e-07           
  -0.55                 -8.5506e-07           -1.052e-11            -5.32e-12             8.5524e-07           
  -0.6                  -1.1e-06              -1.534e-11            -5.12e-12             1.10022e-06          
  -0.65                 -1.342e-06            -2.216e-11            -4.98e-12             1.3454e-06           
  -0.7                  -1.5804e-06           -3.132e-11            -4.8e-12              1.5838e-06           
  -0.75                 -1.8108e-06           -4.278e-11            -4.7e-12              1.8144e-06           
  -0.8                  -2.0336e-06           -5.738e-11            -4.58e-12             2.0368e-06           
  -0.85                 -2.247e-06            -7.53e-11             -4.52e-12             2.2502e-06           
  -0.9                  -2.4506e-06           -9.716e-11            -4.58e-12             2.454e-06            
  -0.95                 -2.6458e-06           -1.2346e-10           -4.18e-12             2.649e-06            
  -1                    -2.8306e-06           -1.5514e-10           -4.14e-12             2.8338e-06           
  -1.05                 -3.0064e-06           -1.9168e-10           -4.14e-12             3.0096e-06           
  -1.1                  -3.173e-06            -2.3448e-10           -3.96e-12             3.1766e-06           
  -1.15                 -3.3316e-06           -2.84e-10             -3.86e-12             3.3352e-06           
  -1.2                  -3.482e-06            -3.4042e-10           -3.44e-12             3.4856e-06           
  -1.25                 -3.624e-06            -4.0532e-10           -3.2e-12              3.6276e-06           
  -1.3                  -3.7586e-06           -4.7804e-10           -2.08e-12             3.7622e-06           
  -1.35                 -3.8858e-06           -5.607e-10            -4.4e-13              3.8898e-06           
END_DB

BEGIN_DB
 ICCAP_VAR vb         0.2            
 ICCAP_VAR vd         -0.05          
 ICCAP_VAR vs         -0             

 #vg                    id                    ig                    ib                    is                   
  0.5                   -1.8e-13              1.2e-12               4e-14                 -3.8e-13             
  0.45                  -2.4e-13              9.2e-13               6e-14                 -4.2e-13             
  0.4                   0                     5e-13                 -8e-14                -1e-13               
  0.35                  -1.2e-13              3.2e-13               -1.6e-13              -1.6e-13             
  0.3                   -4e-14                1.4e-13               6e-14                 -1.2e-13             
  0.25                  8e-14                 1.4e-13               -2e-14                4e-14                
  0.2                   -1e-13                -1.4e-13              -4e-14                1.6e-13              
  0.15                  -2e-14                -4e-14                -2e-14                6e-14                
  0.1                   -1.6e-13              -2.4e-13              0                     1.2e-13              
  0.05                  0                     -2.6e-13              -2.2e-13              4.8e-13              
  0                     -8.6e-13              -2.4e-13              -4e-14                9.6e-13              
  -0.05                 -3.8e-12              -2.6e-13              0                     3.96e-12             
  -0.1                  -1.954e-11            -3.8e-13              -1.4e-13              1.97e-11             
  -0.15                 -9.83e-11             -4.4e-13              2e-14                 9.832e-11            
  -0.2                  -4.9184e-10           -3.6e-13              -2e-14                4.922e-10            
  -0.25                 -2.4284e-09           -4.6e-13              -1.8e-13              2.4298e-09           
  -0.3                  -1.1139e-08           -5.8e-13              -1e-13                1.11396e-08          
  -0.35                 -4.2246e-08           -1.02e-12             -1e-13                4.2244e-08           
  -0.4                  -1.2058e-07           -1.96e-12             -6e-14                1.2072e-07           
  -0.45                 -2.597e-07            -3.7e-12              -8e-14                2.5992e-07           
  -0.5                  -4.5e-07              -6.06e-12             -4e-14                4.5006e-07           
  -0.55                 -6.6968e-07           -9.46e-12             -4e-14                6.697e-07            
  -0.6                  -9.033e-07            -1.452e-11            0                     9.0334e-07           
  -0.65                 -1.13988e-06          -2.114e-11            -8e-14                1.14022e-06          
  -0.7                  -1.3728e-06           -2.994e-11            0                     1.3762e-06           
  -0.75                 -1.6006e-06           -4.108e-11            -8e-14                1.6038e-06           
  -0.8                  -1.8212e-06           -5.552e-11            -1.2e-13              1.8246e-06           
  -0.85                 -2.0336e-06           -7.318e-11            -8e-14                2.037e-06            
  -0.9                  -2.2372e-06           -9.478e-11            0                     2.2404e-06           
  -0.95                 -2.4316e-06           -1.2096e-10           -2e-13                2.4354e-06           
  -1                    -2.618e-06            -1.5206e-10           -2e-14                2.621e-06            
  -1.05                 -2.794e-06            -1.8858e-10           2e-14                 2.7972e-06           
  -1.1                  -2.9616e-06           -2.3114e-10           -1e-13                2.9652e-06           
  -1.15                 -3.1212e-06           -2.8036e-10           1e-13                 3.125e-06            
  -1.2                  -3.2722e-06           -3.3664e-10           1.8e-13               3.2758e-06           
  -1.25                 -3.4158e-06           -4.0098e-10           6.8e-13               3.4198e-06           
  -1.3                  -3.5518e-06           -4.7366e-10           1.5e-12               3.556e-06            
  -1.35                 -3.681e-06            -5.5702e-10           3.12e-12              3.685e-06            
END_DB

BEGIN_DB
 ICCAP_VAR vb         0.4            
 ICCAP_VAR vd         -0.05          
 ICCAP_VAR vs         -0             

 #vg                    id                    ig                    ib                    is                   
  0.5                   -1e-13                1.2e-12               0                     -6.4e-13             
  0.45                  -2.4e-13              8.8e-13               -8e-14                -4e-13               
  0.4                   -1.2e-13              4.2e-13               2e-14                 -1.2e-13             
  0.35                  -1.2e-13              3.2e-13               -6e-14                -2.6e-13             
  0.3                   -1.2e-13              2.2e-13               -2e-14                -6e-14               
  0.25                  -1.2e-13              8e-14                 2e-14                 0                    
  0.2                   2e-14                 4e-14                 0                     -2e-14               
  0.15                  -8e-14                -6e-14                -4e-14                1.4e-13              
  0.1                   0                     -1e-13                -8e-14                -2e-14               
  0.05                  -6e-14                -3.2e-13              6e-14                 1.4e-13              
  0                     -1.2e-13              -3e-13                4e-14                 4e-13                
  -0.05                 -1.26e-12             -3.2e-13              -1.2e-13              1.28e-12             
  -0.1                  -6.28e-12             -3.6e-13              -1.2e-13              6.26e-12             
  -0.15                 -3.18e-11             -3.6e-13              -4e-14                3.202e-11            
  -0.2                  -1.6348e-10           -4.8e-13              -6e-14                1.6352e-10           
  -0.25                 -8.3744e-10           -5.2e-13              -4e-14                8.3768e-10           
  -0.3                  -4.147e-09            -5.2e-13              -4e-14                4.148e-09            
  -0.35                 -1.8254e-08           -9e-13                -4e-14                1.8268e-08           
  -0.4                  -6.3312e-08           -1.68e-12             4e-14                 6.3348e-08           
  -0.45                 -1.62e-07             -3.18e-12             -1.6e-13              1.6216e-07           
  -0.5                  -3.1846e-07           -5.4e-12              6e-14                 3.1864e-07           
  -0.55                 -5.159e-07            -8.76e-12             -4e-14                5.1596e-07           
  -0.6                  -7.3532e-07           -1.364e-11            -8e-14                7.3546e-07           
  -0.65                 -9.634e-07            -2e-11                -8e-14                9.6352e-07           
  -0.7                  -1.1906e-06           -2.844e-11            -2e-14                1.1938e-06           
  -0.75                 -1.415e-06            -3.962e-11            0                     1.4186e-06           
  -0.8                  -1.6342e-06           -5.386e-11            -4e-14                1.6374e-06           
  -0.85                 -1.8454e-06           -7.132e-11            -1e-13                1.8486e-06           
  -0.9                  -2.0486e-06           -9.278e-11            -6e-14                2.052e-06            
  -0.95                 -2.243e-06            -1.188e-10            2e-14                 2.2466e-06           
  -1                    -2.4292e-06           -1.496e-10            -8e-14                2.4326e-06           
  -1.05                 -2.6056e-06           -1.8584e-10           6e-14                 2.6094e-06           
  -1.1                  -2.7742e-06           -2.2818e-10           -6e-14                2.7774e-06           
  -1.15                 -2.9344e-06           -2.7734e-10           0                     2.9382e-06           
  -1.2                  -3.0868e-06           -3.3364e-10           3.4e-13               3.0898e-06           
  -1.25                 -3.2314e-06           -3.9752e-10           5.8e-13               3.2354e-06           
  -1.3                  -3.3678e-06           -4.7036e-10           1.52e-12              3.372e-06            
  -1.35                 -3.4978e-06           -5.527e-10            3.08e-12              3.5006e-06           
END_DB

BEGIN_DB
 ICCAP_VAR vb         0.6            
 ICCAP_VAR vd         -0.05          
 ICCAP_VAR vs         -0             

 #vg                    id                    ig                    ib                    is                   
  0.5                   -2.6e-13              1.26e-12              0                     -5.2e-13             
  0.45                  -1.8e-13              6.6e-13               0                     -2.4e-13             
  0.4                   2e-14                 5.2e-13               -1e-13                -6e-14               
  0.35                  -1e-13                3e-13                 -4e-14                -1.2e-13             
  0.3                   -4e-14                1.4e-13               4e-14                 4e-14                
  0.25                  -4e-14                1.4e-13               -1.2e-13              4e-14                
  0.2                   -1.4e-13              -4e-14                4e-14                 8e-14                
  0.15                  8e-14                 -2.2e-13              6e-14                 4e-14                
  0.1                   6e-14                 -1.2e-13              -6e-14                8e-14                
  0.05                  -8e-14                -8e-14                2e-14                 -1e-13               
  0                     0                     -2.6e-13              2e-14                 1.4e-13              
  -0.05                 -5e-13                -2e-13                -8e-14                5.4e-13              
  -0.1                  -2.1e-12              -2.6e-13              6e-14                 2.12e-12             
  -0.15                 -1.102e-11            -3.2e-13              0                     1.116e-11            
  -0.2                  -5.804e-11            -4e-13                -6e-14                5.824e-11            
  -0.25                 -3.0454e-10           -4.4e-13              -1e-13                3.0484e-10           
  -0.3                  -1.5738e-09           -4.6e-13              0                     1.5744e-09           
  -0.35                 -7.6356e-09           -8e-13                2e-14                 7.638e-09            
  -0.4                  -3.1224e-08           -1.32e-12             2e-14                 3.1248e-08           
  -0.45                 -9.5652e-08           -2.62e-12             -1e-13                9.567e-08            
  -0.5                  -2.1714e-07           -4.64e-12             -4e-14                2.1722e-07           
  -0.55                 -3.8834e-07           -7.9e-12              -1e-13                3.8844e-07           
  -0.6                  -5.911e-07            -1.248e-11            2e-14                 5.9118e-07           
  -0.65                 -8.0868e-07           -1.88e-11             2e-14                 8.0862e-07           
  -0.7                  -1.0306e-06           -2.72e-11             -4e-14                1.0308e-06           
  -0.75                 -1.2492e-06           -3.802e-11            0                     1.2526e-06           
  -0.8                  -1.4656e-06           -5.208e-11            -1.2e-13              1.469e-06            
  -0.85                 -1.6752e-06           -6.93e-11             2e-14                 1.6786e-06           
  -0.9                  -1.877e-06            -9.05e-11             -6e-14                1.8806e-06           
  -0.95                 -2.0714e-06           -1.163e-10            -8e-14                2.0748e-06           
  -1                    -2.257e-06            -1.4696e-10           -2e-14                2.2608e-06           
  -1.05                 -2.4342e-06           -1.8318e-10           6e-14                 2.4376e-06           
  -1.1                  -2.6032e-06           -2.2506e-10           -8e-14                2.6068e-06           
  -1.15                 -2.7646e-06           -2.7412e-10           0                     2.7682e-06           
  -1.2                  -2.918e-06            -3.298e-10            3.2e-13               2.9216e-06           
  -1.25                 -3.0632e-06           -3.9402e-10           6.4e-13               3.067e-06            
  -1.3                  -3.2004e-06           -4.6658e-10           1.44e-12              3.2042e-06           
  -1.35                 -3.3318e-06           -5.4932e-10           3.16e-12              3.3354e-06           
END_DB

BEGIN_DB
 ICCAP_VAR vb         0.8            
 ICCAP_VAR vd         -0.05          
 ICCAP_VAR vs         -0             

 #vg                    id                    ig                    ib                    is                   
  0.5                   -1.4e-13              1.28e-12              0                     -2.8e-13             
  0.45                  -1.8e-13              7.8e-13               8e-14                 -2.6e-13             
  0.4                   -1.2e-13              6e-13                 -6e-14                -2.6e-13             
  0.35                  -2.2e-13              2.8e-13               2e-14                 -1e-13               
  0.3                   2e-14                 1.8e-13               2e-14                 -1.2e-13             
