! VERSION = 6.00
BEGIN_HEADER
 ICCAP_INPUTS
  vg         V  G GROUND SMU2 0.001 LIN        1    0.5        -1.35      38   -0.05     
  vb         V  B GROUND SMU4 0.1 LIN        2    0          1.2        7    0.2       
  vd         V  D GROUND SMU1 0.1 LIST       3 3 -0.05 -0.6 -1.2
  vs         V  S GROUND SMU3 0.1 CON        -0
 ICCAP_OUTPUTS
  id         I  D GROUND SMU1 B
  ig         I  G GROUND SMU2 B
  ib         I  B GROUND SMU4 B
  is         I  S GROUND SMU3 B
 ICCAP_VALUES
  MASTER_SETUP_TYPE "~dc_idvg~"
  LINVT_VALUE ""
  LISTVT_VALUE ""
  TYPE "-1"
  TEMP " 27.0000 "
  IS_TNOM " 1.00000 "
  MAIN.W "10.00u"
  MAIN.L "5.000u"
  MAIN.AD "3.400p"
  MAIN.AS "3.400p"
  MAIN.PD "20.68u"
  MAIN.PS "20.68u"
  MAIN.NF "1.000"
  MAIN.M "1"
  MAIN.NRD "0.000"
  MAIN.NRS "0.000"
  MAIN.LDRIFT1 "1E-06"
  MAIN.LDRIFT2 "1E-06"
  MAIN.SA "0.000"
  MAIN.SB "0.000"
  MAIN.SD "0.000"
  MAIN.SCA "0.000"
  MAIN.SCB "0.000"
  MAIN.SCC "0.000"
  MAIN.SC "0.000"
  MODULE "S549"
  PIN_D "14"
  PIN_G "7"
  PIN_S "8"
  PIN_B "13"
  PIN_E ""
  PIN_6 ""
  XY_ID ""
  FUNC "L Scale"
  STI "SA ref"
  WPE "WPE ref"
  COMMENT ""
  DIS_MEAS ""
  TypeTCI "10"
END_HEADER

BEGIN_DB
 ICCAP_VAR vb         0              
 ICCAP_VAR vd         -0.05          
 ICCAP_VAR vs         -0             

 #vg                    id                    ig                    ib                    is                   
  0.5                   -1.78e-12             2.414e-11             -7.34e-12             -1.98e-12            
  0.45                  -1.32e-12             6.26e-12              -2.28e-12             -1.6e-12             
  0.4                   -1e-12                2.96e-12              -1.5e-12              -1.08e-12            
  0.35                  -8e-13                1.68e-12              -1.24e-12             -8.8e-13             
  0.3                   -6.2e-13              1.2e-12               -1.16e-12             -6.2e-13             
  0.25                  -4.2e-13              6e-13                 -1.14e-12             -5.2e-13             
  0.2                   -3e-13                3.4e-13               -1.1e-12              -2.6e-13             
  0.15                  -2.6e-13              1.2e-13               -1.08e-12             -4e-14               
  0.1                   -3.8e-13              -1.4e-13              -1e-12                2e-14                
  0.05                  -1.26e-12             -2.8e-13              -1.02e-12             1.28e-12             
  0                     -5.78e-12             -4.2e-13              -1.14e-12             5.84e-12             
  -0.05                 -2.794e-11            -4.4e-13              -9.6e-13              2.774e-11            
  -0.1                  -1.3588e-10           -7.4e-13              -1.06e-12             1.3612e-10           
  -0.15                 -6.681e-10            -7.4e-13              -1e-12                6.6808e-10           
  -0.2                  -3.2574e-09           -9e-13                -1.02e-12             3.2576e-09           
  -0.25                 -1.5228e-08           -1.96e-12             -1.06e-12             1.5252e-08           
  -0.3                  -6.1748e-08           -4.64e-12             -1.02e-12             6.1772e-08           
  -0.35                 -1.9164e-07           -1.062e-11            -1.02e-12             1.9178e-07           
  -0.4                  -4.415e-07            -2.248e-11            -9.6e-13              4.4166e-07           
  -0.45                 -7.9696e-07           -4.218e-11            -9.6e-13              7.9708e-07           
  -0.5                  -1.2172e-06           -7.184e-11            -9.4e-13              1.2206e-06           
  -0.55                 -1.669e-06            -1.1498e-10           -9.8e-13              1.6726e-06           
  -0.6                  -2.1302e-06           -1.7508e-10           -9.6e-13              2.1338e-06           
  -0.65                 -2.588e-06            -2.5538e-10           -9e-13                2.5918e-06           
  -0.7                  -3.0356e-06           -3.6114e-10           -9.6e-13              3.0394e-06           
  -0.75                 -3.4686e-06           -4.9624e-10           -9.2e-13              3.4726e-06           
  -0.8                  -3.886e-06            -6.6642e-10           -1e-12                3.89e-06             
  -0.85                 -4.286e-06            -8.7702e-10           -9.8e-13              4.2896e-06           
  -0.9                  -4.6674e-06           -1.1336e-09           -9.2e-13              4.6712e-06           
  -0.95                 -5.031e-06            -1.4424e-09           -9.4e-13              5.0358e-06           
  -1                    -5.3776e-06           -1.8096e-09           -9.4e-13              5.3824e-06           
  -1.05                 -5.7062e-06           -2.2404e-09           -8.4e-13              5.712e-06            
  -1.1                  -6.0188e-06           -2.743e-09            -6.6e-13              6.0248e-06           
  -1.15                 -6.3156e-06           -3.3246e-09           2e-14                 6.3218e-06           
  -1.2                  -6.5958e-06           -3.99e-09             1.8e-12               6.6026e-06           
  -1.25                 -6.8614e-06           -4.7524e-09           6.16e-12              6.8692e-06           
  -1.3                  -7.1124e-06           -5.615e-09            1.576e-11             7.1206e-06           
  -1.35                 -7.3498e-06           -6.6006e-09           3.448e-11             7.359e-06            
END_DB

BEGIN_DB
 ICCAP_VAR vb         0.2            
 ICCAP_VAR vd         -0.05          
 ICCAP_VAR vs         -0             

 #vg                    id                    ig                    ib                    is                   
  0.5                   -1.62e-12             4.14e-12              -6e-14                -1.98e-12            
  0.45                  -1.28e-12             3.06e-12              2e-14                 -1.56e-12            
  0.4                   -1.04e-12             2.28e-12              0                     -1.18e-12            
  0.35                  -7.6e-13              1.38e-12              -8e-14                -7.4e-13             
  0.3                   -5.4e-13              1.06e-12              2e-14                 -7.2e-13             
  0.25                  -3.4e-13              5.2e-13               0                     -3.2e-13             
  0.2                   -2e-13                3e-13                 2e-14                 -2.2e-13             
  0.15                  -1.6e-13              8e-14                 -4e-14                -6e-14               
  0.1                   -1.2e-13              -2.6e-13              -2e-14                4e-14                
  0.05                  -2.8e-13              -2e-13                -6e-14                2.2e-13              
  0                     -1.58e-12             -3.2e-13              -4e-14                1.5e-12              
  -0.05                 -7.56e-12             -5e-13                -4e-14                7.8e-12              
  -0.1                  -3.838e-11            -6.8e-13              -1.4e-13              3.864e-11            
  -0.15                 -1.9474e-10           -9.2e-13              0                     1.9524e-10           
  -0.2                  -9.8536e-10           -1e-12                -6e-14                9.8564e-10           
  -0.25                 -4.9188e-09           -1.38e-12             -6e-14                4.9196e-09           
  -0.3                  -2.284e-08            -3.28e-12             -6e-14                2.2866e-08           
  -0.35                 -8.739e-08            -7.92e-12             0                     8.742e-08            
  -0.4                  -2.484e-07            -1.8e-11              -6e-14                2.4854e-07           
  -0.45                 -5.2576e-07           -3.556e-11            -1e-13                5.259e-07            
  -0.5                  -8.9382e-07           -6.394e-11            -1.4e-13              8.9398e-07           
  -0.55                 -1.3108e-06           -1.0534e-10           -6e-14                1.3142e-06           
  -0.6                  -1.752e-06            -1.6342e-10           -1.8e-13              1.7554e-06           
  -0.65                 -2.1972e-06           -2.4206e-10           0                     2.2008e-06           
  -0.7                  -2.637e-06            -3.4588e-10           -6e-14                2.6408e-06           
  -0.75                 -3.065e-06            -4.7934e-10           -1.2e-13              3.0688e-06           
  -0.8                  -3.4794e-06           -6.4742e-10           -4e-14                3.4834e-06           
  -0.85                 -3.878e-06            -8.5636e-10           -4e-14                3.8816e-06           
  -0.9                  -4.2592e-06           -1.1108e-09           -2e-14                4.2634e-06           
  -0.95                 -4.6234e-06           -1.4182e-09           -6e-14                4.6278e-06           
  -1                    -4.971e-06            -1.7818e-09           -2e-14                4.9758e-06           
  -1.05                 -5.3008e-06           -2.2104e-09           8e-14                 5.3064e-06           
  -1.1                  -5.6152e-06           -2.7118e-09           2e-13                 5.6208e-06           
  -1.15                 -5.9132e-06           -3.2918e-09           9.4e-13               5.9194e-06           
  -1.2                  -6.1958e-06           -3.9548e-09           2.68e-12              6.2024e-06           
  -1.25                 -6.4638e-06           -4.7192e-09           7.14e-12              6.4712e-06           
  -1.3                  -6.7168e-06           -5.582e-09            1.67e-11              6.7252e-06           
  -1.35                 -6.9566e-06           -6.56e-09             3.548e-11             6.9658e-06           
END_DB

BEGIN_DB
 ICCAP_VAR vb         0.4            
 ICCAP_VAR vd         -0.05          
 ICCAP_VAR vs         -0             

 #vg                    id                    ig                    ib                    is                   
  0.5                   -1.52e-12             4.06e-12              0                     -1.98e-12            
  0.45                  -1.16e-12             2.84e-12              8e-14                 -1.58e-12            
  0.4                   -8.8e-13              2.04e-12              2e-14                 -1.22e-12            
  0.35                  -6.4e-13              1.54e-12              0                     -7.6e-13             
  0.3                   -5e-13                8.2e-13               2e-14                 -6.4e-13             
  0.25                  -4.4e-13              6.8e-13               4e-14                 -4e-13               
  0.2                   -2e-13                1.2e-13               -4e-14                -6e-14               
  0.15                  -2.2e-13              8e-14                 -6e-14                -1.2e-13             
  0.1                   -1e-13                -1e-13                0                     2e-14                
  0.05                  -1.4e-13              -2.8e-13              -4e-14                1.2e-13              
  0                     -5.4e-13              -5.4e-13              -4e-14                5.2e-13              
  -0.05                 -2.3e-12              -5e-13                0                     2.5e-12              
  -0.1                  -1.192e-11            -6e-13                -2e-14                1.2e-11              
  -0.15                 -6.21e-11             -9e-13                -8e-14                6.242e-11            
  -0.2                  -3.2196e-10           -8.4e-13              0                     3.2256e-10           
  -0.25                 -1.6646e-09           -1.38e-12             -1.2e-13              1.6664e-09           
  -0.3                  -8.344e-09            -2.64e-12             2e-14                 8.3454e-09           
  -0.35                 -3.7206e-08           -5.54e-12             -4e-14                3.7232e-08           
  -0.4                  -1.2962e-07           -1.364e-11            0                     1.2976e-07           
  -0.45                 -3.286e-07            -2.934e-11            -2e-14                3.2878e-07           
  -0.5                  -6.3512e-07           -5.56e-11             -8e-14                6.3522e-07           
  -0.55                 -1.01338e-06          -9.504e-11            0                     1.01358e-06          
  -0.6                  -1.428e-06            -1.5112e-10           -6e-14                1.4314e-06           
  -0.65                 -1.8576e-06           -2.2812e-10           0                     1.8612e-06           
  -0.7                  -2.2878e-06           -3.2994e-10           0                     2.2912e-06           
  -0.75                 -2.7096e-06           -4.6084e-10           -1.8e-13              2.7134e-06           
  -0.8                  -3.1202e-06           -6.2712e-10           1e-13                 3.124e-06            
  -0.85                 -3.5164e-06           -8.3338e-10           0                     3.52e-06             
  -0.9                  -3.8966e-06           -1.086e-09            -6e-14                3.9006e-06           
  -0.95                 -4.2604e-06           -1.39e-09             -2e-14                4.2648e-06           
  -1                    -4.608e-06            -1.7548e-09           -4e-14                4.6128e-06           
  -1.05                 -4.939e-06            -2.1802e-09           8e-14                 4.944e-06            
  -1.1                  -5.2542e-06           -2.6772e-09           2.6e-13               5.2598e-06           
  -1.15                 -5.5542e-06           -3.2522e-09           9.6e-13               5.5602e-06           
  -1.2                  -5.8378e-06           -3.915e-09            2.84e-12              5.8446e-06           
  -1.25                 -6.1078e-06           -4.6722e-09           7.32e-12              6.1154e-06           
  -1.3                  -6.363e-06            -5.5334e-09           1.68e-11              6.3716e-06           
  -1.35                 -6.6054e-06           -6.5064e-09           3.56e-11              6.6148e-06           
END_DB

BEGIN_DB
 ICCAP_VAR vb         0.6            
 ICCAP_VAR vd         -0.05          
 ICCAP_VAR vs         -0             

 #vg                    id                    ig                    ib                    is                   
  0.5                   -1.48e-12             3.94e-12              8e-14                 -1.82e-12            
  0.45                  -1.12e-12             2.96e-12              1.2e-13               -1.74e-12            
  0.4                   -8.2e-13              2e-12                 2e-14                 -1.06e-12            
  0.35                  -7e-13                1.42e-12              2e-14                 -9.6e-13             
  0.3                   -4.2e-13              1e-12                 -6e-14                -3.8e-13             
  0.25                  -4.4e-13              6.6e-13               2e-14                 -3.6e-13             
  0.2                   -2.6e-13              -6e-14                6e-14                 -2.8e-13             
  0.15                  -6e-14                2e-14                 -8e-14                4e-14                
  0.1                   -1e-13                -1.8e-13              4e-14                 -6e-14               
  0.05                  -4e-14                -4.8e-13              -2e-14                2e-13                
  0                     -1.6e-13              -4.4e-13              -4e-14                1.6e-13              
  -0.05                 -7.6e-13              -4.8e-13              -8e-14                9.6e-13              
  -0.1                  -4e-12                -4.6e-13              -1.4e-13              4.24e-12             
  -0.15                 -2.116e-11            -8.6e-13              -8e-14                2.142e-11            
  -0.2                  -1.121e-10            -9.6e-13              -6e-14                1.1276e-10           
  -0.25                 -5.9262e-10           -1.4e-12              -8e-14                5.9336e-10           
  -0.3                  -3.0938e-09           -2.26e-12             0                     3.0962e-09           
  -0.35                 -1.5196e-08           -3.94e-12             -6e-14                1.522e-08            
  -0.4                  -6.2876e-08           -9.92e-12             -4e-14                6.29e-08             
  -0.45                 -1.9264e-07           -2.34e-11             0                     1.9278e-07           
  -0.5                  -4.3256e-07           -4.7e-11              -8e-14                4.3264e-07           
  -0.55                 -7.634e-07            -8.452e-11            -4e-14                7.636e-07            
  -0.6                  -1.14924e-06          -1.3838e-10           -2e-14                1.14942e-06          
  -0.65                 -1.5586e-06           -2.1334e-10           -4e-14                1.5622e-06           
  -0.7                  -1.977e-06            -3.1306e-10           -2.2e-13              1.9806e-06           
  -0.75                 -2.3912e-06           -4.4172e-10           -4e-14                2.395e-06            
  -0.8                  -2.797e-06            -6.0542e-10           -6e-14                2.801e-06            
  -0.85                 -3.1904e-06           -8.105e-10            -6e-14                3.1942e-06           
  -0.9                  -3.569e-06            -1.0592e-09           -4e-14                3.573e-06            
  -0.95                 -3.932e-06            -1.3612e-09           -1e-13                3.9368e-06           
  -1                    -4.2796e-06           -1.7212e-09           0                     4.2846e-06           
  -1.05                 -4.611e-06            -2.145e-09            8e-14                 4.6162e-06           
  -1.1                  -4.9272e-06           -2.6406e-09           2.6e-13               4.9328e-06           
  -1.15                 -5.2278e-06           -3.2136e-09           1.1e-12               5.234e-06            
  -1.2                  -5.513e-06            -3.8742e-09           2.8e-12               5.52e-06             
  -1.25                 -5.784e-06            -4.6348e-09           7.46e-12              5.7918e-06           
  -1.3                  -6.0414e-06           -5.4924e-09           1.7e-11               6.0496e-06           
  -1.35                 -6.2846e-06           -6.4662e-09           3.578e-11             6.2942e-06           
END_DB

BEGIN_DB
 ICCAP_VAR vb         0.8            
 ICCAP_VAR vd         -0.05          
 ICCAP_VAR vs         -0             

 #vg                    id                    ig                    ib                    is                   
  0.5                   -1.44e-12             3.8e-12               6e-14                 -1.98e-12            
  0.45                  -1.1e-12              3.08e-12              2.2e-13               -1.62e-12            
  0.4                   -8.6e-13              2.12e-12              0                     -1.1e-12             
  0.35                  -7e-13                1.46e-12              -2e-14                -8e-13               
  0.3                   -5.2e-13              9.2e-13               6e-14                 -6.8e-13             
