! VERSION = 6.00
BEGIN_HEADER
 ICCAP_INPUTS
  vd         V  D GROUND SMU1 0.1 LIN        1    -0         -1.35      28   -0.05     
  vg         V  G GROUND SMU2 0.001 LIN        2    -0.478     -1.35      5    -0.218    
  vb         V  B GROUND SMU4 0.1 CON        -0
  vs         V  S GROUND SMU3 0.1 CON        -0
 ICCAP_OUTPUTS
  id         I  D GROUND SMU1 B
  ig         I  G GROUND SMU2 B
  ib         I  B GROUND SMU4 B
  is         I  S GROUND SMU3 B
 ICCAP_VALUES
  MASTER_SETUP_TYPE "~dc_idvd~"
  LINVT_VALUE "|idvg|100.0n|100.0m|1.000m|5|1.350|"
  LISTVT_VALUE ""
  TYPE "-1"
  TEMP " 27.0000 "
  IS_TNOM " 1.00000 "
  MAIN.W "150.0n"
  MAIN.L "140.0n"
  MAIN.AD "100.5f"
  MAIN.AS "100.5f"
  MAIN.PD "1.340u"
  MAIN.PS "1.340u"
  MAIN.NF "1.000"
  MAIN.M "1"
  MAIN.NRD "0.000"
  MAIN.NRS "0.000"
  MAIN.LDRIFT1 "1E-06"
  MAIN.LDRIFT2 "1E-06"
  MAIN.SA "0.000"
  MAIN.SB "0.000"
  MAIN.SD "0.000"
  MAIN.SCA "0.000"
  MAIN.SCB "0.000"
  MAIN.SCC "0.000"
  MAIN.SC "0.000"
  MODULE "S554"
  PIN_D "14"
  PIN_G "7"
  PIN_S "8"
  PIN_B "13"
  PIN_E ""
  PIN_6 ""
  XY_ID ""
  FUNC "LW Scale"
  STI "SA ref"
  WPE "WPE ref"
  COMMENT ""
  DIS_MEAS ""
  TypeTCI "10"
END_HEADER

BEGIN_DB
 ICCAP_VAR vg         -0.478         
 ICCAP_VAR vb         -0             
 ICCAP_VAR vs         -0             

 #vd                    id                    ig                    ib                    is                   
  -0                    5.86e-10              -2e-13                -2.94e-12             -7.163e-10           
  -0.05                 -3.6676e-07           -2.6e-13              -2.86e-12             3.6606e-07           
  -0.1                  -5.3744e-07           -1.8e-13              -2.88e-12             5.378e-07            
  -0.15                 -6.2122e-07           -1.2e-13              -2.8e-12              6.219e-07            
  -0.2                  -6.7196e-07           -1.6e-13              -2.82e-12             6.7304e-07           
  -0.25                 -7.109e-07            -4e-14                -2.76e-12             7.0872e-07           
  -0.3                  -7.425e-07            -6e-14                -2.74e-12             7.4014e-07           
  -0.35                 -7.7036e-07           1.4e-13               -2.76e-12             7.707e-07            
  -0.4                  -8.0008e-07           -1.2e-13              -2.74e-12             8.0224e-07           
  -0.45                 -8.2964e-07           -2.4e-13              -2.64e-12             8.2904e-07           
  -0.5                  -8.5504e-07           -2.4e-13              -2.64e-12             8.5478e-07           
  -0.55                 -8.806e-07            0                     -2.7e-12              8.7922e-07           
  -0.6                  -9.021e-07            2e-14                 -2.64e-12             9.0594e-07           
  -0.65                 -9.2892e-07           -8e-14                -2.64e-12             9.3036e-07           
  -0.7                  -9.5334e-07           -1.4e-13              -2.62e-12             9.5278e-07           
  -0.75                 -9.7494e-07           4e-14                 -2.54e-12             9.7062e-07           
  -0.8                  -9.964e-07            -2.2e-13              -2.66e-12             9.9948e-07           
  -0.85                 -1.02236e-06          -1.4e-13              -2.5e-12              1.02268e-06          
  -0.9                  -1.03658e-06          -1.2e-13              -2.46e-12             1.04644e-06          
  -0.95                 -1.07376e-06          -6e-14                -2.46e-12             1.07496e-06          
  -1                    -1.0933e-06           1.6e-13               -2.46e-12             1.0918e-06           
  -1.05                 -1.1124e-06           1.6e-13               -2.38e-12             1.11874e-06          
  -1.1                  -1.13468e-06          2e-13                 -2.44e-12             1.13462e-06          
  -1.15                 -1.1496e-06           -2e-14                -2.32e-12             1.154e-06            
  -1.2                  -1.1706e-06           -6e-14                -2.26e-12             1.1766e-06           
  -1.25                 -1.1964e-06           1.8e-13               -2.1e-12              1.197e-06            
  -1.3                  -1.2176e-06           2e-14                 -1.6e-12              1.2226e-06           
  -1.35                 -1.241e-06            -8e-14                -9.2e-13              1.2428e-06           
END_DB

BEGIN_DB
 ICCAP_VAR vg         -0.696         
 ICCAP_VAR vb         -0             
 ICCAP_VAR vs         -0             

 #vd                    id                    ig                    ib                    is                   
  -0                    2.672e-09             -4e-13                -2.06e-12             -2.4754e-09          
  -0.05                 -1.9132e-06           -4.6e-13              -2.12e-12             1.9152e-06           
  -0.1                  -3.3622e-06           -3.6e-13              -2.18e-12             3.366e-06            
  -0.15                 -4.4026e-06           -1.8e-13              -2.14e-12             4.4064e-06           
  -0.2                  -5.1228e-06           -3.2e-13              -2.1e-12              5.128e-06            
  -0.25                 -5.6196e-06           -2.6e-13              -2.02e-12             5.6228e-06           
  -0.3                  -5.9754e-06           -1.8e-13              -2.12e-12             5.9784e-06           
  -0.35                 -6.2622e-06           -1.8e-13              -2.04e-12             6.2638e-06           
  -0.4                  -6.4868e-06           -6e-14                -2.06e-12             6.4974e-06           
  -0.45                 -6.6882e-06           -2.4e-13              -2.12e-12             6.6946e-06           
  -0.5                  -6.8648e-06           -1e-13                -2.08e-12             6.8744e-06           
  -0.55                 -7.0304e-06           -1.6e-13              -2.04e-12             7.0404e-06           
  -0.6                  -7.184e-06            -2.2e-13              -2e-12                7.1906e-06           
  -0.65                 -7.331e-06            6e-14                 -2e-12                7.3392e-06           
  -0.7                  -7.4688e-06           -1e-13                -2.1e-12              7.4736e-06           
  -0.75                 -7.602e-06            -3.2e-13              -2.04e-12             7.612e-06            
  -0.8                  -7.724e-06            -2e-13                -1.98e-12             7.7294e-06           
  -0.85                 -7.8528e-06           4e-14                 -1.98e-12             7.8634e-06           
  -0.9                  -7.9746e-06           -2e-13                -1.92e-12             7.9774e-06           
  -0.95                 -8.09e-06             -1.2e-13              -1.86e-12             8.0914e-06           
  -1                    -8.2066e-06           0                     -1.98e-12             8.2064e-06           
  -1.05                 -8.3176e-06           -1.2e-13              -2e-12                8.3232e-06           
  -1.1                  -8.4312e-06           -2.2e-13              -1.9e-12              8.4384e-06           
  -1.15                 -8.5358e-06           -1.8e-13              -1.92e-12             8.5322e-06           
  -1.2                  -8.631e-06            -6e-14                -1.76e-12             8.6396e-06           
  -1.25                 -8.74e-06             6e-14                 -1.64e-12             8.75e-06             
  -1.3                  -8.8652e-06           -6e-14                -1.1e-12              8.8596e-06           
  -1.35                 -8.9586e-06           -2e-13                -2.2e-13              8.964e-06            
END_DB

BEGIN_DB
 ICCAP_VAR vg         -0.914         
 ICCAP_VAR vb         -0             
 ICCAP_VAR vs         -0             

 #vd                    id                    ig                    ib                    is                   
  -0                    3.7988e-09            -1.1e-12              -1.58e-12             -3.9608e-09          
  -0.05                 -3.6002e-06           -9.6e-13              -1.78e-12             3.6042e-06           
  -0.1                  -6.7382e-06           -7e-13                -1.8e-12              6.7422e-06           
  -0.15                 -9.3932e-06           -6.4e-13              -1.78e-12             9.3518e-06           
  -0.2                  -1.1542e-05           -6.2e-13              -1.72e-12             1.1592e-05           
  -0.25                 -1.3312e-05           -6.2e-13              -1.7e-12              1.3336e-05           
  -0.3                  -1.4686e-05           -6e-13                -1.7e-12              1.4708e-05           
  -0.35                 -1.575e-05            -6.2e-13              -1.74e-12             1.5776e-05           
  -0.4                  -1.6588e-05           -4.4e-13              -1.7e-12              1.6604e-05           
  -0.45                 -1.7194e-05           -6e-13                -1.76e-12             1.7248e-05           
  -0.5                  -1.7806e-05           -5.2e-13              -1.74e-12             1.7828e-05           
  -0.55                 -1.828e-05            -5e-13                -1.68e-12             1.8182e-05           
  -0.6                  -1.8702e-05           -4e-13                -1.64e-12             1.8704e-05           
  -0.65                 -1.9074e-05           -6e-13                -1.68e-12             1.9086e-05           
  -0.7                  -1.9414e-05           -3.4e-13              -1.64e-12             1.9436e-05           
  -0.75                 -1.9726e-05           -3e-13                -1.66e-12             1.975e-05            
  -0.8                  -2.0028e-05           -2.4e-13              -1.74e-12             1.998e-05            
  -0.85                 -2.0314e-05           -5.4e-13              -1.64e-12             2.0342e-05           
  -0.9                  -2.058e-05            -4.4e-13              -1.6e-12              2.0596e-05           
  -0.95                 -2.077e-05            -2.4e-13              -1.62e-12             2.0748e-05           
  -1                    -2.102e-05            -4.4e-13              -1.62e-12             2.1048e-05           
  -1.05                 -2.1202e-05           -6e-13                -1.6e-12              2.1276e-05           
  -1.1                  -2.1492e-05           -3.2e-13              -1.64e-12             2.149e-05            
  -1.15                 -2.1712e-05           -2.6e-13              -1.66e-12             2.1712e-05           
  -1.2                  -2.1924e-05           -4.4e-13              -1.52e-12             2.1948e-05           
  -1.25                 -2.2074e-05           -3.6e-13              -1.3e-12              2.2146e-05           
  -1.3                  -2.2358e-05           -1.6e-13              -1.2e-12              2.2402e-05           
  -1.35                 -2.2624e-05           -1.4e-13              -7.2e-13              2.2684e-05           
END_DB

BEGIN_DB
 ICCAP_VAR vg         -1.132         
 ICCAP_VAR vb         -0             
 ICCAP_VAR vs         -0             

 #vd                    id                    ig                    ib                    is                   
  -0                    3.523e-09             -2.02e-12             -1.38e-12             -4.781e-09           
  -0.05                 -4.9908e-06           -1.9e-12              -1.42e-12             4.9974e-06           
  -0.1                  -9.5864e-06           -1.66e-12             -1.34e-12             9.5914e-06           
  -0.15                 -1.3708e-05           -1.52e-12             -1.46e-12             1.372e-05            
  -0.2                  -1.7366e-05           -1.4e-12              -1.42e-12             1.732e-05            
  -0.25                 -2.0428e-05           -1.34e-12             -1.52e-12             2.0566e-05           
  -0.3                  -2.3168e-05           -1.28e-12             -1.5e-12              2.3198e-05           
  -0.35                 -2.5548e-05           -1.26e-12             -1.42e-12             2.5542e-05           
  -0.4                  -2.7338e-05           -1.14e-12             -1.44e-12             2.7444e-05           
  -0.45                 -2.8888e-05           -1.16e-12             -1.48e-12             2.8936e-05           
  -0.5                  -3.033e-05            -9.6e-13              -1.5e-12              3.015e-05            
  -0.55                 -3.141e-05            -8e-13                -1.44e-12             3.1468e-05           
  -0.6                  -3.235e-05            -8.8e-13              -1.54e-12             3.2352e-05           
  -0.65                 -3.2992e-05           -9.6e-13              -1.42e-12             3.3062e-05           
  -0.7                  -3.3662e-05           -9.2e-13              -1.46e-12             3.3802e-05           
  -0.75                 -3.4384e-05           -8.8e-13              -1.46e-12             3.4368e-05           
  -0.8                  -3.4922e-05           -6e-13                -1.4e-12              3.4908e-05           
  -0.85                 -3.548e-05            -6.8e-13              -1.46e-12             3.552e-05            
  -0.9                  -3.5992e-05           -9.6e-13              -1.42e-12             3.6e-05              
  -0.95                 -3.6422e-05           -8.4e-13              -1.4e-12              3.6356e-05           
  -1                    -3.6578e-05           -7.8e-13              -1.34e-12             3.6596e-05           
  -1.05                 -3.7002e-05           -8.2e-13              -1.42e-12             3.721e-05            
  -1.1                  -3.751e-05            -8.4e-13              -1.42e-12             3.766e-05            
  -1.15                 -3.7858e-05           -7.2e-13              -1.38e-12             3.7792e-05           
  -1.2                  -3.8226e-05           -9.8e-13              -1.38e-12             3.8358e-05           
  -1.25                 -3.8642e-05           -9.4e-13              -1.24e-12             3.8642e-05           
  -1.3                  -3.8984e-05           -7.2e-13              -1.16e-12             3.9054e-05           
  -1.35                 -3.9174e-05           -5.4e-13              -9.8e-13              3.954e-05            
END_DB

BEGIN_DB
 ICCAP_VAR vg         -1.35          
 ICCAP_VAR vb         -0             
 ICCAP_VAR vs         -0             

 #vd                    id                    ig                    ib                    is                   
  -0                    9.358e-09             -5.28e-12             -1.22e-12             -9.316e-09           
  -0.05                 -6.1026e-06           -4.44e-12             -1.22e-12             6.1048e-06           
  -0.1                  -1.1828e-05           -4.36e-12             -1.2e-12              1.1874e-05           
  -0.15                 -1.7198e-05           -3.9e-12              -1.2e-12              1.7184e-05           
  -0.2                  -2.2038e-05           -3.5e-12              -1.28e-12             2.2126e-05           
  -0.25                 -2.6444e-05           -3.28e-12             -1.26e-12             2.648e-05            
  -0.3                  -3.0512e-05           -3.02e-12             -1.24e-12             3.0414e-05           
  -0.35                 -3.394e-05            -2.74e-12             -1.22e-12             3.3914e-05           
  -0.4                  -3.7016e-05           -2.44e-12             -1.28e-12             3.7126e-05           
  -0.45                 -3.9812e-05           -2.28e-12             -1.26e-12             3.9744e-05           
  -0.5                  -4.214e-05            -2.36e-12             -1.2e-12              4.2146e-05           
  -0.55                 -4.4172e-05           -2.32e-12             -1.22e-12             4.4142e-05           
  -0.6                  -4.5752e-05           -2.02e-12             -1.3e-12              4.5784e-05           
  -0.65                 -4.7236e-05           -2e-12                -1.36e-12             4.7302e-05           
  -0.7                  -4.8538e-05           -2.36e-12             -1.22e-12             4.8584e-05           
  -0.75                 -4.9632e-05           -1.98e-12             -1.26e-12             4.9664e-05           
  -0.8                  -5.0632e-05           -2.08e-12             -1.28e-12             5.0706e-05           
  -0.85                 -5.1526e-05           -2.04e-12             -1.32e-12             5.154e-05            
  -0.9                  -5.2266e-05           -1.88e-12             -1.3e-12              5.2272e-05           
  -0.95                 -5.309e-05            -1.92e-12             -1.34e-12             5.3088e-05           
  -1                    -5.365e-05            -1.98e-12             -1.3e-12              5.3638e-05           
  -1.05                 -5.4196e-05           -1.84e-12             -1.18e-12             5.4308e-05           
  -1.1                  -5.4702e-05           -1.74e-12             -1.2e-12              5.4742e-05           
  -1.15                 -5.512e-05            -1.76e-12             -1.28e-12             5.5314e-05           
  -1.2                  -5.5808e-05           -1.84e-12             -1.24e-12             5.5874e-05           
  -1.25                 -5.6138e-05           -1.72e-12             -1.14e-12             5.6388e-05           
  -1.3                  -5.6778e-05           -1.58e-12             -1.22e-12             5.6672e-05           
  -1.35                 -5.7306e-05           -1.72e-12             -1.04e-12             5.7192e-05           
END_DB

