! VERSION = 6.00
BEGIN_HEADER
 ICCAP_INPUTS
  vg         V  G GROUND SMU2 0.001 LIN        1    0.5        -1.35      38   -0.05     
  vb         V  B GROUND SMU4 0.1 LIN        2    0          1.2        7    0.2       
  vd         V  D GROUND SMU1 0.1 LIST       3 3 -0.05 -0.6 -1.2
  vs         V  S GROUND SMU3 0.1 CON        -0
 ICCAP_OUTPUTS
  id         I  D GROUND SMU1 B
  ig         I  G GROUND SMU2 B
  ib         I  B GROUND SMU4 B
  is         I  S GROUND SMU3 B
 ICCAP_VALUES
  MASTER_SETUP_TYPE "~dc_idvg~"
  LINVT_VALUE ""
  LISTVT_VALUE ""
  TYPE "-1"
  TEMP " 70.0000 "
  IS_TNOM " 0.00000 "
  MAIN.W "150.0n"
  MAIN.L "10.00u"
  MAIN.AD "100.5f"
  MAIN.AS "100.5f"
  MAIN.PD "1.340u"
  MAIN.PS "1.340u"
  MAIN.NF "1.000"
  MAIN.M "1"
  MAIN.NRD "0.000"
  MAIN.NRS "0.000"
  MAIN.LDRIFT1 "1E-06"
  MAIN.LDRIFT2 "1E-06"
  MAIN.SA "0.000"
  MAIN.SB "0.000"
  MAIN.SD "0.000"
  MAIN.SCA "0.000"
  MAIN.SCB "0.000"
  MAIN.SCC "0.000"
  MAIN.SC "0.000"
  MODULE "S555"
  PIN_D "16"
  PIN_G "5"
  PIN_S "6"
  PIN_B "15"
  PIN_E ""
  PIN_6 ""
  XY_ID ""
  FUNC "Narrow"
  STI "SA ref"
  WPE "WPE ref"
  COMMENT ""
  DIS_MEAS ""
  TypeTCI "10"
END_HEADER

BEGIN_DB
 ICCAP_VAR vb         0              
 ICCAP_VAR vd         -0.05          
 ICCAP_VAR vs         -0             

 #vg                    id                    ig                    ib                    is                   
  0.5                   -4.8e-13              6.2618e-10            -5.2768e-10           -4e-14               
  0.45                  -4e-14                1.1676e-10            -2.4352e-10           2e-14                
  0.4                   2e-14                 2.222e-11             -1.4062e-10           2e-13                
  0.35                  4e-14                 4.28e-12              -9.778e-11            2.2e-13              
  0.3                   0                     8.2e-13               -7.544e-11            -2e-14               
  0.25                  2e-14                 1.4e-13               -6.184e-11            1.2e-13              
  0.2                   1e-13                 -4e-14                -5.28e-11             1e-13                
  0.15                  8e-14                 -2e-13                -4.608e-11            2.6e-13              
  0.1                   2e-14                 -2.8e-13              -4.096e-11            3.2e-13              
  0.05                  -1e-13                -1.8e-13              -3.668e-11            2.4e-13              
  0                     -7.2e-13              -2.6e-13              -3.338e-11            1.28e-12             
  -0.05                 -3.32e-12             -2.8e-13              -3.038e-11            3.52e-12             
  -0.1                  -1.378e-11            -3.2e-13              -2.782e-11            1.404e-11            
  -0.15                 -5.542e-11            -3.4e-13              -2.572e-11            5.582e-11            
  -0.2                  -2.1272e-10           -4e-13                -2.36e-11             2.1308e-10           
  -0.25                 -7.1908e-10           -4.6e-13              -2.188e-11            7.188e-10            
  -0.3                  -1.9462e-09           -5.2e-13              -1.918e-11            1.9458e-09           
  -0.35                 -4.1138e-09           -9.2e-13              -1.794e-11            4.1152e-09           
  -0.4                  -7.1018e-09           -1.32e-12             -1.69e-11             7.0992e-09           
  -0.45                 -1.06168e-08          -2e-12                -1.578e-11            1.06152e-08          
  -0.5                  -1.4428e-08           -2.76e-12             -1.452e-11            1.4444e-08           
  -0.55                 -1.8372e-08           -4.18e-12             -1.346e-11            1.839e-08            
  -0.6                  -2.2364e-08           -5.98e-12             -1.272e-11            2.2382e-08           
  -0.65                 -2.6342e-08           -8.26e-12             -1.178e-11            2.6372e-08           
  -0.7                  -3.0274e-08           -1.116e-11            -1.102e-11            3.0296e-08           
  -0.75                 -3.4116e-08           -1.502e-11            -1.042e-11            3.4152e-08           
  -0.8                  -3.7874e-08           -1.964e-11            -9.64e-12             3.7906e-08           
  -0.85                 -4.1506e-08           -2.562e-11            -9.14e-12             4.1556e-08           
  -0.9                  -4.5044e-08           -3.26e-11             -8.38e-12             4.5082e-08           
  -0.95                 -4.843e-08            -4.09e-11             -7.86e-12             4.8484e-08           
  -1                    -5.1718e-08           -5.08e-11             -7.5e-12              5.1762e-08           
  -1.05                 -5.4854e-08           -6.218e-11            -6.88e-12             5.4916e-08           
  -1.1                  -5.7872e-08           -7.562e-11            -6.52e-12             5.7968e-08           
  -1.15                 -6.0766e-08           -9.138e-11            -6.02e-12             6.0868e-08           
  -1.2                  -6.3544e-08           -1.087e-10            -5.62e-12             6.3658e-08           
  -1.25                 -6.6178e-08           -1.2878e-10           -5.16e-12             6.6314e-08           
  -1.3                  -6.872e-08            -1.5124e-10           -4.26e-12             6.8864e-08           
  -1.35                 -7.1122e-08           -1.7712e-10           -3.3e-12              7.1308e-08           
END_DB

BEGIN_DB
 ICCAP_VAR vb         0.2            
 ICCAP_VAR vd         -0.05          
 ICCAP_VAR vs         -0             

 #vg                    id                    ig                    ib                    is                   
  0.5                   -1e-13                1.36e-12              1.144e-11             -4e-14               
  0.45                  -1.4e-13              4.4e-13               1.154e-11             0                    
  0.4                   -1.2e-13              -6e-14                1.158e-11             4e-14                
  0.35                  -1.8e-13              -1.6e-13              1.148e-11             -4e-14               
  0.3                   0                     -8e-14                1.152e-11             8e-14                
  0.25                  -8e-14                -1.6e-13              1.144e-11             0                    
  0.2                   -6e-14                0                     1.156e-11             -1.4e-13             
  0.15                  -8e-14                -3.2e-13              1.144e-11             1e-13                
  0.1                   -1.8e-13              -2.8e-13              1.158e-11             -6e-14               
  0.05                  -1.6e-13              -3.4e-13              1.158e-11             2e-14                
  0                     -2.8e-13              -4.4e-13              1.152e-11             3.8e-13              
  -0.05                 -1.18e-12             -2.8e-13              1.148e-11             1.24e-12             
  -0.1                  -4.86e-12             -3.2e-13              1.14e-11              4.82e-12             
  -0.15                 -2.006e-11            -3e-13                1.148e-11             2.02e-11             
  -0.2                  -8.162e-11            -7e-13                1.144e-11             8.184e-11            
  -0.25                 -3.1032e-10           -4.6e-13              1.148e-11             3.1074e-10           
  -0.3                  -9.9762e-10           -7e-13                1.14e-11              9.9702e-10           
  -0.35                 -2.4928e-09           -7.4e-13              1.142e-11             2.492e-09            
  -0.4                  -4.8996e-09           -1.18e-12             1.144e-11             4.9006e-09           
  -0.45                 -8.0076e-09           -1.98e-12             1.144e-11             8.0064e-09           
  -0.5                  -1.1544e-08           -2.54e-12             1.146e-11             1.1562e-08           
  -0.55                 -1.5304e-08           -3.92e-12             1.142e-11             1.5324e-08           
  -0.6                  -1.9178e-08           -5.66e-12             1.146e-11             1.9196e-08           
  -0.65                 -2.3066e-08           -8.02e-12             1.134e-11             2.3086e-08           
  -0.7                  -2.6932e-08           -1.094e-11            1.136e-11             2.6954e-08           
  -0.75                 -3.0728e-08           -1.472e-11            1.134e-11             3.076e-08            
  -0.8                  -3.446e-08            -1.932e-11            1.134e-11             3.4494e-08           
  -0.85                 -3.8096e-08           -2.518e-11            1.14e-11              3.8136e-08           
  -0.9                  -4.1624e-08           -3.212e-11            1.128e-11             4.1668e-08           
  -0.95                 -4.5018e-08           -4.032e-11            1.132e-11             4.5062e-08           
  -1                    -4.8292e-08           -5.024e-11            1.126e-11             4.836e-08            
  -1.05                 -5.1458e-08           -6.168e-11            1.13e-11              5.1534e-08           
  -1.1                  -5.45e-08             -7.502e-11            1.126e-11             5.4564e-08           
  -1.15                 -5.738e-08            -9.024e-11            1.134e-11             5.7498e-08           
  -1.2                  -6.019e-08            -1.0782e-10           1.14e-11              6.0302e-08           
  -1.25                 -6.286e-08            -1.2788e-10           1.16e-11              6.2994e-08           
  -1.3                  -6.5384e-08           -1.5052e-10           1.188e-11             6.5534e-08           
  -1.35                 -6.7824e-08           -1.764e-10            1.242e-11             6.802e-08            
END_DB

BEGIN_DB
 ICCAP_VAR vb         0.4            
 ICCAP_VAR vd         -0.05          
 ICCAP_VAR vs         -0             

 #vg                    id                    ig                    ib                    is                   
  0.5                   -8e-14                4.8e-13               1.238e-11             -1e-13               
  0.45                  -4e-14                1.8e-13               1.234e-11             8e-14                
  0.4                   -8e-14                2e-14                 1.238e-11             2e-14                
  0.35                  -8e-14                -4e-14                1.244e-11             2e-14                
  0.3                   -8e-14                -8e-14                1.236e-11             0                    
  0.25                  -4e-14                -6e-14                1.248e-11             -6e-14               
  0.2                   -8e-14                -1.2e-13              1.24e-11              -1e-13               
  0.15                  -2e-14                -3.2e-13              1.234e-11             1.6e-13              
  0.1                   -6e-14                -1.6e-13              1.248e-11             -1.2e-13             
  0.05                  -1.4e-13              -2.8e-13              1.232e-11             8e-14                
  0                     -1.8e-13              -3.2e-13              1.236e-11             1e-13                
  -0.05                 -5.4e-13              -3.2e-13              1.252e-11             4.6e-13              
  -0.1                  -1.78e-12             -3.4e-13              1.234e-11             1.98e-12             
  -0.15                 -7.82e-12             -3.6e-13              1.246e-11             7.74e-12             
  -0.2                  -3.292e-11            -5.4e-13              1.238e-11             3.286e-11            
  -0.25                 -1.3392e-10           -5e-13                1.238e-11             1.3414e-10           
  -0.3                  -4.9016e-10           -5.8e-13              1.232e-11             4.8976e-10           
  -0.35                 -1.4412e-09           -6.8e-13              1.242e-11             1.4404e-09           
  -0.4                  -3.266e-09            -1.06e-12             1.238e-11             3.2666e-09           
  -0.45                 -5.9194e-09           -1.54e-12             1.244e-11             5.9176e-09           
  -0.5                  -9.1412e-09           -2.58e-12             1.232e-11             9.1398e-09           
  -0.55                 -1.2684e-08           -3.72e-12             1.23e-11              1.2702e-08           
  -0.6                  -1.6406e-08           -5.42e-12             1.232e-11             1.6428e-08           
  -0.65                 -2.019e-08            -7.66e-12             1.242e-11             2.0214e-08           
  -0.7                  -2.3986e-08           -1.06e-11             1.228e-11             2.4004e-08           
  -0.75                 -2.774e-08            -1.442e-11            1.236e-11             2.7764e-08           
  -0.8                  -3.144e-08            -1.894e-11            1.236e-11             3.1482e-08           
  -0.85                 -3.5056e-08           -2.48e-11             1.236e-11             3.5094e-08           
  -0.9                  -3.8562e-08           -3.152e-11            1.236e-11             3.8608e-08           
  -0.95                 -4.1966e-08           -3.978e-11            1.238e-11             4.201e-08            
  -1                    -4.5238e-08           -4.958e-11            1.244e-11             4.5318e-08           
  -1.05                 -4.8406e-08           -6.084e-11            1.24e-11              4.8474e-08           
  -1.1                  -5.147e-08            -7.418e-11            1.228e-11             5.1546e-08           
  -1.15                 -5.4394e-08           -8.93e-11             1.244e-11             5.448e-08            
  -1.2                  -5.7168e-08           -1.0696e-10           1.236e-11             5.728e-08            
  -1.25                 -5.9864e-08           -1.2692e-10           1.272e-11             5.9972e-08           
  -1.3                  -6.24e-08             -1.4954e-10           1.294e-11             6.257e-08            
  -1.35                 -6.482e-08            -1.753e-10            1.352e-11             6.5056e-08           
END_DB

BEGIN_DB
 ICCAP_VAR vb         0.6            
 ICCAP_VAR vd         -0.05          
 ICCAP_VAR vs         -0             

 #vg                    id                    ig                    ib                    is                   
  0.5                   -1.2e-13              4.6e-13               1.252e-11             4e-14                
  0.45                  -1e-13                6e-14                 1.262e-11             6e-14                
  0.4                   -2e-14                6e-14                 1.262e-11             1.4e-13              
  0.35                  -1.2e-13              1.2e-13               1.258e-11             -2e-14               
  0.3                   -8e-14                -6e-14                1.252e-11             4e-14                
  0.25                  0                     -1.8e-13              1.27e-11              8e-14                
  0.2                   -8e-14                -2.4e-13              1.26e-11              8e-14                
  0.15                  -1e-13                -2.4e-13              1.256e-11             4e-14                
  0.1                   -8e-14                -2.6e-13              1.274e-11             -4e-14               
  0.05                  -2e-14                -3.6e-13              1.266e-11             6e-14                
  0                     -6e-14                -8e-14                1.262e-11             -2e-14               
  -0.05                 -1.6e-13              -3.8e-13              1.264e-11             1.2e-13              
  -0.1                  -7.2e-13              -4e-13                1.262e-11             8e-13                
  -0.15                 -3.36e-12             -4e-13                1.264e-11             3.04e-12             
  -0.2                  -1.384e-11            -3.8e-13              1.254e-11             1.404e-11            
  -0.25                 -5.916e-11            -3.6e-13              1.26e-11              5.896e-11            
  -0.3                  -2.357e-10            -6.2e-13              1.27e-11              2.3566e-10           
  -0.35                 -7.9658e-10           -7.4e-13              1.264e-11             7.9626e-10           
  -0.4                  -2.0926e-09           -9.6e-13              1.268e-11             2.092e-09            
  -0.45                 -4.2604e-09           -1.56e-12             1.262e-11             4.2596e-09           
  -0.5                  -7.1304e-09           -2.38e-12             1.262e-11             7.1274e-09           
  -0.55                 -1.04296e-08          -3.56e-12             1.262e-11             1.04328e-08          
  -0.6                  -1.3978e-08           -4.96e-12             1.258e-11             1.3994e-08           
  -0.65                 -1.7638e-08           -7.42e-12             1.254e-11             1.7662e-08           
  -0.7                  -2.1342e-08           -1.026e-11            1.256e-11             2.1374e-08           
  -0.75                 -2.5044e-08           -1.39e-11             1.268e-11             2.507e-08            
  -0.8                  -2.8692e-08           -1.872e-11            1.244e-11             2.8724e-08           
  -0.85                 -3.2274e-08           -2.43e-11             1.262e-11             3.231e-08            
  -0.9                  -3.578e-08            -3.098e-11            1.268e-11             3.582e-08            
  -0.95                 -3.9178e-08           -3.938e-11            1.248e-11             3.924e-08            
  -1                    -4.2454e-08           -4.876e-11            1.27e-11              4.2498e-08           
  -1.05                 -4.5638e-08           -6.052e-11            1.254e-11             4.571e-08            
  -1.1                  -4.867e-08            -7.358e-11            1.27e-11              4.8768e-08           
  -1.15                 -5.1624e-08           -8.86e-11             1.262e-11             5.1706e-08           
  -1.2                  -5.4416e-08           -1.061e-10            1.272e-11             5.454e-08            
  -1.25                 -5.7116e-08           -1.2668e-10           1.292e-11             5.7256e-08           
  -1.3                  -5.9696e-08           -1.4906e-10           1.324e-11             5.9856e-08           
  -1.35                 -6.218e-08            -1.7414e-10           1.39e-11              6.2352e-08           
END_DB

BEGIN_DB
 ICCAP_VAR vb         0.8            
 ICCAP_VAR vd         -0.05          
 ICCAP_VAR vs         -0             

 #vg                    id                    ig                    ib                    is                   
  0.5                   -2e-14                4.4e-13               1.28e-11              -4e-14               
  0.45                  0                     4e-14                 1.276e-11             -4e-14               
  0.4                   -1.4e-13              1e-13                 1.286e-11             0                    
  0.35                  -1e-13                -1.8e-13              1.278e-11             0                    
  0.3                   -4e-14                -1.4e-13              1.28e-11              1e-13                
