! VERSION = 6.00
BEGIN_HEADER
 ICCAP_INPUTS
  vd         V  D GROUND SMU1 0.1 LIN        1    -0         -1.35      28   -0.05     
  vg         V  G GROUND SMU2 0.001 LIST       2 3 -0.321 -0.521 -0.721
  vb         V  B GROUND SMU4 0.1 CON        1.2
  vs         V  S GROUND SMU3 0.1 CON        -0
 ICCAP_OUTPUTS
  id         I  D GROUND SMU1 B
  ig         I  G GROUND SMU2 B
  ib         I  B GROUND SMU4 B
  is         I  S GROUND SMU3 B
 ICCAP_VALUES
  MASTER_SETUP_TYPE "~dc_idvd~"
  LINVT_VALUE ""
  LISTVT_VALUE "|idvg|100.0n|-200.0m|1.000m|3|200.0m|200.0m|"
  TYPE "-1"
  TEMP " 27.0000 "
  IS_TNOM " 1.00000 "
  MAIN.W "2.000u"
  MAIN.L "2.000u"
  MAIN.AD "680.0f"
  MAIN.AS "680.0f"
  MAIN.PD "4.680u"
  MAIN.PS "4.680u"
  MAIN.NF "1.000"
  MAIN.M "1"
  MAIN.NRD "0.000"
  MAIN.NRS "0.000"
  MAIN.LDRIFT1 "1E-06"
  MAIN.LDRIFT2 "1E-06"
  MAIN.SA "0.000"
  MAIN.SB "0.000"
  MAIN.SD "0.000"
  MAIN.SCA "0.000"
  MAIN.SCB "0.000"
  MAIN.SCC "0.000"
  MAIN.SC "0.000"
  MODULE "S550"
  PIN_D "12"
  PIN_G "9"
  PIN_S "10"
  PIN_B "11"
  PIN_E ""
  PIN_6 ""
  XY_ID ""
  FUNC "LW Scale"
  STI "SA ref"
  WPE "WPE ref"
  COMMENT ""
  DIS_MEAS ""
  TypeTCI "10"
END_HEADER

BEGIN_DB
 ICCAP_VAR vg         -0.321         
 ICCAP_VAR vb         1.2            
 ICCAP_VAR vs         -0             

 #vd                    id                    ig                    ib                    is                   
  -0                    7.6e-13               -2.6e-13              1e-13                 -6.6e-13             
  -0.05                 -2.1206e-10           -1e-13                1.8e-13               2.122e-10            
  -0.1                  -2.4554e-10           -1.2e-13              4e-14                 2.4574e-10           
  -0.15                 -2.5234e-10           2e-14                 4e-14                 2.5218e-10           
  -0.2                  -2.5476e-10           -2e-14                8e-14                 2.5464e-10           
  -0.25                 -2.5648e-10           -1.6e-13              1.4e-13               2.5634e-10           
  -0.3                  -2.5788e-10           -1e-13                0                     2.5794e-10           
  -0.35                 -2.5922e-10           -1e-13                1.2e-13               2.5914e-10           
  -0.4                  -2.6042e-10           -1.2e-13              2e-14                 2.6034e-10           
  -0.45                 -2.6142e-10           -1.4e-13              1.6e-13               2.6142e-10           
  -0.5                  -2.6248e-10           -8e-14                -8e-14                2.623e-10            
  -0.55                 -2.6344e-10           -1.6e-13              1.6e-13               2.6316e-10           
  -0.6                  -2.6422e-10           -2e-14                0                     2.6388e-10           
  -0.65                 -2.6506e-10           -4e-14                0                     2.6476e-10           
  -0.7                  -2.6572e-10           -1e-13                -4e-14                2.6576e-10           
  -0.75                 -2.6648e-10           -8e-14                -6e-14                2.6612e-10           
  -0.8                  -2.672e-10            4e-14                 2e-14                 2.6672e-10           
  -0.85                 -2.6774e-10           1.2e-13               0                     2.6738e-10           
  -0.9                  -2.6846e-10           2.2e-13               -2e-14                2.6774e-10           
  -0.95                 -2.6902e-10           2.4e-13               -8e-14                2.6832e-10           
  -1                    -2.6964e-10           3.2e-13               -2e-14                2.6862e-10           
  -1.05                 -2.701e-10            5.6e-13               0                     2.6918e-10           
  -1.1                  -2.7072e-10           5.6e-13               -4e-14                2.6962e-10           
  -1.15                 -2.7118e-10           6e-13                 2e-14                 2.7e-10              
  -1.2                  -2.7158e-10           7.6e-13               4e-14                 2.7054e-10           
  -1.25                 -2.7212e-10           9e-13                 0                     2.7074e-10           
  -1.3                  -2.7254e-10           1.08e-12              -4e-14                2.7094e-10           
  -1.35                 -2.7332e-10           1.12e-12              1e-13                 2.7136e-10           
END_DB

BEGIN_DB
 ICCAP_VAR vg         -0.521         
 ICCAP_VAR vb         1.2            
 ICCAP_VAR vs         -0             

 #vd                    id                    ig                    ib                    is                   
  -0                    2.3246e-10            -4.58e-12             -4e-14                -2.2634e-10          
  -0.05                 -8.027e-08            -3.54e-12             -4e-14                8.0304e-08           
  -0.1                  -1.0226e-07           -2.94e-12             -4e-14                1.0231e-07           
  -0.15                 -1.0744e-07           -3e-12                -2e-14                1.07474e-07          
  -0.2                  -1.091e-07            -2.78e-12             4e-14                 1.09218e-07          
  -0.25                 -1.1016e-07           -2.82e-12             2e-14                 1.10286e-07          
  -0.3                  -1.1098e-07           -2.8e-12              0                     1.11054e-07          
  -0.35                 -1.1164e-07           -2.78e-12             -2e-14                1.11718e-07          
  -0.4                  -1.1228e-07           -2.64e-12             -8e-14                1.12402e-07          
  -0.45                 -1.1282e-07           -2.84e-12             1.2e-13               1.12972e-07          
  -0.5                  -1.134e-07            -2.78e-12             0                     1.13492e-07          
  -0.55                 -1.1384e-07           -2.74e-12             1e-13                 1.13904e-07          
  -0.6                  -1.1426e-07           -2.84e-12             2e-14                 1.14344e-07          
  -0.65                 -1.1464e-07           -2.76e-12             6e-14                 1.14746e-07          
  -0.7                  -1.15e-07             -2.56e-12             6e-14                 1.152e-07            
  -0.75                 -1.153e-07            -2.72e-12             -2e-14                1.1548e-07           
  -0.8                  -1.156e-07            -2.6e-12              -6e-14                1.1578e-07           
  -0.85                 -1.1594e-07           -2.48e-12             8e-14                 1.161e-07            
  -0.9                  -1.1618e-07           -2.42e-12             -1.2e-13              1.1632e-07           
  -0.95                 -1.1642e-07           -2.44e-12             -6e-14                1.166e-07            
  -1                    -1.1666e-07           -2.4e-12              2e-14                 1.1682e-07           
  -1.05                 -1.1686e-07           -2.3e-12              4e-14                 1.1704e-07           
  -1.1                  -1.1706e-07           -2.44e-12             6e-14                 1.1726e-07           
  -1.15                 -1.1728e-07           -2.38e-12             4e-14                 1.1746e-07           
  -1.2                  -1.1742e-07           -2.12e-12             2e-14                 1.1762e-07           
  -1.25                 -1.176e-07            -2.16e-12             8e-14                 1.1778e-07           
  -1.3                  -1.1776e-07           -1.98e-12             8e-14                 1.1794e-07           
  -1.35                 -1.179e-07            -1.94e-12             1e-13                 1.1808e-07           
END_DB

BEGIN_DB
 ICCAP_VAR vg         -0.721         
 ICCAP_VAR vb         1.2            
 ICCAP_VAR vs         -0             

 #vd                    id                    ig                    ib                    is                   
  -0                    1.374e-09             -3.152e-11            0                     -1.2414e-09          
  -0.05                 -7.2372e-07           -2.634e-11            -6e-14                7.2404e-07           
  -0.1                  -1.2206e-06           -2.256e-11            -8e-14                1.2244e-06           
  -0.15                 -1.515e-06            -2.044e-11            4e-14                 1.5186e-06           
  -0.2                  -1.6544e-06           -1.926e-11            -2e-14                1.658e-06            
  -0.25                 -1.7098e-06           -1.878e-11            -8e-14                1.7136e-06           
  -0.3                  -1.7342e-06           -1.848e-11            4e-14                 1.738e-06            
  -0.35                 -1.7486e-06           -1.836e-11            -1.2e-13              1.7526e-06           
  -0.4                  -1.76e-06             -1.824e-11            -6e-14                1.7638e-06           
  -0.45                 -1.7694e-06           -1.808e-11            4e-14                 1.7732e-06           
  -0.5                  -1.7774e-06           -1.798e-11            -1e-13                1.7812e-06           
  -0.55                 -1.7848e-06           -1.81e-11             -2e-14                1.7882e-06           
  -0.6                  -1.7918e-06           -1.792e-11            4e-14                 1.7952e-06           
  -0.65                 -1.7974e-06           -1.774e-11            -6e-14                1.8012e-06           
  -0.7                  -1.8038e-06           -1.79e-11             -1e-13                1.807e-06            
  -0.75                 -1.8086e-06           -1.768e-11            4e-14                 1.8116e-06           
  -0.8                  -1.8132e-06           -1.742e-11            2e-14                 1.8168e-06           
  -0.85                 -1.8178e-06           -1.75e-11             -2e-14                1.8214e-06           
  -0.9                  -1.8222e-06           -1.754e-11            -2e-14                1.826e-06            
  -0.95                 -1.8264e-06           -1.748e-11            -1e-13                1.8304e-06           
  -1                    -1.8304e-06           -1.742e-11            8e-14                 1.8338e-06           
  -1.05                 -1.834e-06            -1.742e-11            -2e-14                1.8374e-06           
  -1.1                  -1.8372e-06           -1.736e-11            -1e-13                1.8408e-06           
  -1.15                 -1.8402e-06           -1.74e-11             0                     1.8436e-06           
  -1.2                  -1.8434e-06           -1.734e-11            8e-14                 1.8468e-06           
  -1.25                 -1.8464e-06           -1.724e-11            -4e-14                1.8502e-06           
  -1.3                  -1.849e-06            -1.724e-11            2e-14                 1.8526e-06           
  -1.35                 -1.8518e-06           -1.71e-11             1.4e-13               1.8552e-06           
END_DB

