! VERSION = 6.00
BEGIN_HEADER
 ICCAP_INPUTS
  vg         V  G GROUND SMU2 0.001 LIN        1    0.5        -1.35      38   -0.05     
  vb         V  B GROUND SMU4 0.1 LIN        2    0          1.2        7    0.2       
  vd         V  D GROUND SMU1 0.1 LIST       3 3 -0.05 -0.6 -1.2
  vs         V  S GROUND SMU3 0.1 CON        -0
 ICCAP_OUTPUTS
  id         I  D GROUND SMU1 B
  ig         I  G GROUND SMU2 B
  ib         I  B GROUND SMU4 B
  is         I  S GROUND SMU3 B
 ICCAP_VALUES
  MASTER_SETUP_TYPE "~dc_idvg~"
  LINVT_VALUE ""
  LISTVT_VALUE ""
  TYPE "-1"
  TEMP "-40.0000 "
  IS_TNOM " 0.00000 "
  MAIN.W "150.0n"
  MAIN.L "180.0n"
  MAIN.AD "100.5f"
  MAIN.AS "100.5f"
  MAIN.PD "1.340u"
  MAIN.PS "1.340u"
  MAIN.NF "1.000"
  MAIN.M "1"
  MAIN.NRD "0.000"
  MAIN.NRS "0.000"
  MAIN.LDRIFT1 "1E-06"
  MAIN.LDRIFT2 "1E-06"
  MAIN.SA "0.000"
  MAIN.SB "0.000"
  MAIN.SD "0.000"
  MAIN.SCA "0.000"
  MAIN.SCB "0.000"
  MAIN.SCC "0.000"
  MAIN.SC "0.000"
  MODULE "S555"
  PIN_D "20"
  PIN_G "1"
  PIN_S "2"
  PIN_B "19"
  PIN_E ""
  PIN_6 ""
  XY_ID ""
  FUNC "LW Scale"
  STI "SA ref"
  WPE "WPE ref"
  COMMENT ""
  DIS_MEAS ""
  TypeTCI "10"
END_HEADER

BEGIN_DB
 ICCAP_VAR vb         0              
 ICCAP_VAR vd         -0.05          
 ICCAP_VAR vs         -0             

 #vg                    id                    ig                    ib                    is                   
  0.5                   0                     7.4e-13               -2.2e-13              -6e-14               
  0.45                  -1e-13                2e-14                 -2e-13                0                    
  0.4                   -1.8e-13              -1.2e-13              -2e-13                -2e-14               
  0.35                  -1.4e-13              -1.8e-13              -1.6e-13              -6e-14               
  0.3                   -1e-13                -8e-14                -2.2e-13              -2e-14               
  0.25                  -1.4e-13              -1.4e-13              -2.4e-13              2e-14                
  0.2                   -6e-14                -2.8e-13              -2e-13                4e-14                
  0.15                  0                     -2.6e-13              -2.4e-13              -1.6e-13             
  0.1                   -2e-14                -4e-13                -6e-14                2e-14                
  0.05                  -8e-14                -3.2e-13              -1.6e-13              0                    
  0                     -2e-14                -3.2e-13              -2.4e-13              1.4e-13              
  -0.05                 -1.8e-13              -3.8e-13              -1e-13                6e-14                
  -0.1                  -7.8e-13              -4.4e-13              -3e-13                8.2e-13              
  -0.15                 -5.58e-12             -5e-13                -1.4e-13              5.48e-12             
  -0.2                  -4.004e-11            -4e-13                -2e-13                4.004e-11            
  -0.25                 -2.8342e-10           -4.8e-13              -1.2e-13              2.8284e-10           
  -0.3                  -1.8988e-09           -3.4e-13              -1.4e-13              1.8986e-09           
  -0.35                 -1.10048e-08          -3.8e-13              -2e-13                1.10096e-08          
  -0.4                  -4.8386e-08           -4.6e-13              -2.2e-13              4.843e-08            
  -0.45                 -1.506e-07            -4.2e-13              -1.4e-13              1.5078e-07           
  -0.5                  -3.4628e-07           -4e-13                -2.8e-13              3.466e-07            
  -0.55                 -6.302e-07            -6e-13                -1.6e-13              6.3032e-07           
  -0.6                  -9.7752e-07           -6.6e-13              -2.8e-13              9.7812e-07           
  -0.65                 -1.3628e-06           -6.6e-13              -2.8e-13              1.3668e-06           
  -0.7                  -1.7612e-06           -8.6e-13              -2.6e-13              1.7646e-06           
  -0.75                 -2.1406e-06           -1.06e-12             -1.8e-13              2.1398e-06           
  -0.8                  -2.5086e-06           -1.2e-12              -1.6e-13              2.5138e-06           
  -0.85                 -2.8698e-06           -1.7e-12              -2.4e-13              2.902e-06            
  -0.9                  -3.2498e-06           -1.7e-12              -2e-13                3.2298e-06           
  -0.95                 -3.5394e-06           -2.26e-12             -3.2e-13              3.5492e-06           
  -1                    -3.8552e-06           -2.64e-12             -1.8e-13              3.8632e-06           
  -1.05                 -4.1472e-06           -3.2e-12              -2.8e-13              4.1418e-06           
  -1.1                  -4.4238e-06           -3.78e-12             -2.4e-13              4.4344e-06           
  -1.15                 -4.6758e-06           -4.52e-12             -1.6e-13              4.6786e-06           
  -1.2                  -4.918e-06            -5.48e-12             -1.8e-13              4.9256e-06           
  -1.25                 -5.1572e-06           -6.14e-12             -2.6e-13              5.1512e-06           
  -1.3                  -5.3776e-06           -7.54e-12             -1.6e-13              5.3652e-06           
  -1.35                 -5.5454e-06           -8.96e-12             -2.4e-13              5.5322e-06           
END_DB

BEGIN_DB
 ICCAP_VAR vb         0.2            
 ICCAP_VAR vd         -0.05          
 ICCAP_VAR vs         -0             

 #vg                    id                    ig                    ib                    is                   
  0.5                   1.2e-13               3.2e-13               -2e-14                -2e-14               
  0.45                  0                     1e-13                 -1.2e-13              1.6e-13              
  0.4                   -1.2e-13              -1e-13                -1.6e-13              1.6e-13              
  0.35                  -6e-14                -6e-14                -4e-14                -2e-14               
  0.3                   -6e-14                -1.2e-13              -1.4e-13              -4e-14               
  0.25                  -4e-14                -1e-13                -4e-14                -2e-14               
  0.2                   1e-13                 -3.2e-13              -2.2e-13              1.4e-13              
  0.15                  -1.2e-13              -2e-13                -4e-14                -1e-13               
  0.1                   4e-14                 -2.2e-13              0                     0                    
  0.05                  -6e-14                -3.6e-13              -1e-13                0                    
  0                     -6e-14                -3.4e-13              2e-14                 2e-14                
  -0.05                 8e-14                 -3e-13                -8e-14                1.4e-13              
  -0.1                  -2.4e-13              -3e-13                -2e-14                1.2e-13              
  -0.15                 -1.38e-12             -4.8e-13              -1.4e-13              1.4e-12              
  -0.2                  -1.064e-11            -4.4e-13              -6e-14                1.06e-11             
  -0.25                 -7.922e-11            -5.6e-13              -1.2e-13              7.932e-11            
  -0.3                  -5.744e-10            -4.8e-13              -2e-14                5.7378e-10           
  -0.35                 -3.8136e-09           -4.2e-13              -4e-14                3.8114e-09           
  -0.4                  -2.0638e-08           -2.2e-13              -4e-14                2.0736e-08           
  -0.45                 -8.0004e-08           -3.4e-13              -1.4e-13              8.0008e-08           
  -0.5                  -2.1864e-07           -3.6e-13              2e-14                 2.1882e-07           
  -0.55                 -4.4972e-07           -5.4e-13              -1.8e-13              4.4996e-07           
  -0.6                  -7.5746e-07           -6.2e-13              -1.4e-13              7.5796e-07           
  -0.65                 -1.11414e-06          -7.6e-13              -8e-14                1.1146e-06           
  -0.7                  -1.4952e-06           -8e-13                -6e-14                1.4992e-06           
  -0.75                 -1.8838e-06           -9.4e-13              -2.2e-13              1.8834e-06           
  -0.8                  -2.2628e-06           -1.04e-12             -6e-14                2.2678e-06           
  -0.85                 -2.6258e-06           -1.68e-12             -1e-13                2.6282e-06           
  -0.9                  -2.9572e-06           -1.92e-12             -1.2e-13              2.9542e-06           
  -0.95                 -3.2756e-06           -2.18e-12             -1.4e-13              3.2638e-06           
  -1                    -3.587e-06            -2.54e-12             -1e-13                3.6014e-06           
  -1.05                 -3.8788e-06           -3.1e-12              -4e-14                3.8838e-06           
  -1.1                  -4.1552e-06           -3.84e-12             -1e-13                4.1608e-06           
  -1.15                 -4.423e-06            -4.56e-12             -8e-14                4.4274e-06           
  -1.2                  -4.676e-06            -5.16e-12             -1.8e-13              4.6748e-06           
  -1.25                 -4.904e-06            -6.3e-12              -1e-13                4.9094e-06           
  -1.3                  -5.1198e-06           -7.36e-12             -1.8e-13              5.1182e-06           
  -1.35                 -5.3236e-06           -8.9e-12              -4e-14                5.3278e-06           
END_DB

BEGIN_DB
 ICCAP_VAR vb         0.4            
 ICCAP_VAR vd         -0.05          
 ICCAP_VAR vs         -0             

 #vg                    id                    ig                    ib                    is                   
  0.5                   1.4e-13               3.2e-13               -4e-14                6e-14                
  0.45                  0                     0                     -2e-14                0                    
  0.4                   -4e-14                -2e-14                0                     8e-14                
  0.35                  0                     -2e-14                -6e-14                -1e-13               
  0.3                   4e-14                 -8e-14                4e-14                 -4e-14               
  0.25                  -1e-13                -1.2e-13              6e-14                 1e-13                
  0.2                   4e-14                 -3.2e-13              -1.2e-13              4e-14                
  0.15                  0                     -2e-13                0                     2.4e-13              
  0.1                   4e-14                 -2.4e-13              -8e-14                6e-14                
  0.05                  4e-14                 -2.8e-13              2e-14                 6e-14                
  0                     0                     -3e-13                -8e-14                0                    
  -0.05                 0                     -4.8e-13              -8e-14                6e-14                
  -0.1                  -1.4e-13              -4.6e-13              -6e-14                1.4e-13              
  -0.15                 -4.2e-13              -4.4e-13              -1.8e-13              4.8e-13              
  -0.2                  -3.08e-12             -3.4e-13              -1.2e-13              3.26e-12             
  -0.25                 -2.432e-11            -4.4e-13              -6e-14                2.43e-11             
  -0.3                  -1.8488e-10           -5e-13                -2e-13                1.8502e-10           
  -0.35                 -1.3356e-09           -2.8e-13              -8e-14                1.3366e-09           
  -0.4                  -8.4738e-09           -4.6e-13              -1e-13                8.4688e-09           
  -0.45                 -4.0112e-08           -5.6e-13              -1e-13                4.0146e-08           
  -0.5                  -1.3144e-07           -4.6e-13              6e-14                 1.3152e-07           
  -0.55                 -3.0948e-07           -6.8e-13              -1.6e-13              3.0982e-07           
  -0.6                  -5.718e-07            -6.4e-13              -1.4e-13              5.7202e-07           
  -0.65                 -8.9434e-07           -7.8e-13              -1.4e-13              8.9452e-07           
  -0.7                  -1.2524e-06           -7.8e-13              -1.4e-13              1.2556e-06           
  -0.75                 -1.6288e-06           -1.1e-12              -2.4e-13              1.6328e-06           
  -0.8                  -2.0062e-06           -1.2e-12              -4e-14                2.008e-06            
  -0.85                 -2.3802e-06           -1.56e-12             -2.2e-13              2.3742e-06           
  -0.9                  -2.7102e-06           -1.8e-12              -1e-13                2.7224e-06           
  -0.95                 -3.0514e-06           -2.16e-12             -6e-14                3.041e-06            
  -1                    -3.3514e-06           -2.68e-12             -1.4e-13              3.3646e-06           
  -1.05                 -3.6664e-06           -3.12e-12             -2e-14                3.6544e-06           
  -1.1                  -3.9378e-06           -3.7e-12              -1.8e-13              3.9546e-06           
  -1.15                 -4.211e-06            -4.52e-12             -8e-14                4.2326e-06           
  -1.2                  -4.4536e-06           -5.14e-12             -4e-14                4.4574e-06           
  -1.25                 -4.6764e-06           -6.24e-12             -6e-14                4.6912e-06           
  -1.3                  -4.9014e-06           -7.52e-12             -2.2e-13              4.9026e-06           
  -1.35                 -5.102e-06            -8.74e-12             -1.6e-13              5.108e-06            
END_DB

BEGIN_DB
 ICCAP_VAR vb         0.6            
 ICCAP_VAR vd         -0.05          
 ICCAP_VAR vs         -0             

 #vg                    id                    ig                    ib                    is                   
  0.5                   8e-14                 1.8e-13               -8e-14                8e-14                
  0.45                  2e-14                 8e-14                 0                     2e-14                
  0.4                   -1e-13                2e-14                 -1.6e-13              1.4e-13              
  0.35                  8e-14                 -1.8e-13              4e-14                 2e-14                
  0.3                   -2e-14                -4e-14                0                     8e-14                
  0.25                  8e-14                 -2e-14                -1.6e-13              4e-14                
  0.2                   0                     -2.2e-13              -6e-14                6e-14                
  0.15                  0                     -2.4e-13              -6e-14                -6e-14               
  0.1                   0                     -2.4e-13              6e-14                 -1.4e-13             
  0.05                  -4e-14                -3.8e-13              6e-14                 0                    
  0                     0                     -3.4e-13              -8e-14                1e-13                
  -0.05                 -6e-14                -5e-13                -4e-14                0                    
  -0.1                  -2e-14                -4.8e-13              -4e-14                2e-14                
  -0.15                 -4e-14                -5.8e-13              4e-14                 1.4e-13              
  -0.2                  -1.12e-12             -4e-13                -8e-14                1.2e-12              
  -0.25                 -8.26e-12             -3.6e-13              -8e-14                8.42e-12             
  -0.3                  -6.552e-11            -3.2e-13              -6e-14                6.556e-11            
  -0.35                 -5.0178e-10           -3.2e-13              -1.4e-13              5.011e-10            
  -0.4                  -3.5304e-09           -4.4e-13              2e-14                 3.5338e-09           
  -0.45                 -1.992e-08            -3e-13                -4e-14                1.9936e-08           
  -0.5                  -7.8518e-08           -6e-13                -2e-14                7.8554e-08           
  -0.55                 -2.1368e-07           -6.8e-13              2e-14                 2.1386e-07           
  -0.6                  -4.3614e-07           -7.4e-13              -6e-14                4.3606e-07           
  -0.65                 -7.2574e-07           -7.2e-13              -4e-14                7.2802e-07           
  -0.7                  -1.06516e-06          -8.2e-13              0                     1.06594e-06          
  -0.75                 -1.427e-06            -8.8e-13              -1e-13                1.43e-06             
  -0.8                  -1.799e-06            -1.04e-12             -8e-14                1.7992e-06           
  -0.85                 -2.172e-06            -1.54e-12             -1e-13                2.1682e-06           
  -0.9                  -2.5052e-06           -1.72e-12             -2e-14                2.504e-06            
  -0.95                 -2.8354e-06           -2.1e-12              -1.4e-13              2.8456e-06           
  -1                    -3.1662e-06           -2.5e-12              -1.2e-13              3.1604e-06           
  -1.05                 -3.4502e-06           -3.02e-12             -1.2e-13              3.4514e-06           
  -1.1                  -3.746e-06            -3.66e-12             -1.4e-13              3.7468e-06           
  -1.15                 -4.011e-06            -4.38e-12             -1e-13                4.0158e-06           
  -1.2                  -4.2824e-06           -5.26e-12             -1.2e-13              4.2704e-06           
  -1.25                 -4.5058e-06           -6.02e-12             -1e-13                4.5222e-06           
  -1.3                  -4.7182e-06           -7.38e-12             -8e-14                4.7192e-06           
  -1.35                 -4.93e-06             -8.58e-12             -1e-13                4.9336e-06           
END_DB

BEGIN_DB
 ICCAP_VAR vb         0.8            
 ICCAP_VAR vd         -0.05          
 ICCAP_VAR vs         -0             

 #vg                    id                    ig                    ib                    is                   
  0.5                   2e-14                 1.6e-13               6e-14                 1e-13                
  0.45                  2e-14                 6e-14                 -1e-13                0                    
  0.4                   0                     0                     -2e-14                4e-14                
  0.35                  2e-14                 0                     -1.4e-13              -4e-14               
  0.3                   -2e-14                -8e-14                -2e-14                1.4e-13              
