! VERSION = 6.00
BEGIN_HEADER
 ICCAP_INPUTS
  vd         V  D GROUND SMU1 0.1 LIN        1    -0         -1.35      28   -0.05     
  vg         V  G GROUND SMU2 0.001 LIST       2 3 -0.086 -0.286 -0.486
  vb         V  B GROUND SMU4 0.1 CON        -0
  vs         V  S GROUND SMU3 0.1 CON        -0
 ICCAP_OUTPUTS
  id         I  D GROUND SMU1 B
  ig         I  G GROUND SMU2 B
  ib         I  B GROUND SMU4 B
  is         I  S GROUND SMU3 B
 ICCAP_VALUES
  MASTER_SETUP_TYPE "~dc_idvd~"
  LINVT_VALUE ""
  LISTVT_VALUE "|idvg|100.0n|-200.0m|1.000m|3|200.0m|200.0m|"
  TYPE "-1"
  TEMP " 70.0000 "
  IS_TNOM " 0.00000 "
  MAIN.W "300.0n"
  MAIN.L "10.00u"
  MAIN.AD "102.0f"
  MAIN.AS "102.0f"
  MAIN.PD "1.280u"
  MAIN.PS "1.280u"
  MAIN.NF "1.000"
  MAIN.M "1"
  MAIN.NRD "0.000"
  MAIN.NRS "0.000"
  MAIN.LDRIFT1 "1E-06"
  MAIN.LDRIFT2 "1E-06"
  MAIN.SA "0.000"
  MAIN.SB "0.000"
  MAIN.SD "0.000"
  MAIN.SCA "0.000"
  MAIN.SCB "0.000"
  MAIN.SCC "0.000"
  MAIN.SC "0.000"
  MODULE "S553"
  PIN_D "18"
  PIN_G "3"
  PIN_S "4"
  PIN_B "17"
  PIN_E ""
  PIN_6 ""
  XY_ID ""
  FUNC "W Scale"
  STI "SA ref"
  WPE "WPE ref"
  COMMENT ""
  DIS_MEAS ""
  TypeTCI "10"
END_HEADER

BEGIN_DB
 ICCAP_VAR vg         -0.086         
 ICCAP_VAR vb         -0             
 ICCAP_VAR vs         -0             

 #vd                    id                    ig                    ib                    is                   
  -0                    1.4e-13               2.6e-13               -6.64e-12             0                    
  -0.05                 -1.476e-11            1.8e-13               -6.42e-12             1.466e-11            
  -0.1                  -1.766e-11            2.8e-13               -6e-12                1.738e-11            
  -0.15                 -1.836e-11            2.2e-13               -5.56e-12             1.8e-11              
  -0.2                  -1.848e-11            1e-13                 -5.18e-12             1.812e-11            
  -0.25                 -1.87e-11             1.4e-13               -4.66e-12             1.8e-11              
  -0.3                  -1.862e-11            1.8e-13               -4.28e-12             1.808e-11            
  -0.35                 -1.87e-11             1.4e-13               -3.9e-12              1.828e-11            
  -0.4                  -1.878e-11            1.2e-13               -3.54e-12             1.822e-11            
  -0.45                 -1.88e-11             1.4e-13               -3.22e-12             1.822e-11            
  -0.5                  -1.882e-11            4e-14                 -2.74e-12             1.83e-11             
  -0.55                 -1.892e-11            1.4e-13               -2.52e-12             1.836e-11            
  -0.6                  -1.892e-11            1.6e-13               -2.2e-12              1.83e-11             
  -0.65                 -1.894e-11            1.4e-13               -2e-12                1.834e-11            
  -0.7                  -1.904e-11            1.8e-13               -1.68e-12             1.84e-11             
  -0.75                 -1.91e-11             1.4e-13               -1.44e-12             1.848e-11            
  -0.8                  -1.91e-11             1.8e-13               -1.14e-12             1.83e-11             
  -0.85                 -1.926e-11            2.4e-13               -7.8e-13              1.836e-11            
  -0.9                  -1.928e-11            2.6e-13               -7e-13                1.842e-11            
  -0.95                 -1.938e-11            2.2e-13               -3.6e-13              1.848e-11            
  -1                    -1.932e-11            2.2e-13               -8e-14                1.83e-11             
  -1.05                 -1.934e-11            3.2e-13               6e-14                 1.842e-11            
  -1.1                  -1.936e-11            2.4e-13               2.8e-13               1.84e-11             
  -1.15                 -1.942e-11            2.6e-13               5.8e-13               1.836e-11            
  -1.2                  -1.956e-11            3.2e-13               6e-13                 1.848e-11            
  -1.25                 -1.968e-11            3.8e-13               8.4e-13               1.844e-11            
  -1.3                  -1.95e-11             3.2e-13               9.8e-13               1.852e-11            
  -1.35                 -1.984e-11            4.8e-13               1.2e-12               1.848e-11            
END_DB

BEGIN_DB
 ICCAP_VAR vg         -0.286         
 ICCAP_VAR vb         -0             
 ICCAP_VAR vs         -0             

 #vd                    id                    ig                    ib                    is                   
  -0                    6.06e-12              -6.4e-13              -4.04e-12             -5.5e-12             
  -0.05                 -2.4798e-09           -2.8e-13              -3.7e-12              2.4802e-09           
  -0.1                  -3.1384e-09           -2.6e-13              -3.42e-12             3.138e-09            
  -0.15                 -3.2848e-09           -2.4e-13              -3.2e-12              3.2854e-09           
  -0.2                  -3.3216e-09           -2.8e-13              -2.78e-12             3.3204e-09           
  -0.25                 -3.3344e-09           -3e-13                -2.56e-12             3.3352e-09           
  -0.3                  -3.3458e-09           -2.6e-13              -2.34e-12             3.3452e-09           
  -0.35                 -3.3514e-09           -2.8e-13              -1.92e-12             3.3504e-09           
  -0.4                  -3.358e-09            -2.6e-13              -1.76e-12             3.3578e-09           
  -0.45                 -3.3634e-09           -3.4e-13              -1.44e-12             3.3624e-09           
  -0.5                  -3.368e-09            -3.8e-13              -1.1e-12              3.367e-09            
  -0.55                 -3.373e-09            -2.6e-13              -1.06e-12             3.3712e-09           
  -0.6                  -3.3756e-09           -3.6e-13              -6.2e-13              3.3756e-09           
  -0.65                 -3.3804e-09           -3e-13                -4e-13                3.3808e-09           
  -0.7                  -3.3852e-09           -2.2e-13              -2.2e-13              3.3854e-09           
  -0.75                 -3.3898e-09           -2e-13                0                     3.388e-09            
  -0.8                  -3.3918e-09           -2.2e-13              2.6e-13               3.3918e-09           
  -0.85                 -3.3952e-09           -2.4e-13              3.4e-13               3.3938e-09           
  -0.9                  -3.3966e-09           -1.6e-13              6e-13                 3.3954e-09           
  -0.95                 -3.4002e-09           -6e-14                7.4e-13               3.399e-09            
  -1                    -3.4024e-09           -2.2e-13              9.6e-13               3.4018e-09           
  -1.05                 -3.405e-09            -1e-13                1.2e-12               3.404e-09            
  -1.1                  -3.4078e-09           -2.4e-13              1.2e-12               3.4076e-09           
  -1.15                 -3.4104e-09           -1.8e-13              1.52e-12              3.41e-09             
  -1.2                  -3.4118e-09           -1.6e-13              1.74e-12              3.4098e-09           
  -1.25                 -3.4134e-09           -1.8e-13              1.7e-12               3.412e-09            
  -1.3                  -3.416e-09            -6e-14                1.96e-12              3.4146e-09           
  -1.35                 -3.4164e-09           -1e-13                2.06e-12              3.416e-09            
END_DB

BEGIN_DB
 ICCAP_VAR vg         -0.486         
 ICCAP_VAR vb         -0             
 ICCAP_VAR vs         -0             

 #vd                    id                    ig                    ib                    is                   
  -0                    4.088e-11             -6.18e-12             -3e-12                -3.416e-11           
  -0.05                 -2.4306e-08           -4.86e-12             -2.84e-12             2.432e-08            
  -0.1                  -4.0142e-08           -4.08e-12             -2.7e-12              4.0164e-08           
  -0.15                 -4.872e-08            -3.76e-12             -2.36e-12             4.874e-08            
  -0.2                  -5.223e-08            -3.44e-12             -2.14e-12             5.2258e-08           
  -0.25                 -5.3372e-08           -3.46e-12             -1.82e-12             5.3402e-08           
  -0.3                  -5.3778e-08           -3.4e-12              -1.5e-12              5.3796e-08           
  -0.35                 -5.398e-08            -3.38e-12             -1.26e-12             5.3998e-08           
  -0.4                  -5.4106e-08           -3.4e-12              -1.04e-12             5.4106e-08           
  -0.45                 -5.4202e-08           -3.36e-12             -9.6e-13              5.421e-08            
  -0.5                  -5.4292e-08           -3.38e-12             -7.4e-13              5.4308e-08           
  -0.55                 -5.439e-08            -3.38e-12             -3.2e-13              5.439e-08            
  -0.6                  -5.444e-08            -3.38e-12             -1e-13                5.4478e-08           
  -0.65                 -5.4516e-08           -3.26e-12             1.8e-13               5.4542e-08           
  -0.7                  -5.4584e-08           -3.26e-12             3.6e-13               5.46e-08             
  -0.75                 -5.463e-08            -3.24e-12             5.8e-13               5.4644e-08           
  -0.8                  -5.4682e-08           -3.3e-12              6.4e-13               5.4712e-08           
  -0.85                 -5.4722e-08           -3.4e-12              8.8e-13               5.4744e-08           
  -0.9                  -5.4782e-08           -3.34e-12             9.2e-13               5.4808e-08           
  -0.95                 -5.482e-08            -3.26e-12             1.1e-12               5.485e-08            
  -1                    -5.4882e-08           -3.4e-12              1.34e-12              5.4896e-08           
  -1.05                 -5.4908e-08           -3.28e-12             1.48e-12              5.4938e-08           
  -1.1                  -5.4934e-08           -3.2e-12              1.88e-12              5.4944e-08           
  -1.15                 -5.4972e-08           -3.18e-12             1.92e-12              5.4996e-08           
  -1.2                  -5.5016e-08           -3.22e-12             2.24e-12              5.5042e-08           
  -1.25                 -5.506e-08            -3.2e-12              2.18e-12              5.508e-08            
  -1.3                  -5.5078e-08           -3.22e-12             2.36e-12              5.51e-08             
  -1.35                 -5.512e-08            -3.06e-12             2.6e-12               5.5126e-08           
END_DB

