! VERSION = 6.00
BEGIN_HEADER
 ICCAP_INPUTS
  vg         V  G GROUND SMU2 0.001 LIN        1    0.5        -1.35      38   -0.05     
  vb         V  B GROUND SMU4 0.1 LIN        2    0          1.2        7    0.2       
  vd         V  D GROUND SMU1 0.1 LIST       3 3 -0.05 -0.6 -1.2
  vs         V  S GROUND SMU3 0.1 CON        -0
 ICCAP_OUTPUTS
  id         I  D GROUND SMU1 B
  ig         I  G GROUND SMU2 B
  ib         I  B GROUND SMU4 B
  is         I  S GROUND SMU3 B
 ICCAP_VALUES
  MASTER_SETUP_TYPE "~dc_idvg~"
  LINVT_VALUE ""
  LISTVT_VALUE ""
  TYPE "-1"
  TEMP " 27.0000 "
  IS_TNOM " 1.00000 "
  MAIN.W "5.000u"
  MAIN.L "5.000u"
  MAIN.AD "1.700p"
  MAIN.AS "1.700p"
  MAIN.PD "10.68u"
  MAIN.PS "10.68u"
  MAIN.NF "1.000"
  MAIN.M "1"
  MAIN.NRD "0.000"
  MAIN.NRS "0.000"
  MAIN.LDRIFT1 "1E-06"
  MAIN.LDRIFT2 "1E-06"
  MAIN.SA "0.000"
  MAIN.SB "0.000"
  MAIN.SD "0.000"
  MAIN.SCA "0.000"
  MAIN.SCB "0.000"
  MAIN.SCC "0.000"
  MAIN.SC "0.000"
  MODULE "S550"
  PIN_D "18"
  PIN_G "3"
  PIN_S "4"
  PIN_B "17"
  PIN_E ""
  PIN_6 ""
  XY_ID ""
  FUNC "LW Scale"
  STI "SA ref"
  WPE "WPE ref"
  COMMENT ""
  DIS_MEAS ""
  TypeTCI "10"
END_HEADER

BEGIN_DB
 ICCAP_VAR vb         0              
 ICCAP_VAR vd         -0.05          
 ICCAP_VAR vs         -0             

 #vg                    id                    ig                    ib                    is                   
  0.5                   -8e-13                2.052e-11             -5.46e-12             -1.34e-12            
  0.45                  -7e-13                4.5e-12               -1.92e-12             -1e-12               
  0.4                   -5e-13                1.86e-12              -1.22e-12             -6.2e-13             
  0.35                  -4.2e-13              8.6e-13               -1.12e-12             -4.8e-13             
  0.3                   -2.2e-13              4.8e-13               -9e-13                -3.6e-13             
  0.25                  -2e-13                2.2e-13               -1.1e-12              -2.4e-13             
  0.2                   -8e-14                1.6e-13               -9e-13                -1e-13               
  0.15                  -1.2e-13              -8e-14                -1.04e-12             0                    
  0.1                   -1.6e-13              -1.4e-13              -1.08e-12             2.8e-13              
  0.05                  -7.4e-13              -1.6e-13              -9e-13                6.6e-13              
  0                     -2.92e-12             -2.6e-13              -1e-12                3.12e-12             
  -0.05                 -1.41e-11             -3.6e-13              -1.06e-12             1.434e-11            
  -0.1                  -6.928e-11            -4.4e-13              -8.8e-13              6.928e-11            
  -0.15                 -3.3986e-10           -5e-13                -9.8e-13              3.4014e-10           
  -0.2                  -1.6574e-09           -6.8e-13              -9.6e-13              1.6582e-09           
  -0.25                 -7.7514e-09           -9.2e-13              -1e-12                7.7508e-09           
  -0.3                  -3.1444e-08           -2.42e-12             -8e-13                3.1466e-08           
  -0.35                 -9.7816e-08           -5.82e-12             -1.08e-12             9.7848e-08           
  -0.4                  -2.258e-07            -1.246e-11            -8.8e-13              2.2598e-07           
  -0.45                 -4.0832e-07           -2.348e-11            -9.4e-13              4.0846e-07           
  -0.5                  -6.249e-07            -4.042e-11            -9e-13                6.2506e-07           
  -0.55                 -8.5686e-07           -6.456e-11            -8.2e-13              8.5704e-07           
  -0.6                  -1.09384e-06          -9.85e-11             -8.6e-13              1.094e-06            
  -0.65                 -1.3276e-06           -1.4372e-10           -7.2e-13              1.3312e-06           
  -0.7                  -1.5576e-06           -2.0348e-10           -8.8e-13              1.5614e-06           
  -0.75                 -1.78e-06             -2.8012e-10           -8.8e-13              1.7838e-06           
  -0.8                  -1.9944e-06           -3.7668e-10           -8e-13                1.9982e-06           
  -0.85                 -2.1998e-06           -4.9638e-10           -9e-13                2.2036e-06           
  -0.9                  -2.396e-06            -6.4232e-10           -8.4e-13              2.3998e-06           
  -0.95                 -2.583e-06            -8.1746e-10           -8.8e-13              2.5864e-06           
  -1                    -2.7606e-06           -1.025e-09            -8e-13                2.7646e-06           
  -1.05                 -2.9292e-06           -1.269e-09            -8e-13                2.9338e-06           
  -1.1                  -3.0894e-06           -1.5536e-09           -6.6e-13              3.0944e-06           
  -1.15                 -3.2416e-06           -1.8868e-09           -2.6e-13              3.247e-06            
  -1.2                  -3.3856e-06           -2.2582e-09           9e-13                 3.391e-06            
  -1.25                 -3.522e-06            -2.691e-09            3.16e-12              3.528e-06            
  -1.3                  -3.6506e-06           -3.189e-09            8.66e-12              3.6568e-06           
  -1.35                 -3.7724e-06           -3.7452e-09           1.884e-11             3.7792e-06           
END_DB

BEGIN_DB
 ICCAP_VAR vb         0.2            
 ICCAP_VAR vd         -0.05          
 ICCAP_VAR vs         -0             

 #vg                    id                    ig                    ib                    is                   
  0.5                   -8.2e-13              2.34e-12              8e-14                 -1.3e-12             
  0.45                  -5.2e-13              1.54e-12              -2e-14                -9.6e-13             
  0.4                   -4e-13                1.32e-12              2e-14                 -7.2e-13             
  0.35                  -4e-13                7.6e-13               -1.2e-13              -4.6e-13             
  0.3                   -2.4e-13              5.2e-13               8e-14                 -3.6e-13             
  0.25                  -2e-14                2.2e-13               0                     -1.6e-13             
  0.2                   -4e-14                2.2e-13               0                     -6e-14               
  0.15                  -4e-14                -8e-14                1.2e-13               -8e-14               
  0.1                   4e-14                 -1.6e-13              -8e-14                1.2e-13              
  0.05                  -1.4e-13              -1.6e-13              -8e-14                1.4e-13              
  0                     -7.8e-13              -2.8e-13              0                     8.6e-13              
  -0.05                 -3.92e-12             -3.6e-13              -2e-13                4.06e-12             
  -0.1                  -1.966e-11            -4e-13                2e-14                 1.978e-11            
  -0.15                 -9.982e-11            -4.6e-13              -1.4e-13              9.996e-11            
  -0.2                  -5.0462e-10           -5.8e-13              0                     5.05e-10             
  -0.25                 -2.5184e-09           -7.8e-13              2e-14                 2.5188e-09           
  -0.3                  -1.1684e-08           -1.56e-12             -6e-14                1.171e-08            
  -0.35                 -4.472e-08            -4.1e-12              2e-14                 4.4746e-08           
  -0.4                  -1.272e-07            -9.78e-12             -2e-14                1.2738e-07           
  -0.45                 -2.6972e-07           -1.986e-11            -2e-13                2.699e-07            
  -0.5                  -4.5902e-07           -3.57e-11             0                     4.592e-07            
  -0.55                 -6.7418e-07           -5.92e-11             -1e-13                6.7438e-07           
  -0.6                  -9.0076e-07           -9.184e-11            4e-14                 9.0102e-07           
  -0.65                 -1.12948e-06          -1.3644e-10           -1e-13                1.12976e-06          
  -0.7                  -1.354e-06            -1.9488e-10           -6e-14                1.3576e-06           
  -0.75                 -1.574e-06            -2.7038e-10           0                     1.5776e-06           
  -0.8                  -1.7866e-06           -3.6594e-10           -2e-13                1.7906e-06           
  -0.85                 -1.9914e-06           -4.8436e-10           0                     1.9954e-06           
  -0.9                  -2.1874e-06           -6.2868e-10           -1.4e-13              2.1914e-06           
  -0.95                 -2.3744e-06           -8.0312e-10           -1e-13                2.3782e-06           
  -1                    -2.5526e-06           -1.009e-09            6e-14                 2.5566e-06           
  -1.05                 -2.7218e-06           -1.2526e-09           -1.2e-13              2.7264e-06           
  -1.1                  -2.8834e-06           -1.5348e-09           2.4e-13               2.888e-06            
  -1.15                 -3.0364e-06           -1.8638e-09           4e-13                 3.0414e-06           
  -1.2                  -3.1814e-06           -2.2408e-09           1.5e-12               3.187e-06            
  -1.25                 -3.319e-06            -2.6748e-09           3.96e-12              3.325e-06            
  -1.3                  -3.449e-06            -3.1558e-09           9.28e-12              3.4554e-06           
  -1.35                 -3.5722e-06           -3.72e-09             1.974e-11             3.579e-06            
END_DB

BEGIN_DB
 ICCAP_VAR vb         0.4            
 ICCAP_VAR vd         -0.05          
 ICCAP_VAR vs         -0             

 #vg                    id                    ig                    ib                    is                   
  0.5                   -6.2e-13              2.28e-12              4e-14                 -1.1e-12             
  0.45                  -6.6e-13              1.6e-12               -6e-14                -9e-13               
  0.4                   -4e-13                1.12e-12              4e-14                 -7.2e-13             
  0.35                  -3e-13                7.6e-13               -6e-14                -4.6e-13             
  0.3                   -1.8e-13              5.8e-13               8e-14                 -4.4e-13             
  0.25                  -4e-14                2.4e-13               2e-14                 -1.2e-13             
  0.2                   -2.4e-13              2e-13                 2e-14                 -1.4e-13             
  0.15                  -4e-14                -1.2e-13              0                     0                    
  0.1                   -4e-14                -1e-13                0                     -2e-14               
  0.05                  -1.4e-13              -1.6e-13              2e-14                 6e-14                
  0                     -6e-14                -3.8e-13              -1e-13                3.6e-13              
  -0.05                 -1.26e-12             -3.2e-13              8e-14                 1.18e-12             
  -0.1                  -6.04e-12             -4.2e-13              0                     6.24e-12             
  -0.15                 -3.186e-11            -5e-13                -4e-14                3.224e-11            
  -0.2                  -1.6598e-10           -5.8e-13              -8e-14                1.6632e-10           
  -0.25                 -8.581e-10            -8.6e-13              4e-14                 8.5886e-10           
  -0.3                  -4.2992e-09           -1.2e-12              -4e-14                4.299e-09            
  -0.35                 -1.9144e-08           -2.86e-12             4e-14                 1.9164e-08           
  -0.4                  -6.6658e-08           -7.3e-12              0                     6.6672e-08           
  -0.45                 -1.6888e-07           -1.616e-11            -2e-14                1.6904e-07           
  -0.5                  -3.2652e-07           -3.096e-11            -2e-14                3.2664e-07           
  -0.55                 -5.2108e-07           -5.322e-11            4e-14                 5.213e-07            
  -0.6                  -7.3496e-07           -8.504e-11            -1.6e-13              7.3526e-07           
  -0.65                 -9.559e-07            -1.2836e-10           2e-14                 9.561e-07            
  -0.7                  -1.1754e-06           -1.8578e-10           -6e-14                1.1788e-06           
  -0.75                 -1.392e-06            -2.598e-10            0                     1.3956e-06           
  -0.8                  -1.6028e-06           -3.5428e-10           0                     1.6066e-06           
  -0.85                 -1.8062e-06           -4.7176e-10           -6e-14                1.8104e-06           
  -0.9                  -2.0018e-06           -6.154e-10            4e-14                 2.0058e-06           
  -0.95                 -2.1888e-06           -7.8762e-10           4e-14                 2.1924e-06           
  -1                    -2.3672e-06           -9.933e-10            4e-14                 2.3714e-06           
  -1.05                 -2.5372e-06           -1.234e-09            6e-14                 2.5414e-06           
  -1.1                  -2.6988e-06           -1.5174e-09           1.6e-13               2.7036e-06           
  -1.15                 -2.8528e-06           -1.8438e-09           5.2e-13               2.8578e-06           
  -1.2                  -2.9986e-06           -2.219e-09            1.56e-12              3.004e-06            
  -1.25                 -3.137e-06            -2.65e-09             4.06e-12              3.1428e-06           
  -1.3                  -3.268e-06            -3.1404e-09           9.46e-12              3.2742e-06           
  -1.35                 -3.392e-06            -3.6988e-09           1.986e-11             3.399e-06            
END_DB

BEGIN_DB
 ICCAP_VAR vb         0.6            
 ICCAP_VAR vd         -0.05          
 ICCAP_VAR vs         -0             

 #vg                    id                    ig                    ib                    is                   
  0.5                   -7.4e-13              2.24e-12              1.4e-13               -1.2e-12             
  0.45                  -4.6e-13              1.6e-12               0                     -1e-12               
  0.4                   -3.6e-13              1.1e-12               6e-14                 -7e-13               
  0.35                  -2.8e-13              8e-13                 4e-14                 -6.2e-13             
  0.3                   -3.4e-13              4.6e-13               -2e-14                -2.2e-13             
  0.25                  -1e-13                2.8e-13               1.4e-13               -2.8e-13             
  0.2                   -4e-14                8e-14                 4e-14                 -4e-14               
  0.15                  2e-14                 -2e-14                -2e-14                -4e-14               
  0.1                   1e-13                 -1.4e-13              4e-14                 0                    
  0.05                  4e-14                 -1.8e-13              -1.6e-13              6e-14                
  0                     0                     -3.4e-13              -2e-14                6e-14                
  -0.05                 -4e-13                -3.8e-13              -1.4e-13              5.8e-13              
  -0.1                  -2.08e-12             -4.2e-13              1.4e-13               2.14e-12             
  -0.15                 -1.09e-11             -4.4e-13              -8e-14                1.122e-11            
  -0.2                  -5.796e-11            -5.6e-13              -6e-14                5.84e-11             
  -0.25                 -3.0738e-10           -6.2e-13              0                     3.0776e-10           
  -0.3                  -1.604e-09            -9.2e-13              1.2e-13               1.6056e-09           
  -0.35                 -7.8706e-09           -2.16e-12             -4e-14                7.8716e-09           
  -0.4                  -3.247e-08            -5.16e-12             -2e-14                3.2492e-08           
  -0.45                 -9.9348e-08           -1.266e-11            -2e-14                9.9366e-08           
  -0.5                  -2.2282e-07           -2.606e-11            6e-14                 2.2296e-07           
  -0.55                 -3.9314e-07           -4.716e-11            -1.2e-13              3.9332e-07           
  -0.6                  -5.9168e-07           -7.788e-11            -6e-14                5.9186e-07           
  -0.65                 -8.029e-07            -1.2e-10              2e-14                 8.0304e-07           
  -0.7                  -1.01778e-06          -1.7628e-10           -1e-13                1.01808e-06          
  -0.75                 -1.2292e-06           -2.494e-10            -1.2e-13              1.2326e-06           
  -0.8                  -1.4376e-06           -3.4228e-10           2e-14                 1.4412e-06           
  -0.85                 -1.6396e-06           -4.5844e-10           -1.6e-13              1.6434e-06           
  -0.9                  -1.8344e-06           -6.0038e-10           -4e-14                1.8382e-06           
  -0.95                 -2.0208e-06           -7.7194e-10           8e-14                 2.0244e-06           
  -1                    -2.1992e-06           -9.7582e-10           8e-14                 2.2032e-06           
  -1.05                 -2.3692e-06           -1.2152e-09           1.4e-13               2.3734e-06           
  -1.1                  -2.5312e-06           -1.4952e-09           1.8e-13               2.536e-06            
  -1.15                 -2.6854e-06           -1.8206e-09           7.6e-13               2.6906e-06           
  -1.2                  -2.8322e-06           -2.1982e-09           1.46e-12              2.8374e-06           
  -1.25                 -2.9712e-06           -2.623e-09            4.2e-12               2.977e-06            
  -1.3                  -3.1028e-06           -3.1142e-09           9.44e-12              3.109e-06            
  -1.35                 -3.228e-06            -3.6676e-09           1.984e-11             3.2346e-06           
END_DB

BEGIN_DB
 ICCAP_VAR vb         0.8            
 ICCAP_VAR vd         -0.05          
 ICCAP_VAR vs         -0             

 #vg                    id                    ig                    ib                    is                   
  0.5                   -5.4e-13              2.26e-12              2e-14                 -1.04e-12            
  0.45                  -4.2e-13              1.52e-12              -2e-14                -9e-13               
  0.4                   -3.4e-13              1.06e-12              2e-14                 -7.4e-13             
  0.35                  -2.4e-13              7.6e-13               0                     -4.6e-13             
  0.3                   -1e-13                3.6e-13               4e-14                 -3.8e-13             
