! VERSION = 6.00
BEGIN_HEADER
 ICCAP_INPUTS
  vd         V  D GROUND SMU1 0.1 LIN        1    -0         -1.35      28   -0.05     
  vg         V  G GROUND SMU2 0.001 LIN        2    -0.41      -1.35      5    -0.235    
  vb         V  B GROUND SMU4 0.1 CON        -0
  vs         V  S GROUND SMU3 0.1 CON        -0
 ICCAP_OUTPUTS
  id         I  D GROUND SMU1 B
  ig         I  G GROUND SMU2 B
  ib         I  B GROUND SMU4 B
  is         I  S GROUND SMU3 B
 ICCAP_VALUES
  MASTER_SETUP_TYPE "~dc_idvd~"
  LINVT_VALUE "|idvg|100.0n|100.0m|1.000m|5|1.350|"
  LISTVT_VALUE ""
  TYPE "-1"
  TEMP " 27.0000 "
  IS_TNOM " 1.00000 "
  MAIN.W "180.0n"
  MAIN.L "10.00u"
  MAIN.AD "102.6f"
  MAIN.AS "102.6f"
  MAIN.PD "1.340u"
  MAIN.PS "1.340u"
  MAIN.NF "1.000"
  MAIN.M "1"
  MAIN.NRD "0.000"
  MAIN.NRS "0.000"
  MAIN.LDRIFT1 "1E-06"
  MAIN.LDRIFT2 "1E-06"
  MAIN.SA "0.000"
  MAIN.SB "0.000"
  MAIN.SD "0.000"
  MAIN.SCA "0.000"
  MAIN.SCB "0.000"
  MAIN.SCC "0.000"
  MAIN.SC "0.000"
  MODULE "S554"
  PIN_D "20"
  PIN_G "1"
  PIN_S "2"
  PIN_B "19"
  PIN_E ""
  PIN_6 ""
  XY_ID ""
  FUNC "W Scale"
  STI "SA ref"
  WPE "WPE ref"
  COMMENT ""
  DIS_MEAS ""
  TypeTCI "10"
END_HEADER

BEGIN_DB
 ICCAP_VAR vg         -0.41          
 ICCAP_VAR vb         -0             
 ICCAP_VAR vs         -0             

 #vd                    id                    ig                    ib                    is                   
  -0                    1.534e-11             -1.62e-12             -3.18e-12             -1.612e-11           
  -0.05                 -7.9052e-09           -1.18e-12             -2.96e-12             7.9064e-09           
  -0.1                  -1.14436e-08          -9.4e-13              -3.06e-12             1.14454e-08          
  -0.15                 -1.2528e-08           -8.2e-13              -2.98e-12             1.2554e-08           
  -0.2                  -1.279e-08            -8.4e-13              -2.94e-12             1.2816e-08           
  -0.25                 -1.2876e-08           -8.2e-13              -2.72e-12             1.2902e-08           
  -0.3                  -1.2928e-08           -9.2e-13              -2.7e-12              1.295e-08            
  -0.35                 -1.297e-08            -9e-13                -2.84e-12             1.2996e-08           
  -0.4                  -1.3006e-08           -7.8e-13              -2.8e-12              1.3028e-08           
  -0.45                 -1.3032e-08           -7.8e-13              -2.78e-12             1.3056e-08           
  -0.5                  -1.3056e-08           -8e-13                -2.74e-12             1.308e-08            
  -0.55                 -1.308e-08            -8.6e-13              -2.68e-12             1.3104e-08           
  -0.6                  -1.3098e-08           -8e-13                -2.68e-12             1.3124e-08           
  -0.65                 -1.3118e-08           -8.8e-13              -2.6e-12              1.3142e-08           
  -0.7                  -1.3136e-08           -8.2e-13              -2.52e-12             1.3158e-08           
  -0.75                 -1.3148e-08           -7.4e-13              -2.62e-12             1.317e-08            
  -0.8                  -1.316e-08            -8.2e-13              -2.66e-12             1.3184e-08           
  -0.85                 -1.3174e-08           -7.6e-13              -2.68e-12             1.3194e-08           
  -0.9                  -1.3184e-08           -6.8e-13              -2.62e-12             1.3208e-08           
  -0.95                 -1.3194e-08           -7.6e-13              -2.48e-12             1.322e-08            
  -1                    -1.3202e-08           -8.2e-13              -2.42e-12             1.3228e-08           
  -1.05                 -1.3208e-08           -8e-13                -2.4e-12              1.3232e-08           
  -1.1                  -1.3216e-08           -7.4e-13              -2.48e-12             1.3242e-08           
  -1.15                 -1.3226e-08           -8e-13                -2.34e-12             1.3248e-08           
  -1.2                  -1.3234e-08           -8.4e-13              -2.44e-12             1.3256e-08           
  -1.25                 -1.3242e-08           -8e-13                -2.38e-12             1.3266e-08           
  -1.3                  -1.3244e-08           -8.8e-13              -2.34e-12             1.327e-08            
  -1.35                 -1.3252e-08           -7.8e-13              -2.42e-12             1.3276e-08           
END_DB

BEGIN_DB
 ICCAP_VAR vg         -0.645         
 ICCAP_VAR vb         -0             
 ICCAP_VAR vs         -0             

 #vd                    id                    ig                    ib                    is                   
  -0                    6.33e-11              -1.084e-11            -2.2e-12              -5.134e-11           
  -0.05                 -3.2786e-08           -9.14e-12             -2.12e-12             3.2818e-08           
  -0.1                  -5.8906e-08           -7.92e-12             -2.26e-12             5.8964e-08           
  -0.15                 -7.847e-08            -6.82e-12             -2.32e-12             7.8512e-08           
  -0.2                  -9.1712e-08           -6.06e-12             -2.22e-12             9.1776e-08           
  -0.25                 -9.931e-08            -5.64e-12             -2.08e-12             9.9356e-08           
  -0.3                  -1.02624e-07          -5.44e-12             -2e-12                1.02658e-07          
  -0.35                 -1.03782e-07          -5.28e-12             -2.1e-12              1.03828e-07          
  -0.4                  -1.04262e-07          -5.22e-12             -2.08e-12             1.04334e-07          
  -0.45                 -1.04584e-07          -5.24e-12             -1.94e-12             1.04632e-07          
  -0.5                  -1.04818e-07          -5.32e-12             -2e-12                1.04882e-07          
  -0.55                 -1.0503e-07           -5.4e-12              -1.94e-12             1.0506e-07           
  -0.6                  -1.052e-07            -5.32e-12             -1.92e-12             1.05252e-07          
  -0.65                 -1.05376e-07          -5.22e-12             -2.06e-12             1.05426e-07          
  -0.7                  -1.05518e-07          -5.18e-12             -2.02e-12             1.0556e-07           
  -0.75                 -1.05632e-07          -5.14e-12             -1.94e-12             1.05668e-07          
  -0.8                  -1.0574e-07           -5.14e-12             -2e-12                1.05784e-07          
  -0.85                 -1.05844e-07          -5.18e-12             -1.92e-12             1.0589e-07           
  -0.9                  -1.05952e-07          -5.28e-12             -2.06e-12             1.06012e-07          
  -0.95                 -1.06048e-07          -5.28e-12             -1.98e-12             1.06116e-07          
  -1                    -1.0615e-07           -5.2e-12              -1.9e-12              1.0617e-07           
  -1.05                 -1.06202e-07          -5.24e-12             -2e-12                1.06242e-07          
  -1.1                  -1.06242e-07          -5.1e-12              -1.88e-12             1.06296e-07          
  -1.15                 -1.06328e-07          -5.1e-12              -1.82e-12             1.0637e-07           
  -1.2                  -1.06394e-07          -5.08e-12             -1.76e-12             1.0642e-07           
  -1.25                 -1.06432e-07          -5.22e-12             -1.7e-12              1.06492e-07          
  -1.3                  -1.06506e-07          -5.04e-12             -1.84e-12             1.06534e-07          
  -1.35                 -1.06566e-07          -4.96e-12             -1.9e-12              1.06586e-07          
END_DB

BEGIN_DB
 ICCAP_VAR vg         -0.88          
 ICCAP_VAR vb         -0             
 ICCAP_VAR vs         -0             

 #vd                    id                    ig                    ib                    is                   
  -0                    1.1484e-10            -3.9e-11              -1.92e-12             -7.92e-11            
  -0.05                 -5.7344e-08           -3.454e-11            -1.7e-12              5.7416e-08           
  -0.1                  -1.08654e-07          -3.08e-11             -1.64e-12             1.08704e-07          
  -0.15                 -1.5358e-07           -2.764e-11            -1.74e-12             1.5378e-07           
  -0.2                  -1.9214e-07           -2.5e-11              -1.72e-12             1.9242e-07           
  -0.25                 -2.2422e-07           -2.284e-11            -1.64e-12             2.245e-07            
  -0.3                  -2.4986e-07           -2.132e-11            -1.66e-12             2.5012e-07           
  -0.35                 -2.6912e-07           -1.98e-11             -1.68e-12             2.6938e-07           
  -0.4                  -2.8218e-07           -1.89e-11             -1.7e-12              2.8236e-07           
  -0.45                 -2.8958e-07           -1.83e-11             -1.74e-12             2.8984e-07           
  -0.5                  -2.9294e-07           -1.814e-11            -1.64e-12             2.9326e-07           
  -0.55                 -2.944e-07            -1.81e-11             -1.62e-12             2.946e-07            
  -0.6                  -2.9512e-07           -1.804e-11            -1.72e-12             2.9536e-07           
  -0.65                 -2.958e-07            -1.794e-11            -1.72e-12             2.9602e-07           
  -0.7                  -2.962e-07            -1.792e-11            -1.62e-12             2.9652e-07           
  -0.75                 -2.9664e-07           -1.786e-11            -1.54e-12             2.9682e-07           
  -0.8                  -2.9696e-07           -1.794e-11            -1.72e-12             2.9724e-07           
  -0.85                 -2.9728e-07           -1.786e-11            -1.64e-12             2.9752e-07           
  -0.9                  -2.975e-07            -1.78e-11             -1.66e-12             2.978e-07            
  -0.95                 -2.978e-07            -1.778e-11            -1.6e-12              2.9808e-07           
  -1                    -2.98e-07             -1.772e-11            -1.58e-12             2.982e-07            
  -1.05                 -2.983e-07            -1.774e-11            -1.62e-12             2.9854e-07           
  -1.1                  -2.985e-07            -1.768e-11            -1.56e-12             2.9874e-07           
  -1.15                 -2.9866e-07           -1.774e-11            -1.56e-12             2.9892e-07           
  -1.2                  -2.989e-07            -1.764e-11            -1.46e-12             2.9918e-07           
  -1.25                 -2.9912e-07           -1.77e-11             -1.44e-12             2.9938e-07           
  -1.3                  -2.9922e-07           -1.77e-11             -1.56e-12             2.9946e-07           
  -1.35                 -2.9932e-07           -1.766e-11            -1.58e-12             2.9956e-07           
END_DB

BEGIN_DB
 ICCAP_VAR vg         -1.115         
 ICCAP_VAR vb         -0             
 ICCAP_VAR vs         -0             

 #vd                    id                    ig                    ib                    is                   
  -0                    1.78e-10              -1.0662e-10           -1.42e-12             -7.488e-11           
  -0.05                 -7.7824e-08           -9.692e-11            -1.46e-12             7.7938e-08           
  -0.1                  -1.5046e-07           -8.8e-11              -1.4e-12              1.5074e-07           
  -0.15                 -2.1778e-07           -8.026e-11            -1.3e-12              2.1812e-07           
  -0.2                  -2.7958e-07           -7.372e-11            -1.34e-12             2.7996e-07           
  -0.25                 -3.3556e-07           -6.782e-11            -1.42e-12             3.3594e-07           
  -0.3                  -3.8572e-07           -6.286e-11            -1.42e-12             3.8602e-07           
  -0.35                 -4.2976e-07           -5.852e-11            -1.34e-12             4.2998e-07           
  -0.4                  -4.6746e-07           -5.532e-11            -1.32e-12             4.6798e-07           
  -0.45                 -4.9908e-07           -5.23e-11             -1.48e-12             4.9952e-07           
  -0.5                  -5.2458e-07           -5.01e-11             -1.5e-12              5.2492e-07           
  -0.55                 -5.4372e-07           -4.848e-11            -1.42e-12             5.4388e-07           
  -0.6                  -5.5668e-07           -4.728e-11            -1.36e-12             5.571e-07            
  -0.65                 -5.6428e-07           -4.672e-11            -1.34e-12             5.646e-07            
  -0.7                  -5.682e-07            -4.642e-11            -1.38e-12             5.6836e-07           
  -0.75                 -5.7026e-07           -4.612e-11            -1.4e-12              5.7056e-07           
  -0.8                  -5.7128e-07           -4.598e-11            -1.38e-12             5.7164e-07           
  -0.85                 -5.7192e-07           -4.636e-11            -1.3e-12              5.7228e-07           
  -0.9                  -5.7258e-07           -4.614e-11            -1.34e-12             5.729e-07            
  -0.95                 -5.733e-07            -4.61e-11             -1.38e-12             5.7364e-07           
  -1                    -5.7382e-07           -4.6e-11              -1.28e-12             5.7398e-07           
  -1.05                 -5.742e-07            -4.582e-11            -1.26e-12             5.746e-07            
  -1.1                  -5.7478e-07           -4.58e-11             -1.32e-12             5.7502e-07           
  -1.15                 -5.7512e-07           -4.566e-11            -1.44e-12             5.7528e-07           
  -1.2                  -5.7546e-07           -4.562e-11            -1.3e-12              5.758e-07            
  -1.25                 -5.7582e-07           -4.588e-11            -1.36e-12             5.7622e-07           
  -1.3                  -5.7604e-07           -4.588e-11            -1.24e-12             5.7632e-07           
  -1.35                 -5.7646e-07           -4.568e-11            -1.32e-12             5.7682e-07           
END_DB

BEGIN_DB
 ICCAP_VAR vg         -1.35          
 ICCAP_VAR vb         -0             
 ICCAP_VAR vs         -0             

 #vd                    id                    ig                    ib                    is                   
  -0                    2.6628e-10            -2.3438e-10           2.2e-13               -3.848e-11           
  -0.05                 -9.4002e-08           -2.1712e-10           -4e-14                9.4264e-08           
  -0.1                  -1.8378e-07           -2.0116e-10           -4.6e-13              1.8418e-07           
  -0.15                 -2.6916e-07           -1.8694e-10           -6.4e-13              2.6958e-07           
  -0.2                  -3.4988e-07           -1.7396e-10           -6.2e-13              3.5038e-07           
  -0.25                 -4.2588e-07           -1.6228e-10           -6.6e-13              4.264e-07            
  -0.3                  -4.9696e-07           -1.5188e-10           -8.6e-13              4.9752e-07           
  -0.35                 -5.6272e-07           -1.4222e-10           -9.6e-13              5.6306e-07           
  -0.4                  -6.2322e-07           -1.3366e-10           -9e-13                6.2384e-07           
  -0.45                 -6.781e-07            -1.2634e-10           -9.4e-13              6.7872e-07           
  -0.5                  -7.2744e-07           -1.1982e-10           -9.4e-13              7.278e-07            
  -0.55                 -7.7088e-07           -1.1442e-10           -1.04e-12             7.7122e-07           
  -0.6                  -8.0832e-07           -1.0984e-10           -8.8e-13              8.0868e-07           
  -0.65                 -8.3994e-07           -1.0612e-10           -9.2e-13              8.4022e-07           
  -0.7                  -8.6516e-07           -1.0324e-10           -1.02e-12             8.657e-07            
  -0.75                 -8.8456e-07           -1.0096e-10           -1.12e-12             8.8488e-07           
  -0.8                  -8.979e-07            -9.944e-11            -1.06e-12             8.9846e-07           
  -0.85                 -9.0614e-07           -9.85e-11             -1.04e-12             9.0668e-07           
  -0.9                  -9.1004e-07           -9.78e-11             -9.6e-13              9.1036e-07           
  -0.95                 -9.1254e-07           -9.78e-11             -9.2e-13              9.128e-07            
  -1                    -9.1398e-07           -9.768e-11            -9.6e-13              9.1428e-07           
  -1.05                 -9.151e-07            -9.75e-11             -9.4e-13              9.1528e-07           
  -1.1                  -9.1588e-07           -9.732e-11            -9e-13                9.1628e-07           
  -1.15                 -9.1666e-07           -9.732e-11            -1e-12                9.1704e-07           
  -1.2                  -9.171e-07            -9.726e-11            -9e-13                9.1736e-07           
  -1.25                 -9.1778e-07           -9.702e-11            -9.8e-13              9.182e-07            
  -1.3                  -9.1882e-07           -9.692e-11            -1e-12                9.1934e-07           
  -1.35                 -9.1982e-07           -9.676e-11            -9e-13                9.2006e-07           
END_DB

