! VERSION = 6.00
BEGIN_HEADER
 ICCAP_INPUTS
  vd         V  D GROUND SMU1 0.1 LIN        1    -0         -1.35      28   -0.05     
  vg         V  G GROUND SMU2 0.001 LIST       2 3 -0.17 -0.37 -0.57
  vb         V  B GROUND SMU4 0.1 CON        -0
  vs         V  S GROUND SMU3 0.1 CON        -0
 ICCAP_OUTPUTS
  id         I  D GROUND SMU1 B
  ig         I  G GROUND SMU2 B
  ib         I  B GROUND SMU4 B
  is         I  S GROUND SMU3 B
 ICCAP_VALUES
  MASTER_SETUP_TYPE "~dc_idvd~"
  LINVT_VALUE ""
  LISTVT_VALUE "|idvg|100.0n|-200.0m|1.000m|3|200.0m|200.0m|"
  TYPE "-1"
  TEMP " 27.0000 "
  IS_TNOM " 1.00000 "
  MAIN.W "600.0n"
  MAIN.L "180.0n"
  MAIN.AD "204.0f"
  MAIN.AS "204.0f"
  MAIN.PD "1.880u"
  MAIN.PS "1.880u"
  MAIN.NF "1.000"
  MAIN.M "1"
  MAIN.NRD "0.000"
  MAIN.NRS "0.000"
  MAIN.LDRIFT1 "1E-06"
  MAIN.LDRIFT2 "1E-06"
  MAIN.SA "0.000"
  MAIN.SB "0.000"
  MAIN.SD "0.000"
  MAIN.SCA "0.000"
  MAIN.SCB "0.000"
  MAIN.SCC "0.000"
  MAIN.SC "0.000"
  MODULE "S551"
  PIN_D "16"
  PIN_G "5"
  PIN_S "6"
  PIN_B "15"
  PIN_E ""
  PIN_6 ""
  XY_ID ""
  FUNC "LW Scale"
  STI "SA ref"
  WPE "WPE ref"
  COMMENT ""
  DIS_MEAS ""
  TypeTCI "10"
END_HEADER

BEGIN_DB
 ICCAP_VAR vg         -0.17          
 ICCAP_VAR vb         -0             
 ICCAP_VAR vs         -0             

 #vd                    id                    ig                    ib                    is                   
  -0                    1.9e-12               3.2e-13               -1.3e-12              -2.94e-12            
  -0.05                 -8.5386e-10           1.2e-13               -1.16e-12             8.5328e-10           
  -0.1                  -1.023e-09            2e-14                 -1.2e-12              1.02386e-09          
  -0.15                 -1.0874e-09           2e-13                 -1.14e-12             1.08658e-09          
  -0.2                  -1.1334e-09           6e-14                 -1.18e-12             1.13468e-09          
  -0.25                 -1.1762e-09           2.2e-13               -1.16e-12             1.1738e-09           
  -0.3                  -1.213e-09            2e-13                 -1.14e-12             1.2132e-09           
  -0.35                 -1.2512e-09           2e-13                 -1.16e-12             1.2526e-09           
  -0.4                  -1.2892e-09           1.6e-13               -1.16e-12             1.2898e-09           
  -0.45                 -1.3254e-09           2e-13                 -1.06e-12             1.3266e-09           
  -0.5                  -1.3612e-09           1.6e-13               -1.1e-12              1.361e-09            
  -0.55                 -1.3966e-09           2.4e-13               -1.16e-12             1.3958e-09           
  -0.6                  -1.4312e-09           2.4e-13               -1.04e-12             1.4308e-09           
  -0.65                 -1.4644e-09           3.6e-13               -1.1e-12              1.4588e-09           
  -0.7                  -1.499e-09            2.6e-13               -1.12e-12             1.4946e-09           
  -0.75                 -1.5318e-09           3.6e-13               -1.04e-12             1.5308e-09           
  -0.8                  -1.563e-09            4e-13                 -1.22e-12             1.5644e-09           
  -0.85                 -1.597e-09            5.2e-13               -1.12e-12             1.5912e-09           
  -0.9                  -1.6272e-09           6.6e-13               -1.08e-12             1.6288e-09           
  -0.95                 -1.6616e-09           5.4e-13               -1.22e-12             1.6608e-09           
  -1                    -1.6924e-09           6.2e-13               -1.14e-12             1.6918e-09           
  -1.05                 -1.7236e-09           8.2e-13               -1.12e-12             1.7228e-09           
  -1.1                  -1.754e-09            7.6e-13               -1.14e-12             1.7522e-09           
  -1.15                 -1.7836e-09           1.04e-12              -9.8e-13              1.7836e-09           
  -1.2                  -1.8134e-09           1.04e-12              -9.6e-13              1.814e-09            
  -1.25                 -1.841e-09            1.18e-12              -1.08e-12             1.844e-09            
  -1.3                  -1.874e-09            1.36e-12              -9.2e-13              1.8726e-09           
  -1.35                 -1.9028e-09           1.52e-12              -1e-12                1.902e-09            
END_DB

BEGIN_DB
 ICCAP_VAR vg         -0.37          
 ICCAP_VAR vb         -0             
 ICCAP_VAR vs         -0             

 #vd                    id                    ig                    ib                    is                   
  -0                    5.7766e-10            -2.6e-13              -1.14e-12             -5.721e-10           
  -0.05                 -2.121e-07            -1.6e-13              -1.1e-12              2.1222e-07           
  -0.1                  -2.7348e-07           -6e-14                -1e-12                2.737e-07            
  -0.15                 -2.964e-07            -6e-14                -1.04e-12             2.9516e-07           
  -0.2                  -3.1022e-07           0                     -1.18e-12             3.1028e-07           
  -0.25                 -3.2218e-07           -4e-14                -1.12e-12             3.2238e-07           
  -0.3                  -3.3242e-07           1.4e-13               -1.04e-12             3.328e-07            
  -0.35                 -3.4228e-07           0                     -1.1e-12              3.4234e-07           
  -0.4                  -3.5126e-07           -1e-13                -1e-12                3.5132e-07           
  -0.45                 -3.5974e-07           4e-14                 -9.8e-13              3.6008e-07           
  -0.5                  -3.6828e-07           -1.4e-13              -9.8e-13              3.6844e-07           
  -0.55                 -3.7592e-07           2e-14                 -8.2e-13              3.7644e-07           
  -0.6                  -3.8382e-07           2e-14                 -9.2e-13              3.8418e-07           
  -0.65                 -3.9146e-07           1.2e-13               -9.6e-13              3.917e-07            
  -0.7                  -3.9886e-07           1.4e-13               -8.6e-13              3.991e-07            
  -0.75                 -4.0586e-07           1.2e-13               -1.04e-12             4.0592e-07           
  -0.8                  -4.1264e-07           1.8e-13               -9.2e-13              4.1282e-07           
  -0.85                 -4.195e-07            8e-14                 -9.6e-13              4.1974e-07           
  -0.9                  -4.2598e-07           1.4e-13               -1.08e-12             4.2628e-07           
  -0.95                 -4.3248e-07           2.6e-13               -9.6e-13              4.3216e-07           
  -1                    -4.389e-07            3.6e-13               -8.2e-13              4.3912e-07           
  -1.05                 -4.452e-07            3.2e-13               -1e-12                4.454e-07            
  -1.1                  -4.5114e-07           4.8e-13               -1.02e-12             4.5156e-07           
  -1.15                 -4.5746e-07           4.8e-13               -8.8e-13              4.5744e-07           
  -1.2                  -4.632e-07            6.2e-13               -8.4e-13              4.635e-07            
  -1.25                 -4.6896e-07           6.8e-13               -6.4e-13              4.6944e-07           
  -1.3                  -4.747e-07            6.4e-13               -3.2e-13              4.7488e-07           
  -1.35                 -4.8038e-07           7.6e-13               1.6e-13               4.8064e-07           
END_DB

BEGIN_DB
 ICCAP_VAR vg         -0.57          
 ICCAP_VAR vb         -0             
 ICCAP_VAR vs         -0             

 #vd                    id                    ig                    ib                    is                   
  -0                    3.0418e-09            -6.6e-13              -9.2e-13              -2.9718e-09          
  -0.05                 -2.5268e-06           -4.8e-13              -1.02e-12             2.5304e-06           
  -0.1                  -4.1546e-06           -4.6e-13              -1.02e-12             4.1574e-06           
  -0.15                 -5.0978e-06           -3e-13                -8.4e-13              5.1008e-06           
  -0.2                  -5.6274e-06           -2.8e-13              -8.6e-13              5.6308e-06           
  -0.25                 -5.9442e-06           -3e-13                -1.06e-12             5.9474e-06           
  -0.3                  -6.1654e-06           -2e-13                -1e-12                6.1726e-06           
  -0.35                 -6.3446e-06           -2.4e-13              -8e-13                6.3482e-06           
  -0.4                  -6.496e-06            -2.8e-13              -7.8e-13              6.5008e-06           
  -0.45                 -6.6312e-06           -2.6e-13              -9e-13                6.6348e-06           
  -0.5                  -6.7568e-06           -1.2e-13              -9.2e-13              6.762e-06            
  -0.55                 -6.8732e-06           -1.8e-13              -8.6e-13              6.8758e-06           
  -0.6                  -6.9834e-06           -2.4e-13              -9e-13                6.9872e-06           
  -0.65                 -7.0834e-06           -1.6e-13              -7.8e-13              7.0936e-06           
  -0.7                  -7.1902e-06           -1.6e-13              -8.8e-13              7.1922e-06           
  -0.75                 -7.2866e-06           -2e-13                -7.6e-13              7.2908e-06           
  -0.8                  -7.381e-06            -1e-13                -8e-13                7.3846e-06           
  -0.85                 -7.474e-06            -2e-13                -8.2e-13              7.4764e-06           
  -0.9                  -7.5612e-06           -1.4e-13              -9.2e-13              7.5638e-06           
  -0.95                 -7.6492e-06           -1.8e-13              -9e-13                7.6604e-06           
  -1                    -7.7706e-06           2e-14                 -9e-13                7.7758e-06           
  -1.05                 -7.8536e-06           4e-14                 -9.4e-13              7.857e-06            
  -1.1                  -7.936e-06            8e-14                 -8.2e-13              7.9368e-06           
  -1.15                 -8.0146e-06           0                     -7.2e-13              8.019e-06            
  -1.2                  -8.0964e-06           0                     -7.4e-13              8.0994e-06           
  -1.25                 -8.1734e-06           2e-14                 -3.4e-13              8.1762e-06           
  -1.3                  -8.2476e-06           3.4e-13               3.8e-13               8.2534e-06           
  -1.35                 -8.3218e-06           4e-13                 1.76e-12              8.3514e-06           
END_DB

