! VERSION = 6.00
BEGIN_HEADER
 ICCAP_INPUTS
  vg         V  G GROUND SMU2 0.001 LIN        1    0.5        -1.35      38   -0.05     
  vb         V  B GROUND SMU4 0.1 LIN        2    0          1.2        7    0.2       
  vd         V  D GROUND SMU1 0.1 LIST       3 3 -0.05 -0.6 -1.2
  vs         V  S GROUND SMU3 0.1 CON        -0
 ICCAP_OUTPUTS
  id         I  D GROUND SMU1 B
  ig         I  G GROUND SMU2 B
  ib         I  B GROUND SMU4 B
  is         I  S GROUND SMU3 B
 ICCAP_VALUES
  MASTER_SETUP_TYPE "~dc_idvg~"
  LINVT_VALUE ""
  LISTVT_VALUE ""
  TYPE "-1"
  TEMP " 27.0000 "
  IS_TNOM " 1.00000 "
  MAIN.W "10.00u"
  MAIN.L "120.0n"
  MAIN.AD "3.400p"
  MAIN.AS "3.400p"
  MAIN.PD "20.68u"
  MAIN.PS "20.68u"
  MAIN.NF "1.000"
  MAIN.M "1"
  MAIN.NRD "0.000"
  MAIN.NRS "0.000"
  MAIN.LDRIFT1 "1E-06"
  MAIN.LDRIFT2 "1E-06"
  MAIN.SA "0.000"
  MAIN.SB "0.000"
  MAIN.SD "0.000"
  MAIN.SCA "0.000"
  MAIN.SCB "0.000"
  MAIN.SCC "0.000"
  MAIN.SC "0.000"
  MODULE "S548"
  PIN_D "20"
  PIN_G "1"
  PIN_S "2"
  PIN_B "19"
  PIN_E ""
  PIN_6 ""
  XY_ID ""
  FUNC "Additional"
  STI "SA ref"
  WPE "WPE ref"
  COMMENT ""
  DIS_MEAS ""
  TypeTCI "10"
END_HEADER

BEGIN_DB
 ICCAP_VAR vb         0              
 ICCAP_VAR vd         -0.05          
 ICCAP_VAR vs         -0             

 #vg                    id                    ig                    ib                    is                   
  0.5                   -2.04e-12             2.38e-11              -2.754e-11            -3.08e-12            
  0.45                  -1.68e-12             6.56e-12              -2.216e-11            -2.46e-12            
  0.4                   -1.32e-12             3.2e-12               -2.028e-11            -1.64e-12            
  0.35                  -1.04e-12             2e-12                 -1.876e-11            -1.26e-12            
  0.3                   -7.6e-13              1.24e-12              -1.766e-11            -8.8e-13             
  0.25                  -6.4e-13              8.4e-13               -1.658e-11            -6.6e-13             
  0.2                   -6.4e-13              3.6e-13               -1.576e-11            -1.2e-13             
  0.15                  -1.34e-12             8e-14                 -1.498e-11            7.2e-13              
  0.1                   -4.44e-12             -1e-13                -1.418e-11            3.86e-12             
  0.05                  -1.768e-11            -3.6e-13              -1.362e-11            1.744e-11            
  0                     -7.404e-11            -3.6e-13              -1.286e-11            7.364e-11            
  -0.05                 -3.1126e-10           -4.2e-13              -1.244e-11            3.1112e-10           
  -0.1                  -1.3144e-09           -4e-13                -1.162e-11            1.3166e-09           
  -0.15                 -5.5376e-09           -6.6e-13              -1.102e-11            5.5394e-09           
  -0.2                  -2.2978e-08           -6.6e-13              -1.068e-11            2.3014e-08           
  -0.25                 -9.287e-08            -1.1e-12              -1.024e-11            9.2834e-08           
  -0.3                  -3.5206e-07           -1.36e-12             -9.84e-12             3.5216e-07           
  -0.35                 -1.1992e-06           -1.78e-12             -9.42e-12             1.2012e-06           
  -0.4                  -3.5324e-06           -2.58e-12             -9e-12                3.5344e-06           
  -0.45                 -8.6778e-06           -3.76e-12             -8.82e-12             8.6758e-06           
  -0.5                  -1.7812e-05           -5.2e-12              -8.46e-12             1.7846e-05           
  -0.55                 -3.1066e-05           -7.44e-12             -8.14e-12             3.1086e-05           
  -0.6                  -4.7552e-05           -1.018e-11            -8.02e-12             4.7556e-05           
  -0.65                 -6.5998e-05           -1.388e-11            -7.74e-12             6.602e-05            
  -0.7                  -8.5244e-05           -1.848e-11            -7.52e-12             8.5254e-05           
  -0.75                 -0.000104522          -2.42e-11             -7.34e-12             0.000104542          
  -0.8                  -0.00012324           -3.138e-11            -7.16e-12             0.00012356           
  -0.85                 -0.0001414            -4.024e-11            -6.82e-12             0.00014176           
  -0.9                  -0.00015872           -5.06e-11             -6.8e-12              0.00015908           
  -0.95                 -0.0001751            -6.306e-11            -6.58e-12             0.00017544           
  -1                    -0.00019054           -7.774e-11            -6.58e-12             0.00019084           
  -1.05                 -0.0002051            -9.526e-11            -6.3e-12              0.00020548           
  -1.1                  -0.00021884           -1.153e-10            -6.22e-12             0.00021904           
  -1.15                 -0.0002317            -1.3804e-10           -6.06e-12             0.00023196           
  -1.2                  -0.00024374           -1.641e-10            -5.64e-12             0.00024406           
  -1.25                 -0.00025518           -1.9428e-10           -5.42e-12             0.00025532           
  -1.3                  -0.00026584           -2.2834e-10           -4.5e-12              0.00026612           
  -1.35                 -0.00027588           -2.6764e-10           -3.54e-12             0.0002761            
END_DB

BEGIN_DB
 ICCAP_VAR vb         0.2            
 ICCAP_VAR vd         -0.05          
 ICCAP_VAR vs         -0             

 #vg                    id                    ig                    ib                    is                   
  0.5                   -1.84e-12             4.96e-12              1e-13                 -2.84e-12            
  0.45                  -1.36e-12             3.68e-12              -2e-14                -2.04e-12            
  0.4                   -1.08e-12             2.64e-12              4e-14                 -1.66e-12            
  0.35                  -9e-13                1.94e-12              0                     -1.04e-12            
  0.3                   -6.6e-13              1.36e-12              2e-14                 -9e-13               
  0.25                  -5.4e-13              8.6e-13               2e-14                 -4.4e-13             
  0.2                   -4.4e-13              3.8e-13               1.2e-13               -3.8e-13             
  0.15                  -5.8e-13              4e-14                 4e-14                 1.2e-13              
  0.1                   -1.32e-12             -1e-13                6e-14                 1.16e-12             
  0.05                  -5.4e-12              -2.2e-13              8e-14                 5.24e-12             
  0                     -2.342e-11            -4.2e-13              6e-14                 2.344e-11            
  -0.05                 -1.024e-10            -4e-13                0                     1.025e-10            
  -0.1                  -4.4862e-10           -5.6e-13              6e-14                 4.4894e-10           
  -0.15                 -1.9584e-09           -5e-13                0                     1.9576e-09           
  -0.2                  -8.4404e-09           -6.8e-13              -1e-13                8.4372e-09           
  -0.25                 -3.574e-08            -8.8e-13              8e-14                 3.5802e-08           
  -0.3                  -1.45e-07             -1.32e-12             0                     1.4508e-07           
  -0.35                 -5.404e-07            -1.84e-12             8e-14                 5.404e-07            
  -0.4                  -1.7728e-06           -2.32e-12             0                     1.7734e-06           
  -0.45                 -4.9052e-06           -3.5e-12              6e-14                 4.903e-06            
  -0.5                  -1.1314e-05           -5.04e-12             -2e-14                1.13084e-05          
  -0.55                 -2.1818e-05           -7.04e-12             -4e-14                2.1798e-05           
  -0.6                  -3.6138e-05           -9.86e-12             -2e-14                3.6132e-05           
  -0.65                 -5.3132e-05           -1.35e-11             1.6e-13               5.3116e-05           
  -0.7                  -7.1624e-05           -1.806e-11            -1e-13                7.1646e-05           
  -0.75                 -9.0546e-05           -2.368e-11            0                     9.0544e-05           
  -0.8                  -0.000109294          -3.084e-11            2e-14                 0.000109302          
  -0.85                 -0.00012734           -3.944e-11            -1e-13                0.00012766           
  -0.9                  -0.00014474           -4.992e-11            0                     0.00014508           
  -0.95                 -0.0001614            -6.232e-11            0                     0.00016162           
  -1                    -0.00017706           -7.704e-11            0                     0.00017734           
  -1.05                 -0.00019182           -9.46e-11             -8e-14                0.00019218           
  -1.1                  -0.00020586           -1.1426e-10           -2e-14                0.00020618           
  -1.15                 -0.00021902           -1.3736e-10           6e-14                 0.00021926           
  -1.2                  -0.00023136           -1.6282e-10           1.8e-13               0.00023158           
  -1.25                 -0.00024288           -1.9304e-10           4.8e-13               0.00024298           
  -1.3                  -0.00025358           -2.2758e-10           9.2e-13               0.00025382           
  -1.35                 -0.00026382           -2.6706e-10           2.04e-12              0.00026408           
END_DB

BEGIN_DB
 ICCAP_VAR vb         0.4            
 ICCAP_VAR vd         -0.05          
 ICCAP_VAR vs         -0             

 #vg                    id                    ig                    ib                    is                   
  0.5                   -1.7e-12              5e-12                 6e-14                 -2.7e-12             
  0.45                  -1.44e-12             3.64e-12              1.6e-13               -2.12e-12            
  0.4                   -1e-12                2.7e-12               0                     -1.52e-12            
  0.35                  -7.6e-13              1.88e-12              8e-14                 -1.04e-12            
  0.3                   -6e-13                1.24e-12              6e-14                 -8.2e-13             
  0.25                  -5.6e-13              9.2e-13               -2e-14                -5e-13               
  0.2                   -3.8e-13              4.6e-13               4e-14                 -3e-13               
  0.15                  -2.8e-13              1.6e-13               -2e-14                -8e-14               
  0.1                   -5.4e-13              -8e-14                6e-14                 4e-13                
  0.05                  -2.1e-12              -2.6e-13              4e-14                 2.1e-12              
  0                     -9.2e-12              -2.4e-13              1.2e-13               9.18e-12             
  -0.05                 -4.124e-11            -4e-13                0                     4.126e-11            
  -0.1                  -1.8458e-10           -4.8e-13              1.2e-13               1.8488e-10           
  -0.15                 -8.2688e-10           -6.8e-13              4e-14                 8.2676e-10           
  -0.2                  -3.6598e-09           -6.6e-13              -1.2e-13              3.6616e-09           
  -0.25                 -1.5956e-08           -8.6e-13              1e-13                 1.598e-08            
  -0.3                  -6.752e-08            -1.14e-12             4e-14                 6.7486e-08           
  -0.35                 -2.6672e-07           -1.6e-12              0                     2.6716e-07           
  -0.4                  -9.479e-07            -2.34e-12             4e-14                 9.4848e-07           
  -0.45                 -2.8804e-06           -3.2e-12              2e-14                 2.8796e-06           
  -0.5                  -7.3436e-06           -4.8e-12              1e-13                 7.34e-06             
  -0.55                 -1.5508e-05           -6.84e-12             0                     1.5504e-05           
  -0.6                  -2.7678e-05           -9.58e-12             -2e-14                2.7686e-05           
  -0.65                 -4.3168e-05           -1.314e-11            2e-14                 4.3148e-05           
  -0.7                  -6.0714e-05           -1.764e-11            4e-14                 6.0722e-05           
  -0.75                 -7.9186e-05           -2.338e-11            -4e-14                7.918e-05            
  -0.8                  -9.7714e-05           -3.044e-11            1.2e-13               9.767e-05            
  -0.85                 -0.0001157            -3.888e-11            -2e-14                0.00011606           
  -0.9                  -0.0001333            -4.928e-11            0                     0.0001337            
  -0.95                 -0.00015              -6.174e-11            -4e-14                0.00015034           
  -1                    -0.000166             -7.628e-11            -4e-14                0.00016624           
  -1.05                 -0.00018092           -9.326e-11            -6e-14                0.00018126           
  -1.1                  -0.00019508           -1.1278e-10           6e-14                 0.00019542           
  -1.15                 -0.00020838           -1.355e-10            4e-14                 0.00020862           
  -1.2                  -0.00022086           -1.6184e-10           1.8e-13               0.00022118           
  -1.25                 -0.00023254           -1.918e-10            4.8e-13               0.00023282           
  -1.3                  -0.00024348           -2.2588e-10           1e-12                 0.00024386           
  -1.35                 -0.000254             -2.648e-10            2.08e-12              0.0002543            
END_DB

BEGIN_DB
 ICCAP_VAR vb         0.6            
 ICCAP_VAR vd         -0.05          
 ICCAP_VAR vs         -0             

 #vg                    id                    ig                    ib                    is                   
  0.5                   -1.68e-12             5e-12                 1.2e-13               -2.78e-12            
  0.45                  -1.42e-12             3.76e-12              6e-14                 -1.96e-12            
  0.4                   -1.02e-12             2.62e-12              6e-14                 -1.52e-12            
  0.35                  -7.8e-13              1.92e-12              6e-14                 -1.14e-12            
  0.3                   -6e-13                1.24e-12              8e-14                 -7.8e-13             
  0.25                  -4.2e-13              8.2e-13               1.2e-13               -4.6e-13             
  0.2                   -2.2e-13              3.6e-13               -4e-14                -3.4e-13             
  0.15                  -2.8e-13              1.6e-13               0                     -1.4e-13             
  0.1                   -2.6e-13              -4e-14                0                     2e-13                
  0.05                  -1e-12                -1.8e-13              4e-14                 8.8e-13              
  0                     -4.14e-12             -2.4e-13              1e-13                 4.34e-12             
  -0.05                 -1.906e-11            -4.6e-13              0                     1.924e-11            
  -0.1                  -8.748e-11            -4.2e-13              6e-14                 8.734e-11            
  -0.15                 -3.9736e-10           -5.2e-13              1e-13                 3.9782e-10           
  -0.2                  -1.7934e-09           -5.4e-13              -2e-14                1.7926e-09           
  -0.25                 -7.994e-09            -8.6e-13              6e-14                 7.9938e-09           
  -0.3                  -3.4828e-08           -1.22e-12             1e-13                 3.4842e-08           
  -0.35                 -1.4364e-07           -1.62e-12             2e-14                 1.439e-07            
  -0.4                  -5.3998e-07           -2.32e-12             2e-14                 5.4188e-07           
  -0.45                 -1.7776e-06           -3.2e-12              2e-14                 1.78e-06             
  -0.5                  -4.9176e-06           -4.58e-12             4e-14                 4.8956e-06           
  -0.55                 -1.12128e-05          -6.66e-12             8e-14                 1.12204e-05          
  -0.6                  -2.1514e-05           -9.22e-12             -2e-14                2.1502e-05           
  -0.65                 -3.5444e-05           -1.276e-11            1e-13                 3.5428e-05           
  -0.7                  -5.191e-05            -1.726e-11            -2e-14                5.1924e-05           
  -0.75                 -6.9792e-05           -2.298e-11            -6e-14                6.9824e-05           
  -0.8                  -8.8092e-05           -2.994e-11            1.4e-13               8.8112e-05           
  -0.85                 -0.000106186          -3.85e-11             -1e-13                0.00010614           
  -0.9                  -0.0001236            -4.864e-11            2e-14                 0.00012386           
  -0.95                 -0.0001404            -6.104e-11            -1.4e-13              0.00014074           
  -1                    -0.00015638           -7.582e-11            -2e-14                0.0001567            
  -1.05                 -0.00017164           -9.256e-11            8e-14                 0.00017186           
  -1.1                  -0.00018584           -1.121e-10            6e-14                 0.00018618           
  -1.15                 -0.0001993            -1.3502e-10           1.2e-13               0.0001996            
  -1.2                  -0.00021198           -1.61e-10             1.6e-13               0.0002122            
  -1.25                 -0.00022388           -1.9056e-10           4.8e-13               0.00022408           
  -1.3                  -0.00023502           -2.2564e-10           1.06e-12              0.0002352            
  -1.35                 -0.00024546           -2.649e-10            2.06e-12              0.00024572           
END_DB

BEGIN_DB
 ICCAP_VAR vb         0.8            
 ICCAP_VAR vd         -0.05          
 ICCAP_VAR vs         -0             

 #vg                    id                    ig                    ib                    is                   
  0.5                   -1.64e-12             4.84e-12              1.2e-13               -2.74e-12            
  0.45                  -1.26e-12             3.62e-12              1.6e-13               -2e-12               
  0.4                   -1.08e-12             2.68e-12              -2e-14                -1.48e-12            
  0.35                  -7.8e-13              1.86e-12              8e-14                 -1.1e-12             
  0.3                   -6e-13                1.34e-12              8e-14                 -6.2e-13             
