! VERSION = 6.00
BEGIN_HEADER
 ICCAP_INPUTS
  vd         V  D GROUND SMU1 0.1 LIN        1    -0         -1.35      28   -0.05     
  vg         V  G GROUND SMU2 0.001 LIST       2 3 -0.187 -0.387 -0.587
  vb         V  B GROUND SMU4 0.1 CON        -0
  vs         V  S GROUND SMU3 0.1 CON        -0
 ICCAP_OUTPUTS
  id         I  D GROUND SMU1 B
  ig         I  G GROUND SMU2 B
  ib         I  B GROUND SMU4 B
  is         I  S GROUND SMU3 B
 ICCAP_VALUES
  MASTER_SETUP_TYPE "~dc_idvd~"
  LINVT_VALUE ""
  LISTVT_VALUE "|idvg|100.0n|-200.0m|1.000m|3|200.0m|200.0m|"
  TYPE "-1"
  TEMP "-40.0000 "
  IS_TNOM " 0.00000 "
  MAIN.W "10.00u"
  MAIN.L "10.00u"
  MAIN.AD "3.400p"
  MAIN.AS "3.400p"
  MAIN.PD "20.68u"
  MAIN.PS "20.68u"
  MAIN.NF "1.000"
  MAIN.M "1"
  MAIN.NRD "0.000"
  MAIN.NRS "0.000"
  MAIN.LDRIFT1 "1E-06"
  MAIN.LDRIFT2 "1E-06"
  MAIN.SA "0.000"
  MAIN.SB "0.000"
  MAIN.SD "0.000"
  MAIN.SCA "0.000"
  MAIN.SCB "0.000"
  MAIN.SCC "0.000"
  MAIN.SC "0.000"
  MODULE "S549"
  PIN_D "12"
  PIN_G "9"
  PIN_S "10"
  PIN_B "11"
  PIN_E ""
  PIN_6 ""
  XY_ID ""
  FUNC "Large"
  STI "SA ref"
  WPE "WPE ref"
  COMMENT ""
  DIS_MEAS ""
  TypeTCI "10"
END_HEADER

BEGIN_DB
 ICCAP_VAR vg         -0.187         
 ICCAP_VAR vb         -0             
 ICCAP_VAR vs         -0             

 #vd                    id                    ig                    ib                    is                   
  -0                    4.6e-13               -3.8e-13              -1.2e-13              4e-14                
  -0.05                 -5.288e-11            -2e-13                -6e-14                5.332e-11            
  -0.1                  -5.76e-11             -1.4e-13              -4e-14                5.796e-11            
  -0.15                 -5.846e-11            -2e-13                -8e-14                5.876e-11            
  -0.2                  -5.872e-11            -8e-14                -1.4e-13              5.892e-11            
  -0.25                 -5.902e-11            -2e-13                -4e-14                5.908e-11            
  -0.3                  -5.928e-11            8e-14                 -6e-14                5.914e-11            
  -0.35                 -5.944e-11            -1.2e-13              -6e-14                5.948e-11            
  -0.4                  -5.98e-11             4e-14                 -6e-14                5.948e-11            
  -0.45                 -5.99e-11             1.8e-13               -4e-14                5.974e-11            
  -0.5                  -6.038e-11            3e-13                 -6e-14                5.992e-11            
  -0.55                 -6.062e-11            4e-13                 -8e-14                5.994e-11            
  -0.6                  -6.1e-11              6.8e-13               -2e-14                6.002e-11            
  -0.65                 -6.126e-11            8.2e-13               -8e-14                6.026e-11            
  -0.7                  -6.174e-11            1.2e-12               -6e-14                6.028e-11            
  -0.75                 -6.21e-11             1.56e-12              -1.4e-13              6.03e-11             
  -0.8                  -6.268e-11            2.04e-12              -2e-14                6.046e-11            
  -0.85                 -6.328e-11            2.52e-12              -1.2e-13              6.046e-11            
  -0.9                  -6.402e-11            3.2e-12               -1.4e-13              6.06e-11             
  -0.95                 -6.474e-11            3.9e-12               -6e-14                6.058e-11            
  -1                    -6.58e-11             4.86e-12              -4e-14                6.052e-11            
  -1.05                 -6.678e-11            5.9e-12               -6e-14                6.066e-11            
  -1.1                  -6.804e-11            7.02e-12              -1.2e-13              6.088e-11            
  -1.15                 -6.938e-11            8.42e-12              -6e-14                6.06e-11             
  -1.2                  -7.116e-11            9.96e-12              -1.4e-13              6.07e-11             
  -1.25                 -7.292e-11            1.174e-11             -4e-14                6.078e-11            
  -1.3                  -7.482e-11            1.362e-11             -2e-14                6.07e-11             
  -1.35                 -7.692e-11            1.564e-11             0                     6.082e-11            
END_DB

BEGIN_DB
 ICCAP_VAR vg         -0.387         
 ICCAP_VAR vb         -0             
 ICCAP_VAR vs         -0             

 #vd                    id                    ig                    ib                    is                   
  -0                    2.95e-10              -2.606e-11            -8e-14                -2.6274e-10          
  -0.05                 -8.7074e-08           -1.842e-11            -6e-14                8.7128e-08           
  -0.1                  -1.02354e-07          -1.654e-11            -1.4e-13              1.02408e-07          
  -0.15                 -1.04714e-07          -1.61e-11             -1e-13                1.04762e-07          
  -0.2                  -1.05536e-07          -1.606e-11            2e-14                 1.05586e-07          
  -0.25                 -1.06108e-07          -1.578e-11            -2e-14                1.06166e-07          
  -0.3                  -1.0659e-07           -1.576e-11            -6e-14                1.06642e-07          
  -0.35                 -1.0692e-07           -1.566e-11            -1e-13                1.0705e-07           
  -0.4                  -1.0728e-07           -1.552e-11            -1.2e-13              1.07414e-07          
  -0.45                 -1.0758e-07           -1.55e-11             -8e-14                1.0771e-07           
  -0.5                  -1.0786e-07           -1.548e-11            -1.6e-13              1.07988e-07          
  -0.55                 -1.081e-07            -1.54e-11             -6e-14                1.08238e-07          
  -0.6                  -1.0832e-07           -1.542e-11            -1.2e-13              1.0845e-07           
  -0.65                 -1.0852e-07           -1.544e-11            -1e-13                1.08642e-07          
  -0.7                  -1.087e-07            -1.51e-11             -1e-13                1.08812e-07          
  -0.75                 -1.0884e-07           -1.486e-11            -8e-14                1.08972e-07          
  -0.8                  -1.0898e-07           -1.458e-11            -1.6e-13              1.0912e-07           
  -0.85                 -1.0912e-07           -1.424e-11            -6e-14                1.09238e-07          
  -0.9                  -1.0924e-07           -1.392e-11            -6e-14                1.0938e-07           
  -0.95                 -1.0936e-07           -1.344e-11            -4e-14                1.09486e-07          
  -1                    -1.0946e-07           -1.302e-11            -8e-14                1.09588e-07          
  -1.05                 -1.0956e-07           -1.248e-11            -6e-14                1.09694e-07          
  -1.1                  -1.0966e-07           -1.194e-11            -8e-14                1.09776e-07          
  -1.15                 -1.0974e-07           -1.118e-11            -2e-14                1.09854e-07          
  -1.2                  -1.0982e-07           -1.022e-11            0                     1.09946e-07          
  -1.25                 -1.099e-07            -9.28e-12             -2e-14                1.10018e-07          
  -1.3                  -1.0996e-07           -8.04e-12             4e-14                 1.1008e-07           
  -1.35                 -1.1002e-07           -6.76e-12             6e-14                 1.10144e-07          
END_DB

BEGIN_DB
 ICCAP_VAR vg         -0.587         
 ICCAP_VAR vb         -0             
 ICCAP_VAR vs         -0             

 #vd                    id                    ig                    ib                    is                   
  -0                    1.934e-09             -2.791e-10            -1e-13                -1.5056e-09          
  -0.05                 -1.04424e-06          -2.2664e-10           -1.2e-13              1.04476e-06          
  -0.1                  -1.7312e-06           -1.914e-10            -1.6e-13              1.7348e-06           
  -0.15                 -2.0956e-06           -1.7172e-10           -6e-14                2.0994e-06           
  -0.2                  -2.2282e-06           -1.6402e-10           -8e-14                2.232e-06            
  -0.25                 -2.2644e-06           -1.6168e-10           -8e-14                2.268e-06            
  -0.3                  -2.2786e-06           -1.6092e-10           -6e-14                2.2824e-06           
  -0.35                 -2.2882e-06           -1.602e-10            2e-14                 2.2918e-06           
  -0.4                  -2.2956e-06           -1.5978e-10           -1.6e-13              2.2994e-06           
  -0.45                 -2.3022e-06           -1.5948e-10           -1e-13                2.306e-06            
  -0.5                  -2.3082e-06           -1.5892e-10           -1e-13                2.3118e-06           
  -0.55                 -2.313e-06            -1.5844e-10           -1e-13                2.3166e-06           
  -0.6                  -2.3176e-06           -1.583e-10            -2e-14                2.3212e-06           
  -0.65                 -2.3214e-06           -1.582e-10            -1.2e-13              2.3252e-06           
  -0.7                  -2.3252e-06           -1.5788e-10           -4e-14                2.329e-06            
  -0.75                 -2.3286e-06           -1.5752e-10           -2e-14                2.3322e-06           
  -0.8                  -2.3316e-06           -1.5728e-10           -2e-14                2.3352e-06           
  -0.85                 -2.3344e-06           -1.5714e-10           -8e-14                2.338e-06            
  -0.9                  -2.337e-06            -1.566e-10            -4e-14                2.3406e-06           
  -0.95                 -2.3394e-06           -1.5638e-10           -4e-14                2.343e-06            
  -1                    -2.3416e-06           -1.5606e-10           -6e-14                2.3452e-06           
  -1.05                 -2.3434e-06           -1.5566e-10           -1.4e-13              2.3472e-06           
  -1.1                  -2.3454e-06           -1.5522e-10           -6e-14                2.3492e-06           
  -1.15                 -2.3472e-06           -1.5478e-10           -1e-13                2.3508e-06           
  -1.2                  -2.3488e-06           -1.5424e-10           -8e-14                2.3526e-06           
  -1.25                 -2.3504e-06           -1.5364e-10           -1.2e-13              2.354e-06            
  -1.3                  -2.3516e-06           -1.5306e-10           4e-14                 2.3554e-06           
  -1.35                 -2.3532e-06           -1.5204e-10           1.6e-13               2.3568e-06           
END_DB

