! VERSION = 6.00
BEGIN_HEADER
 ICCAP_INPUTS
  vd         V  D GROUND SMU1 0.1 LIN        1    -0         -1.35      28   -0.05     
  vg         V  G GROUND SMU2 0.001 LIST       2 3 -0.317 -0.517 -0.717
  vb         V  B GROUND SMU4 0.1 CON        1.2
  vs         V  S GROUND SMU3 0.1 CON        -0
 ICCAP_OUTPUTS
  id         I  D GROUND SMU1 B
  ig         I  G GROUND SMU2 B
  ib         I  B GROUND SMU4 B
  is         I  S GROUND SMU3 B
 ICCAP_VALUES
  MASTER_SETUP_TYPE "~dc_idvd~"
  LINVT_VALUE ""
  LISTVT_VALUE "|idvg|100.0n|-200.0m|1.000m|3|200.0m|200.0m|"
  TYPE "-1"
  TEMP " 27.0000 "
  IS_TNOM " 1.00000 "
  MAIN.W "2.000u"
  MAIN.L "10.00u"
  MAIN.AD "680.0f"
  MAIN.AS "680.0f"
  MAIN.PD "4.680u"
  MAIN.PS "4.680u"
  MAIN.NF "1.000"
  MAIN.M "1"
  MAIN.NRD "0.000"
  MAIN.NRS "0.000"
  MAIN.LDRIFT1 "1E-06"
  MAIN.LDRIFT2 "1E-06"
  MAIN.SA "0.000"
  MAIN.SB "0.000"
  MAIN.SD "0.000"
  MAIN.SCA "0.000"
  MAIN.SCB "0.000"
  MAIN.SCC "0.000"
  MAIN.SC "0.000"
  MODULE "S551"
  PIN_D "20"
  PIN_G "1"
  PIN_S "2"
  PIN_B "19"
  PIN_E ""
  PIN_6 ""
  XY_ID ""
  FUNC "W Scale"
  STI "SA ref"
  WPE "WPE ref"
  COMMENT ""
  DIS_MEAS ""
  TypeTCI "10"
END_HEADER

BEGIN_DB
 ICCAP_VAR vg         -0.317         
 ICCAP_VAR vb         1.2            
 ICCAP_VAR vs         -0             

 #vd                    id                    ig                    ib                    is                   
  -0                    5.4e-13               -2.6e-13              8e-14                 1.6e-13              
  -0.05                 -4.25e-11             -2.4e-13              2.8e-13               4.262e-11            
  -0.1                  -4.898e-11            -2.6e-13              1.4e-13               4.902e-11            
  -0.15                 -5.004e-11            -1.8e-13              2e-13                 5.01e-11             
  -0.2                  -5.044e-11            -3.2e-13              6e-14                 5.03e-11             
  -0.25                 -5.056e-11            -1.2e-13              6e-14                 5.046e-11            
  -0.3                  -5.072e-11            -1.8e-13              1e-13                 5.034e-11            
  -0.35                 -5.08e-11             -2e-13                2e-14                 5.052e-11            
  -0.4                  -5.092e-11            -2e-13                -8e-14                5.066e-11            
  -0.45                 -5.106e-11            -3.2e-13              1e-13                 5.074e-11            
  -0.5                  -5.102e-11            -2e-13                -4e-14                5.076e-11            
  -0.55                 -5.122e-11            -2.8e-13              2e-14                 5.078e-11            
  -0.6                  -5.13e-11             -2e-13                4e-14                 5.08e-11             
  -0.65                 -5.134e-11            -2.6e-13              8e-14                 5.094e-11            
  -0.7                  -5.14e-11             -2.4e-13              -8e-14                5.1e-11              
  -0.75                 -5.156e-11            -2.2e-13              2e-14                 5.106e-11            
  -0.8                  -5.166e-11            -1.2e-13              0                     5.088e-11            
  -0.85                 -5.156e-11            -1.6e-13              -1.8e-13              5.114e-11            
  -0.9                  -5.18e-11             -4e-14                1.2e-13               5.104e-11            
  -0.95                 -5.186e-11            -1.8e-13              -8e-14                5.118e-11            
  -1                    -5.202e-11            -2e-14                4e-14                 5.112e-11            
  -1.05                 -5.21e-11             1e-13                 6e-14                 5.096e-11            
  -1.1                  -5.202e-11            2.2e-13               4e-14                 5.112e-11            
  -1.15                 -5.226e-11            1.2e-13               4e-14                 5.118e-11            
  -1.2                  -5.236e-11            3.2e-13               -6e-14                5.128e-11            
  -1.25                 -5.244e-11            3.2e-13               -6e-14                5.128e-11            
  -1.3                  -5.278e-11            3.8e-13               8e-14                 5.138e-11            
  -1.35                 -5.278e-11            5.8e-13               -4e-14                5.146e-11            
END_DB

BEGIN_DB
 ICCAP_VAR vg         -0.517         
 ICCAP_VAR vb         1.2            
 ICCAP_VAR vs         -0             

 #vd                    id                    ig                    ib                    is                   
  -0                    5.566e-11             -1.886e-11            -8e-14                -3.682e-11           
  -0.05                 -1.6938e-08           -1.34e-11             4e-14                 1.6976e-08           
  -0.1                  -2.1334e-08           -1.146e-11            -8e-14                2.1366e-08           
  -0.15                 -2.2182e-08           -1.09e-11             -8e-14                2.222e-08            
  -0.2                  -2.2374e-08           -1.07e-11             2e-14                 2.2412e-08           
  -0.25                 -2.2452e-08           -1.066e-11            1.6e-13               2.249e-08            
  -0.3                  -2.2502e-08           -1.08e-11             4e-14                 2.2542e-08           
  -0.35                 -2.2552e-08           -1.068e-11            -2.2e-13              2.2584e-08           
  -0.4                  -2.2584e-08           -1.066e-11            -4e-14                2.262e-08            
  -0.45                 -2.2626e-08           -1.06e-11             -1.2e-13              2.2658e-08           
  -0.5                  -2.2656e-08           -1.066e-11            -6e-14                2.2688e-08           
  -0.55                 -2.268e-08            -1.068e-11            0                     2.2722e-08           
  -0.6                  -2.2712e-08           -1.054e-11            -8e-14                2.2746e-08           
  -0.65                 -2.2738e-08           -1.05e-11             -1e-13                2.2774e-08           
  -0.7                  -2.2758e-08           -1.054e-11            2e-14                 2.2794e-08           
  -0.75                 -2.2776e-08           -1.06e-11             0                     2.2806e-08           
  -0.8                  -2.279e-08            -1.056e-11            -8e-14                2.2828e-08           
  -0.85                 -2.2812e-08           -1.056e-11            -8e-14                2.2846e-08           
  -0.9                  -2.2826e-08           -1.054e-11            -6e-14                2.2856e-08           
  -0.95                 -2.2836e-08           -1.046e-11            4e-14                 2.2872e-08           
  -1                    -2.2848e-08           -1.034e-11            -6e-14                2.288e-08            
  -1.05                 -2.2864e-08           -1.026e-11            -2e-13                2.2898e-08           
  -1.1                  -2.288e-08            -1.034e-11            -1.2e-13              2.291e-08            
  -1.15                 -2.2892e-08           -1.026e-11            0                     2.2924e-08           
  -1.2                  -2.29e-08             -1.02e-11             8e-14                 2.2932e-08           
  -1.25                 -2.291e-08            -1.018e-11            4e-14                 2.2942e-08           
  -1.3                  -2.2918e-08           -1.004e-11            -4e-14                2.2952e-08           
  -1.35                 -2.293e-08            -1.004e-11            6e-14                 2.2958e-08           
END_DB

BEGIN_DB
 ICCAP_VAR vg         -0.717         
 ICCAP_VAR vb         1.2            
 ICCAP_VAR vs         -0             

 #vd                    id                    ig                    ib                    is                   
  -0                    3.4576e-10            -1.5342e-10           0                     -2.012e-10           
  -0.05                 -1.5126e-07           -1.2732e-10           -6e-14                1.5156e-07           
  -0.1                  -2.5582e-07           -1.0882e-10           0                     2.5616e-07           
  -0.15                 -3.177e-07            -9.712e-11            -6e-14                3.1804e-07           
  -0.2                  -3.4618e-07           -9.122e-11            -6e-14                3.4648e-07           
  -0.25                 -3.5564e-07           -8.91e-11             6e-14                 3.5602e-07           
  -0.3                  -3.5842e-07           -8.828e-11            -2e-14                3.5876e-07           
  -0.35                 -3.5964e-07           -8.792e-11            -6e-14                3.5998e-07           
  -0.4                  -3.6044e-07           -8.76e-11             1e-13                 3.607e-07            
  -0.45                 -3.6102e-07           -8.75e-11             1.4e-13               3.613e-07            
  -0.5                  -3.6158e-07           -8.742e-11            1.2e-13               3.6188e-07           
  -0.55                 -3.6208e-07           -8.724e-11            -4e-14                3.6234e-07           
  -0.6                  -3.6244e-07           -8.716e-11            -1.8e-13              3.6276e-07           
  -0.65                 -3.6288e-07           -8.696e-11            -8e-14                3.6314e-07           
  -0.7                  -3.6316e-07           -8.7e-11              -1.2e-13              3.6348e-07           
  -0.75                 -3.6352e-07           -8.684e-11            -2.2e-13              3.6382e-07           
  -0.8                  -3.6386e-07           -8.678e-11            -6e-14                3.6414e-07           
  -0.85                 -3.6412e-07           -8.678e-11            -2e-14                3.644e-07            
  -0.9                  -3.6436e-07           -8.666e-11            -2e-14                3.6466e-07           
  -0.95                 -3.646e-07            -8.66e-11             -1e-13                3.6488e-07           
  -1                    -3.6476e-07           -8.654e-11            -4e-14                3.6506e-07           
  -1.05                 -3.6504e-07           -8.638e-11            -8e-14                3.653e-07            
  -1.1                  -3.6518e-07           -8.638e-11            4e-14                 3.6548e-07           
  -1.15                 -3.6536e-07           -8.624e-11            4e-14                 3.6566e-07           
  -1.2                  -3.6556e-07           -8.616e-11            -4e-14                3.658e-07            
  -1.25                 -3.6568e-07           -8.616e-11            4e-14                 3.6604e-07           
  -1.3                  -3.6586e-07           -8.6e-11              2e-14                 3.661e-07            
  -1.35                 -3.6598e-07           -8.594e-11            6e-14                 3.6626e-07           
END_DB

