! VERSION = 6.00
BEGIN_HEADER
 ICCAP_INPUTS
  vd         V  D GROUND SMU1 0.1 LIN        1    -0         -1.35      28   -0.05     
  vg         V  G GROUND SMU2 0.001 LIN        2    -0.498     -1.35      5    -0.213    
  vb         V  B GROUND SMU4 0.1 CON        -0
  vs         V  S GROUND SMU3 0.1 CON        -0
 ICCAP_OUTPUTS
  id         I  D GROUND SMU1 B
  ig         I  G GROUND SMU2 B
  ib         I  B GROUND SMU4 B
  is         I  S GROUND SMU3 B
 ICCAP_VALUES
  MASTER_SETUP_TYPE "~dc_idvd~"
  LINVT_VALUE "|idvg|100.0n|100.0m|1.000m|5|1.350|"
  LISTVT_VALUE ""
  TYPE "-1"
  TEMP "-40.0000 "
  IS_TNOM " 0.00000 "
  MAIN.W "150.0n"
  MAIN.L "180.0n"
  MAIN.AD "100.5f"
  MAIN.AS "100.5f"
  MAIN.PD "1.340u"
  MAIN.PS "1.340u"
  MAIN.NF "1.000"
  MAIN.M "1"
  MAIN.NRD "0.000"
  MAIN.NRS "0.000"
  MAIN.LDRIFT1 "1E-06"
  MAIN.LDRIFT2 "1E-06"
  MAIN.SA "0.000"
  MAIN.SB "0.000"
  MAIN.SD "0.000"
  MAIN.SCA "0.000"
  MAIN.SCB "0.000"
  MAIN.SCC "0.000"
  MAIN.SC "0.000"
  MODULE "S555"
  PIN_D "20"
  PIN_G "1"
  PIN_S "2"
  PIN_B "19"
  PIN_E ""
  PIN_6 ""
  XY_ID ""
  FUNC "LW Scale"
  STI "SA ref"
  WPE "WPE ref"
  COMMENT ""
  DIS_MEAS ""
  TypeTCI "10"
END_HEADER

BEGIN_DB
 ICCAP_VAR vg         -0.498         
 ICCAP_VAR vb         -0             
 ICCAP_VAR vs         -0             

 #vd                    id                    ig                    ib                    is                   
  -0                    5.3692e-10            -3.8e-13              -3.8e-13              -6.949e-10           
  -0.05                 -3.1364e-07           -2.2e-13              -4.4e-13              3.1398e-07           
  -0.1                  -4.4528e-07           -8e-14                -3.6e-13              4.4518e-07           
  -0.15                 -5.1308e-07           -2.2e-13              -2.6e-13              5.1328e-07           
  -0.2                  -5.5948e-07           -2.2e-13              -3.2e-13              5.5968e-07           
  -0.25                 -5.9668e-07           -2e-13                -4.8e-13              5.9696e-07           
  -0.3                  -6.2918e-07           -1.8e-13              -3.4e-13              6.2934e-07           
  -0.35                 -6.5784e-07           -1.8e-13              -4.6e-13              6.5858e-07           
  -0.4                  -6.856e-07            -1.2e-13              -3.8e-13              6.8588e-07           
  -0.45                 -7.1122e-07           -1.2e-13              -2.2e-13              7.12e-07             
  -0.5                  -7.362e-07            -1.6e-13              -3e-13                7.3688e-07           
  -0.55                 -7.5706e-07           -1.8e-13              -3e-13                7.5722e-07           
  -0.6                  -7.7906e-07           -2e-13                -3e-13                7.8e-07              
  -0.65                 -8.012e-07            -2e-13                -3e-13                8.0136e-07           
  -0.7                  -8.2184e-07           -2.2e-13              -3.8e-13              8.2224e-07           
  -0.75                 -8.4178e-07           -2e-13                -3.6e-13              8.4266e-07           
  -0.8                  -8.614e-07            -2.2e-13              -3.2e-13              8.61e-07             
  -0.85                 -8.794e-07            -1e-13                -3.4e-13              8.8004e-07           
  -0.9                  -9.0248e-07           -1.8e-13              -1.8e-13              9.012e-07            
  -0.95                 -9.2088e-07           -1.2e-13              -3.4e-13              9.2076e-07           
  -1                    -9.3788e-07           -1.8e-13              -2.2e-13              9.3792e-07           
  -1.05                 -9.5468e-07           -1e-13                -3.4e-13              9.5512e-07           
  -1.1                  -9.7076e-07           -2e-14                -5e-13                9.7174e-07           
  -1.15                 -9.875e-07            0                     -2.8e-13              9.8808e-07           
  -1.2                  -1.00364e-06          2e-14                 -1e-13                1.0036e-06           
  -1.25                 -1.01872e-06          -2e-13                -2.4e-13              1.01998e-06          
  -1.3                  -1.03382e-06          -1.6e-13              2e-14                 1.03532e-06          
  -1.35                 -1.05058e-06          2e-14                 1.6e-13               1.05108e-06          
END_DB

BEGIN_DB
 ICCAP_VAR vg         -0.711         
 ICCAP_VAR vb         -0             
 ICCAP_VAR vs         -0             

 #vd                    id                    ig                    ib                    is                   
  -0                    2.5436e-09            -6.2e-13              -3.4e-13              -2.3246e-09          
  -0.05                 -1.8054e-06           -5e-13                -2e-13                1.808e-06            
  -0.1                  -3.1336e-06           -6.2e-13              -2.8e-13              3.1418e-06           
  -0.15                 -4.0508e-06           -3.6e-13              -2.8e-13              4.0542e-06           
  -0.2                  -4.6424e-06           -2.4e-13              -1.8e-13              4.6486e-06           
  -0.25                 -5.0256e-06           -3e-13                -3.6e-13              5.0348e-06           
  -0.3                  -5.3002e-06           -3.4e-13              -2.8e-13              5.3042e-06           
  -0.35                 -5.5094e-06           -1.8e-13              -2.2e-13              5.5138e-06           
  -0.4                  -5.6804e-06           -4.6e-13              -3.2e-13              5.6862e-06           
  -0.45                 -5.8304e-06           -4e-13                -2.8e-13              5.8318e-06           
  -0.5                  -5.9618e-06           -4e-13                -2.4e-13              5.9656e-06           
  -0.55                 -6.0856e-06           -2e-13                -3.4e-13              6.0878e-06           
  -0.6                  -6.1976e-06           -2.6e-13              -2.6e-13              6.2028e-06           
  -0.65                 -6.307e-06            -4e-13                -1.6e-13              6.3124e-06           
  -0.7                  -6.4136e-06           -4e-13                -1e-13                6.417e-06            
  -0.75                 -6.51e-06             -3.6e-13              -3.2e-13              6.5158e-06           
  -0.8                  -6.608e-06            -2.8e-13              -3.2e-13              6.6144e-06           
  -0.85                 -6.7032e-06           -2.6e-13              -3e-13                6.7068e-06           
  -0.9                  -6.7902e-06           -2.8e-13              -1.6e-13              6.7972e-06           
  -0.95                 -6.8802e-06           -3.4e-13              -4e-14                6.8836e-06           
  -1                    -6.96e-06             -2.4e-13              -1.6e-13              6.9682e-06           
  -1.05                 -7.0492e-06           -1.6e-13              -1.6e-13              7.0486e-06           
  -1.1                  -7.1282e-06           -2.2e-13              -3.4e-13              7.1304e-06           
  -1.15                 -7.2074e-06           -4.2e-13              -2e-13                7.2112e-06           
  -1.2                  -7.2832e-06           -4e-13                -1.6e-13              7.2868e-06           
  -1.25                 -7.3598e-06           -2.8e-13              -2.2e-13              7.3636e-06           
  -1.3                  -7.4338e-06           -1.8e-13              -4e-14                7.4386e-06           
  -1.35                 -7.51e-06             -2.8e-13              4e-14                 7.5122e-06           
END_DB

BEGIN_DB
 ICCAP_VAR vg         -0.924         
 ICCAP_VAR vb         -0             
 ICCAP_VAR vs         -0             

 #vd                    id                    ig                    ib                    is                   
  -0                    3.3136e-09            -1.74e-12             -1.8e-13              -3.5396e-09          
  -0.05                 -3.3398e-06           -1.6e-12              -1.2e-13              3.3398e-06           
  -0.1                  -6.2628e-06           -1.48e-12             -1.8e-13              6.1914e-06           
  -0.15                 -8.6308e-06           -1.3e-12              -1.6e-13              8.58e-06             
  -0.2                  -1.05164e-05          -1.26e-12             -2.6e-13              1.05896e-05          
  -0.25                 -1.2128e-05           -1.08e-12             -2e-13                1.206e-05            
  -0.3                  -1.3082e-05           -9.8e-13              -2e-13                1.3204e-05           
  -0.35                 -1.4066e-05           -1.08e-12             -2.6e-13              1.4062e-05           
  -0.4                  -1.465e-05            -7.2e-13              -2.2e-13              1.4728e-05           
  -0.45                 -1.5102e-05           -8.8e-13              -2.6e-13              1.5238e-05           
  -0.5                  -1.555e-05            -9.4e-13              -2.4e-13              1.5518e-05           
  -0.55                 -1.5784e-05           -9.8e-13              -1.2e-13              1.5904e-05           
  -0.6                  -1.621e-05            -9.6e-13              -2.6e-13              1.6244e-05           
  -0.65                 -1.6494e-05           -8.8e-13              -1.4e-13              1.645e-05            
  -0.7                  -1.6722e-05           -7.4e-13              -2e-13                1.661e-05            
  -0.75                 -1.6986e-05           -8e-13                -1.4e-13              1.6864e-05           
  -0.8                  -1.7126e-05           -9e-13                -1.4e-13              1.7178e-05           
  -0.85                 -1.73e-05             -7.4e-13              -1e-13                1.723e-05            
  -0.9                  -1.755e-05            -8.4e-13              -1.4e-13              1.7526e-05           
  -0.95                 -1.7758e-05           -8e-13                -3e-13                1.7712e-05           
  -1                    -1.7866e-05           -7.8e-13              -1.2e-13              1.7932e-05           
  -1.05                 -1.8048e-05           -7.4e-13              -1.6e-13              1.8102e-05           
  -1.1                  -1.8294e-05           -7.4e-13              -1.8e-13              1.8214e-05           
  -1.15                 -1.8404e-05           -7.2e-13              -1e-13                1.8376e-05           
  -1.2                  -1.8526e-05           -8.6e-13              -2.4e-13              1.8478e-05           
  -1.25                 -1.8658e-05           -8.4e-13              -2.2e-13              1.8708e-05           
  -1.3                  -1.875e-05            -7.4e-13              -3.4e-13              1.8874e-05           
  -1.35                 -1.8946e-05           -7.2e-13              -4e-14                1.9028e-05           
END_DB

BEGIN_DB
 ICCAP_VAR vg         -1.137         
 ICCAP_VAR vb         -0             
 ICCAP_VAR vs         -0             

 #vd                    id                    ig                    ib                    is                   
  -0                    3.7712e-09            -4.18e-12             -2.6e-13              -4.4626e-09          
  -0.05                 -4.5734e-06           -3.72e-12             -2e-13                4.5848e-06           
  -0.1                  -8.7536e-06           -3.48e-12             -2.6e-13              8.6984e-06           
  -0.15                 -1.2398e-05           -3.24e-12             -2.4e-13              1.2432e-05           
  -0.2                  -1.5628e-05           -2.94e-12             -1.6e-13              1.5664e-05           
  -0.25                 -1.8462e-05           -2.76e-12             -1e-13                1.8452e-05           
  -0.3                  -2.0786e-05           -2.54e-12             -1e-13                2.075e-05            
  -0.35                 -2.2636e-05           -2.38e-12             -1.2e-13              2.2674e-05           
  -0.4                  -2.422e-05            -2.34e-12             -2e-13                2.4226e-05           
  -0.45                 -2.5446e-05           -2.04e-12             -3e-13                2.5472e-05           
  -0.5                  -2.6536e-05           -2.14e-12             -8e-14                2.6516e-05           
  -0.55                 -2.7286e-05           -2.18e-12             -1.4e-13              2.727e-05            
  -0.6                  -2.7958e-05           -2.04e-12             -6e-14                2.7974e-05           
  -0.65                 -2.856e-05            -2.06e-12             -2.2e-13              2.8628e-05           
  -0.7                  -2.8998e-05           -2.06e-12             -3e-13                2.8962e-05           
  -0.75                 -2.9442e-05           -2.02e-12             -2.4e-13              2.9374e-05           
  -0.8                  -2.9768e-05           -2.04e-12             -1.2e-13              2.9796e-05           
  -0.85                 -3.0164e-05           -1.92e-12             -1.2e-13              3.012e-05            
  -0.9                  -3.0406e-05           -1.92e-12             -2e-13                3.041e-05            
  -0.95                 -3.0806e-05           -1.96e-12             -2.4e-13              3.0752e-05           
  -1                    -3.104e-05            -1.96e-12             -1.8e-13              3.108e-05            
  -1.05                 -3.133e-05            -2.1e-12              -1.2e-13              3.1344e-05           
  -1.1                  -3.1534e-05           -1.92e-12             -2.4e-13              3.1588e-05           
  -1.15                 -3.1846e-05           -1.86e-12             -1.8e-13              3.1902e-05           
  -1.2                  -3.2102e-05           -1.8e-12              -1.4e-13              3.2104e-05           
  -1.25                 -3.2308e-05           -1.96e-12             -2.4e-13              3.2254e-05           
  -1.3                  -3.2566e-05           -1.8e-12              -1.6e-13              3.2542e-05           
  -1.35                 -3.2778e-05           -1.74e-12             -1.2e-13              3.285e-05            
END_DB

BEGIN_DB
 ICCAP_VAR vg         -1.35          
 ICCAP_VAR vb         -0             
 ICCAP_VAR vs         -0             

 #vd                    id                    ig                    ib                    is                   
  -0                    3.5704e-09            -8.9e-12              -2.2e-13              -5.1808e-09          
  -0.05                 -5.4916e-06           -8.28e-12             -8e-14                5.5112e-06           
  -0.1                  -1.06804e-05          -7.7e-12              0                     1.06768e-05          
  -0.15                 -1.5482e-05           -7.16e-12             -3.2e-13              1.5506e-05           
  -0.2                  -1.9818e-05           -6.68e-12             -2.2e-13              1.9832e-05           
  -0.25                 -2.3774e-05           -6.28e-12             -2e-13                2.3818e-05           
  -0.3                  -2.7268e-05           -5.88e-12             -1e-13                2.7278e-05           
  -0.35                 -3.026e-05            -5.54e-12             -1.6e-13              3.0268e-05           
  -0.4                  -3.2906e-05           -5.28e-12             -1.8e-13              3.2934e-05           
  -0.45                 -3.5164e-05           -4.96e-12             -2.4e-13              3.518e-05            
  -0.5                  -3.707e-05            -4.76e-12             -1.8e-13              3.7102e-05           
  -0.55                 -3.8668e-05           -4.84e-12             -2.4e-13              3.868e-05            
  -0.6                  -4.0034e-05           -4.56e-12             -2.6e-13              4.0024e-05           
  -0.65                 -4.1142e-05           -4.52e-12             -3.2e-13              4.1038e-05           
  -0.7                  -4.1956e-05           -4.26e-12             -6e-14                4.1972e-05           
  -0.75                 -4.2756e-05           -4.34e-12             -1.6e-13              4.2772e-05           
  -0.8                  -4.3444e-05           -4.2e-12              -1.6e-13              4.3464e-05           
  -0.85                 -4.405e-05            -4.32e-12             -1.6e-13              4.4038e-05           
  -0.9                  -4.459e-05            -4.18e-12             -1e-13                4.459e-05            
  -0.95                 -4.5066e-05           -4.16e-12             -1.8e-13              4.5074e-05           
  -1                    -4.5476e-05           -3.86e-12             -1.4e-13              4.5496e-05           
  -1.05                 -4.5898e-05           -4e-12                -1.4e-13              4.5884e-05           
  -1.1                  -4.6242e-05           -4.08e-12             -2e-13                4.6272e-05           
  -1.15                 -4.6636e-05           -4.04e-12             -1.4e-13              4.663e-05            
  -1.2                  -4.6962e-05           -4e-12                -2e-14                4.6984e-05           
  -1.25                 -4.731e-05            -3.86e-12             -2.6e-13              4.7324e-05           
  -1.3                  -4.7602e-05           -3.94e-12             -1.8e-13              4.763e-05            
  -1.35                 -4.7918e-05           -3.8e-12              -2e-14                4.7918e-05           
END_DB

