! VERSION = 6.00
BEGIN_HEADER
 ICCAP_INPUTS
  vd         V  D GROUND SMU1 0.1 LIN        1    -0         -1.35      28   -0.05     
  vg         V  G GROUND SMU2 0.001 LIN        2    -0.618     -1.35      5    -0.183    
  vb         V  B GROUND SMU4 0.1 CON        1.2
  vs         V  S GROUND SMU3 0.1 CON        -0
 ICCAP_OUTPUTS
  id         I  D GROUND SMU1 B
  ig         I  G GROUND SMU2 B
  ib         I  B GROUND SMU4 B
  is         I  S GROUND SMU3 B
 ICCAP_VALUES
  MASTER_SETUP_TYPE "~dc_idvd~"
  LINVT_VALUE "|idvg|100.0n|100.0m|1.000m|5|1.350|"
  LISTVT_VALUE ""
  TYPE "-1"
  TEMP " 27.0000 "
  IS_TNOM " 1.00000 "
  MAIN.W "300.0n"
  MAIN.L "500.0n"
  MAIN.AD "102.0f"
  MAIN.AS "102.0f"
  MAIN.PD "1.280u"
  MAIN.PS "1.280u"
  MAIN.NF "1.000"
  MAIN.M "1"
  MAIN.NRD "0.000"
  MAIN.NRS "0.000"
  MAIN.LDRIFT1 "1E-06"
  MAIN.LDRIFT2 "1E-06"
  MAIN.SA "0.000"
  MAIN.SB "0.000"
  MAIN.SD "0.000"
  MAIN.SCA "0.000"
  MAIN.SCB "0.000"
  MAIN.SCC "0.000"
  MAIN.SC "0.000"
  MODULE "S553"
  PIN_D "20"
  PIN_G "1"
  PIN_S "2"
  PIN_B "19"
  PIN_E ""
  PIN_6 ""
  XY_ID ""
  FUNC "LW Scale"
  STI "SA ref"
  WPE "WPE ref"
  COMMENT ""
  DIS_MEAS ""
  TypeTCI "10"
END_HEADER

BEGIN_DB
 ICCAP_VAR vg         -0.618         
 ICCAP_VAR vb         1.2            
 ICCAP_VAR vs         -0             

 #vd                    id                    ig                    ib                    is                   
  -0                    3.251e-10             -7.6e-13              5.6e-13               -3.8494e-10          
  -0.05                 -2.0382e-07           -6e-13                3.4e-13               2.0394e-07           
  -0.1                  -3.0132e-07           -5.8e-13              4e-13                 3.0236e-07           
  -0.15                 -3.4128e-07           -5e-13                4.2e-13               3.411e-07            
  -0.2                  -3.588e-07            -4.8e-13              4e-13                 3.5922e-07           
  -0.25                 -3.6954e-07           -3.6e-13              3.2e-13               3.6958e-07           
  -0.3                  -3.7774e-07           -4.8e-13              3.4e-13               3.7792e-07           
  -0.35                 -3.8482e-07           -5e-13                2.2e-13               3.856e-07            
  -0.4                  -3.9188e-07           -4.8e-13              2.4e-13               3.919e-07            
  -0.45                 -3.9778e-07           -4.8e-13              2.2e-13               3.9794e-07           
  -0.5                  -4.0354e-07           -4e-13                3e-13                 4.0388e-07           
  -0.55                 -4.089e-07            -4.6e-13              2.8e-13               4.0874e-07           
  -0.6                  -4.1354e-07           -5e-13                3.4e-13               4.1282e-07           
  -0.65                 -4.172e-07            -4e-13                3.6e-13               4.1892e-07           
  -0.7                  -4.2294e-07           -4.2e-13              1.2e-13               4.2312e-07           
  -0.75                 -4.2716e-07           -5e-13                3e-13                 4.2742e-07           
  -0.8                  -4.318e-07            -3.8e-13              1.4e-13               4.3188e-07           
  -0.85                 -4.3528e-07           -3.4e-13              2.6e-13               4.3496e-07           
  -0.9                  -4.3888e-07           -3.8e-13              2.4e-13               4.3936e-07           
  -0.95                 -4.4134e-07           -3.8e-13              8e-14                 4.4228e-07           
  -1                    -4.4562e-07           -4.2e-13              3e-13                 4.4604e-07           
  -1.05                 -4.4892e-07           -4.4e-13              2.8e-13               4.493e-07            
  -1.1                  -4.5226e-07           -4.4e-13              8e-14                 4.5272e-07           
  -1.15                 -4.5526e-07           -3.8e-13              6e-14                 4.5514e-07           
  -1.2                  -4.5776e-07           -3.4e-13              1.2e-13               4.5822e-07           
  -1.25                 -4.6088e-07           -3.4e-13              1.6e-13               4.6112e-07           
  -1.3                  -4.6338e-07           -3.4e-13              2.2e-13               4.6348e-07           
  -1.35                 -4.6648e-07           -3.8e-13              3e-13                 4.6668e-07           
END_DB

BEGIN_DB
 ICCAP_VAR vg         -0.801         
 ICCAP_VAR vb         1.2            
 ICCAP_VAR vs         -0             

 #vd                    id                    ig                    ib                    is                   
  -0                    1.0896e-09            -2.16e-12             8e-14                 -1.0646e-09          
  -0.05                 -7.0428e-07           -2.02e-12             1.8e-13               7.0566e-07           
  -0.1                  -1.2464e-06           -1.68e-12             1.4e-13               1.2504e-06           
  -0.15                 -1.633e-06            -1.52e-12             4e-14                 1.6372e-06           
  -0.2                  -1.8846e-06           -1.52e-12             0                     1.8872e-06           
  -0.25                 -2.02e-06             -1.38e-12             -2e-14                2.026e-06            
  -0.3                  -2.1076e-06           -1.42e-12             1e-13                 2.1132e-06           
  -0.35                 -2.1608e-06           -1.38e-12             8e-14                 2.1612e-06           
  -0.4                  -2.2008e-06           -1.26e-12             6e-14                 2.2018e-06           
  -0.45                 -2.2266e-06           -1.34e-12             1e-13                 2.2294e-06           
  -0.5                  -2.2538e-06           -1.36e-12             1.4e-13               2.2574e-06           
  -0.55                 -2.2796e-06           -1.28e-12             0                     2.2866e-06           
  -0.6                  -2.3026e-06           -1.22e-12             8e-14                 2.3104e-06           
  -0.65                 -2.3224e-06           -1.24e-12             1.6e-13               2.3222e-06           
  -0.7                  -2.3404e-06           -1.3e-12              2e-14                 2.349e-06            
  -0.75                 -2.3636e-06           -1.2e-12              8e-14                 2.3674e-06           
  -0.8                  -2.3802e-06           -1.32e-12             6e-14                 2.3858e-06           
  -0.85                 -2.3974e-06           -1.22e-12             1.4e-13               2.4056e-06           
  -0.9                  -2.4188e-06           -1.24e-12             8e-14                 2.4226e-06           
  -0.95                 -2.4398e-06           -1.24e-12             2e-14                 2.4482e-06           
  -1                    -2.4576e-06           -1.08e-12             2e-14                 2.4538e-06           
  -1.05                 -2.4646e-06           -1.18e-12             1e-13                 2.4726e-06           
  -1.1                  -2.4882e-06           -1.3e-12              1.8e-13               2.4846e-06           
  -1.15                 -2.5002e-06           -1.22e-12             1e-13                 2.5034e-06           
  -1.2                  -2.5138e-06           -1.28e-12             4e-14                 2.5172e-06           
  -1.25                 -2.5272e-06           -1.28e-12             6e-14                 2.532e-06            
  -1.3                  -2.5446e-06           -1.18e-12             6e-14                 2.5436e-06           
  -1.35                 -2.554e-06            -1.14e-12             -2e-14                2.5544e-06           
END_DB

BEGIN_DB
 ICCAP_VAR vg         -0.984         
 ICCAP_VAR vb         1.2            
 ICCAP_VAR vs         -0             

 #vd                    id                    ig                    ib                    is                   
  -0                    1.7894e-09            -5.82e-12             -8e-14                -1.5628e-09          
  -0.05                 -1.2256e-06           -5.18e-12             6e-14                 1.229e-06            
  -0.1                  -2.2966e-06           -4.72e-12             1e-13                 2.299e-06            
  -0.15                 -3.2018e-06           -4.38e-12             1e-13                 3.2064e-06           
  -0.2                  -3.948e-06            -3.94e-12             0                     3.9508e-06           
  -0.25                 -4.534e-06            -3.74e-12             -1e-13                4.538e-06            
  -0.3                  -4.971e-06            -3.52e-12             4e-14                 4.976e-06            
  -0.35                 -5.2748e-06           -3.4e-12              1.6e-13               5.2818e-06           
  -0.4                  -5.484e-06            -3.32e-12             2e-14                 5.4846e-06           
  -0.45                 -5.6196e-06           -3.32e-12             -6e-14                5.6248e-06           
  -0.5                  -5.7174e-06           -3.16e-12             2e-14                 5.7208e-06           
  -0.55                 -5.7976e-06           -3.14e-12             1.8e-13               5.804e-06            
  -0.6                  -5.8598e-06           -3.1e-12              4e-14                 5.8666e-06           
  -0.65                 -5.915e-06            -3.22e-12             2e-14                 5.9194e-06           
  -0.7                  -5.962e-06            -3.26e-12             -4e-14                5.9748e-06           
  -0.75                 -6.0164e-06           -3.08e-12             0                     6.0124e-06           
  -0.8                  -6.0524e-06           -3.08e-12             0                     6.0612e-06           
  -0.85                 -6.0996e-06           -3.1e-12              -1.4e-13              6.1042e-06           
  -0.9                  -6.1466e-06           -3.02e-12             8e-14                 6.141e-06            
  -0.95                 -6.1746e-06           -3.08e-12             1.6e-13               6.1806e-06           
  -1                    -6.209e-06            -2.98e-12             6e-14                 6.2136e-06           
  -1.05                 -6.2428e-06           -3.02e-12             -2e-14                6.2462e-06           
  -1.1                  -6.2742e-06           -3.06e-12             0                     6.2806e-06           
  -1.15                 -6.3072e-06           -3.02e-12             6e-14                 6.3064e-06           
  -1.2                  -6.3324e-06           -2.98e-12             -6e-14                6.3356e-06           
  -1.25                 -6.3642e-06           -3.04e-12             4e-14                 6.3666e-06           
  -1.3                  -6.3958e-06           -3e-12                2e-14                 6.3984e-06           
  -1.35                 -6.4222e-06           -2.98e-12             4e-14                 6.423e-06            
END_DB

BEGIN_DB
 ICCAP_VAR vg         -1.167         
 ICCAP_VAR vb         1.2            
 ICCAP_VAR vs         -0             

 #vd                    id                    ig                    ib                    is                   
  -0                    2.1298e-09            -1.256e-11            6e-14                 -1.9006e-09          
  -0.05                 -1.6874e-06           -1.156e-11            -4e-14                1.688e-06            
  -0.1                  -3.2294e-06           -1.064e-11            -4e-14                3.2326e-06           
  -0.15                 -4.6228e-06           -9.78e-12             8e-14                 4.6278e-06           
  -0.2                  -5.865e-06            -9.1e-12              2e-14                 5.8668e-06           
  -0.25                 -6.9602e-06           -8.46e-12             1e-13                 6.9648e-06           
  -0.3                  -7.9026e-06           -7.98e-12             0                     7.9206e-06           
  -0.35                 -8.6914e-06           -7.62e-12             4e-14                 8.698e-06            
  -0.4                  -9.32e-06             -7.28e-12             -6e-14                9.3226e-06           
  -0.45                 -9.8066e-06           -7e-12                1.4e-13               9.8086e-06           
  -0.5                  -1.017e-05            -6.86e-12             2e-14                 1.01854e-05          
  -0.55                 -1.04578e-05          -6.68e-12             4e-14                 1.04674e-05          
  -0.6                  -1.06546e-05          -6.6e-12              6e-14                 1.06438e-05          
  -0.65                 -1.07812e-05          -6.6e-12              -2e-14                1.07854e-05          
  -0.7                  -1.09006e-05          -6.44e-12             0                     1.09106e-05          
  -0.75                 -1.10082e-05          -6.44e-12             4e-14                 1.1007e-05           
  -0.8                  -1.108e-05            -6.26e-12             -1.4e-13              1.1094e-05           
  -0.85                 -1.1162e-05           -6.3e-12              0                     1.1184e-05           
  -0.9                  -1.1256e-05           -6.36e-12             2e-14                 1.12726e-05          
  -0.95                 -1.1326e-05           -6.32e-12             0                     1.13396e-05          
  -1                    -1.1392e-05           -6.24e-12             -4e-14                1.1405e-05           
  -1.05                 -1.145e-05            -6.24e-12             2e-14                 1.1466e-05           
  -1.1                  -1.151e-05            -6.08e-12             2e-14                 1.1532e-05           
  -1.15                 -1.156e-05            -6.14e-12             1.2e-13               1.1588e-05           
  -1.2                  -1.1622e-05           -6.26e-12             -4e-14                1.1646e-05           
  -1.25                 -1.1676e-05           -6.16e-12             -4e-14                1.1696e-05           
  -1.3                  -1.1726e-05           -6.24e-12             1e-13                 1.1744e-05           
  -1.35                 -1.1774e-05           -6.18e-12             4e-14                 1.1794e-05           
END_DB

BEGIN_DB
 ICCAP_VAR vg         -1.35          
 ICCAP_VAR vb         1.2            
 ICCAP_VAR vs         -0             

 #vd                    id                    ig                    ib                    is                   
  -0                    2.653e-09             -2.548e-11            1e-13                 -2.3318e-09          
  -0.05                 -2.075e-06            -2.29e-11             -6e-14                2.0808e-06           
  -0.1                  -4.0338e-06           -2.078e-11            4e-14                 4.0404e-06           
  -0.15                 -5.8622e-06           -1.922e-11            1.4e-13               5.8712e-06           
  -0.2                  -7.5566e-06           -1.778e-11            1.2e-13               7.5546e-06           
  -0.25                 -9.1116e-06           -1.648e-11            6e-14                 9.113e-06            
  -0.3                  -1.05152e-05          -1.558e-11            1.2e-13               1.05242e-05          
  -0.35                 -1.1764e-05           -1.472e-11            -6e-14                1.1802e-05           
  -0.4                  -1.2888e-05           -1.402e-11            8e-14                 1.2914e-05           
  -0.45                 -1.3862e-05           -1.354e-11            6e-14                 1.3884e-05           
  -0.5                  -1.468e-05            -1.298e-11            8e-14                 1.471e-05            
  -0.55                 -1.5366e-05           -1.254e-11            8e-14                 1.5382e-05           
  -0.6                  -1.5894e-05           -1.222e-11            0                     1.5914e-05           
  -0.65                 -1.6322e-05           -1.2e-11              4e-14                 1.6366e-05           
  -0.7                  -1.6696e-05           -1.192e-11            2e-14                 1.6722e-05           
  -0.75                 -1.694e-05            -1.176e-11            -8e-14                1.6986e-05           
  -0.8                  -1.7168e-05           -1.158e-11            -4e-14                1.7188e-05           
  -0.85                 -1.7322e-05           -1.148e-11            -2e-14                1.7352e-05           
  -0.9                  -1.7474e-05           -1.138e-11            -8e-14                1.7486e-05           
  -0.95                 -1.7584e-05           -1.124e-11            -8e-14                1.76e-05             
  -1                    -1.7686e-05           -1.14e-11             -4e-14                1.7704e-05           
  -1.05                 -1.781e-05            -1.122e-11            4e-14                 1.7836e-05           
  -1.1                  -1.7908e-05           -1.118e-11            -8e-14                1.7876e-05           
  -1.15                 -1.7972e-05           -1.108e-11            -1.8e-13              1.7986e-05           
  -1.2                  -1.8054e-05           -1.104e-11            1.4e-13               1.8066e-05           
  -1.25                 -1.8124e-05           -1.102e-11            6e-14                 1.8142e-05           
  -1.3                  -1.8214e-05           -1.112e-11            -1e-13                1.8224e-05           
  -1.35                 -1.8282e-05           -1.1e-11              -2e-14                1.8314e-05           
END_DB

