! VERSION = 6.00
BEGIN_HEADER
 ICCAP_INPUTS
  vg         V  G GROUND SMU2 0.001 LIN        1    0.5        -1.35      38   -0.05     
  vb         V  B GROUND SMU4 0.1 LIN        2    0          1.2        7    0.2       
  vd         V  D GROUND SMU1 0.1 LIST       3 3 -0.05 -0.6 -1.2
  vs         V  S GROUND SMU3 0.1 CON        -0
 ICCAP_OUTPUTS
  id         I  D GROUND SMU1 B
  ig         I  G GROUND SMU2 B
  ib         I  B GROUND SMU4 B
  is         I  S GROUND SMU3 B
 ICCAP_VALUES
  MASTER_SETUP_TYPE "~dc_idvg~"
  LINVT_VALUE ""
  LISTVT_VALUE ""
  TYPE "-1"
  TEMP " 27.0000 "
  IS_TNOM " 1.00000 "
  MAIN.W "600.0n"
  MAIN.L "10.00u"
  MAIN.AD "204.0f"
  MAIN.AS "204.0f"
  MAIN.PD "1.880u"
  MAIN.PS "1.880u"
  MAIN.NF "1.000"
  MAIN.M "1"
  MAIN.NRD "0.000"
  MAIN.NRS "0.000"
  MAIN.LDRIFT1 "1E-06"
  MAIN.LDRIFT2 "1E-06"
  MAIN.SA "0.000"
  MAIN.SB "0.000"
  MAIN.SD "0.000"
  MAIN.SCA "0.000"
  MAIN.SCB "0.000"
  MAIN.SCC "0.000"
  MAIN.SC "0.000"
  MODULE "S552"
  PIN_D "20"
  PIN_G "1"
  PIN_S "2"
  PIN_B "19"
  PIN_E ""
  PIN_6 ""
  XY_ID ""
  FUNC "W Scale"
  STI "SA ref"
  WPE "WPE ref"
  COMMENT ""
  DIS_MEAS ""
  TypeTCI "10"
END_HEADER

BEGIN_DB
 ICCAP_VAR vb         0              
 ICCAP_VAR vd         -0.05          
 ICCAP_VAR vs         -0             

 #vg                    id                    ig                    ib                    is                   
  0.5                   2e-14                 1.898e-11             -5.6e-12              -8e-14               
  0.45                  -1.4e-13              3.14e-12              -2e-12                4e-14                
  0.4                   -2e-14                6.2e-13               -1.34e-12             2e-14                
  0.35                  0                     8e-14                 -1.24e-12             2e-14                
  0.3                   -4e-14                -2e-14                -1.08e-12             6e-14                
  0.25                  -6e-14                -1e-13                -1.2e-12              6e-14                
  0.2                   -1e-13                -3.2e-13              -1.18e-12             1.6e-13              
  0.15                  -4e-14                -2.2e-13              -1.22e-12             4e-14                
  0.1                   -1.4e-13              -3.2e-13              -1.04e-12             1.4e-13              
  0.05                  -1.6e-13              -3.4e-13              -1.14e-12             1.4e-13              
  0                     -2.6e-13              -3.6e-13              -1.16e-12             3.8e-13              
  -0.05                 -1.44e-12             -4e-13                -1.04e-12             1.52e-12             
  -0.1                  -6.82e-12             -4.4e-13              -1.1e-12              6.82e-12             
  -0.15                 -3.344e-11            -4.8e-13              -1.02e-12             3.346e-11            
  -0.2                  -1.6436e-10           -4e-13                -1.12e-12             1.643e-10            
  -0.25                 -7.6284e-10           -6e-13                -9e-13                7.6254e-10           
  -0.3                  -2.98e-09             -7.8e-13              -1.28e-12             2.9802e-09           
  -0.35                 -8.6808e-09           -1.7e-12              -9.8e-13              8.6836e-09           
  -0.4                  -1.8758e-08           -3.2e-12              -1.04e-12             1.8778e-08           
  -0.45                 -3.2288e-08           -5.74e-12             -1e-12                3.2316e-08           
  -0.5                  -4.7866e-08           -9.48e-12             -1.04e-12             4.7894e-08           
  -0.55                 -6.4346e-08           -1.494e-11            -9.6e-13              6.4388e-08           
  -0.6                  -8.1108e-08           -2.25e-11             -1.06e-12             8.1144e-08           
  -0.65                 -9.7744e-08           -3.256e-11            -1.02e-12             9.781e-08            
  -0.7                  -1.1405e-07           -4.598e-11            -1.04e-12             1.14104e-07          
  -0.75                 -1.2976e-07           -6.34e-11             -1.02e-12             1.2998e-07           
  -0.8                  -1.4502e-07           -8.586e-11            -9.4e-13              1.4526e-07           
  -0.85                 -1.5968e-07           -1.1354e-10           -8.2e-13              1.5994e-07           
  -0.9                  -1.737e-07            -1.4774e-10           -1.08e-12             1.74e-07             
  -0.95                 -1.8704e-07           -1.8856e-10           -9.2e-13              1.8742e-07           
  -1                    -1.9986e-07           -2.3742e-10           -1.02e-12             2.0026e-07           
  -1.05                 -2.1198e-07           -2.9648e-10           -8.6e-13              2.124e-07            
  -1.1                  -2.2346e-07           -3.6204e-10           -9.6e-13              2.2398e-07           
  -1.15                 -2.3442e-07           -4.3904e-10           -8.2e-13              2.35e-07             
  -1.2                  -2.4478e-07           -5.2732e-10           -6.4e-13              2.4546e-07           
  -1.25                 -2.5458e-07           -6.289e-10            8e-14                 2.5536e-07           
  -1.3                  -2.6384e-07           -7.4362e-10           1.38e-12              2.6472e-07           
  -1.35                 -2.7256e-07           -8.7376e-10           3.84e-12              2.7358e-07           
END_DB

BEGIN_DB
 ICCAP_VAR vb         0.2            
 ICCAP_VAR vd         -0.05          
 ICCAP_VAR vs         -0             

 #vg                    id                    ig                    ib                    is                   
  0.5                   -8e-14                6.2e-13               0                     -6e-14               
  0.45                  0                     3.2e-13               -4e-14                2e-14                
  0.4                   -1.6e-13              1.6e-13               -1e-13                0                    
  0.35                  0                     0                     1.6e-13               -4e-14               
  0.3                   -2e-14                -8e-14                -4e-14                1.2e-13              
  0.25                  -8e-14                -1.8e-13              2e-14                 0                    
  0.2                   0                     -1.6e-13              0                     2e-14                
  0.15                  -4e-14                -2e-13                0                     2e-14                
  0.1                   -4e-14                -2.2e-13              -6e-14                1.2e-13              
  0.05                  0                     -2.8e-13              -4e-14                -4e-14               
  0                     0                     -3.6e-13              0                     1.6e-13              
  -0.05                 -4.4e-13              -3.6e-13              -1e-13                5.6e-13              
  -0.1                  -2e-12                -4.2e-13              6e-14                 1.92e-12             
  -0.15                 -9.92e-12             -3.8e-13              -2e-13                1.03e-11             
  -0.2                  -5.106e-11            -5e-13                8e-14                 5.114e-11            
  -0.25                 -2.5526e-10           -4.4e-13              -2e-13                2.5562e-10           
  -0.3                  -1.1632e-09           -5.8e-13              2e-14                 1.1648e-09           
  -0.35                 -4.218e-09            -1.26e-12             -1.2e-13              4.2182e-09           
  -0.4                  -1.11474e-08          -2.58e-12             -1e-13                1.11476e-08          
  -0.45                 -2.214e-08            -4.8e-12              -4e-14                2.2162e-08           
  -0.5                  -3.604e-08            -8.46e-12             -8e-14                3.6054e-08           
  -0.55                 -5.1438e-08           -1.372e-11            -2.4e-13              5.1476e-08           
  -0.6                  -6.7542e-08           -2.114e-11            -2e-14                6.759e-08            
  -0.65                 -8.3758e-08           -3.118e-11            -8e-14                8.3806e-08           
  -0.7                  -9.9774e-08           -4.448e-11            -1.2e-13              9.9848e-08           
  -0.75                 -1.153e-07            -6.156e-11            -2e-13                1.1554e-07           
  -0.8                  -1.3046e-07           -8.358e-11            -4e-14                1.3072e-07           
  -0.85                 -1.4508e-07           -1.109e-10            -4e-14                1.4532e-07           
  -0.9                  -1.5908e-07           -1.4462e-10           -4e-14                1.5938e-07           
  -0.95                 -1.7248e-07           -1.8518e-10           -8e-14                1.7282e-07           
  -1                    -1.8528e-07           -2.3388e-10           -2e-14                1.8568e-07           
  -1.05                 -1.975e-07            -2.9154e-10           -1.2e-13              1.9796e-07           
  -1.1                  -2.091e-07            -3.5824e-10           -6e-14                2.0962e-07           
  -1.15                 -2.2012e-07           -4.3466e-10           4e-14                 2.2072e-07           
  -1.2                  -2.3054e-07           -5.2268e-10           2.2e-13               2.3122e-07           
  -1.25                 -2.4048e-07           -6.2444e-10           1.04e-12              2.4124e-07           
  -1.3                  -2.4982e-07           -7.3846e-10           2.04e-12              2.507e-07            
  -1.35                 -2.5866e-07           -8.6744e-10           4.8e-12               2.5964e-07           
END_DB

BEGIN_DB
 ICCAP_VAR vb         0.4            
 ICCAP_VAR vd         -0.05          
 ICCAP_VAR vs         -0             

 #vg                    id                    ig                    ib                    is                   
  0.5                   -4e-14                5.6e-13               -4e-14                6e-14                
  0.45                  -6e-14                3.8e-13               1.2e-13               -6e-14               
  0.4                   -6e-14                1.4e-13               -2e-14                4e-14                
  0.35                  -6e-14                -2e-14                0                     6e-14                
  0.3                   0                     -1e-13                2e-14                 6e-14                
  0.25                  1.2e-13               -1.4e-13              -6e-14                1e-13                
  0.2                   0                     -1e-13                2e-14                 1e-13                
  0.15                  2e-14                 -2.4e-13              -6e-14                8e-14                
  0.1                   6e-14                 -3.2e-13              -2e-14                8e-14                
  0.05                  0                     -2.8e-13              -1.2e-13              8e-14                
  0                     -6e-14                -3.4e-13              2e-14                 1.4e-13              
  -0.05                 -6e-14                -4e-13                -2e-14                3e-13                
  -0.1                  -6.6e-13              -3.8e-13              0                     6e-13                
  -0.15                 -3.36e-12             -4.6e-13              2e-14                 3.34e-12             
  -0.2                  -1.706e-11            -5.2e-13              -2e-14                1.712e-11            
  -0.25                 -8.872e-11            -4.4e-13              -1e-13                8.874e-11            
  -0.3                  -4.4242e-10           -7.6e-13              0                     4.4216e-10           
  -0.35                 -1.9012e-09           -9.4e-13              -1.6e-13              1.902e-09            
  -0.4                  -6.1682e-09           -2.04e-12             -2e-14                6.1664e-09           
  -0.45                 -1.4476e-08           -3.98e-12             -1.2e-13              1.45e-08             
  -0.5                  -2.6396e-08           -7.44e-12             -8e-14                2.6424e-08           
  -0.55                 -4.0532e-08           -1.242e-11            -1e-13                4.0568e-08           
  -0.6                  -5.5826e-08           -1.96e-11             2e-14                 5.586e-08            
  -0.65                 -7.1514e-08           -2.938e-11            -1.6e-13              7.1556e-08           
  -0.7                  -8.7196e-08           -4.258e-11            -4e-14                8.7268e-08           
  -0.75                 -1.02598e-07          -5.952e-11            -4e-14                1.02682e-07          
  -0.8                  -1.1754e-07           -8.108e-11            -2e-14                1.1778e-07           
  -0.85                 -1.3208e-07           -1.0824e-10           -8e-14                1.3236e-07           
  -0.9                  -1.4606e-07           -1.4178e-10           -8e-14                1.4634e-07           
  -0.95                 -1.5944e-07           -1.8176e-10           -8e-14                1.5978e-07           
  -1                    -1.7224e-07           -2.3032e-10           2e-14                 1.7262e-07           
  -1.05                 -1.8448e-07           -2.8734e-10           -6e-14                1.8496e-07           
  -1.1                  -1.9612e-07           -3.538e-10            4e-14                 1.966e-07            
  -1.15                 -2.0716e-07           -4.303e-10            6e-14                 2.0778e-07           
  -1.2                  -2.1768e-07           -5.1726e-10           3.4e-13               2.1836e-07           
  -1.25                 -2.2772e-07           -6.1878e-10           8.8e-13               2.285e-07            
  -1.3                  -2.3716e-07           -7.3292e-10           2.22e-12              2.3804e-07           
  -1.35                 -2.4606e-07           -8.625e-10            4.54e-12              2.4708e-07           
END_DB

BEGIN_DB
 ICCAP_VAR vb         0.6            
 ICCAP_VAR vd         -0.05          
 ICCAP_VAR vs         -0             

 #vg                    id                    ig                    ib                    is                   
  0.5                   -6e-14                6.4e-13               6e-14                 -6e-14               
  0.45                  2e-14                 2.8e-13               2e-14                 8e-14                
  0.4                   -6e-14                1.6e-13               2e-14                 0                    
  0.35                  -2e-14                8e-14                 1e-13                 6e-14                
  0.3                   0                     -4e-14                0                     0                    
  0.25                  0                     -1.8e-13              8e-14                 -8e-14               
  0.2                   2e-14                 -1.8e-13              -1.2e-13              8e-14                
  0.15                  4e-14                 -2.8e-13              0                     8e-14                
  0.1                   2e-14                 -3e-13                -4e-14                0                    
  0.05                  0                     -3e-13                -4e-14                1e-13                
  0                     2e-14                 -3.4e-13              8e-14                 2e-14                
  -0.05                 2e-14                 -4.4e-13              -1.4e-13              1.8e-13              
  -0.1                  -2e-13                -3.8e-13              8e-14                 2.4e-13              
  -0.15                 -1.1e-12              -3.8e-13              -1.6e-13              1.34e-12             
  -0.2                  -6e-12                -4.2e-13              -1e-13                6.1e-12              
  -0.25                 -3.218e-11            -5e-13                -4e-14                3.236e-11            
  -0.3                  -1.6842e-10           -6.6e-13              -4e-14                1.6864e-10           
  -0.35                 -8.1226e-10           -8e-13                -6e-14                8.1226e-10           
  -0.4                  -3.166e-09            -1.5e-12              -8e-14                3.1678e-09           
  -0.45                 -8.9382e-09           -3.24e-12             -8e-14                8.9394e-09           
  -0.5                  -1.8644e-08           -6.4e-12              -4e-14                1.8678e-08           
  -0.55                 -3.13e-08             -1.108e-11            -1.4e-13              3.1332e-08           
  -0.6                  -4.5614e-08           -1.802e-11            -2e-14                4.5652e-08           
  -0.65                 -6.0684e-08           -2.77e-11             -6e-14                6.0734e-08           
  -0.7                  -7.5956e-08           -4.032e-11            -6e-14                7.6028e-08           
  -0.75                 -9.1102e-08           -5.716e-11            -1.6e-13              9.1172e-08           
  -0.8                  -1.05936e-07          -7.874e-11            -8e-14                1.06042e-07          
  -0.85                 -1.2028e-07           -1.0516e-10           -6e-14                1.2054e-07           
  -0.9                  -1.342e-07            -1.3826e-10           0                     1.345e-07            
  -0.95                 -1.4758e-07           -1.785e-10            -1.2e-13              1.4792e-07           
  -1                    -1.6038e-07           -2.263e-10            -4e-14                1.608e-07            
  -1.05                 -1.726e-07            -2.8302e-10           -4e-14                1.7304e-07           
  -1.1                  -1.843e-07            -3.4926e-10           -2e-14                1.8482e-07           
  -1.15                 -1.9544e-07           -4.2564e-10           1.6e-13               1.9604e-07           
  -1.2                  -2.06e-07             -5.1324e-10           3.8e-13               2.067e-07            
  -1.25                 -2.1608e-07           -6.1318e-10           1.02e-12              2.1686e-07           
  -1.3                  -2.256e-07            -7.2764e-10           2.2e-12               2.2644e-07           
  -1.35                 -2.3468e-07           -8.5656e-10           4.7e-12               2.356e-07            
END_DB

BEGIN_DB
 ICCAP_VAR vb         0.8            
 ICCAP_VAR vd         -0.05          
 ICCAP_VAR vs         -0             

 #vg                    id                    ig                    ib                    is                   
  0.5                   -4e-14                5.6e-13               1e-13                 0                    
  0.45                  2e-14                 1.8e-13               6e-14                 -6e-14               
  0.4                   4e-14                 1.4e-13               0                     -2e-14               
  0.35                  8e-14                 0                     8e-14                 -8e-14               
  0.3                   6e-14                 -1.2e-13              0                     6e-14                
