! VERSION = 6.00
BEGIN_HEADER
 ICCAP_INPUTS
  vd         V  D GROUND SMU1 0.1 LIN        1    -0         -1.35      28   -0.05     
  vg         V  G GROUND SMU2 0.001 LIN        2    -0.634     -1.35      5    -0.179    
  vb         V  B GROUND SMU4 0.1 CON        1.2
  vs         V  S GROUND SMU3 0.1 CON        -0
 ICCAP_OUTPUTS
  id         I  D GROUND SMU1 B
  ig         I  G GROUND SMU2 B
  ib         I  B GROUND SMU4 B
  is         I  S GROUND SMU3 B
 ICCAP_VALUES
  MASTER_SETUP_TYPE "~dc_idvd~"
  LINVT_VALUE "|idvg|100.0n|100.0m|1.000m|5|1.350|"
  LISTVT_VALUE ""
  TYPE "-1"
  TEMP " 27.0000 "
  IS_TNOM " 1.00000 "
  MAIN.W "10.00u"
  MAIN.L "130.0n"
  MAIN.AD "3.400p"
  MAIN.AS "3.400p"
  MAIN.PD "20.68u"
  MAIN.PS "20.68u"
  MAIN.NF "1.000"
  MAIN.M "1"
  MAIN.NRD "0.000"
  MAIN.NRS "0.000"
  MAIN.LDRIFT1 "1E-06"
  MAIN.LDRIFT2 "1E-06"
  MAIN.SA "0.000"
  MAIN.SB "0.000"
  MAIN.SD "0.000"
  MAIN.SCA "0.000"
  MAIN.SCB "0.000"
  MAIN.SCC "0.000"
  MAIN.SC "0.000"
  MODULE "S548"
  PIN_D "18"
  PIN_G "3"
  PIN_S "4"
  PIN_B "17"
  PIN_E ""
  PIN_6 ""
  XY_ID ""
  FUNC "Short"
  STI "SA ref"
  WPE "WPE ref"
  COMMENT ""
  DIS_MEAS ""
  TypeTCI "10"
END_HEADER

BEGIN_DB
 ICCAP_VAR vg         -0.634         
 ICCAP_VAR vb         1.2            
 ICCAP_VAR vs         -0             

 #vd                    id                    ig                    ib                    is                   
  -0                    2.6898e-08            -1.128e-11            6.2e-13               -3.0218e-08          
  -0.05                 -1.6432e-05           -9.4e-12              5e-13                 1.6456e-05           
  -0.1                  -2.5108e-05           -8.56e-12             4.2e-13               2.5132e-05           
  -0.15                 -3.0002e-05           -7.94e-12             3.6e-13               3.0032e-05           
  -0.2                  -3.336e-05            -7.38e-12             5e-13                 3.3382e-05           
  -0.25                 -3.6068e-05           -7.08e-12             5.4e-13               3.6098e-05           
  -0.3                  -3.8552e-05           -6.86e-12             4.4e-13               3.8556e-05           
  -0.35                 -4.0894e-05           -6.62e-12             4e-13                 4.0904e-05           
  -0.4                  -4.3182e-05           -6.66e-12             3.6e-13               4.3174e-05           
  -0.45                 -4.5418e-05           -6.46e-12             3.2e-13               4.5442e-05           
  -0.5                  -4.763e-05            -6.44e-12             2.8e-13               4.7626e-05           
  -0.55                 -4.9944e-05           -6.34e-12             3.2e-13               4.994e-05            
  -0.6                  -5.2214e-05           -6.36e-12             3.6e-13               5.2232e-05           
  -0.65                 -5.4526e-05           -6.24e-12             2.8e-13               5.4602e-05           
  -0.7                  -5.6936e-05           -6.22e-12             2.8e-13               5.693e-05            
  -0.75                 -5.9308e-05           -6.18e-12             3e-13                 5.928e-05            
  -0.8                  -6.171e-05            -6e-12                2.8e-13               6.1736e-05           
  -0.85                 -6.4132e-05           -5.9e-12              3.2e-13               6.4186e-05           
  -0.9                  -6.6728e-05           -5.9e-12              4.6e-13               6.6756e-05           
  -0.95                 -6.929e-05            -5.7e-12              3.4e-13               6.9296e-05           
  -1                    -7.1976e-05           -5.64e-12             3e-13                 7.1962e-05           
  -1.05                 -7.4576e-05           -5.32e-12             5.4e-13               7.4576e-05           
  -1.1                  -7.7324e-05           -5e-12                1.2e-12               7.7416e-05           
  -1.15                 -8.0094e-05           -4.76e-12             2.56e-12              8.0088e-05           
  -1.2                  -8.2908e-05           -4.36e-12             5.7e-12               8.2956e-05           
  -1.25                 -8.5792e-05           -3.76e-12             1.288e-11             8.5798e-05           
  -1.3                  -8.8842e-05           -3.38e-12             2.734e-11             8.8826e-05           
  -1.35                 -9.1794e-05           -2.82e-12             5.594e-11             9.1858e-05           
END_DB

BEGIN_DB
 ICCAP_VAR vg         -0.813         
 ICCAP_VAR vb         1.2            
 ICCAP_VAR vs         -0             

 #vd                    id                    ig                    ib                    is                   
  -0                    9.8464e-08            -3.23e-11             1.4e-13               -8.5932e-08          
  -0.05                 -6.6038e-05           -2.856e-11            1.4e-13               6.6078e-05           
  -0.1                  -0.00011636           -2.56e-11             1e-13                 0.00011676           
  -0.15                 -0.00015352           -2.326e-11            1.8e-13               0.00015388           
  -0.2                  -0.00018034           -2.144e-11            8e-14                 0.00018068           
  -0.25                 -0.00019988           -1.994e-11            1.4e-13               0.00020018           
  -0.3                  -0.0002149            -1.9e-11              1.2e-13               0.00021516           
  -0.35                 -0.00022716           -1.842e-11            2.6e-13               0.00022752           
  -0.4                  -0.00023774           -1.792e-11            1.8e-13               0.00023814           
  -0.45                 -0.00024726           -1.75e-11             1e-13                 0.00024772           
  -0.5                  -0.00025634           -1.726e-11            1.4e-13               0.00025668           
  -0.55                 -0.00026466           -1.71e-11             1.6e-13               0.0002649            
  -0.6                  -0.000273             -1.684e-11            1.8e-13               0.00027332           
  -0.65                 -0.0002809            -1.676e-11            4e-14                 0.00028136           
  -0.7                  -0.00028876           -1.664e-11            2e-14                 0.00028922           
  -0.75                 -0.00029654           -1.652e-11            -4e-14                0.00029696           
  -0.8                  -0.00030422           -1.65e-11             4e-14                 0.00030454           
  -0.85                 -0.0003119            -1.636e-11            1.2e-13               0.00031222           
  -0.9                  -0.0003194            -1.612e-11            2.6e-13               0.00031974           
  -0.95                 -0.00032722           -1.6e-11              1.8e-13               0.00032758           
  -1                    -0.0003349            -1.592e-11            2.4e-13               0.00033528           
  -1.05                 -0.00034252           -1.58e-11             3.6e-13               0.00034288           
  -1.1                  -0.00035              -1.564e-11            6.4e-13               0.00035052           
  -1.15                 -0.00035794           -1.542e-11            1.8e-12               0.00035846           
  -1.2                  -0.00036586           -1.52e-11             4.38e-12              0.0003657            
  -1.25                 -0.00037374           -1.474e-11            1.034e-11             0.00037406           
  -1.3                  -0.00038148           -1.462e-11            2.376e-11             0.00038178           
  -1.35                 -0.00038926           -1.408e-11            5.24e-11              0.0003899            
END_DB

BEGIN_DB
 ICCAP_VAR vg         -0.992         
 ICCAP_VAR vb         1.2            
 ICCAP_VAR vs         -0             

 #vd                    id                    ig                    ib                    is                   
  -0                    3.0454e-07            -7.49e-11             -2e-14                -1.3358e-07          
  -0.05                 -0.00011898           -6.764e-11            0                     0.00011938           
  -0.1                  -0.0002229            -6.154e-11            1e-13                 0.00022324           
  -0.15                 -0.00031128           -5.62e-11             8e-14                 0.00031174           
  -0.2                  -0.00038478           -5.188e-11            1e-13                 0.00038518           
  -0.25                 -0.00044482           -4.838e-11            2e-14                 0.00044544           
  -0.3                  -0.0004935            -4.55e-11             4e-14                 0.00049344           
  -0.35                 -0.00053238           -4.304e-11            1e-13                 0.00053254           
  -0.4                  -0.00056422           -4.138e-11            2.6e-13               0.0005646            
  -0.45                 -0.00059082           -3.984e-11            6e-14                 0.00059118           
  -0.5                  -0.00061342           -3.87e-11             4e-14                 0.0006137            
  -0.55                 -0.00063322           -3.792e-11            0                     0.00063364           
  -0.6                  -0.00065166           -3.728e-11            0                     0.00065204           
  -0.65                 -0.00066864           -3.674e-11            8e-14                 0.0006689            
  -0.7                  -0.00068494           -3.646e-11            4e-14                 0.00068484           
  -0.75                 -0.00069978           -3.608e-11            2e-14                 0.0007002            
  -0.8                  -0.00071456           -3.576e-11            6e-14                 0.00071482           
  -0.85                 -0.0007285            -3.54e-11             4e-14                 0.00072884           
  -0.9                  -0.00074272           -3.516e-11            4e-14                 0.0007426            
  -0.95                 -0.00075616           -3.492e-11            1.4e-13               0.00075664           
  -1                    -0.00076962           -3.47e-11             8e-14                 0.00077002           
  -1.05                 -0.00078308           -3.452e-11            4e-14                 0.00078324           
  -1.1                  -0.00079648           -3.44e-11             3.4e-13               0.00079676           
  -1.15                 -0.00080934           -3.406e-11            9.8e-13               0.00080972           
  -1.2                  -0.0008228            -3.41e-11             2.42e-12              0.00082282           
  -1.25                 -0.00083542           -3.366e-11            5.84e-12              0.00083592           
  -1.3                  -0.00084814           -3.336e-11            1.372e-11             0.00084884           
  -1.35                 -0.0008615            -3.326e-11            3.132e-11             0.00086166           
END_DB

BEGIN_DB
 ICCAP_VAR vg         -1.171         
 ICCAP_VAR vb         1.2            
 ICCAP_VAR vs         -0             

 #vd                    id                    ig                    ib                    is                   
  -0                    4.5014e-07            -1.4924e-10           6e-14                 -1.6e-07             
  -0.05                 -0.00016412           -1.3824e-10           1e-13                 0.0001645            
  -0.1                  -0.00031518           -1.2654e-10           0                     0.00031548           
  -0.15                 -0.00045176           -1.1702e-10           1.2e-13               0.0004523            
  -0.2                  -0.00057432           -1.0842e-10           1.4e-13               0.0005745            
  -0.25                 -0.00068128           -1.0134e-10           1.2e-13               0.00068192           
  -0.3                  -0.00077516           -9.504e-11            1.2e-13               0.00077584           
  -0.35                 -0.00085546           -8.996e-11            1.2e-13               0.00085568           
  -0.4                  -0.00092336           -8.522e-11            0                     0.00092348           
  -0.45                 -0.00098092           -8.16e-11             1e-13                 0.00098182           
  -0.5                  -0.00103002           -7.842e-11            1.6e-13               0.0010299            
  -0.55                 -0.00107076           -7.606e-11            1.4e-13               0.00107152           
  -0.6                  -0.00110706           -7.418e-11            1e-13                 0.00110794           
  -0.65                 -0.0011398            -7.242e-11            1.8e-13               0.00113978           
  -0.7                  -0.0011674            -7.124e-11            1e-13                 0.0011694            
  -0.75                 -0.0011944            -7.012e-11            1e-13                 0.001196             
  -0.8                  -0.001218             -6.948e-11            1e-13                 0.0012192            
  -0.85                 -0.0012402            -6.852e-11            8e-14                 0.0012416            
  -0.9                  -0.0012626            -6.798e-11            1e-13                 0.001265             
  -0.95                 -0.0012842            -6.706e-11            0                     0.0012862            
  -1                    -0.0013044            -6.686e-11            1.4e-13               0.0013054            
  -1.05                 -0.0013246            -6.632e-11            1.2e-13               0.0013256            
  -1.1                  -0.0013438            -6.594e-11            2.2e-13               0.0013454            
  -1.15                 -0.0013624            -6.552e-11            4.8e-13               0.0013638            
  -1.2                  -0.001382             -6.528e-11            1.34e-12              0.0013826            
  -1.25                 -0.0013992            -6.48e-11             3.2e-12               0.001401             
  -1.3                  -0.0014182            -6.452e-11            7.42e-12              0.0014208            
  -1.35                 -0.0014382            -6.41e-11             1.71e-11              0.0014396            
END_DB

BEGIN_DB
 ICCAP_VAR vg         -1.35          
 ICCAP_VAR vb         1.2            
 ICCAP_VAR vs         -0             

 #vd                    id                    ig                    ib                    is                   
  -0                    4.8346e-07            -2.6996e-10           2.5e-12               -1.8338e-07          
  -0.05                 -0.00020106           -2.5106e-10           1.94e-12              0.00020136           
  -0.1                  -0.0003909            -2.3388e-10           1.56e-12              0.00039134           
  -0.15                 -0.0005683            -2.1792e-10           1.16e-12              0.0005687            
  -0.2                  -0.00073248           -2.0346e-10           9.2e-13               0.00073286           
  -0.25                 -0.00088322           -1.9096e-10           7.6e-13               0.00088348           
  -0.3                  -0.00101986           -1.7972e-10           7.2e-13               0.00101948           
  -0.35                 -0.00114182           -1.697e-10            7e-13                 0.00114236           
  -0.4                  -0.0012506            -1.6088e-10           7.2e-13               0.0012522            
  -0.45                 -0.0013466            -1.5332e-10           6e-13                 0.001348             
  -0.5                  -0.0014302            -1.4658e-10           6.8e-13               0.0014324            
  -0.55                 -0.001504             -1.4164e-10           5.6e-13               0.0015052            
  -0.6                  -0.001568             -1.363e-10            5.4e-13               0.0015704            
  -0.65                 -0.0016246            -1.33e-10             5.2e-13               0.0016266            
  -0.7                  -0.001674             -1.3006e-10           5.2e-13               0.0016756            
  -0.75                 -0.001718             -1.2718e-10           5.2e-13               0.00172              
  -0.8                  -0.0017582            -1.2484e-10           5.8e-13               0.0017594            
  -0.85                 -0.0017948            -1.228e-10            5.4e-13               0.0017962            
  -0.9                  -0.0018282            -1.2164e-10           3.8e-13               0.0018288            
  -0.95                 -0.0018598            -1.2022e-10           4e-13                 0.001861             
  -1                    -0.0018888            -1.1886e-10           5e-13                 0.0018902            
  -1.05                 -0.001916             -1.1732e-10           4.4e-13               0.0019168            
  -1.1                  -0.0019432            -1.1682e-10           5e-13                 0.0019446            
  -1.15                 -0.0019684            -1.1574e-10           6.6e-13               0.0019698            
  -1.2                  -0.0019942            -1.1518e-10           1.04e-12              0.001997             
  -1.25                 -0.00202              -1.1394e-10           1.82e-12              0.0020198            
  -1.3                  -0.002043             -1.1376e-10           4.24e-12              0.0020438            
  -1.35                 -0.0020666            -1.128e-10            9.72e-12              0.0020682            
END_DB

