! VERSION = 6.00
BEGIN_HEADER
 ICCAP_INPUTS
  vg         V  G GROUND SMU2 0.001 LIN        1    0.5        -1.35      38   -0.05     
  vb         V  B GROUND SMU4 0.1 LIN        2    0          1.2        7    0.2       
  vd         V  D GROUND SMU1 0.1 LIST       3 3 -0.05 -0.6 -1.2
  vs         V  S GROUND SMU3 0.1 CON        -0
 ICCAP_OUTPUTS
  id         I  D GROUND SMU1 B
  ig         I  G GROUND SMU2 B
  ib         I  B GROUND SMU4 B
  is         I  S GROUND SMU3 B
 ICCAP_VALUES
  MASTER_SETUP_TYPE "~dc_idvg~"
  LINVT_VALUE ""
  LISTVT_VALUE ""
  TYPE "-1"
  TEMP "-40.0000 "
  IS_TNOM " 0.00000 "
  MAIN.W "10.00u"
  MAIN.L "180.0n"
  MAIN.AD "3.400p"
  MAIN.AS "3.400p"
  MAIN.PD "20.68u"
  MAIN.PS "20.68u"
  MAIN.NF "1.000"
  MAIN.M "1"
  MAIN.NRD "0.000"
  MAIN.NRS "0.000"
  MAIN.LDRIFT1 "1E-06"
  MAIN.LDRIFT2 "1E-06"
  MAIN.SA "0.000"
  MAIN.SB "0.000"
  MAIN.SD "0.000"
  MAIN.SCA "0.000"
  MAIN.SCB "0.000"
  MAIN.SCC "0.000"
  MAIN.SC "0.000"
  MODULE "S548"
  PIN_D "12"
  PIN_G "9"
  PIN_S "10"
  PIN_B "11"
  PIN_E ""
  PIN_6 ""
  XY_ID ""
  FUNC "L Scale"
  STI "SA ref"
  WPE "WPE ref"
  COMMENT ""
  DIS_MEAS ""
  TypeTCI "10"
END_HEADER

BEGIN_DB
 ICCAP_VAR vb         0              
 ICCAP_VAR vd         -0.05          
 ICCAP_VAR vs         -0             

 #vg                    id                    ig                    ib                    is                   
  0.5                   -1.62e-12             4.28e-12              -1.2e-13              -1.88e-12            
  0.45                  -1.16e-12             3.02e-12              0                     -1.24e-12            
  0.4                   -9.2e-13              2.32e-12              -2e-14                -1.04e-12            
  0.35                  -7.6e-13              1.64e-12              -2e-14                -7e-13               
  0.3                   -5.8e-13              1.24e-12              0                     -3.4e-13             
  0.25                  -3.6e-13              8.6e-13               -6e-14                -4.8e-13             
  0.2                   -1.4e-13              4.4e-13               -2e-14                -1.2e-13             
  0.15                  -1.2e-13              2e-13                 0                     -1.4e-13             
  0.1                   -1.8e-13              1.2e-13               0                     2e-14                
  0.05                  -1.2e-13              0                     0                     2e-13                
  0                     -4.4e-13              -4e-14                -1e-13                5.2e-13              
  -0.05                 -2.8e-12              -2.6e-13              -6e-14                2.96e-12             
  -0.1                  -2.048e-11            -2.8e-13              1e-13                 2.054e-11            
  -0.15                 -1.4882e-10           -4e-13                -1.2e-13              1.4936e-10           
  -0.2                  -1.0751e-09           -4.8e-13              -2e-14                1.07608e-09          
  -0.25                 -7.7224e-09           -4.6e-13              -6e-14                7.7156e-09           
  -0.3                  -5.3072e-08           -7e-13                -4e-14                5.3084e-08           
  -0.35                 -3.2164e-07           -1.12e-12             4e-14                 3.216e-07            
  -0.4                  -1.5182e-06           -1.52e-12             4e-14                 1.5188e-06           
  -0.45                 -5.0766e-06           -2.2e-12              -4e-14                5.0778e-06           
  -0.5                  -1.2214e-05           -3.16e-12             -1.2e-13              1.2222e-05           
  -0.55                 -2.2846e-05           -4.9e-12              -1e-13                2.2854e-05           
  -0.6                  -3.59e-05             -7e-12                -4e-14                3.5914e-05           
  -0.65                 -5.024e-05            -9.86e-12             2e-14                 5.0254e-05           
  -0.7                  -6.4966e-05           -1.364e-11            -4e-14                6.4958e-05           
  -0.75                 -7.9498e-05           -1.848e-11            -4e-14                7.9506e-05           
  -0.8                  -9.3626e-05           -2.456e-11            -6e-14                9.3644e-05           
  -0.85                 -0.000107144          -3.21e-11             -2e-14                0.000107144          
  -0.9                  -0.00011978           -4.138e-11            -1e-13                0.00012008           
  -0.95                 -0.00013184           -5.268e-11            -4e-14                0.00013216           
  -1                    -0.00014314           -6.616e-11            4e-14                 0.00014348           
  -1.05                 -0.00015378           -8.278e-11            4e-14                 0.00015406           
  -1.1                  -0.00016372           -1.0192e-10           -4e-14                0.00016404           
  -1.15                 -0.00017306           -1.2352e-10           0                     0.00017342           
  -1.2                  -0.00018182           -1.4862e-10           4e-14                 0.00018214           
  -1.25                 -0.00018994           -1.771e-10            2.4e-13               0.0001903            
  -1.3                  -0.00019756           -2.0974e-10           4.4e-13               0.0001978            
  -1.35                 -0.00020458           -2.4612e-10           1.08e-12              0.00020494           
END_DB

BEGIN_DB
 ICCAP_VAR vb         0.2            
 ICCAP_VAR vd         -0.05          
 ICCAP_VAR vs         -0             

 #vg                    id                    ig                    ib                    is                   
  0.5                   -1.52e-12             3.9e-12               -8e-14                -1.98e-12            
  0.45                  -1.16e-12             2.92e-12              -4e-14                -1.42e-12            
  0.4                   -9.2e-13              2.28e-12              -8e-14                -1.24e-12            
  0.35                  -5.8e-13              1.64e-12              -2e-14                -8.6e-13             
  0.3                   -6e-13                1.02e-12              -4e-14                -5e-13               
  0.25                  -3.4e-13              7.2e-13               -6e-14                -3.2e-13             
  0.2                   -3.4e-13              5e-13                 4e-14                 -2.8e-13             
  0.15                  -2.4e-13              1.8e-13               2e-14                 -4e-14               
  0.1                   -2e-14                -2e-14                -4e-14                4e-14                
  0.05                  -2e-14                -2.6e-13              2e-14                 0                    
  0                     -2e-14                -2.2e-13              4e-14                 3e-13                
  -0.05                 -6.6e-13              -1.8e-13              0                     8e-13                
  -0.1                  -4.66e-12             -4.2e-13              0                     4.94e-12             
  -0.15                 -3.55e-11             -4.6e-13              4e-14                 3.608e-11            
  -0.2                  -2.6842e-10           -5.4e-13              -2e-14                2.687e-10            
  -0.25                 -2.011e-09            -5.8e-13              -2e-14                2.0108e-09           
  -0.3                  -1.4752e-08           -8.4e-13              4e-14                 1.4776e-08           
  -0.35                 -1.00652e-07          -1.14e-12             -6e-14                1.00814e-07          
  -0.4                  -5.7908e-07           -1.5e-12              -2e-14                5.7902e-07           
  -0.45                 -2.4434e-06           -2e-12                1e-13                 2.4494e-06           
  -0.5                  -7.2256e-06           -3.14e-12             6e-14                 7.2218e-06           
  -0.55                 -1.5622e-05           -4.4e-12              2e-14                 1.5634e-05           
  -0.6                  -2.7106e-05           -6.6e-12              0                     2.7116e-05           
  -0.65                 -4.0432e-05           -9.56e-12             2e-14                 4.0438e-05           
  -0.7                  -5.4612e-05           -1.314e-11            0                     5.4618e-05           
  -0.75                 -6.8894e-05           -1.804e-11            -8e-14                6.8898e-05           
  -0.8                  -8.2892e-05           -2.402e-11            4e-14                 8.2894e-05           
  -0.85                 -9.6364e-05           -3.162e-11            0                     9.6372e-05           
  -0.9                  -0.000109236          -4.08e-11             -6e-14                0.000109256          
  -0.95                 -0.00012126           -5.202e-11            -6e-14                0.00012154           
  -1                    -0.00013272           -6.576e-11            0                     0.00013302           
  -1.05                 -0.00014344           -8.212e-11            -4e-14                0.00014378           
  -1.1                  -0.0001536            -1.0098e-10           0                     0.00015386           
  -1.15                 -0.00016308           -1.2278e-10           2e-14                 0.00016336           
  -1.2                  -0.00017188           -1.4754e-10           1e-13                 0.00017218           
  -1.25                 -0.00018014           -1.7588e-10           1.8e-13               0.00018048           
  -1.3                  -0.0001879            -2.0852e-10           5e-13                 0.00018824           
  -1.35                 -0.00019516           -2.4508e-10           1.08e-12              0.00019548           
END_DB

BEGIN_DB
 ICCAP_VAR vb         0.4            
 ICCAP_VAR vd         -0.05          
 ICCAP_VAR vs         -0             

 #vg                    id                    ig                    ib                    is                   
  0.5                   -1.38e-12             3.78e-12              0                     -1.92e-12            
  0.45                  -1.32e-12             2.8e-12               2e-14                 -1.5e-12             
  0.4                   -9.2e-13              2.12e-12              -8e-14                -9.8e-13             
  0.35                  -5.8e-13              1.58e-12              0                     -8.6e-13             
  0.3                   -5.4e-13              1.02e-12              0                     -3.4e-13             
  0.25                  -3.8e-13              6.4e-13               2e-14                 -3.2e-13             
  0.2                   -2.2e-13              3.8e-13               0                     -1.2e-13             
  0.15                  -1e-13                2e-13                 4e-14                 -8e-14               
  0.1                   -1e-13                -4e-14                0                     2e-14                
  0.05                  -2e-14                -4e-14                4e-14                 1.6e-13              
  0                     -6e-14                -1.4e-13              4e-14                 1e-13                
  -0.05                 -1.6e-13              -2.6e-13              -2e-14                3.2e-13              
  -0.1                  -1.32e-12             -2.6e-13              -8e-14                1.32e-12             
  -0.15                 -1.002e-11            -4.4e-13              0                     1.016e-11            
  -0.2                  -7.648e-11            -4.4e-13              -8e-14                7.67e-11             
  -0.25                 -5.8998e-10           -6.8e-13              -2e-14                5.907e-10            
  -0.3                  -4.5144e-09           -6.8e-13              -2e-14                4.5186e-09           
  -0.35                 -3.3118e-08           -1.18e-12             -8e-14                3.3138e-08           
  -0.4                  -2.1732e-07           -1.34e-12             -6e-14                2.1748e-07           
  -0.45                 -1.12048e-06          -2.04e-12             -2e-14                1.12004e-06          
  -0.5                  -4.0772e-06           -2.94e-12             -1.2e-13              4.0754e-06           
  -0.55                 -1.03898e-05          -4.16e-12             -4e-14                1.0392e-05           
  -0.6                  -2.0154e-05           -6.3e-12              -4e-14                2.0168e-05           
  -0.65                 -3.2366e-05           -9.18e-12             -6e-14                3.2376e-05           
  -0.7                  -4.5856e-05           -1.288e-11            0                     4.5888e-05           
  -0.75                 -5.9774e-05           -1.754e-11            4e-14                 5.9794e-05           
  -0.8                  -7.3608e-05           -2.374e-11            0                     7.3622e-05           
  -0.85                 -8.7052e-05           -3.108e-11            -1e-13                8.7072e-05           
  -0.9                  -9.9958e-05           -4.008e-11            6e-14                 9.9922e-05           
  -0.95                 -0.000112168          -5.126e-11            -4e-14                0.000112188          
  -1                    -0.0001236            -6.486e-11            -1e-13                0.00012392           
  -1.05                 -0.00013444           -8.106e-11            -2e-14                0.00013474           
  -1.1                  -0.00014466           -1.0012e-10           -4e-14                0.00014498           
  -1.15                 -0.00015426           -1.2184e-10           0                     0.00015454           
  -1.2                  -0.00016318           -1.4652e-10           0                     0.00016352           
  -1.25                 -0.0001716            -1.7476e-10           2.8e-13               0.0001719            
  -1.3                  -0.00017944           -2.0734e-10           5.8e-13               0.00017974           
  -1.35                 -0.00018682           -2.4378e-10           1.1e-12               0.00018712           
END_DB

BEGIN_DB
 ICCAP_VAR vb         0.6            
 ICCAP_VAR vd         -0.05          
 ICCAP_VAR vs         -0             

 #vg                    id                    ig                    ib                    is                   
  0.5                   -1.46e-12             3.86e-12              0                     -1.82e-12            
  0.45                  -1.14e-12             2.84e-12              -6e-14                -1.36e-12            
  0.4                   -8.8e-13              2.06e-12              -6e-14                -8e-13               
  0.35                  -7e-13                1.54e-12              -4e-14                -6.4e-13             
  0.3                   -4e-13                1.04e-12              2e-14                 -5.6e-13             
  0.25                  -3.8e-13              5.4e-13               -4e-14                -1.2e-13             
  0.2                   -2.2e-13              4.6e-13               0                     -2.2e-13             
  0.15                  -3.4e-13              2.4e-13               -6e-14                -4e-14               
  0.1                   0                     -1e-13                4e-14                 2e-14                
  0.05                  -1e-13                0                     -1e-13                -1e-13               
  0                     2e-14                 -2.2e-13              0                     1.2e-13              
  -0.05                 -2e-14                -1.6e-13              2e-14                 1.6e-13              
  -0.1                  -4.6e-13              -2.6e-13              0                     6e-13                
  -0.15                 -3.1e-12              -4.4e-13              0                     3.08e-12             
  -0.2                  -2.39e-11             -4.2e-13              0                     2.414e-11            
  -0.25                 -1.8916e-10           -6.8e-13              -2e-14                1.8982e-10           
  -0.3                  -1.489e-09            -6.6e-13              -6e-14                1.4918e-09           
  -0.35                 -1.1422e-08           -9.6e-13              2e-14                 1.14272e-08          
  -0.4                  -8.1996e-08           -1.4e-12              -6e-14                8.2072e-08           
  -0.45                 -4.9274e-07           -2.08e-12             0                     4.927e-07            
  -0.5                  -2.1828e-06           -2.74e-12             0                     2.1828e-06           
  -0.55                 -6.642e-06            -3.96e-12             2e-14                 6.644e-06            
  -0.6                  -1.4638e-05           -6e-12                -8e-14                1.4638e-05           
  -0.65                 -2.5562e-05           -8.9e-12              -6e-14                2.5588e-05           
  -0.7                  -3.8316e-05           -1.244e-11            -1.4e-13              3.8314e-05           
  -0.75                 -5.1802e-05           -1.71e-11             -6e-14                5.1818e-05           
  -0.8                  -6.5432e-05           -2.312e-11            4e-14                 6.5448e-05           
  -0.85                 -7.883e-05            -3.04e-11             0                     7.8844e-05           
  -0.9                  -9.1722e-05           -3.954e-11            -2e-14                9.1732e-05           
  -0.95                 -0.000103986          -5.05e-11             -2e-14                0.00010399           
  -1                    -0.00011542           -6.394e-11            0                     0.00011572           
  -1.05                 -0.00012636           -8.03e-11             -1e-13                0.0001267            
  -1.1                  -0.00013668           -9.928e-11            0                     0.00013704           
  -1.15                 -0.00014636           -1.2112e-10           -8e-14                0.00014668           
  -1.2                  -0.0001555            -1.4588e-10           1.2e-13               0.00015582           
  -1.25                 -0.00016402           -1.7412e-10           1.8e-13               0.00016436           
  -1.3                  -0.00017192           -2.0662e-10           5.4e-13               0.00017226           
  -1.35                 -0.0001794            -2.4298e-10           1.12e-12              0.0001797            
END_DB

BEGIN_DB
 ICCAP_VAR vb         0.8            
 ICCAP_VAR vd         -0.05          
 ICCAP_VAR vs         -0             

 #vg                    id                    ig                    ib                    is                   
  0.5                   -1.54e-12             3.7e-12               0                     -1.94e-12            
  0.45                  -1.12e-12             2.8e-12               -2e-14                -1.34e-12            
  0.4                   -8.4e-13              1.96e-12              0                     -8e-13               
  0.35                  -6.8e-13              1.56e-12              0                     -8.8e-13             
  0.3                   -3.6e-13              8.6e-13               2e-14                 -4e-13               
