! VERSION = 6.00
BEGIN_HEADER
 ICCAP_INPUTS
  vg         V  G GROUND SMU2 0.001 LIN        1    0.5        -1.35      38   -0.05     
  vb         V  B GROUND SMU4 0.1 LIN        2    0          1.2        7    0.2       
  vd         V  D GROUND SMU1 0.1 LIST       3 3 -0.05 -0.6 -1.2
  vs         V  S GROUND SMU3 0.1 CON        -0
 ICCAP_OUTPUTS
  id         I  D GROUND SMU1 B
  ig         I  G GROUND SMU2 B
  ib         I  B GROUND SMU4 B
  is         I  S GROUND SMU3 B
 ICCAP_VALUES
  MASTER_SETUP_TYPE "~dc_idvg~"
  LINVT_VALUE ""
  LISTVT_VALUE ""
  TYPE "-1"
  TEMP " 27.0000 "
  IS_TNOM " 1.00000 "
  MAIN.W "10.00u"
  MAIN.L "150.0n"
  MAIN.AD "3.400p"
  MAIN.AS "3.400p"
  MAIN.PD "20.68u"
  MAIN.PS "20.68u"
  MAIN.NF "1.000"
  MAIN.M "1"
  MAIN.NRD "0.000"
  MAIN.NRS "0.000"
  MAIN.LDRIFT1 "1E-06"
  MAIN.LDRIFT2 "1E-06"
  MAIN.SA "0.000"
  MAIN.SB "0.000"
  MAIN.SD "0.000"
  MAIN.SCA "0.000"
  MAIN.SCB "0.000"
  MAIN.SCC "0.000"
  MAIN.SC "0.000"
  MODULE "S548"
  PIN_D "14"
  PIN_G "7"
  PIN_S "8"
  PIN_B "13"
  PIN_E ""
  PIN_6 ""
  XY_ID ""
  FUNC "L Scale"
  STI "SA ref"
  WPE "WPE ref"
  COMMENT ""
  DIS_MEAS ""
  TypeTCI "10"
END_HEADER

BEGIN_DB
 ICCAP_VAR vb         0              
 ICCAP_VAR vd         -0.05          
 ICCAP_VAR vs         -0             

 #vg                    id                    ig                    ib                    is                   
  0.5                   -1.8e-12              2.282e-11             -6.1e-12              -2.18e-12            
  0.45                  -1.42e-12             5.78e-12              -1.92e-12             -1.74e-12            
  0.4                   -1.12e-12             2.64e-12              -1.16e-12             -1.38e-12            
  0.35                  -8.2e-13              1.62e-12              -1.2e-12              -1.04e-12            
  0.3                   -6e-13                1e-12                 -1e-12                -7.2e-13             
  0.25                  -5.2e-13              7e-13                 -1.06e-12             -4.6e-13             
  0.2                   -5.8e-13              6e-14                 -1.12e-12             -8e-14               
  0.15                  -1.04e-12             -1.4e-13              -9.8e-13              4.6e-13              
  0.1                   -3.42e-12             -1.6e-13              -1e-12                3.2e-12              
  0.05                  -1.458e-11            -4.4e-13              -1.04e-12             1.43e-11             
  0                     -6.366e-11            -7e-13                -1.06e-12             6.346e-11            
  -0.05                 -2.827e-10            -5.6e-13              -1.02e-12             2.8246e-10           
  -0.1                  -1.2652e-09           -4.6e-13              -9e-13                1.2658e-09           
  -0.15                 -5.6732e-09           -4.4e-13              -1.04e-12             5.6706e-09           
  -0.2                  -2.5192e-08           -7.2e-13              -9.2e-13              2.52e-08             
  -0.25                 -1.09524e-07          -1.22e-12             -1e-12                1.09648e-07          
  -0.3                  -4.476e-07            -1.34e-12             -1.06e-12             4.4788e-07           
  -0.35                 -1.601e-06            -1.64e-12             -9.4e-13              1.6026e-06           
  -0.4                  -4.6774e-06           -2.24e-12             -1e-12                4.681e-06            
  -0.45                 -1.08048e-05          -3.38e-12             -9.6e-13              1.07996e-05          
  -0.5                  -2.0246e-05           -4.74e-12             -1e-12                2.025e-05            
  -0.55                 -3.2224e-05           -6.68e-12             -9.2e-13              3.2228e-05           
  -0.6                  -4.5786e-05           -9.52e-12             -9.4e-13              4.5814e-05           
  -0.65                 -6.009e-05            -1.328e-11            -8.8e-13              6.0062e-05           
  -0.7                  -7.444e-05            -1.784e-11            -8.8e-13              7.445e-05            
  -0.75                 -8.864e-05            -2.396e-11            -9e-13                8.8576e-05           
  -0.8                  -0.000102306          -3.144e-11            -8.6e-13              0.000102326          
  -0.85                 -0.00011524           -4.024e-11            -9.2e-13              0.00011556           
  -0.9                  -0.00012782           -5.118e-11            -1e-12                0.00012812           
  -0.95                 -0.00013972           -6.44e-11             -9.8e-13              0.00014002           
  -1                    -0.00015104           -7.98e-11             -8.4e-13              0.00015134           
  -1.05                 -0.00016168           -9.81e-11             -9.2e-13              0.00016202           
  -1.1                  -0.00017184           -1.1888e-10           -8e-13                0.00017212           
  -1.15                 -0.0001813            -1.4314e-10           -8.2e-13              0.00018162           
  -1.2                  -0.0001903            -1.713e-10            -6.8e-13              0.00019062           
  -1.25                 -0.00019884           -2.035e-10            -3.8e-13              0.00019916           
  -1.3                  -0.00020686           -2.4056e-10           1.6e-13               0.00020712           
  -1.35                 -0.0002144            -2.8326e-10           9e-13                 0.00021464           
END_DB

BEGIN_DB
 ICCAP_VAR vb         0.2            
 ICCAP_VAR vd         -0.05          
 ICCAP_VAR vs         -0             

 #vg                    id                    ig                    ib                    is                   
  0.5                   -1.56e-12             4.18e-12              0                     -2.08e-12            
  0.45                  -1.3e-12              3.1e-12               6e-14                 -1.56e-12            
  0.4                   -9.2e-13              2.3e-12               4e-14                 -1.34e-12            
  0.35                  -6.4e-13              1.5e-12               -6e-14                -8.4e-13             
  0.3                   -6.4e-13              9.4e-13               -2e-14                -7.2e-13             
  0.25                  -3.6e-13              5.8e-13               -8e-14                -4e-13               
  0.2                   -3.4e-13              2.8e-13               -8e-14                -3.2e-13             
  0.15                  -3e-13                2e-14                 0                     2e-13                
  0.1                   -9.6e-13              -2.4e-13              0                     9.8e-13              
  0.05                  -4.08e-12             -1.8e-13              -1.2e-13              3.9e-12              
  0                     -1.826e-11            -5.4e-13              -8e-14                1.834e-11            
  -0.05                 -8.436e-11            -4.8e-13              -8e-14                8.434e-11            
  -0.1                  -3.9154e-10           -7.8e-13              -2e-14                3.9168e-10           
  -0.15                 -1.819e-09            -5.2e-13              -4e-14                1.8194e-09           
  -0.2                  -8.3858e-09           -8e-13                -1.4e-13              8.39e-09             
  -0.25                 -3.8276e-08           -1.06e-12             -1e-13                3.8338e-08           
  -0.3                  -1.6832e-07           -1.24e-12             -4e-14                1.6838e-07           
  -0.35                 -6.7718e-07           -1.7e-12              -1.8e-13              6.7688e-07           
  -0.4                  -2.312e-06            -2.06e-12             -1e-13                2.3144e-06           
  -0.45                 -6.2844e-06           -3.12e-12             -2e-14                6.2846e-06           
  -0.5                  -1.349e-05            -4.5e-12              -6e-14                1.35e-05             
  -0.55                 -2.3734e-05           -6.44e-12             -8e-14                2.3738e-05           
  -0.6                  -3.6148e-05           -9.08e-12             2e-14                 3.614e-05            
  -0.65                 -4.9696e-05           -1.278e-11            -1e-13                4.9728e-05           
  -0.7                  -6.3766e-05           -1.758e-11            -1e-13                6.374e-05            
  -0.75                 -7.7764e-05           -2.338e-11            -1e-13                7.7748e-05           
  -0.8                  -9.1438e-05           -3.076e-11            -1e-13                9.1458e-05           
  -0.85                 -0.000104652          -3.978e-11            2e-14                 0.00010466           
  -0.9                  -0.00011716           -5.062e-11            -1.4e-13              0.00011746           
  -0.95                 -0.00012914           -6.372e-11            -8e-14                0.00012942           
  -1                    -0.00014058           -7.896e-11            -8e-14                0.00014088           
  -1.05                 -0.00015138           -9.696e-11            -2e-14                0.00015168           
  -1.1                  -0.00016166           -1.1824e-10           -1e-13                0.00016198           
  -1.15                 -0.00017136           -1.4234e-10           -6e-14                0.00017166           
  -1.2                  -0.00018048           -1.7028e-10           6e-14                 0.00018078           
  -1.25                 -0.00018904           -2.0254e-10           4e-13                 0.0001894            
  -1.3                  -0.00019716           -2.3932e-10           9.2e-13               0.0001975            
  -1.35                 -0.00020484           -2.8152e-10           1.94e-12              0.00020518           
END_DB

BEGIN_DB
 ICCAP_VAR vb         0.4            
 ICCAP_VAR vd         -0.05          
 ICCAP_VAR vs         -0             

 #vg                    id                    ig                    ib                    is                   
  0.5                   -1.54e-12             4.24e-12              4e-14                 -1.94e-12            
  0.45                  -1.24e-12             3.18e-12              2e-14                 -1.68e-12            
  0.4                   -9.2e-13              2.12e-12              2e-14                 -1.2e-12             
  0.35                  -7.4e-13              1.52e-12              -8e-14                -8.6e-13             
  0.3                   -4.6e-13              1.02e-12              0                     -6.2e-13             
  0.25                  -3.4e-13              6.4e-13               -1.4e-13              -3.4e-13             
  0.2                   -3e-13                1.8e-13               8e-14                 -2.8e-13             
  0.15                  -1.6e-13              -6e-14                2e-14                 -6e-14               
  0.1                   -3.8e-13              -2.2e-13              0                     4e-13                
  0.05                  -1.38e-12             -3.6e-13              -1e-13                1.32e-12             
  0                     -6.24e-12             -3.8e-13              -4e-14                6.28e-12             
  -0.05                 -2.954e-11            -5.8e-13              0                     2.97e-11             
  -0.1                  -1.4078e-10           -5.4e-13              -4e-14                1.411e-10            
  -0.15                 -6.715e-10            -6.8e-13              -1e-13                6.7208e-10           
  -0.2                  -3.188e-09            -7.8e-13              -4e-14                3.1872e-09           
  -0.25                 -1.5012e-08           -1.02e-12             -8e-14                1.5028e-08           
  -0.3                  -6.9082e-08           -1.38e-12             -1e-13                6.913e-08            
  -0.35                 -2.993e-07            -1.62e-12             -1e-13                2.9966e-07           
  -0.4                  -1.14952e-06          -2.16e-12             0                     1.1524e-06           
  -0.45                 -3.599e-06            -2.76e-12             -6e-14                3.602e-06            
  -0.5                  -8.852e-06            -4.6e-12              -1.2e-13              8.8502e-06           
  -0.55                 -1.735e-05            -6.06e-12             -1e-13                1.7346e-05           
  -0.6                  -2.8496e-05           -8.8e-12              0                     2.852e-05            
  -0.65                 -4.132e-05            -1.218e-11            -2e-14                4.1302e-05           
  -0.7                  -5.4908e-05           -1.694e-11            -4e-14                5.4938e-05           
  -0.75                 -6.8682e-05           -2.306e-11            -1.4e-13              6.8662e-05           
  -0.8                  -8.23e-05             -3.004e-11            -2e-14                8.2244e-05           
  -0.85                 -9.5462e-05           -3.898e-11            -1.2e-13              9.5444e-05           
  -0.9                  -0.000108142          -5.012e-11            -8e-14                0.000108108          
  -0.95                 -0.00012006           -6.256e-11            -1.4e-13              0.00012036           
  -1                    -0.00013158           -7.828e-11            -2e-14                0.00013198           
  -1.05                 -0.00014258           -9.63e-11             -1e-13                0.00014286           
  -1.1                  -0.00015294           -1.1722e-10           -8e-14                0.00015326           
  -1.15                 -0.0001627            -1.4156e-10           0                     0.00016298           
  -1.2                  -0.00017198           -1.691e-10            1.6e-13               0.0001723            
  -1.25                 -0.00018074           -2.0124e-10           4.4e-13               0.00018104           
  -1.3                  -0.00018894           -2.3828e-10           9.4e-13               0.00018934           
  -1.35                 -0.0001968            -2.8076e-10           1.9e-12               0.00019704           
END_DB

BEGIN_DB
 ICCAP_VAR vb         0.6            
 ICCAP_VAR vd         -0.05          
 ICCAP_VAR vs         -0             

 #vg                    id                    ig                    ib                    is                   
  0.5                   -1.48e-12             4e-12                 0                     -2.06e-12            
  0.45                  -1.12e-12             2.92e-12              4e-14                 -1.6e-12             
  0.4                   -9.4e-13              2.44e-12              2e-14                 -1.24e-12            
  0.35                  -7.2e-13              1.34e-12              -8e-14                -7.8e-13             
  0.3                   -5.4e-13              1.1e-12               2e-14                 -7.2e-13             
  0.25                  -3.6e-13              6.4e-13               4e-14                 -3.6e-13             
  0.2                   -1.4e-13              3e-13                 4e-14                 -2.6e-13             
  0.15                  -1e-13                1.4e-13               4e-14                 -1.2e-13             
  0.1                   -8e-14                -1e-13                2e-14                 1.2e-13              
  0.05                  -5.6e-13              -2e-13                6e-14                 4.6e-13              
  0                     -2.34e-12             -4.8e-13              -1.2e-13              2.56e-12             
  -0.05                 -1.172e-11            -5.2e-13              0                     1.178e-11            
  -0.1                  -5.698e-11            -5.6e-13              -4e-14                5.726e-11            
  -0.15                 -2.7726e-10           -7.2e-13              0                     2.7742e-10           
  -0.2                  -1.3422e-09           -5.8e-13              -1e-13                1.3432e-09           
  -0.25                 -6.4714e-09           -1.08e-12             4e-14                 6.4716e-09           
  -0.3                  -3.0682e-08           -9.6e-13              4e-14                 3.0748e-08           
  -0.35                 -1.397e-07            -1.46e-12             -2e-14                1.3992e-07           
  -0.4                  -5.8302e-07           -2.18e-12             -6e-14                5.8334e-07           
  -0.45                 -2.053e-06            -2.7e-12              -1.4e-13              2.0552e-06           
  -0.5                  -5.7338e-06           -4.46e-12             -1.4e-13              5.7344e-06           
  -0.55                 -1.251e-05            -5.8e-12              -1.4e-13              1.254e-05            
  -0.6                  -2.235e-05            -8.54e-12             -8e-14                2.2354e-05           
  -0.65                 -3.4256e-05           -1.206e-11            2e-14                 3.4252e-05           
  -0.7                  -4.7368e-05           -1.654e-11            -2e-13                4.7318e-05           
  -0.75                 -6.0802e-05           -2.228e-11            8e-14                 6.0776e-05           
  -0.8                  -7.431e-05            -2.978e-11            -1e-13                7.4316e-05           
  -0.85                 -8.7538e-05           -3.866e-11            -4e-14                8.7512e-05           
  -0.9                  -0.000100276          -4.938e-11            0                     0.00010029           
  -0.95                 -0.00011251           -6.224e-11            -1e-13                0.00011248           
  -1                    -0.00012394           -7.754e-11            -1.4e-13              0.00012422           
  -1.05                 -0.00013488           -9.538e-11            4e-14                 0.00013518           
  -1.1                  -0.0001453            -1.1612e-10           -8e-14                0.0001456            
  -1.15                 -0.00015528           -1.4062e-10           -1e-13                0.0001556            
  -1.2                  -0.00016458           -1.6812e-10           1.2e-13               0.00016484           
  -1.25                 -0.00017338           -2.0076e-10           4.4e-13               0.0001737            
  -1.3                  -0.00018172           -2.3704e-10           8.4e-13               0.000182             
  -1.35                 -0.00018958           -2.794e-10            1.8e-12               0.00018992           
END_DB

BEGIN_DB
 ICCAP_VAR vb         0.8            
 ICCAP_VAR vd         -0.05          
 ICCAP_VAR vs         -0             

 #vg                    id                    ig                    ib                    is                   
  0.5                   -1.52e-12             4.1e-12               1.6e-13               -2.14e-12            
  0.45                  -1.08e-12             3.02e-12              -6e-14                -1.34e-12            
  0.4                   -9.2e-13              2.24e-12              1.2e-13               -1.22e-12            
  0.35                  -6.8e-13              1.56e-12              2e-14                 -9.2e-13             
  0.3                   -5.2e-13              8.4e-13               6e-14                 -6.4e-13             
