! VERSION = 6.00
BEGIN_HEADER
 ICCAP_INPUTS
  vd         V  D GROUND SMU1 0.1 LIN        1    -0         -1.35      28   -0.05     
  vg         V  G GROUND SMU2 0.001 LIST       2 3 -0.301 -0.501 -0.701
  vb         V  B GROUND SMU4 0.1 CON        1.2
  vs         V  S GROUND SMU3 0.1 CON        -0
 ICCAP_OUTPUTS
  id         I  D GROUND SMU1 B
  ig         I  G GROUND SMU2 B
  ib         I  B GROUND SMU4 B
  is         I  S GROUND SMU3 B
 ICCAP_VALUES
  MASTER_SETUP_TYPE "~dc_idvd~"
  LINVT_VALUE ""
  LISTVT_VALUE "|idvg|100.0n|-200.0m|1.000m|3|200.0m|200.0m|"
  TYPE "-1"
  TEMP " 70.0000 "
  IS_TNOM " 0.00000 "
  MAIN.W "10.00u"
  MAIN.L "10.00u"
  MAIN.AD "3.400p"
  MAIN.AS "3.400p"
  MAIN.PD "20.68u"
  MAIN.PS "20.68u"
  MAIN.NF "1.000"
  MAIN.M "1"
  MAIN.NRD "0.000"
  MAIN.NRS "0.000"
  MAIN.LDRIFT1 "1E-06"
  MAIN.LDRIFT2 "1E-06"
  MAIN.SA "0.000"
  MAIN.SB "0.000"
  MAIN.SD "0.000"
  MAIN.SCA "0.000"
  MAIN.SCB "0.000"
  MAIN.SCC "0.000"
  MAIN.SC "0.000"
  MODULE "S549"
  PIN_D "12"
  PIN_G "9"
  PIN_S "10"
  PIN_B "11"
  PIN_E ""
  PIN_6 ""
  XY_ID ""
  FUNC "Large"
  STI "SA ref"
  WPE "WPE ref"
  COMMENT ""
  DIS_MEAS ""
  TypeTCI "10"
END_HEADER

BEGIN_DB
 ICCAP_VAR vg         -0.301         
 ICCAP_VAR vb         1.2            
 ICCAP_VAR vs         -0             

 #vd                    id                    ig                    ib                    is                   
  -0                    1.96e-12              -2.42e-12             1.586e-11             2e-14                
  -0.05                 -4.4254e-10           -2.12e-12             1.602e-11             4.4464e-10           
  -0.1                  -5.2624e-10           -1.8e-12              1.594e-11             5.2776e-10           
  -0.15                 -5.4242e-10           -1.9e-12              1.598e-11             5.4396e-10           
  -0.2                  -5.4618e-10           -1.74e-12             1.594e-11             5.4754e-10           
  -0.25                 -5.4766e-10           -1.72e-12             1.598e-11             5.486e-10            
  -0.3                  -5.482e-10            -1.74e-12             1.612e-11             5.4942e-10           
  -0.35                 -5.4874e-10           -1.48e-12             1.598e-11             5.499e-10            
  -0.4                  -5.4942e-10           -1.78e-12             1.608e-11             5.5056e-10           
  -0.45                 -5.5012e-10           -1.3e-12              1.6e-11               5.5084e-10           
  -0.5                  -5.5062e-10           -1.48e-12             1.6e-11               5.5146e-10           
  -0.55                 -5.5094e-10           -1.42e-12             1.59e-11              5.518e-10            
  -0.6                  -5.5178e-10           -1.14e-12             1.602e-11             5.5202e-10           
  -0.65                 -5.5204e-10           -1.2e-12              1.596e-11             5.5258e-10           
  -0.7                  -5.527e-10            -8.4e-13              1.608e-11             5.5282e-10           
  -0.75                 -5.5316e-10           -7e-13                1.602e-11             5.5316e-10           
  -0.8                  -5.541e-10            -3e-13                1.594e-11             5.5332e-10           
  -0.85                 -5.5468e-10           8e-14                 1.602e-11             5.5366e-10           
  -0.9                  -5.5534e-10           5.8e-13               1.602e-11             5.5376e-10           
  -0.95                 -5.5618e-10           1.04e-12              1.618e-11             5.5412e-10           
  -1                    -5.5712e-10           1.7e-12               1.612e-11             5.5434e-10           
  -1.05                 -5.5818e-10           2.34e-12              1.644e-11             5.5458e-10           
  -1.1                  -5.594e-10            3.22e-12              1.652e-11             5.549e-10            
  -1.15                 -5.6106e-10           4.4e-12               1.698e-11             5.5476e-10           
  -1.2                  -5.6298e-10           5.22e-12              1.75e-11              5.5518e-10           
  -1.25                 -5.652e-10            6.58e-12              1.828e-11             5.5514e-10           
  -1.3                  -5.6758e-10           7.88e-12              1.926e-11             5.5542e-10           
  -1.35                 -5.7062e-10           9.32e-12              2.062e-11             5.5552e-10           
END_DB

BEGIN_DB
 ICCAP_VAR vg         -0.501         
 ICCAP_VAR vb         1.2            
 ICCAP_VAR vs         -0             

 #vd                    id                    ig                    ib                    is                   
  -0                    2.3928e-10            -7.888e-11            1.58e-11              -1.5978e-10          
  -0.05                 -8.1514e-08           -5.682e-11            1.58e-11              8.16e-08             
  -0.1                  -1.06282e-07          -4.854e-11            1.594e-11             1.06366e-07          
  -0.15                 -1.1202e-07           -4.644e-11            1.582e-11             1.12132e-07          
  -0.2                  -1.1334e-07           -4.59e-11             1.584e-11             1.13446e-07          
  -0.25                 -1.1374e-07           -4.56e-11             1.584e-11             1.13854e-07          
  -0.3                  -1.1396e-07           -4.532e-11            1.59e-11              1.14052e-07          
  -0.35                 -1.141e-07            -4.522e-11            1.592e-11             1.14202e-07          
  -0.4                  -1.1424e-07           -4.53e-11             1.578e-11             1.14336e-07          
  -0.45                 -1.1434e-07           -4.51e-11             1.596e-11             1.14448e-07          
  -0.5                  -1.1444e-07           -4.494e-11            1.592e-11             1.1455e-07           
  -0.55                 -1.1454e-07           -4.506e-11            1.596e-11             1.14652e-07          
  -0.6                  -1.1464e-07           -4.498e-11            1.594e-11             1.14736e-07          
  -0.65                 -1.1472e-07           -4.488e-11            1.598e-11             1.14808e-07          
  -0.7                  -1.1478e-07           -4.484e-11            1.59e-11              1.14886e-07          
  -0.75                 -1.1486e-07           -4.464e-11            1.596e-11             1.14956e-07          
  -0.8                  -1.149e-07            -4.446e-11            1.598e-11             1.1504e-07           
  -0.85                 -1.1498e-07           -4.416e-11            1.582e-11             1.1508e-07           
  -0.9                  -1.1506e-07           -4.414e-11            1.584e-11             1.1514e-07           
  -0.95                 -1.1508e-07           -4.374e-11            1.6e-11               1.1518e-07           
  -1                    -1.1512e-07           -4.334e-11            1.608e-11             1.1524e-07           
  -1.05                 -1.152e-07            -4.292e-11            1.608e-11             1.153e-07            
  -1.1                  -1.1524e-07           -4.256e-11            1.608e-11             1.1534e-07           
  -1.15                 -1.1528e-07           -4.194e-11            1.614e-11             1.1538e-07           
  -1.2                  -1.1532e-07           -4.136e-11            1.616e-11             1.1542e-07           
  -1.25                 -1.1536e-07           -4.07e-11             1.644e-11             1.1546e-07           
  -1.3                  -1.154e-07            -3.968e-11            1.68e-11              1.155e-07            
  -1.35                 -1.1542e-07           -3.89e-11             1.734e-11             1.1552e-07           
END_DB

BEGIN_DB
 ICCAP_VAR vg         -0.701         
 ICCAP_VAR vb         1.2            
 ICCAP_VAR vs         -0             

 #vd                    id                    ig                    ib                    is                   
  -0                    1.3704e-09            -6.3106e-10           1.58e-11              -7.776e-10           
  -0.05                 -6.2686e-07           -5.2358e-10           1.572e-11             6.2754e-07           
  -0.1                  -1.06564e-06          -4.459e-10            1.582e-11             1.06634e-06          
  -0.15                 -1.3326e-06           -3.9596e-10           1.58e-11              1.336e-06            
  -0.2                  -1.4644e-06           -3.6984e-10           1.58e-11              1.468e-06            
  -0.25                 -1.5134e-06           -3.593e-10            1.588e-11             1.517e-06            
  -0.3                  -1.5282e-06           -3.56e-10             1.588e-11             1.5318e-06           
  -0.35                 -1.5334e-06           -3.5446e-10           1.594e-11             1.5368e-06           
  -0.4                  -1.5362e-06           -3.5374e-10           1.598e-11             1.5398e-06           
  -0.45                 -1.5382e-06           -3.5356e-10           1.594e-11             1.5418e-06           
  -0.5                  -1.54e-06             -3.5304e-10           1.596e-11             1.5434e-06           
  -0.55                 -1.5414e-06           -3.528e-10            1.588e-11             1.5448e-06           
  -0.6                  -1.5428e-06           -3.5238e-10           1.592e-11             1.5462e-06           
  -0.65                 -1.544e-06            -3.5184e-10           1.6e-11               1.5476e-06           
  -0.7                  -1.5452e-06           -3.5162e-10           1.588e-11             1.5486e-06           
  -0.75                 -1.5462e-06           -3.5142e-10           1.588e-11             1.5496e-06           
  -0.8                  -1.5472e-06           -3.5112e-10           1.596e-11             1.5506e-06           
  -0.85                 -1.548e-06            -3.508e-10            1.592e-11             1.5514e-06           
  -0.9                  -1.5488e-06           -3.5076e-10           1.594e-11             1.5522e-06           
  -0.95                 -1.5496e-06           -3.5022e-10           1.596e-11             1.553e-06            
  -1                    -1.5502e-06           -3.4998e-10           1.596e-11             1.5536e-06           
  -1.05                 -1.5508e-06           -3.4978e-10           1.594e-11             1.5542e-06           
  -1.1                  -1.5516e-06           -3.4922e-10           1.6e-11               1.555e-06            
  -1.15                 -1.5522e-06           -3.489e-10            1.594e-11             1.5556e-06           
  -1.2                  -1.5526e-06           -3.4854e-10           1.606e-11             1.556e-06            
  -1.25                 -1.5532e-06           -3.4796e-10           1.606e-11             1.5568e-06           
  -1.3                  -1.5538e-06           -3.4736e-10           1.616e-11             1.5572e-06           
  -1.35                 -1.5542e-06           -3.467e-10            1.654e-11             1.5576e-06           
END_DB

