! VERSION = 6.00
BEGIN_HEADER
 ICCAP_INPUTS
  vd         V  D GROUND SMU1 0.1 LIN        1    -0         -1.35      28   -0.05     
  vg         V  G GROUND SMU2 0.001 LIN        2    -0.446     -1.35      5    -0.226    
  vb         V  B GROUND SMU4 0.1 CON        -0
  vs         V  S GROUND SMU3 0.1 CON        -0
 ICCAP_OUTPUTS
  id         I  D GROUND SMU1 B
  ig         I  G GROUND SMU2 B
  ib         I  B GROUND SMU4 B
  is         I  S GROUND SMU3 B
 ICCAP_VALUES
  MASTER_SETUP_TYPE "~dc_idvd~"
  LINVT_VALUE "|idvg|100.0n|100.0m|1.000m|5|1.350|"
  LISTVT_VALUE ""
  TYPE "-1"
  TEMP " 27.0000 "
  IS_TNOM " 1.00000 "
  MAIN.W "10.00u"
  MAIN.L "5.000u"
  MAIN.AD "3.400p"
  MAIN.AS "3.400p"
  MAIN.PD "20.68u"
  MAIN.PS "20.68u"
  MAIN.NF "1.000"
  MAIN.M "1"
  MAIN.NRD "0.000"
  MAIN.NRS "0.000"
  MAIN.LDRIFT1 "1E-06"
  MAIN.LDRIFT2 "1E-06"
  MAIN.SA "0.000"
  MAIN.SB "0.000"
  MAIN.SD "0.000"
  MAIN.SCA "0.000"
  MAIN.SCB "0.000"
  MAIN.SCC "0.000"
  MAIN.SC "0.000"
  MODULE "S549"
  PIN_D "14"
  PIN_G "7"
  PIN_S "8"
  PIN_B "13"
  PIN_E ""
  PIN_6 ""
  XY_ID ""
  FUNC "L Scale"
  STI "SA ref"
  WPE "WPE ref"
  COMMENT ""
  DIS_MEAS ""
  TypeTCI "10"
END_HEADER

BEGIN_DB
 ICCAP_VAR vg         -0.446         
 ICCAP_VAR vb         -0             
 ICCAP_VAR vs         -0             

 #vd                    id                    ig                    ib                    is                   
  -0                    1.1918e-09            -5.176e-11            -3.16e-12             -1.1916e-09          
  -0.05                 -7.6174e-07           -3.982e-11            -3.3e-12              7.6206e-07           
  -0.1                  -1.1157e-06           -3.38e-11             -3.28e-12             1.1161e-06           
  -0.15                 -1.2298e-06           -3.142e-11            -3.08e-12             1.2334e-06           
  -0.2                  -1.2608e-06           -3.072e-11            -3.08e-12             1.2646e-06           
  -0.25                 -1.2726e-06           -3.068e-11            -3.04e-12             1.2762e-06           
  -0.3                  -1.2796e-06           -3.036e-11            -3.14e-12             1.2836e-06           
  -0.35                 -1.2856e-06           -2.986e-11            -3e-12                1.2894e-06           
  -0.4                  -1.2906e-06           -2.986e-11            -2.8e-12              1.2944e-06           
  -0.45                 -1.295e-06            -2.992e-11            -2.94e-12             1.2986e-06           
  -0.5                  -1.2988e-06           -2.994e-11            -2.96e-12             1.3026e-06           
  -0.55                 -1.3024e-06           -2.97e-11             -2.94e-12             1.306e-06            
  -0.6                  -1.3056e-06           -2.952e-11            -3e-12                1.3092e-06           
  -0.65                 -1.3086e-06           -2.936e-11            -2.86e-12             1.3122e-06           
  -0.7                  -1.3112e-06           -2.94e-11             -2.88e-12             1.3148e-06           
  -0.75                 -1.3136e-06           -2.932e-11            -2.88e-12             1.3174e-06           
  -0.8                  -1.316e-06            -2.902e-11            -2.9e-12              1.3198e-06           
  -0.85                 -1.318e-06            -2.878e-11            -2.88e-12             1.3218e-06           
  -0.9                  -1.32e-06             -2.856e-11            -2.8e-12              1.3238e-06           
  -0.95                 -1.322e-06            -2.826e-11            -2.78e-12             1.3256e-06           
  -1                    -1.3236e-06           -2.784e-11            -2.72e-12             1.3274e-06           
  -1.05                 -1.3252e-06           -2.722e-11            -2.64e-12             1.329e-06            
  -1.1                  -1.3268e-06           -2.672e-11            -2.66e-12             1.3306e-06           
  -1.15                 -1.3282e-06           -2.608e-11            -2.52e-12             1.332e-06            
  -1.2                  -1.3296e-06           -2.544e-11            -2.46e-12             1.3332e-06           
  -1.25                 -1.331e-06            -2.478e-11            -2.12e-12             1.3346e-06           
  -1.3                  -1.3322e-06           -2.39e-11             -1.68e-12             1.3358e-06           
  -1.35                 -1.3334e-06           -2.29e-11             -9.4e-13              1.337e-06            
END_DB

BEGIN_DB
 ICCAP_VAR vg         -0.672         
 ICCAP_VAR vb         -0             
 ICCAP_VAR vs         -0             

 #vd                    id                    ig                    ib                    is                   
  -0                    3.0806e-09            -3.5178e-10           -2.26e-12             -2.9544e-09          
  -0.05                 -2.7796e-06           -2.98e-10             -2.36e-12             2.7834e-06           
  -0.1                  -5.0042e-06           -2.5678e-10           -2.32e-12             5.0086e-06           
  -0.15                 -6.6682e-06           -2.2668e-10           -2.28e-12             6.6724e-06           
  -0.2                  -7.7862e-06           -2.0636e-10           -2.3e-12              7.7904e-06           
  -0.25                 -8.4128e-06           -1.95e-10             -2.38e-12             8.417e-06            
  -0.3                  -8.6892e-06           -1.897e-10            -2.36e-12             8.6934e-06           
  -0.35                 -8.7968e-06           -1.876e-10            -2.3e-12              8.8008e-06           
  -0.4                  -8.8498e-06           -1.8674e-10           -2.26e-12             8.8534e-06           
  -0.45                 -8.8846e-06           -1.8604e-10           -2.24e-12             8.8886e-06           
  -0.5                  -8.9128e-06           -1.8518e-10           -2.28e-12             8.9162e-06           
  -0.55                 -8.9362e-06           -1.8494e-10           -2.3e-12              8.9402e-06           
  -0.6                  -8.9574e-06           -1.8474e-10           -2.22e-12             8.9612e-06           
  -0.65                 -8.9766e-06           -1.84e-10             -2.22e-12             8.9806e-06           
  -0.7                  -8.994e-06            -1.8362e-10           -2.14e-12             8.9972e-06           
  -0.75                 -9.01e-06             -1.8346e-10           -2.12e-12             9.0136e-06           
  -0.8                  -9.025e-06            -1.8302e-10           -2.22e-12             9.0286e-06           
  -0.85                 -9.0386e-06           -1.8266e-10           -2.1e-12              9.042e-06            
  -0.9                  -9.0516e-06           -1.8248e-10           -2.1e-12              9.0552e-06           
  -0.95                 -9.0636e-06           -1.8214e-10           -2.2e-12              9.0674e-06           
  -1                    -9.0746e-06           -1.8152e-10           -2.14e-12             9.0788e-06           
  -1.05                 -9.086e-06            -1.8138e-10           -2.12e-12             9.0896e-06           
  -1.1                  -9.0958e-06           -1.8104e-10           -2.08e-12             9.0994e-06           
  -1.15                 -9.1052e-06           -1.8052e-10           -2.1e-12              9.1092e-06           
  -1.2                  -9.1138e-06           -1.7992e-10           -2.08e-12             9.1182e-06           
  -1.25                 -9.123e-06            -1.7954e-10           -2e-12                9.1262e-06           
  -1.3                  -9.1306e-06           -1.7904e-10           -1.84e-12             9.134e-06            
  -1.35                 -9.1378e-06           -1.7846e-10           -1.46e-12             9.1416e-06           
END_DB

BEGIN_DB
 ICCAP_VAR vg         -0.898         
 ICCAP_VAR vb         -0             
 ICCAP_VAR vs         -0             

 #vd                    id                    ig                    ib                    is                   
  -0                    3.9182e-09            -1.267e-09            -1.9e-12              -4.0352e-09          
  -0.05                 -4.6424e-06           -1.122e-09            -1.9e-12              4.6472e-06           
  -0.1                  -8.8002e-06           -1.0004e-09           -1.86e-12             8.805e-06            
  -0.15                 -1.2444e-05           -8.9946e-10           -1.82e-12             1.2462e-05           
  -0.2                  -1.5574e-05           -8.158e-10            -1.92e-12             1.5592e-05           
  -0.25                 -1.8172e-05           -7.4886e-10           -1.84e-12             1.819e-05            
  -0.3                  -2.0226e-05           -6.9818e-10           -1.9e-12              2.0246e-05           
  -0.35                 -2.1734e-05           -6.609e-10            -1.9e-12              2.1752e-05           
  -0.4                  -2.2718e-05           -6.369e-10            -1.86e-12             2.2736e-05           
  -0.45                 -2.326e-05            -6.2434e-10           -1.88e-12             2.328e-05            
  -0.5                  -2.352e-05            -6.1778e-10           -1.82e-12             2.3538e-05           
  -0.55                 -2.365e-05            -6.1448e-10           -1.84e-12             2.3668e-05           
  -0.6                  -2.3732e-05           -6.1214e-10           -1.76e-12             2.3748e-05           
  -0.65                 -2.3792e-05           -6.108e-10            -1.78e-12             2.3808e-05           
  -0.7                  -2.3842e-05           -6.0938e-10           -1.74e-12             2.386e-05            
  -0.75                 -2.3886e-05           -6.0754e-10           -1.74e-12             2.3904e-05           
  -0.8                  -2.3926e-05           -6.0706e-10           -1.72e-12             2.3944e-05           
  -0.85                 -2.3962e-05           -6.0658e-10           -1.68e-12             2.398e-05            
  -0.9                  -2.3996e-05           -6.0562e-10           -1.8e-12              2.4014e-05           
  -0.95                 -2.4028e-05           -6.0468e-10           -1.78e-12             2.4046e-05           
  -1                    -2.4056e-05           -6.0416e-10           -1.82e-12             2.4074e-05           
  -1.05                 -2.4082e-05           -6.0326e-10           -1.8e-12              2.4102e-05           
  -1.1                  -2.4108e-05           -6.0268e-10           -1.74e-12             2.4126e-05           
  -1.15                 -2.4132e-05           -6.022e-10            -1.66e-12             2.415e-05            
  -1.2                  -2.4156e-05           -6.0358e-10           -1.74e-12             2.4172e-05           
  -1.25                 -2.4176e-05           -6.0224e-10           -1.76e-12             2.4194e-05           
  -1.3                  -2.4196e-05           -6.0228e-10           -1.84e-12             2.4214e-05           
  -1.35                 -2.4216e-05           -6.0122e-10           -1.74e-12             2.4234e-05           
END_DB

BEGIN_DB
 ICCAP_VAR vg         -1.124         
 ICCAP_VAR vb         -0             
 ICCAP_VAR vs         -0             

 #vd                    id                    ig                    ib                    is                   
  -0                    1.1122e-08            -3.3096e-09           -6.4e-13              -2.9352e-09          
  -0.05                 -6.1504e-06           -3.013e-09            -1e-12                6.1566e-06           
  -0.1                  -1.1892e-05           -2.7566e-09           -1.3e-12              1.191e-05            
  -0.15                 -1.721e-05            -2.525e-09            -1.42e-12             1.723e-05            
  -0.2                  -2.2088e-05           -2.3228e-09           -1.44e-12             2.2108e-05           
  -0.25                 -2.6512e-05           -2.148e-09            -1.46e-12             2.6532e-05           
  -0.3                  -3.0462e-05           -1.9968e-09           -1.34e-12             3.048e-05            
  -0.35                 -3.3918e-05           -1.8708e-09           -1.44e-12             3.3938e-05           
  -0.4                  -3.6876e-05           -1.766e-09            -1.56e-12             3.6898e-05           
  -0.45                 -3.9322e-05           -1.6826e-09           -1.52e-12             3.9344e-05           
  -0.5                  -4.124e-05            -1.6166e-09           -1.5e-12              4.1262e-05           
  -0.55                 -4.2634e-05           -1.5714e-09           -1.42e-12             4.2654e-05           
  -0.6                  -4.3538e-05           -1.5408e-09           -1.4e-12              4.3558e-05           
  -0.65                 -4.405e-05            -1.5248e-09           -1.34e-12             4.407e-05            
  -0.7                  -4.4324e-05           -1.5172e-09           -1.54e-12             4.4342e-05           
  -0.75                 -4.4484e-05           -1.5116e-09           -1.44e-12             4.4502e-05           
  -0.8                  -4.4592e-05           -1.508e-09            -1.4e-12              4.4614e-05           
  -0.85                 -4.468e-05            -1.5058e-09           -1.4e-12              4.47e-05             
  -0.9                  -4.4754e-05           -1.5026e-09           -1.38e-12             4.4774e-05           
  -0.95                 -4.4816e-05           -1.4992e-09           -1.44e-12             4.4836e-05           
  -1                    -4.4876e-05           -1.4982e-09           -1.36e-12             4.4896e-05           
  -1.05                 -4.493e-05            -1.4974e-09           -1.5e-12              4.4948e-05           
  -1.1                  -4.4976e-05           -1.496e-09            -1.42e-12             4.4994e-05           
  -1.15                 -4.5022e-05           -1.4932e-09           -1.36e-12             4.5042e-05           
  -1.2                  -4.5064e-05           -1.4934e-09           -1.32e-12             4.5084e-05           
  -1.25                 -4.5106e-05           -1.491e-09            -1.44e-12             4.5122e-05           
  -1.3                  -4.5144e-05           -1.491e-09            -1.4e-12              4.5164e-05           
  -1.35                 -4.518e-05            -1.4896e-09           -1.44e-12             4.5198e-05           
END_DB

BEGIN_DB
 ICCAP_VAR vg         -1.35          
 ICCAP_VAR vb         -0             
 ICCAP_VAR vs         -0             

 #vd                    id                    ig                    ib                    is                   
  -0                    1.428e-08             -7.1404e-09           4.808e-11             -2.3572e-09          
  -0.05                 -7.3348e-06           -6.6108e-09           3.414e-11             7.3448e-06           
  -0.1                  -1.4332e-05           -6.1316e-09           2.5e-11               1.4354e-05           
  -0.15                 -2.098e-05            -5.697e-09            1.908e-11             2.1002e-05           
  -0.2                  -2.7256e-05           -5.306e-09            1.5e-11               2.728e-05            
  -0.25                 -3.3156e-05           -4.9516e-09           1.238e-11             3.3182e-05           
  -0.3                  -3.866e-05            -4.6408e-09           1.054e-11             3.8684e-05           
  -0.35                 -4.3748e-05           -4.3626e-09           9.18e-12              4.3774e-05           
  -0.4                  -4.8422e-05           -4.114e-09            8.3e-12               4.8446e-05           
  -0.45                 -5.2656e-05           -3.8982e-09           7.6e-12               5.2678e-05           
  -0.5                  -5.643e-05            -3.7158e-09           6.94e-12              5.6456e-05           
  -0.55                 -5.9738e-05           -3.555e-09            6.52e-12              5.9766e-05           
  -0.6                  -6.2562e-05           -3.4264e-09           6.18e-12              6.2586e-05           
  -0.65                 -6.4888e-05           -3.3246e-09           5.92e-12              6.4912e-05           
  -0.7                  -6.6706e-05           -3.243e-09            5.76e-12              6.673e-05            
  -0.75                 -6.8026e-05           -3.1866e-09           5.6e-12               6.805e-05            
  -0.8                  -6.8892e-05           -3.1482e-09           5.6e-12               6.8916e-05           
  -0.85                 -6.9404e-05           -3.1242e-09           5.42e-12              6.9426e-05           
  -0.9                  -6.9704e-05           -3.1128e-09           5.4e-12               6.9728e-05           
  -0.95                 -6.9894e-05           -3.1048e-09           5.52e-12              6.9914e-05           
  -1                    -7.0032e-05           -3.0998e-09           5.48e-12              7.0052e-05           
  -1.05                 -7.014e-05            -3.0954e-09           5.54e-12              7.0164e-05           
  -1.1                  -7.0236e-05           -3.092e-09            5.54e-12              7.026e-05            
  -1.15                 -7.0318e-05           -3.0876e-09           5.46e-12              7.0338e-05           
  -1.2                  -7.0392e-05           -3.0826e-09           5.46e-12              7.0414e-05           
  -1.25                 -7.0462e-05           -3.0796e-09           5.5e-12               7.0484e-05           
  -1.3                  -7.0526e-05           -3.078e-09            5.46e-12              7.0548e-05           
  -1.35                 -7.0586e-05           -3.0748e-09           5.46e-12              7.0606e-05           
END_DB

