! VERSION = 6.00
BEGIN_HEADER
 ICCAP_INPUTS
  vd         V  D GROUND SMU1 0.1 LIN        1    -0         -1.35      28   -0.05     
  vg         V  G GROUND SMU2 0.001 LIST       2 3 -0.165 -0.365 -0.565
  vb         V  B GROUND SMU4 0.1 CON        -0
  vs         V  S GROUND SMU3 0.1 CON        -0
 ICCAP_OUTPUTS
  id         I  D GROUND SMU1 B
  ig         I  G GROUND SMU2 B
  ib         I  B GROUND SMU4 B
  is         I  S GROUND SMU3 B
 ICCAP_VALUES
  MASTER_SETUP_TYPE "~dc_idvd~"
  LINVT_VALUE ""
  LISTVT_VALUE "|idvg|100.0n|-200.0m|1.000m|3|200.0m|200.0m|"
  TYPE "-1"
  TEMP " 27.0000 "
  IS_TNOM " 1.00000 "
  MAIN.W "180.0n"
  MAIN.L "130.0n"
  MAIN.AD "102.6f"
  MAIN.AS "102.6f"
  MAIN.PD "1.340u"
  MAIN.PS "1.340u"
  MAIN.NF "1.000"
  MAIN.M "1"
  MAIN.NRD "0.000"
  MAIN.NRS "0.000"
  MAIN.LDRIFT1 "1E-06"
  MAIN.LDRIFT2 "1E-06"
  MAIN.SA "0.000"
  MAIN.SB "0.000"
  MAIN.SD "0.000"
  MAIN.SCA "0.000"
  MAIN.SCB "0.000"
  MAIN.SCC "0.000"
  MAIN.SC "0.000"
  MODULE "S553"
  PIN_D "16"
  PIN_G "5"
  PIN_S "6"
  PIN_B "15"
  PIN_E ""
  PIN_6 ""
  XY_ID ""
  FUNC "LW Scale"
  STI "SA ref"
  WPE "WPE ref"
  COMMENT ""
  DIS_MEAS ""
  TypeTCI "10"
END_HEADER

BEGIN_DB
 ICCAP_VAR vg         -0.165         
 ICCAP_VAR vb         -0             
 ICCAP_VAR vs         -0             

 #vd                    id                    ig                    ib                    is                   
  -0                    6.2e-13               2e-13                 -1.24e-12             -8.6e-13             
  -0.05                 -2.6388e-10           1.2e-13               -1.04e-12             2.629e-10            
  -0.1                  -3.3402e-10           1.6e-13               -1.14e-12             3.3392e-10           
  -0.15                 -3.7344e-10           6e-14                 -1.24e-12             3.7368e-10           
  -0.2                  -4.0886e-10           2e-13                 -1.06e-12             4.0884e-10           
  -0.25                 -4.451e-10            2.4e-13               -1.32e-12             4.445e-10            
  -0.3                  -4.814e-10            1.4e-13               -1.08e-12             4.8094e-10           
  -0.35                 -5.1876e-10           1.6e-13               -1.26e-12             5.1878e-10           
  -0.4                  -5.5776e-10           8e-14                 -1.1e-12              5.5802e-10           
  -0.45                 -5.982e-10            1.8e-13               -1.1e-12              5.9756e-10           
  -0.5                  -6.4004e-10           2e-14                 -1.08e-12             6.3912e-10           
  -0.55                 -6.8308e-10           1.8e-13               -1.14e-12             6.8246e-10           
  -0.6                  -7.281e-10            2.2e-13               -1.12e-12             7.2812e-10           
  -0.65                 -7.7516e-10           1.8e-13               -1.18e-12             7.7492e-10           
  -0.7                  -8.2424e-10           1.8e-13               -1.08e-12             8.231e-10            
  -0.75                 -8.7536e-10           2.2e-13               -1.04e-12             8.754e-10            
  -0.8                  -9.3084e-10           1.6e-13               -1.18e-12             9.284e-10            
  -0.85                 -9.8484e-10           2.8e-13               -1.04e-12             9.8456e-10           
  -0.9                  -1.042e-09            3.6e-13               -9.6e-13              1.04196e-09          
  -0.95                 -1.103e-09            3e-13                 -1.1e-12              1.1029e-09           
  -1                    -1.169e-09            3e-13                 -1.08e-12             1.1662e-09           
  -1.05                 -1.232e-09            3.2e-13               -1e-12                1.2328e-09           
  -1.1                  -1.301e-09            4.4e-13               -9.8e-13              1.3082e-09           
  -1.15                 -1.3814e-09           4e-13                 -1.08e-12             1.38e-09             
  -1.2                  -1.4544e-09           3.6e-13               -9.4e-13              1.4556e-09           
  -1.25                 -1.5336e-09           4.2e-13               -1.02e-12             1.5336e-09           
  -1.3                  -1.624e-09            4.6e-13               -1e-12                1.615e-09            
  -1.35                 -1.6992e-09           4e-13                 -9.8e-13              1.6992e-09           
END_DB

BEGIN_DB
 ICCAP_VAR vg         -0.365         
 ICCAP_VAR vb         -0             
 ICCAP_VAR vs         -0             

 #vd                    id                    ig                    ib                    is                   
  -0                    1.7026e-10            -2e-14                -1.08e-12             -1.6986e-10          
  -0.05                 -6.0894e-08           -1.4e-13              -1.1e-12              6.0888e-08           
  -0.1                  -8.2278e-08           4e-14                 -1.02e-12             8.2392e-08           
  -0.15                 -9.4048e-08           8e-14                 -9e-13                9.3976e-08           
  -0.2                  -1.03366e-07          6e-14                 -9.6e-13              1.0344e-07           
  -0.25                 -1.1194e-07           8e-14                 -9.6e-13              1.12084e-07          
  -0.3                  -1.203e-07            4e-14                 -9.8e-13              1.2044e-07           
  -0.35                 -1.2844e-07           0                     -9.2e-13              1.2858e-07           
  -0.4                  -1.364e-07            0                     -9.4e-13              1.3672e-07           
  -0.45                 -1.4452e-07           8e-14                 -9.4e-13              1.4468e-07           
  -0.5                  -1.526e-07            1.4e-13               -9.2e-13              1.5268e-07           
  -0.55                 -1.6076e-07           6e-14                 -1e-12                1.6094e-07           
  -0.6                  -1.6892e-07           -4e-14                -1e-12                1.6916e-07           
  -0.65                 -1.7722e-07           1.4e-13               -1.04e-12             1.7748e-07           
  -0.7                  -1.8556e-07           4e-14                 -8.4e-13              1.8586e-07           
  -0.75                 -1.9416e-07           2.2e-13               -8.2e-13              1.9442e-07           
  -0.8                  -2.0294e-07           6e-14                 -9.6e-13              2.0308e-07           
  -0.85                 -2.117e-07            6e-14                 -1e-12                2.1194e-07           
  -0.9                  -2.2068e-07           1.8e-13               -9.8e-13              2.2108e-07           
  -0.95                 -2.2986e-07           4e-14                 -1.16e-12             2.3014e-07           
  -1                    -2.3924e-07           1.6e-13               -1.02e-12             2.3944e-07           
  -1.05                 -2.487e-07            1.6e-13               -8.8e-13              2.4896e-07           
  -1.1                  -2.584e-07            1e-13                 -8.8e-13              2.585e-07            
  -1.15                 -2.6804e-07           2e-13                 -8e-13                2.6832e-07           
  -1.2                  -2.7796e-07           2.6e-13               -7.4e-13              2.7832e-07           
  -1.25                 -2.8816e-07           3e-13                 -6.8e-13              2.8836e-07           
  -1.3                  -2.985e-07            3e-13                 -4e-13                2.9886e-07           
  -1.35                 -3.0914e-07           3.6e-13               4e-14                 3.0928e-07           
END_DB

BEGIN_DB
 ICCAP_VAR vg         -0.565         
 ICCAP_VAR vb         -0             
 ICCAP_VAR vs         -0             

 #vd                    id                    ig                    ib                    is                   
  -0                    1.6024e-09            -1e-13                -1.02e-12             -1.453e-09           
  -0.05                 -9.568e-07            -1.8e-13              -9.2e-13              9.577e-07            
  -0.1                  -1.541e-06            -1.4e-13              -9.4e-13              1.5454e-06           
  -0.15                 -1.895e-06            -2e-14                -9.8e-13              1.8996e-06           
  -0.2                  -2.1262e-06           -8e-14                -1.02e-12             2.1284e-06           
  -0.25                 -2.2928e-06           4e-14                 -8e-13                2.2962e-06           
  -0.3                  -2.427e-06            -1e-13                -8.4e-13              2.4338e-06           
  -0.35                 -2.545e-06            -1.2e-13              -9.8e-13              2.5462e-06           
  -0.4                  -2.6466e-06           -8e-14                -9.4e-13              2.6502e-06           
  -0.45                 -2.7434e-06           -6e-14                -8.8e-13              2.7478e-06           
  -0.5                  -2.8358e-06           -1.2e-13              -8.2e-13              2.8404e-06           
  -0.55                 -2.9246e-06           -1e-13                -8.4e-13              2.9282e-06           
  -0.6                  -3.0114e-06           -2e-14                -8.6e-13              3.0146e-06           
  -0.65                 -3.097e-06            2e-14                 -8.6e-13              3.1008e-06           
  -0.7                  -3.18e-06             2e-14                 -7.4e-13              3.1836e-06           
  -0.75                 -3.2624e-06           -8e-14                -9.2e-13              3.2708e-06           
  -0.8                  -3.3454e-06           0                     -8.8e-13              3.346e-06            
  -0.85                 -3.4166e-06           -1.4e-13              -6.8e-13              3.4206e-06           
  -0.9                  -3.4972e-06           -1e-13                -8e-13                3.5016e-06           
  -0.95                 -3.5774e-06           2e-14                 -8.4e-13              3.5822e-06           
  -1                    -3.6642e-06           8e-14                 -8.4e-13              3.6778e-06           
  -1.05                 -3.754e-06            6e-14                 -7.2e-13              3.755e-06            
  -1.1                  -3.8304e-06           4e-14                 -7.8e-13              3.835e-06            
  -1.15                 -3.912e-06            -4e-14                -6.6e-13              3.9154e-06           
  -1.2                  -3.9916e-06           4e-14                 -4.6e-13              3.9952e-06           
  -1.25                 -4.0726e-06           1.6e-13               -2.6e-13              4.0798e-06           
  -1.3                  -4.1562e-06           8e-14                 4.4e-13               4.156e-06            
  -1.35                 -4.2326e-06           1.8e-13               1.96e-12              4.2306e-06           
END_DB

