! VERSION = 6.00
BEGIN_HEADER
 ICCAP_INPUTS
  vd         V  D GROUND SMU1 0.1 LIN        1    -0         -1.35      28   -0.05     
  vg         V  G GROUND SMU2 0.001 LIN        2    -0.506     -1.35      5    -0.211    
  vb         V  B GROUND SMU4 0.1 CON        -0
  vs         V  S GROUND SMU3 0.1 CON        -0
 ICCAP_OUTPUTS
  id         I  D GROUND SMU1 B
  ig         I  G GROUND SMU2 B
  ib         I  B GROUND SMU4 B
  is         I  S GROUND SMU3 B
 ICCAP_VALUES
  MASTER_SETUP_TYPE "~dc_idvd~"
  LINVT_VALUE "|idvg|100.0n|100.0m|1.000m|5|1.350|"
  LISTVT_VALUE ""
  TYPE "-1"
  TEMP " 27.0000 "
  IS_TNOM " 1.00000 "
  MAIN.W "10.00u"
  MAIN.L "130.0n"
  MAIN.AD "3.400p"
  MAIN.AS "3.400p"
  MAIN.PD "20.68u"
  MAIN.PS "20.68u"
  MAIN.NF "1.000"
  MAIN.M "1"
  MAIN.NRD "0.000"
  MAIN.NRS "0.000"
  MAIN.LDRIFT1 "1E-06"
  MAIN.LDRIFT2 "1E-06"
  MAIN.SA "0.000"
  MAIN.SB "0.000"
  MAIN.SD "0.000"
  MAIN.SCA "0.000"
  MAIN.SCB "0.000"
  MAIN.SCC "0.000"
  MAIN.SC "0.000"
  MODULE "S548"
  PIN_D "18"
  PIN_G "3"
  PIN_S "4"
  PIN_B "17"
  PIN_E ""
  PIN_6 ""
  XY_ID ""
  FUNC "Short"
  STI "SA ref"
  WPE "WPE ref"
  COMMENT ""
  DIS_MEAS ""
  TypeTCI "10"
END_HEADER

BEGIN_DB
 ICCAP_VAR vg         -0.506         
 ICCAP_VAR vb         -0             
 ICCAP_VAR vs         -0             

 #vd                    id                    ig                    ib                    is                   
  -0                    3.2318e-08            -5.44e-12             -3.04e-12             -3.5314e-08          
  -0.05                 -1.9828e-05           -4.56e-12             -3.04e-12             1.9826e-05           
  -0.1                  -2.9708e-05           -4.08e-12             -3e-12                2.9732e-05           
  -0.15                 -3.4738e-05           -3.8e-12              -2.96e-12             3.4784e-05           
  -0.2                  -3.7834e-05           -3.4e-12              -2.94e-12             3.7814e-05           
  -0.25                 -4.0096e-05           -3.32e-12             -2.8e-12              4.011e-05            
  -0.3                  -4.2044e-05           -3.28e-12             -2.8e-12              4.2072e-05           
  -0.35                 -4.3862e-05           -3.26e-12             -2.8e-12              4.388e-05            
  -0.4                  -4.557e-05            -3.08e-12             -2.82e-12             4.5598e-05           
  -0.45                 -4.7186e-05           -3.08e-12             -2.82e-12             4.7204e-05           
  -0.5                  -4.878e-05            -3.14e-12             -2.78e-12             4.882e-05            
  -0.55                 -5.0382e-05           -3.02e-12             -2.64e-12             5.0394e-05           
  -0.6                  -5.193e-05            -3e-12                -2.72e-12             5.1956e-05           
  -0.65                 -5.3476e-05           -3e-12                -2.7e-12              5.3494e-05           
  -0.7                  -5.5072e-05           -2.74e-12             -2.62e-12             5.5082e-05           
  -0.75                 -5.6612e-05           -2.7e-12              -2.76e-12             5.6668e-05           
  -0.8                  -5.8178e-05           -2.7e-12              -2.7e-12              5.8212e-05           
  -0.85                 -5.9728e-05           -2.46e-12             -2.64e-12             5.9718e-05           
  -0.9                  -6.1284e-05           -2.22e-12             -2.46e-12             6.1322e-05           
  -0.95                 -6.2826e-05           -1.98e-12             -2.5e-12              6.2848e-05           
  -1                    -6.437e-05            -1.6e-12              -2.34e-12             6.4408e-05           
  -1.05                 -6.5984e-05           -1.08e-12             -1.88e-12             6.5978e-05           
  -1.1                  -6.7548e-05           -7.8e-13              -1.22e-12             6.758e-05            
  -1.15                 -6.911e-05            -3.4e-13              7.6e-13               6.914e-05            
  -1.2                  -7.0692e-05           2.8e-13               5.24e-12              7.0756e-05           
  -1.25                 -7.233e-05            1.06e-12              1.42e-11              7.2358e-05           
  -1.3                  -7.3976e-05           1.8e-12               3.214e-11             7.3966e-05           
  -1.35                 -7.5602e-05           2.74e-12              6.58e-11              7.5554e-05           
END_DB

BEGIN_DB
 ICCAP_VAR vg         -0.717         
 ICCAP_VAR vb         -0             
 ICCAP_VAR vs         -0             

 #vd                    id                    ig                    ib                    is                   
  -0                    1.15014e-07           -2.1e-11              -2.18e-12             -1.10322e-07         
  -0.05                 -8.5696e-05           -1.852e-11            -2.16e-12             8.5716e-05           
  -0.1                  -0.00015186           -1.646e-11            -1.98e-12             0.0001523            
  -0.15                 -0.00020076           -1.476e-11            -2.06e-12             0.00020112           
  -0.2                  -0.00023566           -1.364e-11            -2.18e-12             0.00023598           
  -0.25                 -0.00026038           -1.278e-11            -2.1e-12              0.00026068           
  -0.3                  -0.00027826           -1.208e-11            -2e-12                0.00027854           
  -0.35                 -0.00029194           -1.158e-11            -2.04e-12             0.00029238           
  -0.4                  -0.00030316           -1.136e-11            -1.98e-12             0.00030348           
  -0.45                 -0.00031278           -1.116e-11            -1.98e-12             0.00031322           
  -0.5                  -0.00032144           -1.098e-11            -2.06e-12             0.00032168           
  -0.55                 -0.0003296            -1.084e-11            -1.96e-12             0.00032984           
  -0.6                  -0.00033702           -1.072e-11            -1.94e-12             0.0003375            
  -0.65                 -0.00034436           -1.056e-11            -1.92e-12             0.00034468           
  -0.7                  -0.00035142           -1.054e-11            -1.88e-12             0.00035154           
  -0.75                 -0.00035794           -1.048e-11            -1.88e-12             0.0003585            
  -0.8                  -0.00036436           -1.018e-11            -2e-12                0.00036502           
  -0.85                 -0.00037086           -1.026e-11            -1.92e-12             0.00037144           
  -0.9                  -0.00037752           -1.012e-11            -1.9e-12              0.00037756           
  -0.95                 -0.00038352           -9.94e-12             -1.82e-12             0.00038394           
  -1                    -0.00038966           -9.84e-12             -1.78e-12             0.0003904            
  -1.05                 -0.00039592           -9.68e-12             -1.64e-12             0.00039612           
  -1.1                  -0.00040168           -9.36e-12             -9.8e-13              0.00040216           
  -1.15                 -0.0004076            -9.24e-12             3.6e-13               0.00040792           
  -1.2                  -0.00041366           -8.92e-12             4e-12                 0.00041392           
  -1.25                 -0.00041954           -8.48e-12             1.238e-11             0.00041988           
  -1.3                  -0.00042532           -8.02e-12             3.06e-11              0.0004258            
  -1.35                 -0.00043166           -7.6e-12              6.862e-11             0.00043222           
END_DB

BEGIN_DB
 ICCAP_VAR vg         -0.928         
 ICCAP_VAR vb         -0             
 ICCAP_VAR vs         -0             

 #vd                    id                    ig                    ib                    is                   
  -0                    4.2584e-07            -6e-11                -1.6e-12              -1.527e-07           
  -0.05                 -0.00015178           -5.402e-11            -1.86e-12             0.00015212           
  -0.1                  -0.00028546           -4.868e-11            -1.88e-12             0.00028596           
  -0.15                 -0.0004006            -4.45e-11             -1.68e-12             0.00040104           
  -0.2                  -0.00049742           -4.088e-11            -1.62e-12             0.00049772           
  -0.25                 -0.00057694           -3.79e-11             -1.72e-12             0.00057712           
  -0.3                  -0.00064092           -3.546e-11            -1.78e-12             0.0006414            
  -0.35                 -0.00069198           -3.356e-11            -1.76e-12             0.00069236           
  -0.4                  -0.0007323            -3.208e-11            -1.76e-12             0.0007328            
  -0.45                 -0.00076514           -3.086e-11            -1.68e-12             0.00076524           
  -0.5                  -0.00079224           -2.984e-11            -1.6e-12              0.00079288           
  -0.55                 -0.0008154            -2.928e-11            -1.7e-12              0.00081586           
  -0.6                  -0.00083518           -2.87e-11             -1.66e-12             0.00083582           
  -0.65                 -0.00085342           -2.826e-11            -1.64e-12             0.00085392           
  -0.7                  -0.00086992           -2.784e-11            -1.64e-12             0.00086996           
  -0.75                 -0.00088506           -2.752e-11            -1.54e-12             0.00088542           
  -0.8                  -0.00089912           -2.742e-11            -1.58e-12             0.00089956           
  -0.85                 -0.00091282           -2.698e-11            -1.52e-12             0.0009137            
  -0.9                  -0.00092668           -2.71e-11             -1.72e-12             0.0009267            
  -0.95                 -0.00093942           -2.682e-11            -1.5e-12              0.00094002           
  -1                    -0.0009519            -2.652e-11            -1.56e-12             0.00095194           
  -1.05                 -0.00096332           -2.648e-11            -1.44e-12             0.000964             
  -1.1                  -0.0009753            -2.626e-11            -1.1e-12              0.00097572           
  -1.15                 -0.00098704           -2.606e-11            -3e-13                0.0009877            
  -1.2                  -0.00099866           -2.592e-11            1.4e-12               0.00099902           
  -1.25                 -0.00100982           -2.558e-11            5.82e-12              0.00101028           
  -1.3                  -0.00102082           -2.51e-11             1.574e-11             0.00102144           
  -1.35                 -0.001032             -2.5e-11              3.76e-11              0.00103258           
END_DB

BEGIN_DB
 ICCAP_VAR vg         -1.139         
 ICCAP_VAR vb         -0             
 ICCAP_VAR vs         -0             

 #vd                    id                    ig                    ib                    is                   
  -0                    5.6286e-07            -1.3752e-10           -1.36e-12             -1.9212e-07          
  -0.05                 -0.00020508           -1.2656e-10           -1.36e-12             0.00020542           
  -0.1                  -0.00039512           -1.1652e-10           -1.36e-12             0.00039542           
  -0.15                 -0.00056846           -1.0742e-10           -1.36e-12             0.00056886           
  -0.2                  -0.00072474           -9.946e-11            -1.42e-12             0.00072518           
  -0.25                 -0.00086372           -9.254e-11            -1.34e-12             0.00086388           
  -0.3                  -0.00098436           -8.66e-11             -1.34e-12             0.0009848            
  -0.35                 -0.001089             -8.138e-11            -1.38e-12             0.00108932           
  -0.4                  -0.0011778            -7.706e-11            -1.48e-12             0.0011792            
  -0.45                 -0.0012526            -7.358e-11            -1.3e-12              0.0012542            
  -0.5                  -0.001316             -7.024e-11            -1.18e-12             0.0013186            
  -0.55                 -0.0013696            -6.776e-11            -1.28e-12             0.0013712            
  -0.6                  -0.0014154            -6.58e-11             -1.36e-12             0.0014172            
  -0.65                 -0.0014542            -6.454e-11            -1.32e-12             0.0014562            
  -0.7                  -0.0014886            -6.328e-11            -1.34e-12             0.0014896            
  -0.75                 -0.0015186            -6.204e-11            -1.36e-12             0.0015204            
  -0.8                  -0.0015462            -6.118e-11            -1.2e-12              0.0015474            
  -0.85                 -0.0015714            -6.05e-11             -1.18e-12             0.0015724            
  -0.9                  -0.001594             -5.986e-11            -1.34e-12             0.001595             
  -0.95                 -0.0016154            -5.94e-11             -1.3e-12              0.0016172            
  -1                    -0.001636             -5.868e-11            -1.28e-12             0.0016372            
  -1.05                 -0.0016546            -5.832e-11            -1.34e-12             0.0016568            
  -1.1                  -0.0016742            -5.802e-11            -1.08e-12             0.0016762            
  -1.15                 -0.0016918            -5.778e-11            -7e-13                0.0016936            
  -1.2                  -0.0017084            -5.716e-11            2e-14                 0.0017108            
  -1.25                 -0.001727             -5.712e-11            2.1e-12               0.0017288            
  -1.3                  -0.0017432            -5.642e-11            7.1e-12               0.0017446            
  -1.35                 -0.0017598            -5.622e-11            1.798e-11             0.0017628            
END_DB

BEGIN_DB
 ICCAP_VAR vg         -1.35          
 ICCAP_VAR vb         -0             
 ICCAP_VAR vs         -0             

 #vd                    id                    ig                    ib                    is                   
  -0                    6.1016e-07            -2.771e-10            1.16e-12              -2.2034e-07          
  -0.05                 -0.00024652           -2.5646e-10           6e-13                 0.0002468            
  -0.1                  -0.0004804            -2.3836e-10           8e-14                 0.00048062           
  -0.15                 -0.0007               -2.229e-10            -2.8e-13              0.0007003            
  -0.2                  -0.00090448           -2.077e-10            -2.4e-13              0.0009048            
  -0.25                 -0.00109308           -1.9504e-10           -4.8e-13              0.00109342           
  -0.3                  -0.0012648            -1.8336e-10           -6.2e-13              0.0012666            
  -0.35                 -0.0014206            -1.7282e-10           -4.8e-13              0.0014222            
  -0.4                  -0.0015606            -1.6378e-10           -6.2e-13              0.0015618            
  -0.45                 -0.0016842            -1.5542e-10           -6e-13                0.0016858            
  -0.5                  -0.001793             -1.4852e-10           -8.4e-13              0.0017952            
  -0.55                 -0.0018882            -1.4256e-10           -8.6e-13              0.001891             
  -0.6                  -0.0019732            -1.3682e-10           -5.6e-13              0.0019748            
  -0.65                 -0.0020454            -1.3296e-10           -5.8e-13              0.0020472            
  -0.7                  -0.0021088            -1.2884e-10           -7.6e-13              0.0021106            
  -0.75                 -0.0021648            -1.2606e-10           -8.4e-13              0.002166             
  -0.8                  -0.0022128            -1.2312e-10           -7.6e-13              0.0022148            
  -0.85                 -0.002257             -1.2114e-10           -8e-13                0.002259             
  -0.9                  -0.0022962            -1.1924e-10           -8e-13                0.002298             
  -0.95                 -0.00233              -1.1776e-10           -7.4e-13              0.0023324            
  -1                    -0.0023628            -1.1622e-10           -7.2e-13              0.002364             
  -1.05                 -0.0023926            -1.1526e-10           -6.6e-13              0.0023946            
  -1.1                  -0.002422             -1.144e-10            -8.2e-13              0.002424             
  -1.15                 -0.002449             -1.133e-10            -7.2e-13              0.0024512            
  -1.2                  -0.0024744            -1.1244e-10           -1.4e-13              0.0024762            
  -1.25                 -0.0024986            -1.1176e-10           8.8e-13               0.0025006            
  -1.3                  -0.0025212            -1.1126e-10           3.32e-12              0.0025226            
  -1.35                 -0.0025448            -1.103e-10            8.5e-12               0.0025466            
END_DB

