! VERSION = 6.00
BEGIN_HEADER
 ICCAP_INPUTS
  vd         V  D GROUND SMU1 0.1 LIN        1    -0         -1.35      28   -0.05     
  vg         V  G GROUND SMU2 0.001 LIST       2 3 -0.334 -0.534 -0.734
  vb         V  B GROUND SMU4 0.1 CON        1.2
  vs         V  S GROUND SMU3 0.1 CON        -0
 ICCAP_OUTPUTS
  id         I  D GROUND SMU1 B
  ig         I  G GROUND SMU2 B
  ib         I  B GROUND SMU4 B
  is         I  S GROUND SMU3 B
 ICCAP_VALUES
  MASTER_SETUP_TYPE "~dc_idvd~"
  LINVT_VALUE ""
  LISTVT_VALUE "|idvg|100.0n|-200.0m|1.000m|3|200.0m|200.0m|"
  TYPE "-1"
  TEMP "-40.0000 "
  IS_TNOM " 0.00000 "
  MAIN.W "150.0n"
  MAIN.L "180.0n"
  MAIN.AD "100.5f"
  MAIN.AS "100.5f"
  MAIN.PD "1.340u"
  MAIN.PS "1.340u"
  MAIN.NF "1.000"
  MAIN.M "1"
  MAIN.NRD "0.000"
  MAIN.NRS "0.000"
  MAIN.LDRIFT1 "1E-06"
  MAIN.LDRIFT2 "1E-06"
  MAIN.SA "0.000"
  MAIN.SB "0.000"
  MAIN.SD "0.000"
  MAIN.SCA "0.000"
  MAIN.SCB "0.000"
  MAIN.SCC "0.000"
  MAIN.SC "0.000"
  MODULE "S555"
  PIN_D "20"
  PIN_G "1"
  PIN_S "2"
  PIN_B "19"
  PIN_E ""
  PIN_6 ""
  XY_ID ""
  FUNC "LW Scale"
  STI "SA ref"
  WPE "WPE ref"
  COMMENT ""
  DIS_MEAS ""
  TypeTCI "10"
END_HEADER

BEGIN_DB
 ICCAP_VAR vg         -0.334         
 ICCAP_VAR vb         1.2            
 ICCAP_VAR vs         -0             

 #vd                    id                    ig                    ib                    is                   
  -0                    2.2e-13               6e-14                 1.4e-13               -4e-14               
  -0.05                 -1.504e-11            6e-14                 1.2e-13               1.502e-11            
  -0.1                  -1.818e-11            2e-14                 -6e-14                1.804e-11            
  -0.15                 -2.028e-11            -4e-14                8e-14                 1.998e-11            
  -0.2                  -2.226e-11            -8e-14                -6e-14                2.206e-11            
  -0.25                 -2.444e-11            2e-14                 8e-14                 2.396e-11            
  -0.3                  -2.64e-11             1.6e-13               2e-14                 2.614e-11            
  -0.35                 -2.862e-11            4e-14                 -6e-14                2.83e-11             
  -0.4                  -3.106e-11            1.8e-13               6e-14                 3.036e-11            
  -0.45                 -3.324e-11            1.4e-13               -4e-14                3.29e-11             
  -0.5                  -3.574e-11            1.6e-13               0                     3.506e-11            
  -0.55                 -3.826e-11            6e-14                 -4e-14                3.77e-11             
  -0.6                  -4.074e-11            0                     -1.4e-13              4.02e-11             
  -0.65                 -4.36e-11             1.4e-13               -6e-14                4.268e-11            
  -0.7                  -4.614e-11            -2e-14                6e-14                 4.534e-11            
  -0.75                 -4.92e-11             8e-14                 -2e-14                4.84e-11             
  -0.8                  -5.206e-11            1.4e-13               0                     5.134e-11            
  -0.85                 -5.49e-11             8e-14                 0                     5.418e-11            
  -0.9                  -5.83e-11             -8e-14                -1e-13                5.762e-11            
  -0.95                 -6.154e-11            4e-14                 -4e-14                6.102e-11            
  -1                    -6.478e-11            1.4e-13               -4e-14                6.434e-11            
  -1.05                 -6.846e-11            -4e-14                -6e-14                6.752e-11            
  -1.1                  -7.198e-11            1e-13                 -2.2e-13              7.122e-11            
  -1.15                 -7.558e-11            8e-14                 -6e-14                7.47e-11             
  -1.2                  -7.916e-11            1.2e-13               -4e-14                7.828e-11            
  -1.25                 -8.292e-11            8e-14                 -1.2e-13              8.216e-11            
  -1.3                  -8.684e-11            2e-13                 2e-14                 8.636e-11            
  -1.35                 -9.14e-11             1.8e-13               -8e-14                9.044e-11            
END_DB

BEGIN_DB
 ICCAP_VAR vg         -0.534         
 ICCAP_VAR vb         1.2            
 ICCAP_VAR vs         -0             

 #vd                    id                    ig                    ib                    is                   
  -0                    9.948e-11             -6e-14                -6e-14                -1.0072e-10          
  -0.05                 -3.554e-08            -6e-14                -1.6e-13              3.556e-08            
  -0.1                  -4.5868e-08           0                     -8e-14                4.591e-08            
  -0.15                 -5.157e-08            0                     -1.2e-13              5.1658e-08           
  -0.2                  -5.6294e-08           8e-14                 -1.8e-13              5.6302e-08           
  -0.25                 -6.0726e-08           -6e-14                -6e-14                6.0882e-08           
  -0.3                  -6.5044e-08           -4e-14                2e-14                 6.509e-08            
  -0.35                 -6.9338e-08           -1e-13                -4e-14                6.9336e-08           
  -0.4                  -7.361e-08            -1e-13                -6e-14                7.3568e-08           
  -0.45                 -7.77e-08             6e-14                 -2e-14                7.7794e-08           
  -0.5                  -8.1932e-08           -8e-14                -4e-14                8.21e-08             
  -0.55                 -8.6396e-08           -1e-13                2e-14                 8.6428e-08           
  -0.6                  -9.0532e-08           -4e-14                0                     9.0646e-08           
  -0.65                 -9.4834e-08           -1.8e-13              -6e-14                9.4908e-08           
  -0.7                  -9.9126e-08           -1e-13                0                     9.908e-08            
  -0.75                 -1.0338e-07           -1.2e-13              0                     1.03324e-07          
  -0.8                  -1.07694e-07          -2e-14                -1.4e-13              1.07708e-07          
  -0.85                 -1.119e-07            -1.2e-13              6e-14                 1.12134e-07          
  -0.9                  -1.1618e-07           -4e-14                -2e-14                1.1654e-07           
  -0.95                 -1.2056e-07           -1.4e-13              -1.2e-13              1.2094e-07           
  -1                    -1.2526e-07           -1.2e-13              -1e-13                1.2544e-07           
  -1.05                 -1.2974e-07           -1.4e-13              4e-14                 1.2992e-07           
  -1.1                  -1.3394e-07           -8e-14                -2e-14                1.3446e-07           
  -1.15                 -1.3884e-07           0                     -6e-14                1.3906e-07           
  -1.2                  -1.4332e-07           2e-14                 4e-14                 1.4362e-07           
  -1.25                 -1.4796e-07           0                     2e-14                 1.4806e-07           
  -1.3                  -1.528e-07            0                     0                     1.5302e-07           
  -1.35                 -1.5722e-07           -2.2e-13              8e-14                 1.5748e-07           
END_DB

BEGIN_DB
 ICCAP_VAR vg         -0.734         
 ICCAP_VAR vb         1.2            
 ICCAP_VAR vs         -0             

 #vd                    id                    ig                    ib                    is                   
  -0                    1.3882e-09            -6.4e-13              -1e-13                -1.279e-09           
  -0.05                 -8.387e-07            -4.2e-13              0                     8.3916e-07           
  -0.1                  -1.3644e-06           -3.2e-13              -2e-14                1.3676e-06           
  -0.15                 -1.671e-06            -4.2e-13              -1e-13                1.6752e-06           
  -0.2                  -1.8552e-06           -2.6e-13              -1e-13                1.8602e-06           
  -0.25                 -1.9842e-06           -2.6e-13              -1e-13                1.9882e-06           
  -0.3                  -2.0868e-06           -4.4e-13              4e-14                 2.091e-06            
  -0.35                 -2.173e-06            -2.6e-13              -2e-14                2.1776e-06           
  -0.4                  -2.2508e-06           -3.8e-13              6e-14                 2.2556e-06           
  -0.45                 -2.3226e-06           -3.6e-13              -1.2e-13              2.3266e-06           
  -0.5                  -2.3908e-06           -3.4e-13              6e-14                 2.3944e-06           
  -0.55                 -2.4558e-06           -3e-13                6e-14                 2.4598e-06           
  -0.6                  -2.5194e-06           -3e-13                -2e-14                2.5232e-06           
  -0.65                 -2.5816e-06           -4e-13                -4e-14                2.5856e-06           
  -0.7                  -2.6416e-06           -3.6e-13              4e-14                 2.6434e-06           
  -0.75                 -2.7012e-06           -3.2e-13              -2e-14                2.7048e-06           
  -0.8                  -2.76e-06             -3.2e-13              -1e-13                2.762e-06            
  -0.85                 -2.8164e-06           -3e-13                2e-14                 2.8204e-06           
  -0.9                  -2.875e-06            -1.2e-13              -6e-14                2.8778e-06           
  -0.95                 -2.9318e-06           -2.2e-13              -4e-14                2.9356e-06           
  -1                    -2.9884e-06           -2.6e-13              -6e-14                2.992e-06            
  -1.05                 -3.0442e-06           -4.4e-13              6e-14                 3.0474e-06           
  -1.1                  -3.0984e-06           -3.2e-13              -8e-14                3.102e-06            
  -1.15                 -3.1532e-06           -1.8e-13              -4e-14                3.158e-06            
  -1.2                  -3.2082e-06           -3.6e-13              1e-13                 3.213e-06            
  -1.25                 -3.2632e-06           -3.2e-13              -4e-14                3.2662e-06           
  -1.3                  -3.3162e-06           -3.6e-13              6e-14                 3.3196e-06           
  -1.35                 -3.3702e-06           -3.4e-13              1.4e-13               3.3734e-06           
END_DB

