! VERSION = 6.00
BEGIN_HEADER
 ICCAP_INPUTS
  vd         V  D GROUND SMU1 0.1 LIN        1    -0         -1.35      28   -0.05     
  vg         V  G GROUND SMU2 0.001 LIN        2    -0.622     -1.35      5    -0.182    
  vb         V  B GROUND SMU4 0.1 CON        1.2
  vs         V  S GROUND SMU3 0.1 CON        -0
 ICCAP_OUTPUTS
  id         I  D GROUND SMU1 B
  ig         I  G GROUND SMU2 B
  ib         I  B GROUND SMU4 B
  is         I  S GROUND SMU3 B
 ICCAP_VALUES
  MASTER_SETUP_TYPE "~dc_idvd~"
  LINVT_VALUE "|idvg|100.0n|100.0m|1.000m|5|1.350|"
  LISTVT_VALUE ""
  TYPE "-1"
  TEMP " 27.0000 "
  IS_TNOM " 1.00000 "
  MAIN.W "5.000u"
  MAIN.L "10.00u"
  MAIN.AD "1.700p"
  MAIN.AS "1.700p"
  MAIN.PD "10.68u"
  MAIN.PS "10.68u"
  MAIN.NF "1.000"
  MAIN.M "1"
  MAIN.NRD "0.000"
  MAIN.NRS "0.000"
  MAIN.LDRIFT1 "1E-06"
  MAIN.LDRIFT2 "1E-06"
  MAIN.SA "0.000"
  MAIN.SB "0.000"
  MAIN.SD "0.000"
  MAIN.SCA "0.000"
  MAIN.SCB "0.000"
  MAIN.SCC "0.000"
  MAIN.SC "0.000"
  MODULE "S550"
  PIN_D "16"
  PIN_G "5"
  PIN_S "6"
  PIN_B "15"
  PIN_E ""
  PIN_6 ""
  XY_ID ""
  FUNC "W Scale"
  STI "SA ref"
  WPE "WPE ref"
  COMMENT ""
  DIS_MEAS ""
  TypeTCI "10"
END_HEADER

BEGIN_DB
 ICCAP_VAR vg         -0.622         
 ICCAP_VAR vb         1.2            
 ICCAP_VAR vs         -0             

 #vd                    id                    ig                    ib                    is                   
  -0                    3.7996e-10            -1.6396e-10           4.2e-13               -2.7164e-10          
  -0.05                 -1.7774e-07           -1.2908e-10           3.4e-13               1.7802e-07           
  -0.1                  -2.6818e-07           -1.0894e-10           3.8e-13               2.6846e-07           
  -0.15                 -3.0112e-07           -1.005e-10            2.4e-13               3.0144e-07           
  -0.2                  -3.0946e-07           -9.814e-11            3.4e-13               3.0976e-07           
  -0.25                 -3.1138e-07           -9.734e-11            3.4e-13               3.1172e-07           
  -0.3                  -3.1214e-07           -9.714e-11            3.2e-13               3.1244e-07           
  -0.35                 -3.126e-07            -9.698e-11            2.8e-13               3.1288e-07           
  -0.4                  -3.1292e-07           -9.676e-11            2.2e-13               3.1324e-07           
  -0.45                 -3.1328e-07           -9.666e-11            2e-13                 3.1356e-07           
  -0.5                  -3.1354e-07           -9.658e-11            1.8e-13               3.1384e-07           
  -0.55                 -3.1382e-07           -9.648e-11            1.6e-13               3.1414e-07           
  -0.6                  -3.1406e-07           -9.634e-11            1.6e-13               3.1436e-07           
  -0.65                 -3.1426e-07           -9.632e-11            1.6e-13               3.1454e-07           
  -0.7                  -3.1444e-07           -9.616e-11            1.6e-13               3.1474e-07           
  -0.75                 -3.1458e-07           -9.61e-11             2e-13                 3.149e-07            
  -0.8                  -3.1472e-07           -9.602e-11            2.2e-13               3.1504e-07           
  -0.85                 -3.149e-07            -9.582e-11            2.2e-13               3.1518e-07           
  -0.9                  -3.1504e-07           -9.58e-11             1.8e-13               3.1538e-07           
  -0.95                 -3.1522e-07           -9.564e-11            2.6e-13               3.1552e-07           
  -1                    -3.1534e-07           -9.558e-11            3e-13                 3.1562e-07           
  -1.05                 -3.1544e-07           -9.544e-11            2.2e-13               3.1578e-07           
  -1.1                  -3.156e-07            -9.52e-11             1.2e-13               3.1586e-07           
  -1.15                 -3.1568e-07           -9.512e-11            1.4e-13               3.1596e-07           
  -1.2                  -3.1578e-07           -9.494e-11            2.6e-13               3.1608e-07           
  -1.25                 -3.1584e-07           -9.468e-11            2.6e-13               3.1612e-07           
  -1.3                  -3.1594e-07           -9.44e-11             2.2e-13               3.1622e-07           
  -1.35                 -3.1604e-07           -9.406e-11            3e-13                 3.1634e-07           
END_DB

BEGIN_DB
 ICCAP_VAR vg         -0.804         
 ICCAP_VAR vb         1.2            
 ICCAP_VAR vs         -0             

 #vd                    id                    ig                    ib                    is                   
  -0                    1.1724e-09            -6.7308e-10           -6e-14                -5.1742e-10          
  -0.05                 -5.3204e-07           -5.7544e-10           2e-14                 5.3288e-07           
  -0.1                  -9.4952e-07           -4.9916e-10           1e-13                 9.5034e-07           
  -0.15                 -1.252e-06            -4.4272e-10           1.4e-13               1.2562e-06           
  -0.2                  -1.449e-06            -4.0518e-10           2e-13                 1.453e-06            
  -0.25                 -1.5546e-06           -3.8414e-10           1.4e-13               1.5588e-06           
  -0.3                  -1.5974e-06           -3.7492e-10           6e-14                 1.6016e-06           
  -0.35                 -1.6108e-06           -3.7188e-10           1.2e-13               1.6148e-06           
  -0.4                  -1.6156e-06           -3.7078e-10           1.2e-13               1.6198e-06           
  -0.45                 -1.6182e-06           -3.7002e-10           8e-14                 1.622e-06            
  -0.5                  -1.6198e-06           -3.6974e-10           1.4e-13               1.6238e-06           
  -0.55                 -1.6214e-06           -3.6936e-10           2e-14                 1.6254e-06           
  -0.6                  -1.6228e-06           -3.6892e-10           8e-14                 1.6266e-06           
  -0.65                 -1.624e-06            -3.6856e-10           4e-14                 1.628e-06            
  -0.7                  -1.625e-06            -3.683e-10            2e-13                 1.6292e-06           
  -0.75                 -1.626e-06            -3.6818e-10           1e-13                 1.63e-06             
  -0.8                  -1.627e-06            -3.6794e-10           8e-14                 1.6308e-06           
  -0.85                 -1.6278e-06           -3.6772e-10           8e-14                 1.6318e-06           
  -0.9                  -1.6286e-06           -3.6754e-10           2e-14                 1.6326e-06           
  -0.95                 -1.6292e-06           -3.6744e-10           1.8e-13               1.6332e-06           
  -1                    -1.63e-06             -3.6696e-10           4e-14                 1.6338e-06           
  -1.05                 -1.6304e-06           -3.6706e-10           2e-14                 1.6344e-06           
  -1.1                  -1.6312e-06           -3.6678e-10           6e-14                 1.6352e-06           
  -1.15                 -1.6318e-06           -3.6682e-10           2e-14                 1.6358e-06           
  -1.2                  -1.6324e-06           -3.6646e-10           4e-14                 1.6362e-06           
  -1.25                 -1.6326e-06           -3.662e-10            1.4e-13               1.6366e-06           
  -1.3                  -1.6332e-06           -3.6588e-10           1.6e-13               1.6372e-06           
  -1.35                 -1.6334e-06           -3.6554e-10           1.8e-13               1.6374e-06           
END_DB

BEGIN_DB
 ICCAP_VAR vg         -0.986         
 ICCAP_VAR vb         1.2            
 ICCAP_VAR vs         -0             

 #vd                    id                    ig                    ib                    is                   
  -0                    2.2004e-09            -1.7994e-09           1.4e-13               -4.391e-10           
  -0.05                 -8.765e-07            -1.5984e-09           0                     8.784e-07            
  -0.1                  -1.6468e-06           -1.428e-09            2e-14                 1.6518e-06           
  -0.15                 -2.3082e-06           -1.2842e-09           8e-14                 2.3134e-06           
  -0.2                  -2.8574e-06           -1.1698e-09           6e-14                 2.8622e-06           
  -0.25                 -3.2932e-06           -1.0784e-09           2e-14                 3.2982e-06           
  -0.3                  -3.617e-06            -1.0108e-09           0                     3.622e-06            
  -0.35                 -3.8336e-06           -9.6702e-10           1e-13                 3.8386e-06           
  -0.4                  -3.957e-06            -9.4088e-10           1.2e-13               3.9618e-06           
  -0.45                 -4.0124e-06           -9.2762e-10           1.4e-13               4.0172e-06           
  -0.5                  -4.0338e-06           -9.2436e-10           6e-14                 4.0384e-06           
  -0.55                 -4.0422e-06           -9.2178e-10           1.4e-13               4.047e-06            
  -0.6                  -4.0478e-06           -9.1992e-10           2e-14                 4.052e-06            
  -0.65                 -4.0512e-06           -9.1958e-10           0                     4.0558e-06           
  -0.7                  -4.0546e-06           -9.188e-10            6e-14                 4.0592e-06           
  -0.75                 -4.0576e-06           -9.1798e-10           1e-13                 4.062e-06            
  -0.8                  -4.06e-06             -9.1754e-10           6e-14                 4.0644e-06           
  -0.85                 -4.0622e-06           -9.1686e-10           1.6e-13               4.0668e-06           
  -0.9                  -4.0642e-06           -9.1692e-10           1.4e-13               4.069e-06            
  -0.95                 -4.0662e-06           -9.1576e-10           -4e-14                4.0708e-06           
  -1                    -4.068e-06            -9.1586e-10           8e-14                 4.0724e-06           
  -1.05                 -4.0694e-06           -9.1576e-10           2e-14                 4.0738e-06           
  -1.1                  -4.071e-06            -9.1512e-10           4e-14                 4.0758e-06           
  -1.15                 -4.0728e-06           -9.1458e-10           1.2e-13               4.0772e-06           
  -1.2                  -4.0742e-06           -9.1484e-10           4e-14                 4.0786e-06           
  -1.25                 -4.0754e-06           -9.1398e-10           2e-14                 4.08e-06             
  -1.3                  -4.0768e-06           -9.1398e-10           1.2e-13               4.0812e-06           
  -1.35                 -4.0776e-06           -9.1426e-10           1.2e-13               4.0824e-06           
END_DB

BEGIN_DB
 ICCAP_VAR vg         -1.168         
 ICCAP_VAR vb         1.2            
 ICCAP_VAR vs         -0             

 #vd                    id                    ig                    ib                    is                   
  -0                    3.4878e-09            -3.8598e-09           2.88e-12              1.6034e-10           
  -0.05                 -1.1722e-06           -3.5078e-09           1.98e-12              1.1794e-06           
  -0.1                  -2.2558e-06           -3.1986e-09           1.38e-12              2.2626e-06           
  -0.15                 -3.2418e-06           -2.925e-09            1.04e-12              3.2486e-06           
  -0.2                  -4.1272e-06           -2.6866e-09           8e-13                 4.1338e-06           
  -0.25                 -4.909e-06            -2.4856e-09           7.2e-13               4.9156e-06           
  -0.3                  -5.584e-06            -2.3178e-09           6.4e-13               5.5902e-06           
  -0.35                 -6.1486e-06           -2.1778e-09           6.4e-13               6.1552e-06           
  -0.4                  -6.6044e-06           -2.0672e-09           4.8e-13               6.6104e-06           
  -0.45                 -6.9488e-06           -1.9854e-09           5.2e-13               6.9546e-06           
  -0.5                  -7.1868e-06           -1.9282e-09           4.4e-13               7.1928e-06           
  -0.55                 -7.3304e-06           -1.8924e-09           3.4e-13               7.3364e-06           
  -0.6                  -7.4018e-06           -1.875e-09            5.4e-13               7.4074e-06           
  -0.65                 -7.4324e-06           -1.8684e-09           5.2e-13               7.438e-06            
  -0.7                  -7.4462e-06           -1.864e-09            4.6e-13               7.452e-06            
  -0.75                 -7.4546e-06           -1.861e-09            5.2e-13               7.4604e-06           
  -0.8                  -7.4612e-06           -1.86e-09             5e-13                 7.467e-06            
  -0.85                 -7.4666e-06           -1.8574e-09           5.2e-13               7.4716e-06           
  -0.9                  -7.4714e-06           -1.8568e-09           5.4e-13               7.4766e-06           
  -0.95                 -7.4754e-06           -1.8566e-09           5.2e-13               7.4812e-06           
  -1                    -7.4792e-06           -1.856e-09            5.6e-13               7.485e-06            
  -1.05                 -7.4826e-06           -1.8542e-09           5.8e-13               7.488e-06            
  -1.1                  -7.4856e-06           -1.8536e-09           5.4e-13               7.4914e-06           
  -1.15                 -7.489e-06            -1.853e-09            4.4e-13               7.4944e-06           
  -1.2                  -7.492e-06            -1.8518e-09           5.8e-13               7.4974e-06           
  -1.25                 -7.4944e-06           -1.8506e-09           6e-13                 7.4996e-06           
  -1.3                  -7.4966e-06           -1.8504e-09           4.2e-13               7.5018e-06           
  -1.35                 -7.499e-06            -1.85e-09             4.6e-13               7.5046e-06           
END_DB

BEGIN_DB
 ICCAP_VAR vg         -1.35          
 ICCAP_VAR vb         1.2            
 ICCAP_VAR vs         -0             

 #vd                    id                    ig                    ib                    is                   
  -0                    4.9812e-09            -7.2482e-09           5.38e-11              1.3476e-09           
  -0.05                 -1.4208e-06           -6.6884e-09           3.926e-11             1.431e-06            
  -0.1                  -2.7676e-06           -6.1788e-09           2.94e-11              2.7776e-06           
  -0.15                 -4.0302e-06           -5.7262e-09           2.29e-11              4.0398e-06           
  -0.2                  -5.2054e-06           -5.3202e-09           1.88e-11              5.2146e-06           
  -0.25                 -6.2902e-06           -4.9548e-09           1.602e-11             6.299e-06            
  -0.3                  -7.281e-06            -4.625e-09            1.382e-11             7.2898e-06           
  -0.35                 -8.1732e-06           -4.352e-09            1.238e-11             8.182e-06            
  -0.4                  -8.9658e-06           -4.1092e-09           1.132e-11             8.9744e-06           
  -0.45                 -9.6552e-06           -3.905e-09            1.058e-11             9.6634e-06           
  -0.5                  -1.02376e-05          -3.7398e-09           1.012e-11             1.02454e-05          
  -0.55                 -1.07122e-05          -3.5986e-09           9.7e-12               1.07204e-05          
  -0.6                  -1.10792e-05          -3.4958e-09           9.38e-12              1.10868e-05          
  -0.65                 -1.1334e-05           -3.4208e-09           9.18e-12              1.13488e-05          
  -0.7                  -1.15e-05             -3.3732e-09           8.94e-12              1.152e-05            
  -0.75                 -1.159e-05            -3.3484e-09           8.9e-12               1.161e-05            
  -0.8                  -1.1632e-05           -3.335e-09            8.96e-12              1.1652e-05           
  -0.85                 -1.1652e-05           -3.3288e-09           8.82e-12              1.1672e-05           
  -0.9                  -1.1664e-05           -3.3304e-09           8.78e-12              1.1686e-05           
  -0.95                 -1.1674e-05           -3.3244e-09           8.84e-12              1.1694e-05           
  -1                    -1.1682e-05           -3.321e-09            8.96e-12              1.1702e-05           
  -1.05                 -1.1688e-05           -3.3242e-09           8.92e-12              1.1708e-05           
  -1.1                  -1.1694e-05           -3.321e-09            8.92e-12              1.1714e-05           
  -1.15                 -1.17e-05             -3.3224e-09           8.92e-12              1.172e-05            
  -1.2                  -1.1704e-05           -3.3206e-09           8.9e-12               1.1724e-05           
  -1.25                 -1.1708e-05           -3.3152e-09           8.82e-12              1.173e-05            
  -1.3                  -1.1714e-05           -3.3108e-09           8.82e-12              1.1734e-05           
  -1.35                 -1.1716e-05           -3.3098e-09           8.82e-12              1.1738e-05           
END_DB

