! VERSION = 6.00
BEGIN_HEADER
 ICCAP_INPUTS
  vg         V  G GROUND SMU2 0.001 LIN        1    0.5        -1.35      38   -0.05     
  vb         V  B GROUND SMU4 0.1 LIN        2    0          1.2        7    0.2       
  vd         V  D GROUND SMU1 0.1 LIST       3 3 -0.05 -0.6 -1.2
  vs         V  S GROUND SMU3 0.1 CON        -0
 ICCAP_OUTPUTS
  id         I  D GROUND SMU1 B
  ig         I  G GROUND SMU2 B
  ib         I  B GROUND SMU4 B
  is         I  S GROUND SMU3 B
 ICCAP_VALUES
  MASTER_SETUP_TYPE "~dc_idvg~"
  LINVT_VALUE ""
  LISTVT_VALUE ""
  TYPE "-1"
  TEMP "-40.0000 "
  IS_TNOM " 0.00000 "
  MAIN.W "150.0n"
  MAIN.L "10.00u"
  MAIN.AD "100.5f"
  MAIN.AS "100.5f"
  MAIN.PD "1.340u"
  MAIN.PS "1.340u"
  MAIN.NF "1.000"
  MAIN.M "1"
  MAIN.NRD "0.000"
  MAIN.NRS "0.000"
  MAIN.LDRIFT1 "1E-06"
  MAIN.LDRIFT2 "1E-06"
  MAIN.SA "0.000"
  MAIN.SB "0.000"
  MAIN.SD "0.000"
  MAIN.SCA "0.000"
  MAIN.SCB "0.000"
  MAIN.SCC "0.000"
  MAIN.SC "0.000"
  MODULE "S555"
  PIN_D "16"
  PIN_G "5"
  PIN_S "6"
  PIN_B "15"
  PIN_E ""
  PIN_6 ""
  XY_ID ""
  FUNC "Narrow"
  STI "SA ref"
  WPE "WPE ref"
  COMMENT ""
  DIS_MEAS ""
  TypeTCI "10"
END_HEADER

BEGIN_DB
 ICCAP_VAR vb         0              
 ICCAP_VAR vd         -0.05          
 ICCAP_VAR vs         -0             

 #vg                    id                    ig                    ib                    is                   
  0.5                   -6e-14                6.4e-13               -6.6e-13              -1e-13               
  0.45                  6e-14                 -6e-14                -7.4e-13              2.6e-13              
  0.4                   2e-14                 1.4e-13               -6.8e-13              2e-14                
  0.35                  1.2e-13               -6e-14                -7.8e-13              6e-14                
  0.3                   -4e-14                4e-14                 -6.2e-13              1.6e-13              
  0.25                  -2e-14                1.8e-13               -5.2e-13              -2e-14               
  0.2                   -1e-13                4e-14                 -6.2e-13              1.4e-13              
  0.15                  1e-13                 -2.8e-13              -6.4e-13              8e-14                
  0.1                   6e-14                 -1.4e-13              -6.4e-13              1e-13                
  0.05                  2e-14                 -4e-14                -5e-13                0                    
  0                     -4e-14                2e-13                 -5.8e-13              1e-13                
  -0.05                 2e-14                 -3.8e-13              -5.8e-13              0                    
  -0.1                  -1e-13                -3.8e-13              -5.6e-13              1e-13                
  -0.15                 -7.2e-13              -2.6e-13              -6.8e-13              7.2e-13              
  -0.2                  -5.54e-12             -1.2e-13              -5.8e-13              5.64e-12             
  -0.25                 -4.4e-11              -2.6e-13              -5e-13                4.4e-11              
  -0.3                  -2.9772e-10           -5.6e-13              -6.4e-13              2.9822e-10           
  -0.35                 -1.4094e-09           -6.4e-13              -5e-13                1.4112e-09           
  -0.4                  -4.2898e-09           -7.2e-13              -6e-13                4.289e-09            
  -0.45                 -9.04e-09             -1.14e-12             -4e-13                9.0394e-09           
  -0.5                  -1.4976e-08           -1.76e-12             -3.8e-13              1.4996e-08           
  -0.55                 -2.1468e-08           -3.16e-12             -5.4e-13              2.1498e-08           
  -0.6                  -2.8202e-08           -4.12e-12             -4e-13                2.8232e-08           
  -0.65                 -3.4976e-08           -5.86e-12             -5e-13                3.5006e-08           
  -0.7                  -4.1674e-08           -8.52e-12             -5.4e-13              4.1712e-08           
  -0.75                 -4.8184e-08           -1.168e-11            -4.2e-13              4.8222e-08           
  -0.8                  -5.448e-08            -1.51e-11             -5e-13                5.4524e-08           
  -0.85                 -6.0534e-08           -2.022e-11            -4.6e-13              6.0562e-08           
  -0.9                  -6.6266e-08           -2.634e-11            -4.4e-13              6.6316e-08           
  -0.95                 -7.1736e-08           -3.296e-11            -4.8e-13              7.1768e-08           
  -1                    -7.6894e-08           -4.17e-11             -4.8e-13              7.6946e-08           
  -1.05                 -8.1698e-08           -5.17e-11             -5.4e-13              8.1768e-08           
  -1.1                  -8.624e-08            -6.322e-11            -5e-13                8.6316e-08           
  -1.15                 -9.0504e-08           -7.664e-11            -3.4e-13              9.0586e-08           
  -1.2                  -9.4514e-08           -9.23e-11             -3e-13                9.4622e-08           
  -1.25                 -9.826e-08            -1.0944e-10           -2.2e-13              9.8418e-08           
  -1.3                  -1.0177e-07           -1.2926e-10           -1e-13                1.01928e-07          
  -1.35                 -1.05046e-07          -1.5212e-10           2e-13                 1.05208e-07          
END_DB

BEGIN_DB
 ICCAP_VAR vb         0.2            
 ICCAP_VAR vd         -0.05          
 ICCAP_VAR vs         -0             

 #vg                    id                    ig                    ib                    is                   
  0.5                   -2e-14                2.6e-13               8e-14                 -2e-14               
  0.45                  1.2e-13               3.8e-13               0                     -4e-14               
  0.4                   2e-14                 3.6e-13               -8e-14                0                    
  0.35                  4e-14                 0                     -8e-14                4e-14                
  0.3                   -4e-14                -2.4e-13              -1.2e-13              1.6e-13              
  0.25                  4e-14                 -2e-13                -8e-14                0                    
  0.2                   1.2e-13               -1.2e-13              -1.6e-13              1e-13                
  0.15                  6e-14                 -3.2e-13              -1e-13                2e-13                
  0.1                   -4e-14                -2.8e-13              -1e-13                1e-13                
  0.05                  1e-13                 -4e-13                -2e-14                8e-14                
  0                     8e-14                 -3.4e-13              -1e-13                1.8e-13              
  -0.05                 6e-14                 -3.8e-13              0                     1.6e-13              
  -0.1                  2e-14                 -1.8e-13              -1.6e-13              2.2e-13              
  -0.15                 -6e-14                -8e-14                -1e-13                1.4e-13              
  -0.2                  -1.26e-12             -5e-13                -8e-14                1.5e-12              
  -0.25                 -1.174e-11            -4.8e-13              -6e-14                1.192e-11            
  -0.3                  -9.09e-11             -2.2e-13              -6e-14                9.12e-11             
  -0.35                 -5.5672e-10           -4e-13                8e-14                 5.5672e-10           
  -0.4                  -2.2264e-09           -5.2e-13              -1.6e-13              2.2282e-09           
  -0.45                 -5.772e-09            -1.08e-12             -6e-14                5.7732e-09           
  -0.5                  -1.09006e-08          -1.62e-12             -8e-14                1.08944e-08          
  -0.55                 -1.687e-08            -2.48e-12             -1e-13                1.6888e-08           
  -0.6                  -2.3246e-08           -3.64e-12             0                     2.3278e-08           
  -0.65                 -2.9784e-08           -5.86e-12             -6e-14                2.9816e-08           
  -0.7                  -3.6312e-08           -8.44e-12             -6e-14                3.634e-08            
  -0.75                 -4.2734e-08           -1.07e-11             -4e-14                4.2768e-08           
  -0.8                  -4.8968e-08           -1.492e-11            -1e-13                4.9014e-08           
  -0.85                 -5.5004e-08           -1.966e-11            -8e-14                5.5068e-08           
  -0.9                  -6.0812e-08           -2.588e-11            -2e-14                6.0828e-08           
  -0.95                 -6.6288e-08           -3.286e-11            -1.8e-13              6.6346e-08           
  -1                    -7.147e-08            -4.108e-11            -2e-14                7.1534e-08           
  -1.05                 -7.6382e-08           -5.086e-11            -6e-14                7.6462e-08           
  -1.1                  -8.1002e-08           -6.26e-11             -2e-14                8.1114e-08           
  -1.15                 -8.5384e-08           -7.586e-11            -4e-14                8.5468e-08           
  -1.2                  -8.9446e-08           -9.128e-11            -2e-14                8.9516e-08           
  -1.25                 -9.3288e-08           -1.085e-10            -1e-13                9.339e-08            
  -1.3                  -9.6836e-08           -1.2882e-10           1.2e-13               9.6956e-08           
  -1.35                 -1.00166e-07          -1.5178e-10           5e-13                 1.00318e-07          
END_DB

BEGIN_DB
 ICCAP_VAR vb         0.4            
 ICCAP_VAR vd         -0.05          
 ICCAP_VAR vs         -0             

 #vg                    id                    ig                    ib                    is                   
  0.5                   0                     5.6e-13               1e-13                 2e-14                
  0.45                  1e-13                 5.8e-13               -4e-14                1e-13                
  0.4                   0                     -6e-14                8e-14                 -6e-14               
  0.35                  -6e-14                8e-14                 6e-14                 -4e-14               
  0.3                   6e-14                 -2e-13                -8e-14                1.6e-13              
  0.25                  2e-14                 -6e-14                -4e-14                -6e-14               
  0.2                   6e-14                 2.2e-13               -1.6e-13              1.6e-13              
  0.15                  1e-13                 -8e-14                4e-14                 2.4e-13              
  0.1                   -2e-14                -1e-13                -1.2e-13              4e-14                
  0.05                  4e-14                 -2e-13                -1e-13                -2e-14               
  0                     1e-13                 -3.4e-13              -1.4e-13              2e-13                
  -0.05                 0                     -2.4e-13              -1.4e-13              2.2e-13              
  -0.1                  2e-14                 -2e-14                -1.2e-13              1.8e-13              
  -0.15                 -4e-14                -1e-13                -1.2e-13              8e-14                
  -0.2                  -3.2e-13              -4.6e-13              2e-14                 4e-13                
  -0.25                 -3.34e-12             -4.4e-13              0                     3.54e-12             
  -0.3                  -2.808e-11            -1.4e-13              -1.4e-13              2.826e-11            
  -0.35                 -2.046e-10            -1.6e-13              4e-14                 2.047e-10            
  -0.4                  -1.06024e-09          -3e-13                -2e-13                1.06048e-09          
  -0.45                 -3.4614e-09           -6.8e-13              -8e-14                3.4604e-09           
  -0.5                  -7.6518e-09           -1.54e-12             -2e-14                7.6502e-09           
  -0.55                 -1.3004e-08           -2.34e-12             -1.2e-13              1.303e-08            
  -0.6                  -1.8982e-08           -3.28e-12             -1.2e-13              1.9006e-08           
  -0.65                 -2.5228e-08           -5.66e-12             -2e-14                2.5256e-08           
  -0.7                  -3.1562e-08           -7.92e-12             2e-14                 3.1594e-08           
  -0.75                 -3.786e-08            -1.09e-11             -1.6e-13              3.7892e-08           
  -0.8                  -4.4032e-08           -1.434e-11            4e-14                 4.4072e-08           
  -0.85                 -5.0044e-08           -1.956e-11            -1e-13                5.0078e-08           
  -0.9                  -5.5812e-08           -2.552e-11            -8e-14                5.585e-08            
  -0.95                 -6.1316e-08           -3.258e-11            2e-14                 6.1366e-08           
  -1                    -6.6572e-08           -4.11e-11             -1.2e-13              6.663e-08            
  -1.05                 -7.1544e-08           -5.06e-11             -4e-14                7.1616e-08           
  -1.1                  -7.6252e-08           -6.24e-11             -1.4e-13              7.6322e-08           
  -1.15                 -8.0698e-08           -7.558e-11            -8e-14                8.079e-08            
  -1.2                  -8.4786e-08           -9.098e-11            -4e-14                8.4874e-08           
  -1.25                 -8.8656e-08           -1.0856e-10           6e-14                 8.8834e-08           
  -1.3                  -9.2352e-08           -1.2846e-10           1.6e-13               9.2468e-08           
  -1.35                 -9.574e-08            -1.5126e-10           5.4e-13               9.5892e-08           
END_DB

BEGIN_DB
 ICCAP_VAR vb         0.6            
 ICCAP_VAR vd         -0.05          
 ICCAP_VAR vs         -0             

 #vg                    id                    ig                    ib                    is                   
  0.5                   -2e-14                3.2e-13               -2e-14                -6e-14               
  0.45                  0                     4e-14                 -1e-13                2e-14                
  0.4                   -6e-14                6e-14                 -4e-14                1.8e-13              
  0.35                  1.4e-13               -2.8e-13              0                     8e-14                
  0.3                   1.8e-13               -2e-14                2e-14                 -1e-13               
  0.25                  6e-14                 -2.2e-13              2e-14                 4e-14                
  0.2                   0                     -3.2e-13              -8e-14                4e-14                
  0.15                  1e-13                 -2e-13                4e-14                 1.2e-13              
  0.1                   0                     -8e-14                6e-14                 -1.2e-13             
  0.05                  1.2e-13               -8e-14                -2e-14                6e-14                
  0                     1.2e-13               -2e-14                2e-14                 6e-14                
  -0.05                 -6e-14                2e-14                 -1e-13                1.2e-13              
  -0.1                  0                     -2.8e-13              0                     2e-14                
  -0.15                 0                     -4e-14                -1e-13                0                    
  -0.2                  -1e-13                -3.6e-13              -4e-14                2.2e-13              
  -0.25                 -9.6e-13              -5.6e-13              -1.2e-13              1.32e-12             
  -0.3                  -8.82e-12             -2.4e-13              4e-14                 8.9e-12              
  -0.35                 -7.208e-11            -6e-14                0                     7.224e-11            
  -0.4                  -4.652e-10            -3.8e-13              -1.2e-13              4.6544e-10           
  -0.45                 -1.9284e-09           -9.6e-13              0                     1.9302e-09           
  -0.5                  -5.1278e-09           -1.12e-12             2e-14                 5.1326e-09           
  -0.55                 -9.803e-09            -2.3e-12              -2.2e-13              9.802e-09            
  -0.6                  -1.5302e-08           -3.7e-12              -1e-13                1.5326e-08           
  -0.65                 -2.1236e-08           -5.12e-12             -1.2e-13              2.1262e-08           
  -0.7                  -2.735e-08            -7.6e-12              6e-14                 2.7384e-08           
  -0.75                 -3.3486e-08           -1.01e-11             -1.2e-13              3.352e-08            
  -0.8                  -3.9558e-08           -1.4e-11              -4e-14                3.9604e-08           
  -0.85                 -4.5514e-08           -1.942e-11            -4e-14                4.5558e-08           
  -0.9                  -5.1254e-08           -2.464e-11            -1.4e-13              5.1314e-08           
  -0.95                 -5.6782e-08           -3.176e-11            2e-14                 5.686e-08            
  -1                    -6.2094e-08           -4.054e-11            -1.4e-13              6.2146e-08           
  -1.05                 -6.7096e-08           -5.016e-11            6e-14                 6.7144e-08           
  -1.1                  -7.1838e-08           -6.184e-11            2e-14                 7.1864e-08           
  -1.15                 -7.6288e-08           -7.524e-11            6e-14                 7.6384e-08           
  -1.2                  -8.0508e-08           -9.018e-11            2e-14                 8.0632e-08           
  -1.25                 -8.4448e-08           -1.0774e-10           1.4e-13               8.456e-08            
  -1.3                  -8.8116e-08           -1.2776e-10           2.4e-13               8.8264e-08           
  -1.35                 -9.1612e-08           -1.4986e-10           5.4e-13               9.179e-08            
END_DB

BEGIN_DB
 ICCAP_VAR vb         0.8            
 ICCAP_VAR vd         -0.05          
 ICCAP_VAR vs         -0             

 #vg                    id                    ig                    ib                    is                   
  0.5                   -4e-14                6.8e-13               2e-14                 4e-14                
  0.45                  0                     1.4e-13               -6e-14                4e-14                
  0.4                   8e-14                 3.4e-13               -1.2e-13              2.8e-13              
  0.35                  -4e-14                -2e-14                -4e-14                6e-14                
  0.3                   8e-14                 -4e-14                -2e-14                1.6e-13              
