! VERSION = 6.00
BEGIN_HEADER
 ICCAP_INPUTS
  vd         V  D GROUND SMU1 0.1 LIN        1    -0         -1.35      28   -0.05     
  vg         V  G GROUND SMU2 0.001 LIN        2    -0.45      -1.35      5    -0.225    
  vb         V  B GROUND SMU4 0.1 CON        -0
  vs         V  S GROUND SMU3 0.1 CON        -0
 ICCAP_OUTPUTS
  id         I  D GROUND SMU1 B
  ig         I  G GROUND SMU2 B
  ib         I  B GROUND SMU4 B
  is         I  S GROUND SMU3 B
 ICCAP_VALUES
  MASTER_SETUP_TYPE "~dc_idvd~"
  LINVT_VALUE "|idvg|100.0n|100.0m|1.000m|5|1.350|"
  LISTVT_VALUE ""
  TYPE "-1"
  TEMP " 27.0000 "
  IS_TNOM " 1.00000 "
  MAIN.W "10.00u"
  MAIN.L "2.000u"
  MAIN.AD "3.400p"
  MAIN.AS "3.400p"
  MAIN.PD "20.68u"
  MAIN.PS "20.68u"
  MAIN.NF "1.000"
  MAIN.M "1"
  MAIN.NRD "0.000"
  MAIN.NRS "0.000"
  MAIN.LDRIFT1 "1E-06"
  MAIN.LDRIFT2 "1E-06"
  MAIN.SA "0.000"
  MAIN.SB "0.000"
  MAIN.SD "0.000"
  MAIN.SCA "0.000"
  MAIN.SCB "0.000"
  MAIN.SCC "0.000"
  MAIN.SC "0.000"
  MODULE "S549"
  PIN_D "16"
  PIN_G "5"
  PIN_S "6"
  PIN_B "15"
  PIN_E ""
  PIN_6 ""
  XY_ID ""
  FUNC "L Scale"
  STI "SA ref"
  WPE "WPE ref"
  COMMENT ""
  DIS_MEAS ""
  TypeTCI "10"
END_HEADER

BEGIN_DB
 ICCAP_VAR vg         -0.45          
 ICCAP_VAR vb         -0             
 ICCAP_VAR vs         -0             

 #vd                    id                    ig                    ib                    is                   
  -0                    2.413e-09             -2.456e-11            -3.38e-12             -2.7068e-09          
  -0.05                 -1.824e-06            -1.902e-11            -3.24e-12             1.8274e-06           
  -0.1                  -2.6662e-06           -1.602e-11            -3.16e-12             2.67e-06             
  -0.15                 -2.9534e-06           -1.502e-11            -3.28e-12             2.957e-06            
  -0.2                  -3.0456e-06           -1.454e-11            -3.32e-12             3.0494e-06           
  -0.25                 -3.089e-06            -1.438e-11            -3.16e-12             3.093e-06            
  -0.3                  -3.1202e-06           -1.432e-11            -3.14e-12             3.1244e-06           
  -0.35                 -3.1456e-06           -1.406e-11            -3.14e-12             3.1492e-06           
  -0.4                  -3.1676e-06           -1.396e-11            -3.02e-12             3.1712e-06           
  -0.45                 -3.1872e-06           -1.386e-11            -3.02e-12             3.1912e-06           
  -0.5                  -3.205e-06            -1.382e-11            -3.06e-12             3.2086e-06           
  -0.55                 -3.221e-06            -1.372e-11            -2.8e-12              3.2248e-06           
  -0.6                  -3.2356e-06           -1.372e-11            -2.68e-12             3.2392e-06           
  -0.65                 -3.249e-06            -1.338e-11            -2.94e-12             3.253e-06            
  -0.7                  -3.262e-06            -1.336e-11            -2.86e-12             3.2656e-06           
  -0.75                 -3.2736e-06           -1.312e-11            -2.78e-12             3.2774e-06           
  -0.8                  -3.285e-06            -1.302e-11            -2.76e-12             3.2888e-06           
  -0.85                 -3.2956e-06           -1.284e-11            -2.8e-12              3.2988e-06           
  -0.9                  -3.3046e-06           -1.246e-11            -2.7e-12              3.3086e-06           
  -0.95                 -3.3136e-06           -1.224e-11            -2.72e-12             3.3174e-06           
  -1                    -3.3226e-06           -1.182e-11            -2.6e-12              3.326e-06            
  -1.05                 -3.3308e-06           -1.132e-11            -2.6e-12              3.3346e-06           
  -1.1                  -3.3384e-06           -1.102e-11            -2.66e-12             3.3418e-06           
  -1.15                 -3.3456e-06           -1.052e-11            -2.42e-12             3.3494e-06           
  -1.2                  -3.3524e-06           -1.004e-11            -2.14e-12             3.356e-06            
  -1.25                 -3.3592e-06           -9.3e-12              -1.64e-12             3.3624e-06           
  -1.3                  -3.3656e-06           -8.58e-12             -7.2e-13              3.3692e-06           
  -1.35                 -3.3714e-06           -7.82e-12             1.04e-12              3.3748e-06           
END_DB

BEGIN_DB
 ICCAP_VAR vg         -0.675         
 ICCAP_VAR vb         -0             
 ICCAP_VAR vs         -0             

 #vd                    id                    ig                    ib                    is                   
  -0                    1.063e-08             -1.5872e-10           -2.46e-12             -1.039e-08           
  -0.05                 -6.7646e-06           -1.3566e-10           -2.4e-12              6.7678e-06           
  -0.1                  -1.2146e-05           -1.1654e-10           -2.4e-12              1.2162e-05           
  -0.15                 -1.614e-05            -1.0322e-10           -2.36e-12             1.6158e-05           
  -0.2                  -1.8788e-05           -9.418e-11            -2.36e-12             1.8806e-05           
  -0.25                 -2.0274e-05           -8.92e-11             -2.28e-12             2.0292e-05           
  -0.3                  -2.0982e-05           -8.676e-11            -2.48e-12             2.1e-05              
  -0.35                 -2.1314e-05           -8.54e-11             -2.38e-12             2.1334e-05           
  -0.4                  -2.151e-05            -8.478e-11            -2.26e-12             2.1528e-05           
  -0.45                 -2.1654e-05           -8.428e-11            -2.24e-12             2.167e-05            
  -0.5                  -2.1766e-05           -8.388e-11            -2.24e-12             2.1784e-05           
  -0.55                 -2.1864e-05           -8.336e-11            -2.22e-12             2.1884e-05           
  -0.6                  -2.1958e-05           -8.294e-11            -2.16e-12             2.1976e-05           
  -0.65                 -2.2038e-05           -8.278e-11            -2.22e-12             2.2054e-05           
  -0.7                  -2.2114e-05           -8.254e-11            -2.12e-12             2.2128e-05           
  -0.75                 -2.2182e-05           -8.226e-11            -2.1e-12              2.22e-05             
  -0.8                  -2.2248e-05           -8.21e-11             -2.06e-12             2.2266e-05           
  -0.85                 -2.2308e-05           -8.174e-11            -2.12e-12             2.2326e-05           
  -0.9                  -2.2366e-05           -8.142e-11            -2.12e-12             2.2382e-05           
  -0.95                 -2.2418e-05           -8.126e-11            -2.18e-12             2.2436e-05           
  -1                    -2.247e-05            -8.114e-11            -2.16e-12             2.2486e-05           
  -1.05                 -2.2516e-05           -8.058e-11            -1.96e-12             2.2536e-05           
  -1.1                  -2.2562e-05           -8.026e-11            -1.96e-12             2.2582e-05           
  -1.15                 -2.2608e-05           -7.982e-11            -1.82e-12             2.2626e-05           
  -1.2                  -2.265e-05            -7.948e-11            -1.78e-12             2.2668e-05           
  -1.25                 -2.2692e-05           -7.89e-11             -1.76e-12             2.2708e-05           
  -1.3                  -2.2728e-05           -7.858e-11            -1.44e-12             2.2748e-05           
  -1.35                 -2.2768e-05           -7.8e-11              -7e-13                2.2786e-05           
END_DB

BEGIN_DB
 ICCAP_VAR vg         -0.9           
 ICCAP_VAR vb         -0             
 ICCAP_VAR vs         -0             

 #vd                    id                    ig                    ib                    is                   
  -0                    1.7056e-08            -5.631e-10            -2.02e-12             -1.617e-08           
  -0.05                 -1.1336e-05           -4.9904e-10           -1.88e-12             1.1354e-05           
  -0.1                  -2.148e-05            -4.447e-10            -2.04e-12             2.1498e-05           
  -0.15                 -3.0372e-05           -3.9972e-10           -1.94e-12             3.0394e-05           
  -0.2                  -3.7972e-05           -3.627e-10            -1.94e-12             3.7992e-05           
  -0.25                 -4.4244e-05           -3.3346e-10           -1.94e-12             4.4262e-05           
  -0.3                  -4.916e-05            -3.11e-10             -1.86e-12             4.9176e-05           
  -0.35                 -5.272e-05            -2.9498e-10           -1.88e-12             5.274e-05            
  -0.4                  -5.5052e-05           -2.847e-10            -1.86e-12             5.5072e-05           
  -0.45                 -5.6406e-05           -2.7894e-10           -1.8e-12              5.6428e-05           
  -0.5                  -5.7168e-05           -2.7552e-10           -1.84e-12             5.7186e-05           
  -0.55                 -5.7624e-05           -2.7346e-10           -1.76e-12             5.7644e-05           
  -0.6                  -5.7942e-05           -2.7186e-10           -1.7e-12              5.7956e-05           
  -0.65                 -5.8188e-05           -2.7068e-10           -1.74e-12             5.8206e-05           
  -0.7                  -5.84e-05             -2.7e-10              -1.78e-12             5.8426e-05           
  -0.75                 -5.859e-05            -2.6908e-10           -1.64e-12             5.8606e-05           
  -0.8                  -5.8756e-05           -2.6844e-10           -1.52e-12             5.877e-05            
  -0.85                 -5.8906e-05           -2.6766e-10           -1.74e-12             5.8926e-05           
  -0.9                  -5.9048e-05           -2.67e-10             -1.7e-12              5.9068e-05           
  -0.95                 -5.9176e-05           -2.6646e-10           -1.7e-12              5.9196e-05           
  -1                    -5.9304e-05           -2.6604e-10           -1.7e-12              5.9322e-05           
  -1.05                 -5.9426e-05           -2.6544e-10           -1.74e-12             5.944e-05            
  -1.1                  -5.9536e-05           -2.6484e-10           -1.62e-12             5.9556e-05           
  -1.15                 -5.964e-05            -2.6444e-10           -1.62e-12             5.9654e-05           
  -1.2                  -5.9746e-05           -2.6362e-10           -1.6e-12              5.9764e-05           
  -1.25                 -5.984e-05            -2.6316e-10           -1.58e-12             5.986e-05            
  -1.3                  -5.9932e-05           -2.6276e-10           -1.56e-12             5.9952e-05           
  -1.35                 -6.0022e-05           -2.6216e-10           -1.52e-12             6.0044e-05           
END_DB

BEGIN_DB
 ICCAP_VAR vg         -1.125         
 ICCAP_VAR vb         -0             
 ICCAP_VAR vs         -0             

 #vd                    id                    ig                    ib                    is                   
  -0                    2.318e-08             -1.471e-09            -1.2e-12              -2.0758e-08          
  -0.05                 -1.504e-05            -1.336e-09            -1.28e-12             1.5058e-05           
  -0.1                  -2.9086e-05           -1.2196e-09           -1.38e-12             2.9108e-05           
  -0.15                 -4.2088e-05           -1.1154e-09           -1.36e-12             4.211e-05            
  -0.2                  -5.3988e-05           -1.025e-09            -1.46e-12             5.4008e-05           
  -0.25                 -6.4762e-05           -9.4444e-10           -1.5e-12              6.4788e-05           
  -0.3                  -7.4368e-05           -8.7908e-10           -1.48e-12             7.4392e-05           
  -0.35                 -8.2754e-05           -8.2512e-10           -1.44e-12             8.2776e-05           
  -0.4                  -8.9892e-05           -7.792e-10            -1.3e-12              8.9916e-05           
  -0.45                 -9.5742e-05           -7.4216e-10           -1.38e-12             9.576e-05            
  -0.5                  -0.000100294          -7.1418e-10           -1.4e-12              0.000100318          
  -0.55                 -0.000103598          -6.934e-10            -1.36e-12             0.000103616          
  -0.6                  -0.000105798          -6.8094e-10           -1.42e-12             0.000105822          
  -0.65                 -0.000107176          -6.7262e-10           -1.42e-12             0.0001072            
  -0.7                  -0.000108046          -6.6636e-10           -1.46e-12             0.000108072          
  -0.75                 -0.00010863           -6.6334e-10           -1.5e-12              0.000108658          
  -0.8                  -0.000109078          -6.6046e-10           -1.42e-12             0.000109094          
  -0.85                 -0.000109426          -6.5876e-10           -1.42e-12             0.000109446          
  -0.9                  -0.000109742          -6.5586e-10           -1.38e-12             0.00010976           
  -0.95                 -0.000110012          -6.5544e-10           -1.4e-12              0.000110032          
  -1                    -0.00011026           -6.5418e-10           -1.34e-12             0.000110272          
  -1.05                 -0.000110482          -6.5278e-10           -1.42e-12             0.00011051           
  -1.1                  -0.000110696          -6.514e-10            -1.5e-12              0.000110714          
  -1.15                 -0.0001109            -6.4938e-10           -1.38e-12             0.000110912          
  -1.2                  -0.000111086          -6.4854e-10           -1.22e-12             0.000111106          
  -1.25                 -0.000111258          -6.4798e-10           -1.32e-12             0.00011128           
  -1.3                  -0.00011143           -6.46e-10             -1.26e-12             0.00011144           
  -1.35                 -0.000111582          -6.4576e-10           -1.28e-12             0.000111602          
END_DB

BEGIN_DB
 ICCAP_VAR vg         -1.35          
 ICCAP_VAR vb         -0             
 ICCAP_VAR vs         -0             

 #vd                    id                    ig                    ib                    is                   
  -0                    2.7784e-08            -3.1604e-09           2.082e-11             -2.3342e-08          
  -0.05                 -1.7958e-05           -2.9236e-09           1.474e-11             1.7976e-05           
  -0.1                  -3.5094e-05           -2.712e-09            1.064e-11             3.5114e-05           
  -0.15                 -5.1354e-05           -2.5198e-09           7.76e-12              5.1376e-05           
  -0.2                  -6.6702e-05           -2.343e-09            6.1e-12               6.6728e-05           
  -0.25                 -8.112e-05            -2.1834e-09           4.96e-12              8.115e-05            
  -0.3                  -9.4562e-05           -2.0456e-09           4.12e-12              9.4586e-05           
  -0.35                 -0.000106964          -1.9198e-09           3.62e-12              0.000106984          
  -0.4                  -0.00011818           -1.8104e-09           3.02e-12              0.00011854           
  -0.45                 -0.00012846           -1.7144e-09           2.66e-12              0.00012882           
  -0.5                  -0.0001376            -1.6322e-09           2.36e-12              0.00013796           
  -0.55                 -0.00014558           -1.5622e-09           2.22e-12              0.00014594           
  -0.6                  -0.00015232           -1.5052e-09           2.34e-12              0.0001527            
  -0.65                 -0.00015788           -1.459e-09            2.14e-12              0.00015824           
  -0.7                  -0.0001622            -1.4246e-09           1.92e-12              0.00016256           
  -0.75                 -0.00016536           -1.399e-09            1.8e-12               0.00016572           
  -0.8                  -0.00016756           -1.3814e-09           1.84e-12              0.00016792           
  -0.85                 -0.00016902           -1.3702e-09           1.86e-12              0.0001694            
  -0.9                  -0.00017002           -1.3616e-09           1.92e-12              0.0001704            
  -0.95                 -0.00017074           -1.3552e-09           1.88e-12              0.0001711            
  -1                    -0.0001713            -1.3508e-09           1.9e-12               0.00017166           
  -1.05                 -0.00017178           -1.347e-09            1.84e-12              0.00017214           
  -1.1                  -0.00017218           -1.3448e-09           1.76e-12              0.00017254           
  -1.15                 -0.00017254           -1.34e-09             1.82e-12              0.0001729            
  -1.2                  -0.00017286           -1.3396e-09           1.92e-12              0.00017322           
  -1.25                 -0.00017314           -1.3368e-09           1.86e-12              0.0001735            
  -1.3                  -0.00017342           -1.3348e-09           1.84e-12              0.00017378           
  -1.35                 -0.0001737            -1.3326e-09           1.92e-12              0.00017404           
END_DB

