! VERSION = 6.00
BEGIN_HEADER
 ICCAP_INPUTS
  vd         V  D GROUND SMU1 0.1 LIN        1    -0         -1.35      28   -0.05     
  vg         V  G GROUND SMU2 0.001 LIN        2    -0.626     -1.35      5    -0.181    
  vb         V  B GROUND SMU4 0.1 CON        1.2
  vs         V  S GROUND SMU3 0.1 CON        -0
 ICCAP_OUTPUTS
  id         I  D GROUND SMU1 B
  ig         I  G GROUND SMU2 B
  ib         I  B GROUND SMU4 B
  is         I  S GROUND SMU3 B
 ICCAP_VALUES
  MASTER_SETUP_TYPE "~dc_idvd~"
  LINVT_VALUE "|idvg|100.0n|100.0m|1.000m|5|1.350|"
  LISTVT_VALUE ""
  TYPE "-1"
  TEMP " 27.0000 "
  IS_TNOM " 1.00000 "
  MAIN.W "10.00u"
  MAIN.L "5.000u"
  MAIN.AD "3.400p"
  MAIN.AS "3.400p"
  MAIN.PD "20.68u"
  MAIN.PS "20.68u"
  MAIN.NF "1.000"
  MAIN.M "1"
  MAIN.NRD "0.000"
  MAIN.NRS "0.000"
  MAIN.LDRIFT1 "1E-06"
  MAIN.LDRIFT2 "1E-06"
  MAIN.SA "0.000"
  MAIN.SB "0.000"
  MAIN.SD "0.000"
  MAIN.SCA "0.000"
  MAIN.SCB "0.000"
  MAIN.SCC "0.000"
  MAIN.SC "0.000"
  MODULE "S549"
  PIN_D "14"
  PIN_G "7"
  PIN_S "8"
  PIN_B "13"
  PIN_E ""
  PIN_6 ""
  XY_ID ""
  FUNC "L Scale"
  STI "SA ref"
  WPE "WPE ref"
  COMMENT ""
  DIS_MEAS ""
  TypeTCI "10"
END_HEADER

BEGIN_DB
 ICCAP_VAR vg         -0.626         
 ICCAP_VAR vb         1.2            
 ICCAP_VAR vs         -0             

 #vd                    id                    ig                    ib                    is                   
  -0                    1.1606e-09            -1.6414e-10           3e-13                 -1.0878e-09          
  -0.05                 -6.8916e-07           -1.2994e-10           3.6e-13               6.8958e-07           
  -0.1                  -1.04128e-06          -1.1044e-10           2.4e-13               1.04188e-06          
  -0.15                 -1.1706e-06           -1.018e-10            1.8e-13               1.1746e-06           
  -0.2                  -1.2064e-06           -9.952e-11            1.6e-13               1.21e-06             
  -0.25                 -1.2168e-06           -9.872e-11            1.2e-13               1.2206e-06           
  -0.3                  -1.2218e-06           -9.814e-11            1.4e-13               1.2256e-06           
  -0.35                 -1.2256e-06           -9.77e-11             1e-13                 1.2294e-06           
  -0.4                  -1.2286e-06           -9.742e-11            4e-14                 1.2324e-06           
  -0.45                 -1.2314e-06           -9.718e-11            8e-14                 1.235e-06            
  -0.5                  -1.2336e-06           -9.704e-11            1.4e-13               1.2372e-06           
  -0.55                 -1.2358e-06           -9.692e-11            1e-13                 1.2394e-06           
  -0.6                  -1.2376e-06           -9.676e-11            0                     1.2414e-06           
  -0.65                 -1.2394e-06           -9.65e-11             2e-14                 1.243e-06            
  -0.7                  -1.2408e-06           -9.636e-11            2e-14                 1.2446e-06           
  -0.75                 -1.2424e-06           -9.614e-11            6e-14                 1.2462e-06           
  -0.8                  -1.2438e-06           -9.604e-11            8e-14                 1.2476e-06           
  -0.85                 -1.245e-06            -9.606e-11            8e-14                 1.2488e-06           
  -0.9                  -1.2462e-06           -9.586e-11            1.2e-13               1.25e-06             
  -0.95                 -1.2474e-06           -9.562e-11            0                     1.2512e-06           
  -1                    -1.2486e-06           -9.538e-11            8e-14                 1.2522e-06           
  -1.05                 -1.2494e-06           -9.508e-11            0                     1.253e-06            
  -1.1                  -1.2504e-06           -9.476e-11            -1e-13                1.254e-06            
  -1.15                 -1.2512e-06           -9.442e-11            1e-13                 1.2548e-06           
  -1.2                  -1.252e-06            -9.416e-11            0                     1.2556e-06           
  -1.25                 -1.2528e-06           -9.368e-11            -2e-14                1.2564e-06           
  -1.3                  -1.2534e-06           -9.302e-11            2.4e-13               1.2572e-06           
  -1.35                 -1.2542e-06           -9.226e-11            5.2e-13               1.2578e-06           
END_DB

BEGIN_DB
 ICCAP_VAR vg         -0.807         
 ICCAP_VAR vb         1.2            
 ICCAP_VAR vs         -0             

 #vd                    id                    ig                    ib                    is                   
  -0                    3.0176e-09            -6.5256e-10           8e-14                 -2.2626e-09          
  -0.05                 -2.0402e-06           -5.5956e-10           -2e-14                2.0442e-06           
  -0.1                  -3.6412e-06           -4.8754e-10           0                     3.6456e-06           
  -0.15                 -4.8052e-06           -4.3364e-10           4e-14                 4.81e-06             
  -0.2                  -5.558e-06            -3.9762e-10           2e-14                 5.5624e-06           
  -0.25                 -5.9612e-06           -3.7784e-10           -4e-14                5.966e-06            
  -0.3                  -6.1298e-06           -3.6882e-10           -4e-14                6.1342e-06           
  -0.35                 -6.1908e-06           -3.656e-10            0                     6.1952e-06           
  -0.4                  -6.2186e-06           -3.6404e-10           -2e-14                6.2224e-06           
  -0.45                 -6.2358e-06           -3.6266e-10           -8e-14                6.24e-06             
  -0.5                  -6.2498e-06           -3.6204e-10           0                     6.254e-06            
  -0.55                 -6.2614e-06           -3.6156e-10           -8e-14                6.2656e-06           
  -0.6                  -6.272e-06            -3.603e-10            -6e-14                6.2764e-06           
  -0.65                 -6.2814e-06           -3.598e-10            -4e-14                6.2852e-06           
  -0.7                  -6.29e-06             -3.5912e-10           -2e-14                6.2942e-06           
  -0.75                 -6.298e-06            -3.5844e-10           -8e-14                6.3018e-06           
  -0.8                  -6.3052e-06           -3.5796e-10           -1e-13                6.3092e-06           
  -0.85                 -6.312e-06            -3.5788e-10           -8e-14                6.3158e-06           
  -0.9                  -6.3182e-06           -3.5718e-10           -1.6e-13              6.3222e-06           
  -0.95                 -6.3234e-06           -3.5694e-10           -1e-13                6.3278e-06           
  -1                    -6.3292e-06           -3.5712e-10           0                     6.3328e-06           
  -1.05                 -6.3344e-06           -3.573e-10            -4e-14                6.338e-06            
  -1.1                  -6.3396e-06           -3.5608e-10           0                     6.343e-06            
  -1.15                 -6.3436e-06           -3.5588e-10           -1e-13                6.348e-06            
  -1.2                  -6.3478e-06           -3.5592e-10           -1.4e-13              6.3522e-06           
  -1.25                 -6.3524e-06           -3.5558e-10           -4e-14                6.3562e-06           
  -1.3                  -6.3556e-06           -3.5522e-10           -4e-14                6.3594e-06           
  -1.35                 -6.3592e-06           -3.5466e-10           6e-14                 6.363e-06            
END_DB

BEGIN_DB
 ICCAP_VAR vg         -0.988         
 ICCAP_VAR vb         1.2            
 ICCAP_VAR vs         -0             

 #vd                    id                    ig                    ib                    is                   
  -0                    4.0936e-09            -1.7174e-09           8e-14                 -2.8306e-09          
  -0.05                 -3.355e-06            -1.5282e-09           8e-14                 3.3602e-06           
  -0.1                  -6.3054e-06           -1.3688e-09           6e-14                 6.3106e-06           
  -0.15                 -8.8338e-06           -1.2348e-09           6e-14                 8.8388e-06           
  -0.2                  -1.09306e-05          -1.1262e-09           2e-14                 1.0936e-05           
  -0.25                 -1.2588e-05           -1.0416e-09           -2e-14                1.2606e-05           
  -0.3                  -1.3818e-05           -9.7882e-10           0                     1.3838e-05           
  -0.35                 -1.4638e-05           -9.3482e-10           2e-14                 1.4656e-05           
  -0.4                  -1.5104e-05           -9.1016e-10           0                     1.5124e-05           
  -0.45                 -1.5326e-05           -8.991e-10            0                     1.5344e-05           
  -0.5                  -1.5422e-05           -8.9434e-10           -8e-14                1.544e-05            
  -0.55                 -1.5474e-05           -8.9122e-10           -1e-13                1.5492e-05           
  -0.6                  -1.5508e-05           -8.8872e-10           -6e-14                1.5526e-05           
  -0.65                 -1.5536e-05           -8.8708e-10           0                     1.5554e-05           
  -0.7                  -1.556e-05            -8.857e-10            0                     1.5578e-05           
  -0.75                 -1.558e-05            -8.8544e-10           -1.2e-13              1.5598e-05           
  -0.8                  -1.5598e-05           -8.84e-10             -1.2e-13              1.5616e-05           
  -0.85                 -1.5616e-05           -8.831e-10            -4e-14                1.5634e-05           
  -0.9                  -1.5632e-05           -8.8224e-10           -4e-14                1.565e-05            
  -0.95                 -1.5646e-05           -8.8102e-10           0                     1.5664e-05           
  -1                    -1.566e-05            -8.8072e-10           -8e-14                1.5678e-05           
  -1.05                 -1.5674e-05           -8.8002e-10           -1.4e-13              1.5692e-05           
  -1.1                  -1.5688e-05           -8.7892e-10           0                     1.5704e-05           
  -1.15                 -1.5698e-05           -8.783e-10            -1.4e-13              1.5716e-05           
  -1.2                  -1.5708e-05           -8.781e-10            -6e-14                1.5726e-05           
  -1.25                 -1.5718e-05           -8.7664e-10           -1.6e-13              1.5738e-05           
  -1.3                  -1.5728e-05           -8.758e-10            -2e-13                1.5746e-05           
  -1.35                 -1.5738e-05           -8.7506e-10           -6e-14                1.5756e-05           
END_DB

BEGIN_DB
 ICCAP_VAR vg         -1.169         
 ICCAP_VAR vb         1.2            
 ICCAP_VAR vs         -0             

 #vd                    id                    ig                    ib                    is                   
  -0                    4.1594e-09            -3.6584e-09           2.68e-12              -3.1016e-09          
  -0.05                 -4.4928e-06           -3.3304e-09           1.76e-12              4.4998e-06           
  -0.1                  -8.6342e-06           -3.0428e-09           1.28e-12              8.6414e-06           
  -0.15                 -1.2396e-05           -2.7894e-09           8.6e-13               1.2416e-05           
  -0.2                  -1.5776e-05           -2.5682e-09           7e-13                 1.5796e-05           
  -0.25                 -1.876e-05            -2.3804e-09           6.4e-13               1.878e-05            
  -0.3                  -2.1332e-05           -2.2216e-09           4.6e-13               2.1352e-05           
  -0.35                 -2.3482e-05           -2.0926e-09           5.2e-13               2.3504e-05           
  -0.4                  -2.521e-05            -1.991e-09            4.8e-13               2.5234e-05           
  -0.45                 -2.6518e-05           -1.9124e-09           3.6e-13               2.654e-05            
  -0.5                  -2.742e-05            -1.8594e-09           4.2e-13               2.744e-05            
  -0.55                 -2.7964e-05           -1.826e-09            3.8e-13               2.7984e-05           
  -0.6                  -2.8246e-05           -1.8088e-09           4.4e-13               2.8268e-05           
  -0.65                 -2.8388e-05           -1.8014e-09           3.4e-13               2.8408e-05           
  -0.7                  -2.8466e-05           -1.7962e-09           3.8e-13               2.8486e-05           
  -0.75                 -2.852e-05            -1.792e-09            2.4e-13               2.854e-05            
  -0.8                  -2.8564e-05           -1.7896e-09           2.2e-13               2.8584e-05           
  -0.85                 -2.86e-05             -1.7862e-09           3.4e-13               2.862e-05            
  -0.9                  -2.8634e-05           -1.7858e-09           4.2e-13               2.8652e-05           
  -0.95                 -2.8662e-05           -1.7832e-09           2.6e-13               2.8682e-05           
  -1                    -2.869e-05            -1.7814e-09           2.6e-13               2.8708e-05           
  -1.05                 -2.8712e-05           -1.7794e-09           3e-13                 2.8732e-05           
  -1.1                  -2.8736e-05           -1.7772e-09           2.8e-13               2.8754e-05           
  -1.15                 -2.8756e-05           -1.777e-09            3.6e-13               2.8776e-05           
  -1.2                  -2.8778e-05           -1.7752e-09           3.6e-13               2.8796e-05           
  -1.25                 -2.8796e-05           -1.7744e-09           4e-13                 2.8816e-05           
  -1.3                  -2.8816e-05           -1.7718e-09           3.2e-13               2.8836e-05           
  -1.35                 -2.8832e-05           -1.7724e-09           2.6e-13               2.8852e-05           
END_DB

BEGIN_DB
 ICCAP_VAR vg         -1.35          
 ICCAP_VAR vb         1.2            
 ICCAP_VAR vs         -0             

 #vd                    id                    ig                    ib                    is                   
  -0                    1.176e-08             -6.839e-09            5.032e-11             -1.9994e-09          
  -0.05                 -5.447e-06            -6.315e-09            3.652e-11             5.457e-06            
  -0.1                  -1.05948e-05          -5.8418e-09           2.734e-11             1.06042e-05          
  -0.15                 -1.5412e-05           -5.4134e-09           2.13e-11              1.5434e-05           
  -0.2                  -1.99e-05             -5.037e-09            1.74e-11              1.9922e-05           
  -0.25                 -2.404e-05            -4.7002e-09           1.46e-11              2.4064e-05           
  -0.3                  -2.7818e-05           -4.404e-09            1.274e-11             2.784e-05            
  -0.35                 -3.1218e-05           -4.1464e-09           1.132e-11             3.124e-05            
  -0.4                  -3.4236e-05           -3.9188e-09           1.044e-11             3.426e-05            
  -0.45                 -3.6858e-05           -3.7302e-09           9.76e-12              3.6882e-05           
  -0.5                  -3.9068e-05           -3.5754e-09           9.26e-12              3.9094e-05           
  -0.55                 -4.0864e-05           -3.4478e-09           8.82e-12              4.0888e-05           
  -0.6                  -4.2248e-05           -3.3522e-09           8.68e-12              4.2272e-05           
  -0.65                 -4.3236e-05           -3.2834e-09           8.42e-12              4.326e-05            
  -0.7                  -4.3864e-05           -3.2414e-09           8.36e-12              4.389e-05            
  -0.75                 -4.4226e-05           -3.2146e-09           8.24e-12              4.425e-05            
  -0.8                  -4.4418e-05           -3.2002e-09           8.1e-12               4.4438e-05           
  -0.85                 -4.4534e-05           -3.1926e-09           8.1e-12               4.4556e-05           
  -0.9                  -4.461e-05            -3.1882e-09           8.06e-12              4.4632e-05           
  -0.95                 -4.467e-05            -3.1846e-09           8.22e-12              4.4692e-05           
  -1                    -4.4722e-05           -3.1696e-09           8.18e-12              4.4744e-05           
  -1.05                 -4.4768e-05           -3.1676e-09           8.06e-12              4.4788e-05           
  -1.1                  -4.4808e-05           -3.1638e-09           8.14e-12              4.4828e-05           
  -1.15                 -4.4844e-05           -3.1622e-09           8.08e-12              4.4866e-05           
  -1.2                  -4.4878e-05           -3.1598e-09           7.94e-12              4.4902e-05           
  -1.25                 -4.4912e-05           -3.1652e-09           7.92e-12              4.4932e-05           
  -1.3                  -4.4944e-05           -3.1634e-09           8.08e-12              4.4964e-05           
  -1.35                 -4.497e-05            -3.1612e-09           8.06e-12              4.4992e-05           
END_DB

