! VERSION = 6.00
BEGIN_HEADER
 ICCAP_INPUTS
  vd         V  D GROUND SMU1 0.1 LIN        1    -0         -1.35      28   -0.05     
  vg         V  G GROUND SMU2 0.001 LIN        2    -0.566     -1.35      5    -0.196    
  vb         V  B GROUND SMU4 0.1 CON        1.2
  vs         V  S GROUND SMU3 0.1 CON        -0
 ICCAP_OUTPUTS
  id         I  D GROUND SMU1 B
  ig         I  G GROUND SMU2 B
  ib         I  B GROUND SMU4 B
  is         I  S GROUND SMU3 B
 ICCAP_VALUES
  MASTER_SETUP_TYPE "~dc_idvd~"
  LINVT_VALUE "|idvg|100.0n|100.0m|1.000m|5|1.350|"
  LISTVT_VALUE ""
  TYPE "-1"
  TEMP " 70.0000 "
  IS_TNOM " 0.00000 "
  MAIN.W "300.0n"
  MAIN.L "10.00u"
  MAIN.AD "102.0f"
  MAIN.AS "102.0f"
  MAIN.PD "1.280u"
  MAIN.PS "1.280u"
  MAIN.NF "1.000"
  MAIN.M "1"
  MAIN.NRD "0.000"
  MAIN.NRS "0.000"
  MAIN.LDRIFT1 "1E-06"
  MAIN.LDRIFT2 "1E-06"
  MAIN.SA "0.000"
  MAIN.SB "0.000"
  MAIN.SD "0.000"
  MAIN.SCA "0.000"
  MAIN.SCB "0.000"
  MAIN.SCC "0.000"
  MAIN.SC "0.000"
  MODULE "S553"
  PIN_D "18"
  PIN_G "3"
  PIN_S "4"
  PIN_B "17"
  PIN_E ""
  PIN_6 ""
  XY_ID ""
  FUNC "W Scale"
  STI "SA ref"
  WPE "WPE ref"
  COMMENT ""
  DIS_MEAS ""
  TypeTCI "10"
END_HEADER

BEGIN_DB
 ICCAP_VAR vg         -0.566         
 ICCAP_VAR vb         1.2            
 ICCAP_VAR vs         -0             

 #vd                    id                    ig                    ib                    is                   
  -0                    1.832e-11             -7.42e-12             1.454e-11             -1.358e-11           
  -0.05                 -1.0396e-08           -5.78e-12             1.448e-11             1.0416e-08           
  -0.1                  -1.566e-08            -4.9e-12              1.446e-11             1.5674e-08           
  -0.15                 -1.7628e-08           -4.46e-12             1.456e-11             1.7654e-08           
  -0.2                  -1.8192e-08           -4.3e-12              1.438e-11             1.8208e-08           
  -0.25                 -1.8348e-08           -4.36e-12             1.446e-11             1.8364e-08           
  -0.3                  -1.8406e-08           -4.26e-12             1.442e-11             1.8426e-08           
  -0.35                 -1.8446e-08           -4.2e-12              1.448e-11             1.847e-08            
  -0.4                  -1.848e-08            -4.34e-12             1.448e-11             1.8492e-08           
  -0.45                 -1.85e-08             -4.2e-12              1.45e-11              1.851e-08            
  -0.5                  -1.8518e-08           -4.2e-12              1.436e-11             1.8544e-08           
  -0.55                 -1.8542e-08           -4.22e-12             1.444e-11             1.8556e-08           
  -0.6                  -1.855e-08            -4.26e-12             1.452e-11             1.8574e-08           
  -0.65                 -1.857e-08            -4.3e-12              1.434e-11             1.8594e-08           
  -0.7                  -1.8586e-08           -4.3e-12              1.408e-11             1.86e-08             
  -0.75                 -1.8598e-08           -4.26e-12             1.418e-11             1.8622e-08           
  -0.8                  -1.861e-08            -4.24e-12             1.426e-11             1.8632e-08           
  -0.85                 -1.862e-08            -4.34e-12             1.424e-11             1.864e-08            
  -0.9                  -1.8638e-08           -4.28e-12             1.438e-11             1.8652e-08           
  -0.95                 -1.8644e-08           -4.28e-12             1.42e-11              1.8666e-08           
  -1                    -1.8662e-08           -4.24e-12             1.43e-11              1.8676e-08           
  -1.05                 -1.8668e-08           -4.2e-12              1.432e-11             1.869e-08            
  -1.1                  -1.8676e-08           -4.14e-12             1.426e-11             1.8704e-08           
  -1.15                 -1.8688e-08           -4.04e-12             1.424e-11             1.8708e-08           
  -1.2                  -1.8704e-08           -4.02e-12             1.438e-11             1.8714e-08           
  -1.25                 -1.87e-08             -4.2e-12              1.426e-11             1.8724e-08           
  -1.3                  -1.872e-08            -4.14e-12             1.428e-11             1.8726e-08           
  -1.35                 -1.872e-08            -4.12e-12             1.428e-11             1.8744e-08           
END_DB

BEGIN_DB
 ICCAP_VAR vg         -0.762         
 ICCAP_VAR vb         1.2            
 ICCAP_VAR vs         -0             

 #vd                    id                    ig                    ib                    is                   
  -0                    6.192e-11             -3.526e-11            1.39e-11              -2.948e-11           
  -0.05                 -3.4402e-08           -3.016e-11            1.398e-11             3.4452e-08           
  -0.1                  -6.1446e-08           -2.606e-11            1.412e-11             6.1492e-08           
  -0.15                 -8.1246e-08           -2.32e-11             1.406e-11             8.129e-08            
  -0.2                  -9.4328e-08           -2.126e-11            1.41e-11              9.4388e-08           
  -0.25                 -1.01642e-07          -1.998e-11            1.402e-11             1.01718e-07          
  -0.3                  -1.0484e-07           -1.952e-11            1.418e-11             1.04906e-07          
  -0.35                 -1.05988e-07          -1.936e-11            1.406e-11             1.06004e-07          
  -0.4                  -1.06414e-07          -1.91e-11             1.406e-11             1.06452e-07          
  -0.45                 -1.0663e-07           -1.922e-11            1.418e-11             1.0667e-07           
  -0.5                  -1.06794e-07          -1.918e-11            1.418e-11             1.0683e-07           
  -0.55                 -1.06894e-07          -1.91e-11             1.432e-11             1.06988e-07          
  -0.6                  -1.0702e-07           -1.914e-11            1.426e-11             1.07092e-07          
  -0.65                 -1.0708e-07           -1.902e-11            1.43e-11              1.0718e-07           
  -0.7                  -1.0722e-07           -1.9e-11              1.424e-11             1.07276e-07          
  -0.75                 -1.0728e-07           -1.908e-11            1.426e-11             1.07362e-07          
  -0.8                  -1.0738e-07           -1.884e-11            1.43e-11              1.07446e-07          
  -0.85                 -1.0746e-07           -1.898e-11            1.414e-11             1.0756e-07           
  -0.9                  -1.0756e-07           -1.908e-11            1.404e-11             1.07594e-07          
  -0.95                 -1.0758e-07           -1.892e-11            1.412e-11             1.0766e-07           
  -1                    -1.0766e-07           -1.9e-11              1.406e-11             1.07754e-07          
  -1.05                 -1.077e-07            -1.9e-11              1.412e-11             1.07754e-07          
  -1.1                  -1.0776e-07           -1.904e-11            1.428e-11             1.07826e-07          
  -1.15                 -1.0784e-07           -1.89e-11             1.406e-11             1.07896e-07          
  -1.2                  -1.0788e-07           -1.878e-11            1.404e-11             1.07906e-07          
  -1.25                 -1.0788e-07           -1.89e-11             1.406e-11             1.07968e-07          
  -1.3                  -1.0794e-07           -1.894e-11            1.394e-11             1.07992e-07          
  -1.35                 -1.0796e-07           -1.884e-11            1.426e-11             1.08026e-07          
END_DB

BEGIN_DB
 ICCAP_VAR vg         -0.958         
 ICCAP_VAR vb         1.2            
 ICCAP_VAR vs         -0             

 #vd                    id                    ig                    ib                    is                   
  -0                    1.2638e-10            -1.0358e-10           1.378e-11             -2.16e-11            
  -0.05                 -5.902e-08            -9.23e-11             1.386e-11             5.9138e-08           
  -0.1                  -1.10998e-07          -8.248e-11            1.402e-11             1.1113e-07           
  -0.15                 -1.5574e-07           -7.464e-11            1.398e-11             1.5586e-07           
  -0.2                  -1.9312e-07           -6.796e-11            1.396e-11             1.9326e-07           
  -0.25                 -2.2322e-07           -6.27e-11             1.406e-11             2.234e-07            
  -0.3                  -2.4608e-07           -5.882e-11            1.398e-11             2.462e-07            
  -0.35                 -2.6196e-07           -5.596e-11            1.402e-11             2.621e-07            
  -0.4                  -2.7178e-07           -5.418e-11            1.41e-11              2.7188e-07           
  -0.45                 -2.7658e-07           -5.352e-11            1.418e-11             2.7674e-07           
  -0.5                  -2.7866e-07           -5.312e-11            1.414e-11             2.7884e-07           
  -0.55                 -2.796e-07            -5.284e-11            1.422e-11             2.7966e-07           
  -0.6                  -2.8e-07              -5.292e-11            1.406e-11             2.8016e-07           
  -0.65                 -2.8042e-07           -5.262e-11            1.406e-11             2.8052e-07           
  -0.7                  -2.8062e-07           -5.29e-11             1.406e-11             2.808e-07            
  -0.75                 -2.809e-07            -5.284e-11            1.394e-11             2.8104e-07           
  -0.8                  -2.8114e-07           -5.282e-11            1.402e-11             2.813e-07            
  -0.85                 -2.8138e-07           -5.268e-11            1.414e-11             2.815e-07            
  -0.9                  -2.8152e-07           -5.24e-11             1.412e-11             2.8162e-07           
  -0.95                 -2.8168e-07           -5.256e-11            1.416e-11             2.8176e-07           
  -1                    -2.8176e-07           -5.25e-11             1.398e-11             2.8188e-07           
  -1.05                 -2.8196e-07           -5.254e-11            1.4e-11               2.8208e-07           
  -1.1                  -2.8204e-07           -5.23e-11             1.402e-11             2.8226e-07           
  -1.15                 -2.8224e-07           -5.242e-11            1.406e-11             2.8236e-07           
  -1.2                  -2.823e-07            -5.234e-11            1.408e-11             2.8252e-07           
  -1.25                 -2.8254e-07           -5.222e-11            1.42e-11              2.826e-07            
  -1.3                  -2.8256e-07           -5.23e-11             1.408e-11             2.8272e-07           
  -1.35                 -2.8268e-07           -5.228e-11            1.402e-11             2.8274e-07           
END_DB

BEGIN_DB
 ICCAP_VAR vg         -1.154         
 ICCAP_VAR vb         1.2            
 ICCAP_VAR vs         -0             

 #vd                    id                    ig                    ib                    is                   
  -0                    2.1418e-10            -2.341e-10            1.414e-11             1.502e-11            
  -0.05                 -8.1074e-08           -2.135e-10            1.396e-11             8.1298e-08           
  -0.1                  -1.5588e-07           -1.9522e-10           1.418e-11             1.5616e-07           
  -0.15                 -2.2412e-07           -1.791e-10            1.408e-11             2.2434e-07           
  -0.2                  -2.855e-07            -1.6542e-10           1.404e-11             2.8578e-07           
  -0.25                 -3.3996e-07           -1.5338e-10           1.404e-11             3.4032e-07           
  -0.3                  -3.875e-07            -1.4316e-10           1.386e-11             3.8768e-07           
  -0.35                 -4.2766e-07           -1.3492e-10           1.398e-11             4.2786e-07           
  -0.4                  -4.6086e-07           -1.2788e-10           1.41e-11              4.6104e-07           
  -0.45                 -4.8668e-07           -1.2272e-10           1.408e-11             4.8698e-07           
  -0.5                  -5.0572e-07           -1.1894e-10           1.404e-11             5.0608e-07           
  -0.55                 -5.1834e-07           -1.1646e-10           1.406e-11             5.1844e-07           
  -0.6                  -5.2526e-07           -1.1512e-10           1.404e-11             5.2548e-07           
  -0.65                 -5.286e-07            -1.1412e-10           1.414e-11             5.288e-07            
  -0.7                  -5.3022e-07           -1.1388e-10           1.414e-11             5.305e-07            
  -0.75                 -5.3106e-07           -1.1374e-10           1.416e-11             5.3134e-07           
  -0.8                  -5.3168e-07           -1.1358e-10           1.412e-11             5.3198e-07           
  -0.85                 -5.3212e-07           -1.1362e-10           1.418e-11             5.3224e-07           
  -0.9                  -5.3264e-07           -1.1342e-10           1.406e-11             5.33e-07             
  -0.95                 -5.33e-07             -1.1338e-10           1.422e-11             5.3328e-07           
  -1                    -5.3346e-07           -1.1318e-10           1.392e-11             5.3356e-07           
  -1.05                 -5.3364e-07           -1.1332e-10           1.396e-11             5.338e-07            
  -1.1                  -5.34e-07             -1.131e-10            1.408e-11             5.3416e-07           
  -1.15                 -5.3418e-07           -1.1308e-10           1.408e-11             5.3448e-07           
  -1.2                  -5.3452e-07           -1.13e-10             1.4e-11               5.3484e-07           
  -1.25                 -5.3482e-07           -1.1316e-10           1.418e-11             5.3508e-07           
  -1.3                  -5.3518e-07           -1.13e-10             1.406e-11             5.3548e-07           
  -1.35                 -5.3546e-07           -1.1302e-10           1.402e-11             5.3562e-07           
END_DB

BEGIN_DB
 ICCAP_VAR vg         -1.35          
 ICCAP_VAR vb         1.2            
 ICCAP_VAR vs         -0             

 #vd                    id                    ig                    ib                    is                   
  -0                    3.4346e-10            -4.5744e-10           1.846e-11             1.0118e-10           
  -0.05                 -9.994e-08            -4.233e-10            1.726e-11             1.004e-07            
  -0.1                  -1.9456e-07           -3.923e-10            1.658e-11             1.9502e-07           
  -0.15                 -2.8332e-07           -3.6542e-10           1.598e-11             2.8382e-07           
  -0.2                  -3.6622e-07           -3.3972e-10           1.574e-11             3.6658e-07           
  -0.25                 -4.4282e-07           -3.1726e-10           1.552e-11             4.4344e-07           
  -0.3                  -5.1326e-07           -2.9732e-10           1.518e-11             5.136e-07            
  -0.35                 -5.7694e-07           -2.803e-10            1.518e-11             5.773e-07            
  -0.4                  -6.3382e-07           -2.6526e-10           1.514e-11             6.3422e-07           
  -0.45                 -6.8382e-07           -2.5252e-10           1.502e-11             6.843e-07            
  -0.5                  -7.2704e-07           -2.415e-10            1.498e-11             7.2736e-07           
  -0.55                 -7.632e-07            -2.3254e-10           1.496e-11             7.6364e-07           
  -0.6                  -7.9226e-07           -2.2564e-10           1.478e-11             7.9282e-07           
  -0.65                 -8.1456e-07           -2.2064e-10           1.48e-11              8.1508e-07           
  -0.7                  -8.3024e-07           -2.1666e-10           1.486e-11             8.3068e-07           
  -0.75                 -8.4e-07              -2.143e-10            1.486e-11             8.4038e-07           
  -0.8                  -8.45e-07             -2.1312e-10           1.486e-11             8.4566e-07           
  -0.85                 -8.4754e-07           -2.1242e-10           1.498e-11             8.4816e-07           
  -0.9                  -8.491e-07            -2.119e-10            1.48e-11              8.4962e-07           
  -0.95                 -8.5024e-07           -2.1188e-10           1.492e-11             8.5052e-07           
  -1                    -8.5074e-07           -2.1174e-10           1.484e-11             8.511e-07            
  -1.05                 -8.5144e-07           -2.1146e-10           1.476e-11             8.5168e-07           
  -1.1                  -8.5196e-07           -2.1114e-10           1.494e-11             8.5218e-07           
  -1.15                 -8.5242e-07           -2.1104e-10           1.49e-11              8.5278e-07           
  -1.2                  -8.5278e-07           -2.1108e-10           1.484e-11             8.5308e-07           
  -1.25                 -8.532e-07            -2.1098e-10           1.496e-11             8.5358e-07           
  -1.3                  -8.536e-07            -2.1094e-10           1.478e-11             8.5386e-07           
  -1.35                 -8.5386e-07           -2.1076e-10           1.47e-11              8.543e-07            
END_DB

