! VERSION = 6.00
BEGIN_HEADER
 ICCAP_INPUTS
  vd         V  D GROUND SMU1 0.1 LIN        1    -0         -1.35      28   -0.05     
  vg         V  G GROUND SMU2 0.001 LIST       2 3 -0.075 -0.275 -0.475
  vb         V  B GROUND SMU4 0.1 CON        -0
  vs         V  S GROUND SMU3 0.1 CON        -0
 ICCAP_OUTPUTS
  id         I  D GROUND SMU1 B
  ig         I  G GROUND SMU2 B
  ib         I  B GROUND SMU4 B
  is         I  S GROUND SMU3 B
 ICCAP_VALUES
  MASTER_SETUP_TYPE "~dc_idvd~"
  LINVT_VALUE ""
  LISTVT_VALUE "|idvg|100.0n|-200.0m|1.000m|3|200.0m|200.0m|"
  TYPE "-1"
  TEMP " 125.000 "
  IS_TNOM " 0.00000 "
  MAIN.W "10.00u"
  MAIN.L "10.00u"
  MAIN.AD "3.400p"
  MAIN.AS "3.400p"
  MAIN.PD "20.68u"
  MAIN.PS "20.68u"
  MAIN.NF "1.000"
  MAIN.M "1"
  MAIN.NRD "0.000"
  MAIN.NRS "0.000"
  MAIN.LDRIFT1 "1E-06"
  MAIN.LDRIFT2 "1E-06"
  MAIN.SA "0.000"
  MAIN.SB "0.000"
  MAIN.SD "0.000"
  MAIN.SCA "0.000"
  MAIN.SCB "0.000"
  MAIN.SCC "0.000"
  MAIN.SC "0.000"
  MODULE "S549"
  PIN_D "12"
  PIN_G "9"
  PIN_S "10"
  PIN_B "11"
  PIN_E ""
  PIN_6 ""
  XY_ID ""
  FUNC "Large"
  STI "SA ref"
  WPE "WPE ref"
  COMMENT ""
  DIS_MEAS ""
  TypeTCI "10"
END_HEADER

BEGIN_DB
 ICCAP_VAR vg         -0.075         
 ICCAP_VAR vb         -0             
 ICCAP_VAR vs         -0             

 #vd                    id                    ig                    ib                    is                   
  -0                    1.8e-12               -6e-14                -1.006e-11            -2.48e-12            
  -0.05                 -1.08446e-09          1e-13                 -9.4e-12              1.08398e-09          
  -0.1                  -1.3412e-09           1.8e-13               -8.78e-12             1.3402e-09           
  -0.15                 -1.4024e-09           1.8e-13               -7.82e-12             1.402e-09            
  -0.2                  -1.4184e-09           1.4e-13               -7.62e-12             1.4174e-09           
  -0.25                 -1.4236e-09           3.6e-13               -7.22e-12             1.422e-09            
  -0.3                  -1.426e-09            2.4e-13               -6.6e-12              1.4248e-09           
  -0.35                 -1.428e-09            4.8e-13               -5.42e-12             1.4258e-09           
  -0.4                  -1.4294e-09           7.6e-13               -5.96e-12             1.4276e-09           
  -0.45                 -1.431e-09            8.8e-13               -5.26e-12             1.4286e-09           
  -0.5                  -1.4322e-09           1.08e-12              -4.4e-12              1.4296e-09           
  -0.55                 -1.4338e-09           1.46e-12              -3.94e-12             1.4306e-09           
  -0.6                  -1.4352e-09           1.84e-12              -4.56e-12             1.4318e-09           
  -0.65                 -1.437e-09            2.22e-12              -3.54e-12             1.4322e-09           
  -0.7                  -1.4388e-09           2.68e-12              -2.42e-12             1.4334e-09           
  -0.75                 -1.4408e-09           3.54e-12              -1.92e-12             1.4342e-09           
  -0.8                  -1.443e-09            4.2e-12               -1e-12                1.4348e-09           
  -0.85                 -1.4456e-09           5.2e-12               7.4e-13               1.4356e-09           
  -0.9                  -1.449e-09            5.88e-12              2.06e-12              1.4366e-09           
  -0.95                 -1.4528e-09           7.2e-12               3.74e-12              1.4372e-09           
  -1                    -1.457e-09            8.52e-12              7.02e-12              1.4374e-09           
  -1.05                 -1.4626e-09           9.68e-12              1.108e-11             1.4382e-09           
  -1.1                  -1.4694e-09           1.106e-11             1.59e-11              1.439e-09            
  -1.15                 -1.4778e-09           1.28e-11              2.176e-11             1.4394e-09           
  -1.2                  -1.4894e-09           1.48e-11              3.072e-11             1.4398e-09           
  -1.25                 -1.5046e-09           1.672e-11             4.446e-11             1.4404e-09           
  -1.3                  -1.5244e-09           1.886e-11             6.156e-11             1.441e-09            
  -1.35                 -1.5486e-09           2.118e-11             8.294e-11             1.4414e-09           
END_DB

BEGIN_DB
 ICCAP_VAR vg         -0.275         
 ICCAP_VAR vb         -0             
 ICCAP_VAR vs         -0             

 #vd                    id                    ig                    ib                    is                   
  -0                    1.8542e-10            -1.796e-11            -6.02e-12             -1.653e-10           
  -0.05                 -7.859e-08            -1.258e-11            -5.94e-12             7.8626e-08           
  -0.1                  -1.04024e-07          -1.062e-11            -4.96e-12             1.04076e-07          
  -0.15                 -1.109e-07            -1.016e-11            -4.86e-12             1.10966e-07          
  -0.2                  -1.1272e-07           -9.98e-12             -4.36e-12             1.12794e-07          
  -0.25                 -1.133e-07            -9.76e-12             -3.9e-12              1.13366e-07          
  -0.3                  -1.1356e-07           -9.74e-12             -4e-12                1.13622e-07          
  -0.35                 -1.1374e-07           -9.68e-12             -3.46e-12             1.13796e-07          
  -0.4                  -1.1388e-07           -9.58e-12             -3.76e-12             1.13932e-07          
  -0.45                 -1.14e-07             -9.54e-12             -3.24e-12             1.14064e-07          
  -0.5                  -1.1412e-07           -9.32e-12             -2.6e-12              1.14176e-07          
  -0.55                 -1.1422e-07           -9.3e-12              -2.4e-12              1.14274e-07          
  -0.6                  -1.143e-07            -9.18e-12             -2.46e-12             1.14362e-07          
  -0.65                 -1.1438e-07           -8.8e-12              -1.6e-12              1.14456e-07          
  -0.7                  -1.1448e-07           -8.6e-12              -1.7e-12              1.14544e-07          
  -0.75                 -1.1456e-07           -8.32e-12             -8.8e-13              1.14624e-07          
  -0.8                  -1.1464e-07           -8.02e-12             -8.8e-13              1.14688e-07          
  -0.85                 -1.147e-07            -7.34e-12             -1.14e-12             1.1475e-07           
  -0.9                  -1.1476e-07           -6.72e-12             -3.6e-13              1.14814e-07          
  -0.95                 -1.1482e-07           -6.22e-12             9.2e-13               1.14882e-07          
  -1                    -1.1488e-07           -5.56e-12             1.68e-12              1.14936e-07          
  -1.05                 -1.1494e-07           -4.62e-12             2.92e-12              1.14988e-07          
  -1.1                  -1.1496e-07           -3.72e-12             3.96e-12              1.1506e-07           
  -1.15                 -1.1506e-07           -2.6e-12              6.44e-12              1.151e-07            
  -1.2                  -1.151e-07            -1.32e-12             9.44e-12              1.1514e-07           
  -1.25                 -1.1514e-07           -2e-14                1.378e-11             1.152e-07            
  -1.3                  -1.152e-07            1.38e-12              1.872e-11             1.1524e-07           
  -1.35                 -1.1524e-07           3.22e-12              2.618e-11             1.1528e-07           
END_DB

BEGIN_DB
 ICCAP_VAR vg         -0.475         
 ICCAP_VAR vb         -0             
 ICCAP_VAR vs         -0             

 #vd                    id                    ig                    ib                    is                   
  -0                    1.0202e-09            -1.897e-10            -3.76e-12             -8.0948e-10          
  -0.05                 -5.9072e-07           -1.524e-10            -4.18e-12             5.9102e-07           
  -0.1                  -9.86e-07             -1.2748e-10           -3.24e-12             9.8638e-07           
  -0.15                 -1.2114e-06           -1.1282e-10           -2.94e-12             1.2144e-06           
  -0.2                  -1.3152e-06           -1.0568e-10           -2.86e-12             1.3182e-06           
  -0.25                 -1.3526e-06           -1.0316e-10           -2.4e-12              1.3558e-06           
  -0.3                  -1.3652e-06           -1.0222e-10           -1.98e-12             1.3684e-06           
  -0.35                 -1.37e-06             -1.0194e-10           -2.26e-12             1.3732e-06           
  -0.4                  -1.373e-06            -1.0156e-10           -1.8e-12              1.3762e-06           
  -0.45                 -1.3752e-06           -1.0152e-10           -1.96e-12             1.3782e-06           
  -0.5                  -1.3768e-06           -1.0134e-10           -1.22e-12             1.3798e-06           
  -0.55                 -1.3784e-06           -1.0108e-10           -1.32e-12             1.3814e-06           
  -0.6                  -1.3796e-06           -1.0104e-10           -1.18e-12             1.3828e-06           
  -0.65                 -1.381e-06            -1.008e-10            -1.08e-12             1.384e-06            
  -0.7                  -1.382e-06            -1.0038e-10           -6e-13                1.3852e-06           
  -0.75                 -1.3832e-06           -1.0022e-10           -5.4e-13              1.3862e-06           
  -0.8                  -1.3842e-06           -1.0004e-10           -6.2e-13              1.3874e-06           
  -0.85                 -1.385e-06            -9.986e-11            -6e-14                1.3882e-06           
  -0.9                  -1.386e-06            -9.942e-11            1.6e-13               1.389e-06            
  -0.95                 -1.3868e-06           -9.906e-11            6.4e-13               1.3898e-06           
  -1                    -1.3876e-06           -9.862e-11            7e-13                 1.3906e-06           
  -1.05                 -1.3882e-06           -9.814e-11            1.28e-12              1.3914e-06           
  -1.1                  -1.389e-06            -9.76e-11             1.72e-12              1.392e-06            
  -1.15                 -1.3896e-06           -9.7e-11              1.92e-12              1.3928e-06           
  -1.2                  -1.3902e-06           -9.618e-11            3.08e-12              1.3934e-06           
  -1.25                 -1.3908e-06           -9.53e-11             5.5e-12               1.394e-06            
  -1.3                  -1.3914e-06           -9.432e-11            7.22e-12              1.3946e-06           
  -1.35                 -1.392e-06            -9.314e-11            1.114e-11             1.395e-06            
END_DB

