! VERSION = 6.00
BEGIN_HEADER
 ICCAP_INPUTS
  vd         V  D GROUND SMU1 0.1 LIN        1    -0         -1.35      28   -0.05     
  vg         V  G GROUND SMU2 0.001 LIN        2    -0.446     -1.35      5    -0.226    
  vb         V  B GROUND SMU4 0.1 CON        -0
  vs         V  S GROUND SMU3 0.1 CON        -0
 ICCAP_OUTPUTS
  id         I  D GROUND SMU1 B
  ig         I  G GROUND SMU2 B
  ib         I  B GROUND SMU4 B
  is         I  S GROUND SMU3 B
 ICCAP_VALUES
  MASTER_SETUP_TYPE "~dc_idvd~"
  LINVT_VALUE "|idvg|100.0n|100.0m|1.000m|5|1.350|"
  LISTVT_VALUE ""
  TYPE "-1"
  TEMP "-40.0000 "
  IS_TNOM " 0.00000 "
  MAIN.W "150.0n"
  MAIN.L "10.00u"
  MAIN.AD "100.5f"
  MAIN.AS "100.5f"
  MAIN.PD "1.340u"
  MAIN.PS "1.340u"
  MAIN.NF "1.000"
  MAIN.M "1"
  MAIN.NRD "0.000"
  MAIN.NRS "0.000"
  MAIN.LDRIFT1 "1E-06"
  MAIN.LDRIFT2 "1E-06"
  MAIN.SA "0.000"
  MAIN.SB "0.000"
  MAIN.SD "0.000"
  MAIN.SCA "0.000"
  MAIN.SCB "0.000"
  MAIN.SCC "0.000"
  MAIN.SC "0.000"
  MODULE "S555"
  PIN_D "16"
  PIN_G "5"
  PIN_S "6"
  PIN_B "15"
  PIN_E ""
  PIN_6 ""
  XY_ID ""
  FUNC "Narrow"
  STI "SA ref"
  WPE "WPE ref"
  COMMENT ""
  DIS_MEAS ""
  TypeTCI "10"
END_HEADER

BEGIN_DB
 ICCAP_VAR vg         -0.446         
 ICCAP_VAR vb         -0             
 ICCAP_VAR vs         -0             

 #vd                    id                    ig                    ib                    is                   
  -0                    1.244e-11             -1.56e-12             -4.4e-13              -1.374e-11           
  -0.05                 -8.5656e-09           -7.6e-13              -4e-13                8.565e-09            
  -0.1                  -1.1672e-08           -8.4e-13              -3.4e-13              1.1702e-08           
  -0.15                 -1.2406e-08           -5.8e-13              -3.8e-13              1.2428e-08           
  -0.2                  -1.2638e-08           -6.4e-13              -4e-13                1.2656e-08           
  -0.25                 -1.278e-08            -8.8e-13              -4e-13                1.2798e-08           
  -0.3                  -1.289e-08            -6.2e-13              -3.6e-13              1.2912e-08           
  -0.35                 -1.2992e-08           -7.8e-13              -2.4e-13              1.301e-08            
  -0.4                  -1.3078e-08           -4.8e-13              -2e-13                1.3096e-08           
  -0.45                 -1.3144e-08           -4.6e-13              -3.2e-13              1.3168e-08           
  -0.5                  -1.3216e-08           -6e-13                -3.8e-13              1.3238e-08           
  -0.55                 -1.3276e-08           -6.4e-13              -3.2e-13              1.33e-08             
  -0.6                  -1.3326e-08           -6.6e-13              -4.2e-13              1.3354e-08           
  -0.65                 -1.3382e-08           -5.6e-13              -3.2e-13              1.3406e-08           
  -0.7                  -1.3436e-08           -7.2e-13              -3e-13                1.3454e-08           
  -0.75                 -1.3472e-08           -8.6e-13              -2.8e-13              1.3496e-08           
  -0.8                  -1.351e-08            -8.2e-13              -1.4e-13              1.3532e-08           
  -0.85                 -1.3546e-08           -3.8e-13              -1.8e-13              1.3568e-08           
  -0.9                  -1.3576e-08           -6.8e-13              -2.6e-13              1.3602e-08           
  -0.95                 -1.3608e-08           -5.2e-13              -2.2e-13              1.363e-08            
  -1                    -1.3638e-08           -8e-13                -3.4e-13              1.366e-08            
  -1.05                 -1.3664e-08           -7e-13                -2.4e-13              1.3686e-08           
  -1.1                  -1.3694e-08           -5e-13                -2.8e-13              1.3716e-08           
  -1.15                 -1.3718e-08           -6.6e-13              -1.8e-13              1.3738e-08           
  -1.2                  -1.3738e-08           -5e-13                -1.6e-13              1.3764e-08           
  -1.25                 -1.3764e-08           -6e-13                -2.6e-13              1.3782e-08           
  -1.3                  -1.3776e-08           -2e-13                -2.8e-13              1.3804e-08           
  -1.35                 -1.3798e-08           -4.2e-13              -2.2e-13              1.3818e-08           
END_DB

BEGIN_DB
 ICCAP_VAR vg         -0.672         
 ICCAP_VAR vb         -0             
 ICCAP_VAR vs         -0             

 #vd                    id                    ig                    ib                    is                   
  -0                    4.808e-11             -7.84e-12             -3.2e-13              -3.924e-11           
  -0.05                 -3.7814e-08           -6.72e-12             -3.2e-13              3.7844e-08           
  -0.1                  -6.7492e-08           -5.96e-12             -1.4e-13              6.7518e-08           
  -0.15                 -8.9022e-08           -5.44e-12             -2.4e-13              8.904e-08            
  -0.2                  -1.02496e-07          -4.68e-12             -3e-13                1.02538e-07          
  -0.25                 -1.08876e-07          -4.34e-12             -1.8e-13              1.08896e-07          
  -0.3                  -1.1102e-07           -4.48e-12             -2.6e-13              1.1114e-07           
  -0.35                 -1.1202e-07           -4.48e-12             -2.2e-13              1.1213e-07           
  -0.4                  -1.1262e-07           -4.4e-12              -2.4e-13              1.1275e-07           
  -0.45                 -1.1312e-07           -4.34e-12             -2.6e-13              1.1322e-07           
  -0.5                  -1.1352e-07           -4.26e-12             -1.2e-13              1.13608e-07          
  -0.55                 -1.1382e-07           -4.24e-12             -1.8e-13              1.13928e-07          
  -0.6                  -1.1412e-07           -4.42e-12             -1.8e-13              1.14236e-07          
  -0.65                 -1.1442e-07           -4.58e-12             -2.4e-13              1.14538e-07          
  -0.7                  -1.147e-07            -4e-12                -2.4e-13              1.14802e-07          
  -0.75                 -1.149e-07            -4.14e-12             -2.2e-13              1.151e-07            
  -0.8                  -1.1514e-07           -4.22e-12             -3e-13                1.153e-07            
  -0.85                 -1.1532e-07           -4.22e-12             -1.6e-13              1.1548e-07           
  -0.9                  -1.155e-07            -4.04e-12             -2.4e-13              1.1568e-07           
  -0.95                 -1.1568e-07           -4.02e-12             -4.2e-13              1.1588e-07           
  -1                    -1.1588e-07           -4.52e-12             -2e-13                1.1604e-07           
  -1.05                 -1.16e-07             -4.2e-12              -2.4e-13              1.1622e-07           
  -1.1                  -1.1612e-07           -4.48e-12             -1.6e-13              1.1632e-07           
  -1.15                 -1.1628e-07           -4.42e-12             -8e-14                1.1644e-07           
  -1.2                  -1.1642e-07           -4.14e-12             -4e-14                1.1658e-07           
  -1.25                 -1.1654e-07           -4.06e-12             -1.2e-13              1.1672e-07           
  -1.3                  -1.1666e-07           -4e-12                -1.6e-13              1.1684e-07           
  -1.35                 -1.1678e-07           -4.28e-12             -1.8e-13              1.1694e-07           
END_DB

BEGIN_DB
 ICCAP_VAR vg         -0.898         
 ICCAP_VAR vb         -0             
 ICCAP_VAR vs         -0             

 #vd                    id                    ig                    ib                    is                   
  -0                    8.35e-11              -2.88e-11             -2.4e-13              -5.724e-11           
  -0.05                 -6.5818e-08           -2.546e-11            -2.6e-13              6.5862e-08           
  -0.1                  -1.2436e-07           -2.282e-11            -2e-14                1.2458e-07           
  -0.15                 -1.7556e-07           -2.056e-11            -1.6e-13              1.757e-07            
  -0.2                  -2.1888e-07           -1.86e-11             -2.6e-13              2.1914e-07           
  -0.25                 -2.5446e-07           -1.718e-11            -1.2e-13              2.547e-07            
  -0.3                  -2.8206e-07           -1.584e-11            -1.8e-13              2.8226e-07           
  -0.35                 -3.0146e-07           -1.592e-11            -3e-13                3.017e-07            
  -0.4                  -3.1294e-07           -1.482e-11            -1.6e-13              3.132e-07            
  -0.45                 -3.1828e-07           -1.468e-11            -2.2e-13              3.185e-07            
  -0.5                  -3.2058e-07           -1.468e-11            -2e-13                3.2086e-07           
  -0.55                 -3.2214e-07           -1.436e-11            -4e-14                3.2252e-07           
  -0.6                  -3.2328e-07           -1.44e-11             -2e-13                3.2348e-07           
  -0.65                 -3.2398e-07           -1.452e-11            -3e-13                3.242e-07            
  -0.7                  -3.2462e-07           -1.416e-11            -2.4e-13              3.248e-07            
  -0.75                 -3.2518e-07           -1.45e-11             -2.6e-13              3.255e-07            
  -0.8                  -3.2584e-07           -1.494e-11            -1.6e-13              3.2594e-07           
  -0.85                 -3.2612e-07           -1.436e-11            -2e-13                3.2638e-07           
  -0.9                  -3.2662e-07           -1.436e-11            -2.6e-13              3.2682e-07           
  -0.95                 -3.2698e-07           -1.44e-11             -1.6e-13              3.2716e-07           
  -1                    -3.2736e-07           -1.39e-11             -1.8e-13              3.2762e-07           
  -1.05                 -3.277e-07            -1.416e-11            -3.4e-13              3.279e-07            
  -1.1                  -3.2808e-07           -1.436e-11            -2e-13                3.282e-07            
  -1.15                 -3.2828e-07           -1.428e-11            -1.8e-13              3.2858e-07           
  -1.2                  -3.2862e-07           -1.428e-11            -2.4e-13              3.2892e-07           
  -1.25                 -3.2898e-07           -1.434e-11            -2.4e-13              3.2926e-07           
  -1.3                  -3.2928e-07           -1.382e-11            -1e-13                3.295e-07            
  -1.35                 -3.2952e-07           -1.416e-11            -1e-13                3.2976e-07           
END_DB

BEGIN_DB
 ICCAP_VAR vg         -1.124         
 ICCAP_VAR vb         -0             
 ICCAP_VAR vs         -0             

 #vd                    id                    ig                    ib                    is                   
  -0                    1.3234e-10            -7.56e-11             -2e-13                -5.94e-11            
  -0.05                 -8.8114e-08           -6.926e-11            -2.4e-13              8.8216e-08           
  -0.1                  -1.7044e-07           -6.332e-11            -1.2e-13              1.7068e-07           
  -0.15                 -2.4674e-07           -5.832e-11            -8e-14                2.4696e-07           
  -0.2                  -3.1652e-07           -5.38e-11             -1e-13                3.1684e-07           
  -0.25                 -3.7972e-07           -4.992e-11            -2e-14                3.8004e-07           
  -0.3                  -4.3586e-07           -4.644e-11            -2e-13                4.3608e-07           
  -0.35                 -4.845e-07            -4.378e-11            -1e-13                4.849e-07            
  -0.4                  -5.2582e-07           -4.132e-11            -1.6e-13              5.262e-07            
  -0.45                 -5.5964e-07           -3.992e-11            -1.8e-13              5.6004e-07           
  -0.5                  -5.8552e-07           -3.832e-11            -1.2e-13              5.8586e-07           
  -0.55                 -6.0358e-07           -3.738e-11            -1e-13                6.0382e-07           
  -0.6                  -6.1378e-07           -3.684e-11            -2.4e-13              6.14e-07             
  -0.65                 -6.187e-07            -3.638e-11            -2.6e-13              6.1902e-07           
  -0.7                  -6.214e-07            -3.646e-11            -2e-13                6.2174e-07           
  -0.75                 -6.2326e-07           -3.636e-11            -2e-13                6.2348e-07           
  -0.8                  -6.243e-07            -3.584e-11            -2.2e-13              6.2448e-07           
  -0.85                 -6.2538e-07           -3.618e-11            -2e-13                6.2548e-07           
  -0.9                  -6.261e-07            -3.598e-11            -1.4e-13              6.2634e-07           
  -0.95                 -6.2682e-07           -3.608e-11            -6e-14                6.2716e-07           
  -1                    -6.2768e-07           -3.622e-11            -1.6e-13              6.2802e-07           
  -1.05                 -6.2826e-07           -3.618e-11            -2e-13                6.2852e-07           
  -1.1                  -6.2886e-07           -3.604e-11            -1.8e-13              6.292e-07            
  -1.15                 -6.2954e-07           -3.61e-11             -2.4e-13              6.2984e-07           
  -1.2                  -6.3018e-07           -3.6e-11              -1.8e-13              6.3048e-07           
  -1.25                 -6.3074e-07           -3.576e-11            -1e-13                6.311e-07            
  -1.3                  -6.3126e-07           -3.586e-11            -1.8e-13              6.3148e-07           
  -1.35                 -6.3164e-07           -3.56e-11             -1.8e-13              6.3196e-07           
END_DB

BEGIN_DB
 ICCAP_VAR vg         -1.35          
 ICCAP_VAR vb         -0             
 ICCAP_VAR vs         -0             

 #vd                    id                    ig                    ib                    is                   
  -0                    1.9464e-10            -1.6356e-10           4.4e-13               -3.448e-11           
  -0.05                 -1.0468e-07           -1.516e-10            3.4e-13               1.0498e-07           
  -0.1                  -2.0502e-07           -1.4092e-10           2e-13                 2.0532e-07           
  -0.15                 -3.0042e-07           -1.313e-10            8e-14                 3.0078e-07           
  -0.2                  -3.9104e-07           -1.2234e-10           1.2e-13               3.9128e-07           
  -0.25                 -4.7602e-07           -1.1508e-10           0                     4.7644e-07           
  -0.3                  -5.556e-07            -1.0822e-10           -4e-14                5.5578e-07           
  -0.35                 -6.2872e-07           -1.0198e-10           -4e-14                6.2904e-07           
  -0.4                  -6.9604e-07           -9.646e-11            -4e-14                6.966e-07            
  -0.45                 -7.5666e-07           -9.154e-11            -4e-14                7.5716e-07           
  -0.5                  -8.1058e-07           -8.752e-11            8e-14                 8.111e-07            
  -0.55                 -8.5754e-07           -8.368e-11            2e-14                 8.5808e-07           
  -0.6                  -8.9706e-07           -8.126e-11            -6e-14                8.974e-07            
  -0.65                 -9.2944e-07           -7.908e-11            -1.2e-13              9.2984e-07           
  -0.7                  -9.54e-07             -7.734e-11            -1.4e-13              9.547e-07            
  -0.75                 -9.7116e-07           -7.612e-11            -1.4e-13              9.7154e-07           
  -0.8                  -9.811e-07            -7.536e-11            -2e-14                9.8152e-07           
  -0.85                 -9.8632e-07           -7.514e-11            0                     9.8668e-07           
  -0.9                  -9.8924e-07           -7.444e-11            2e-14                 9.896e-07            
  -0.95                 -9.915e-07            -7.474e-11            -1e-13                9.9164e-07           
  -1                    -9.9268e-07           -7.388e-11            -8e-14                9.9346e-07           
  -1.05                 -9.9442e-07           -7.38e-11             0                     9.9484e-07           
  -1.1                  -9.9552e-07           -7.374e-11            0                     9.9576e-07           
  -1.15                 -9.964e-07            -7.362e-11            -4e-14                9.9654e-07           
  -1.2                  -9.9736e-07           -7.35e-11             0                     9.9774e-07           
  -1.25                 -9.9816e-07           -7.358e-11            2e-14                 9.984e-07            
  -1.3                  -9.9864e-07           -7.418e-11            2e-14                 9.994e-07            
  -1.35                 -9.9984e-07           -7.39e-11             4e-14                 1.00004e-06          
END_DB

