! VERSION = 6.00
BEGIN_HEADER
 ICCAP_INPUTS
  vg         V  G GROUND SMU2 0.001 LIN        1    0.5        -1.35      38   -0.05     
  vb         V  B GROUND SMU4 0.1 LIN        2    0          1.2        7    0.2       
  vd         V  D GROUND SMU1 0.1 LIST       3 3 -0.05 -0.6 -1.2
  vs         V  S GROUND SMU3 0.1 CON        -0
 ICCAP_OUTPUTS
  id         I  D GROUND SMU1 B
  ig         I  G GROUND SMU2 B
  ib         I  B GROUND SMU4 B
  is         I  S GROUND SMU3 B
 ICCAP_VALUES
  MASTER_SETUP_TYPE "~dc_idvg~"
  LINVT_VALUE ""
  LISTVT_VALUE ""
  TYPE "-1"
  TEMP " 125.000 "
  IS_TNOM " 0.00000 "
  MAIN.W "10.00u"
  MAIN.L "180.0n"
  MAIN.AD "3.400p"
  MAIN.AS "3.400p"
  MAIN.PD "20.68u"
  MAIN.PS "20.68u"
  MAIN.NF "1.000"
  MAIN.M "1"
  MAIN.NRD "0.000"
  MAIN.NRS "0.000"
  MAIN.LDRIFT1 "1E-06"
  MAIN.LDRIFT2 "1E-06"
  MAIN.SA "0.000"
  MAIN.SB "0.000"
  MAIN.SD "0.000"
  MAIN.SCA "0.000"
  MAIN.SCB "0.000"
  MAIN.SCC "0.000"
  MAIN.SC "0.000"
  MODULE "S548"
  PIN_D "12"
  PIN_G "9"
  PIN_S "10"
  PIN_B "11"
  PIN_E ""
  PIN_6 ""
  XY_ID ""
  FUNC "L Scale"
  STI "SA ref"
  WPE "WPE ref"
  COMMENT ""
  DIS_MEAS ""
  TypeTCI "10"
END_HEADER

BEGIN_DB
 ICCAP_VAR vb         0              
 ICCAP_VAR vd         -0.05          
 ICCAP_VAR vs         -0             

 #vg                    id                    ig                    ib                    is                   
  0.5                   -3.16e-12             2.0894e-08            -2.0856e-08           -1.78e-12            
  0.45                  3.86e-12              4.8826e-09            -4.893e-09            -8.6e-13             
  0.4                   -2.74e-12             1.142e-09             -1.1584e-09           4e-13                
  0.35                  -4.66e-12             2.6802e-10            -2.822e-10            2.7e-12              
  0.3                   -1.008e-11            6.338e-11             -7.792e-11            8.58e-12             
  0.25                  -2.554e-11            1.544e-11             -2.964e-11            2.43e-11             
  0.2                   -7.012e-11            3.82e-12              -1.758e-11            6.956e-11            
  0.15                  -2.0088e-10           1.04e-12              -1.46e-11             2.0006e-10           
  0.1                   -5.8792e-10           8e-14                 -1.308e-11            5.8742e-10           
  0.05                  -1.7434e-09           -8e-14                -1.224e-11            1.7426e-09           
  0                     -5.2242e-09           -2.4e-13              -1.152e-11            5.2228e-09           
  -0.05                 -1.574e-08            -4.4e-13              -1.174e-11            1.576e-08            
  -0.1                  -4.7644e-08           -6.8e-13              -1.104e-11            4.768e-08            
  -0.15                 -1.4308e-07           -7.4e-13              -1.09e-11             1.4316e-07           
  -0.2                  -4.1868e-07           -1e-12                -1.05e-11             4.1876e-07           
  -0.25                 -1.1516e-06           -1.06e-12             -1.04e-11             1.1546e-06           
  -0.3                  -2.8538e-06           -1.56e-12             -9.58e-12             2.856e-06            
  -0.35                 -6.1036e-06           -2.06e-12             -9.86e-12             6.108e-06            
  -0.4                  -1.12094e-05          -2.8e-12              -9.38e-12             1.1204e-05           
  -0.45                 -1.799e-05            -4.08e-12             -9.02e-12             1.7982e-05           
  -0.5                  -2.6006e-05           -5.7e-12              -8.44e-12             2.6008e-05           
  -0.55                 -3.4754e-05           -7.8e-12              -8.62e-12             3.4778e-05           
  -0.6                  -4.3876e-05           -1.08e-11             -8.58e-12             4.3868e-05           
  -0.65                 -5.3076e-05           -1.472e-11            -7.84e-12             5.3082e-05           
  -0.7                  -6.2178e-05           -1.96e-11             -8.12e-12             6.2208e-05           
  -0.75                 -7.1072e-05           -2.568e-11            -7.92e-12             7.1066e-05           
  -0.8                  -7.9714e-05           -3.32e-11             -7.24e-12             7.9672e-05           
  -0.85                 -8.802e-05            -4.262e-11            -7.2e-12              8.7996e-05           
  -0.9                  -9.5998e-05           -5.384e-11            -6.96e-12             9.5966e-05           
  -0.95                 -0.00010367           -6.736e-11            -7.1e-12              0.000103662          
  -1                    -0.000111058          -8.346e-11            -6.82e-12             0.000111036          
  -1.05                 -0.00011796           -1.0228e-10           -6.3e-12              0.0001182            
  -1.1                  -0.0001247            -1.2472e-10           -6.56e-12             0.00012494           
  -1.15                 -0.00013112           -1.5062e-10           -6.08e-12             0.00013136           
  -1.2                  -0.00013724           -1.8056e-10           -5.7e-12              0.00013748           
  -1.25                 -0.00014304           -2.1508e-10           -4.6e-12              0.0001433            
  -1.3                  -0.00014856           -2.5392e-10           -3.66e-12             0.00014878           
  -1.35                 -0.00015384           -2.9826e-10           -1.7e-12              0.0001541            
END_DB

BEGIN_DB
 ICCAP_VAR vb         0.2            
 ICCAP_VAR vd         -0.05          
 ICCAP_VAR vs         -0             

 #vg                    id                    ig                    ib                    is                   
  0.5                   -2.7e-12              6.702e-11             -5.532e-11            -2.72e-12            
  0.45                  -2.28e-12             1.78e-11              -9.6e-12              -1.94e-12            
  0.4                   -1.92e-12             5.96e-12              9.8e-13               -1.34e-12            
  0.35                  -2.1e-12              2.64e-12              3.14e-12              -5.6e-13             
  0.3                   -3.28e-12             1.46e-12              3.12e-12              1.06e-12             
  0.25                  -7.28e-12             8.8e-13               3.1e-12               5.64e-12             
  0.2                   -2.028e-11            4.6e-13               2.98e-12              1.894e-11            
  0.15                  -6.078e-11            1.2e-13               2.74e-12              5.986e-11            
  0.1                   -1.871e-10            -8e-14                1.76e-12              1.863e-10            
  0.05                  -5.8146e-10           -3e-13                1.92e-12              5.8068e-10           
  0                     -1.8194e-09           -3.6e-13              1.28e-12              1.8182e-09           
  -0.05                 -5.6982e-09           -4.6e-13              1.56e-12              5.6996e-09           
  -0.1                  -1.7906e-08           -5.6e-13              1.48e-12              1.7926e-08           
  -0.15                 -5.6096e-08           -7.4e-13              9e-13                 5.6098e-08           
  -0.2                  -1.7296e-07           -1e-12                1.64e-12              1.73e-07             
  -0.25                 -5.1474e-07           -1.18e-12             8.8e-13               5.1412e-07           
  -0.3                  -1.4164e-06           -1.48e-12             7.6e-13               1.419e-06            
  -0.35                 -3.4386e-06           -1.92e-12             1.18e-12              3.4428e-06           
  -0.4                  -7.1304e-06           -2.62e-12             6.2e-13               7.1328e-06           
  -0.45                 -1.2646e-05           -3.68e-12             7.6e-13               1.2654e-05           
  -0.5                  -1.9704e-05           -5.54e-12             2.2e-13               1.9712e-05           
  -0.55                 -2.7822e-05           -7.66e-12             4.8e-13               2.7828e-05           
  -0.6                  -3.6542e-05           -1.056e-11            4e-13                 3.6524e-05           
  -0.65                 -4.5494e-05           -1.42e-11             3.8e-13               4.5502e-05           
  -0.7                  -5.4458e-05           -1.91e-11             3.8e-13               5.4446e-05           
  -0.75                 -6.327e-05            -2.512e-11            5.8e-13               6.3268e-05           
  -0.8                  -7.1886e-05           -3.262e-11            9e-13                 7.189e-05            
  -0.85                 -8.0266e-05           -4.182e-11            2.6e-13               8.025e-05            
  -0.9                  -8.8294e-05           -5.324e-11            3.8e-13               8.8246e-05           
  -0.95                 -9.5978e-05           -6.65e-11             3.2e-13               9.5962e-05           
  -1                    -0.000103384          -8.256e-11            8e-14                 0.000103368          
  -1.05                 -0.000110524          -1.0138e-10           5.8e-13               0.000110506          
  -1.1                  -0.00011712           -1.2358e-10           1.02e-12              0.0001174            
  -1.15                 -0.00012358           -1.505e-10            7.6e-13               0.00012386           
  -1.2                  -0.00012976           -1.7856e-10           9.6e-13               0.00013002           
  -1.25                 -0.00013568           -2.135e-10            1.34e-12              0.00013594           
  -1.3                  -0.00014128           -2.5142e-10           2.9e-12               0.00014154           
  -1.35                 -0.00014658           -2.9538e-10           4.5e-12               0.00014686           
END_DB

BEGIN_DB
 ICCAP_VAR vb         0.4            
 ICCAP_VAR vd         -0.05          
 ICCAP_VAR vs         -0             

 #vg                    id                    ig                    ib                    is                   
  0.5                   -2.64e-12             4.9e-12               1.114e-11             -3e-12               
  0.45                  -2.28e-12             3.52e-12              9.72e-12              -2.46e-12            
  0.4                   -1.74e-12             2.6e-12               8.8e-12               -1.66e-12            
  0.35                  -1.54e-12             1.82e-12              8.04e-12              -1.22e-12            
  0.3                   -1.78e-12             1.24e-12              7.86e-12              -3.8e-13             
  0.25                  -3.16e-12             7.4e-13               6.94e-12              1.42e-12             
  0.2                   -7.62e-12             3.2e-13               6.3e-12               6.4e-12              
  0.15                  -2.26e-11             6e-14                 5.76e-12              2.156e-11            
  0.1                   -7.122e-11            -1.4e-13              5.62e-12              7.032e-11            
  0.05                  -2.2746e-10           -4e-13                5.5e-12               2.27e-10             
  0                     -7.3164e-10           -4.2e-13              5.82e-12              7.3084e-10           
  -0.05                 -2.3554e-09           -4.4e-13              4.72e-12              2.3558e-09           
  -0.1                  -7.6024e-09           -6e-13                4.62e-12              7.595e-09            
  -0.15                 -2.4466e-08           -7.4e-13              4.14e-12              2.4474e-08           
  -0.2                  -7.8046e-08           -9.2e-13              4.46e-12              7.8026e-08           
  -0.25                 -2.4378e-07           -1.08e-12             4.26e-12              2.4398e-07           
  -0.3                  -7.2254e-07           -1.52e-12             4.24e-12              7.2202e-07           
  -0.35                 -1.9372e-06           -1.82e-12             4.32e-12              1.9384e-06           
  -0.4                  -4.489e-06            -2.68e-12             3.64e-12              4.4926e-06           
  -0.45                 -8.813e-06            -3.84e-12             3.92e-12              8.808e-06            
  -0.5                  -1.4878e-05           -5.12e-12             4.4e-12               1.4872e-05           
  -0.55                 -2.2274e-05           -7.2e-12              3.58e-12              2.2274e-05           
  -0.6                  -3.0508e-05           -1.008e-11            3.64e-12              3.0526e-05           
  -0.65                 -3.9204e-05           -1.37e-11             3.6e-12               3.9198e-05           
  -0.7                  -4.8e-05              -1.84e-11             3.08e-12              4.797e-05            
  -0.75                 -5.6726e-05           -2.438e-11            3.42e-12              5.6746e-05           
  -0.8                  -6.5354e-05           -3.202e-11            3.3e-12               6.5358e-05           
  -0.85                 -7.3658e-05           -4.106e-11            3.6e-12               7.3656e-05           
  -0.9                  -8.1716e-05           -5.212e-11            2.88e-12              8.1698e-05           
  -0.95                 -8.9458e-05           -6.544e-11            3.26e-12              8.9418e-05           
  -1                    -9.687e-05            -8.132e-11            3.22e-12              9.687e-05            
  -1.05                 -0.000104038          -9.988e-11            3.32e-12              0.000103988          
  -1.1                  -0.000110846          -1.2208e-10           3.2e-12               0.000110826          
  -1.15                 -0.0001172            -1.4746e-10           3.52e-12              0.00011748           
  -1.2                  -0.0001235            -1.7734e-10           3.7e-12               0.00012372           
  -1.25                 -0.00012938           -2.117e-10            4.46e-12              0.00012964           
  -1.3                  -0.00013506           -2.5052e-10           5.46e-12              0.00013532           
  -1.35                 -0.00014046           -2.9556e-10           7.4e-12               0.00014068           
END_DB

BEGIN_DB
 ICCAP_VAR vb         0.6            
 ICCAP_VAR vd         -0.05          
 ICCAP_VAR vs         -0             

 #vg                    id                    ig                    ib                    is                   
  0.5                   -2.62e-12             4.62e-12              1.338e-11             -3.08e-12            
  0.45                  -2.2e-12              3.4e-12               1.21e-11              -2.4e-12             
  0.4                   -1.74e-12             2.48e-12              1.084e-11             -1.9e-12             
  0.35                  -1.56e-12             1.7e-12               1.036e-11             -1.22e-12            
  0.3                   -1.42e-12             1.22e-12              9.18e-12              -7.4e-13             
  0.25                  -1.82e-12             7.2e-13               8.72e-12              6e-14                
  0.2                   -3.62e-12             2.4e-13               8.88e-12              2.3e-12              
  0.15                  -9.74e-12             1.2e-13               8.7e-12               8.68e-12             
  0.1                   -3.068e-11            -1e-13                8.36e-12              2.964e-11            
  0.05                  -9.904e-11            -3.4e-13              7.96e-12              9.836e-11            
  0                     -3.2506e-10           -4.6e-13              7.4e-12               3.2456e-10           
  -0.05                 -1.0677e-09           -4.6e-13              7.2e-12               1.06732e-09          
  -0.1                  -3.516e-09            -6e-13                7.38e-12              3.5154e-09           
  -0.15                 -1.1556e-08           -5.4e-13              7.4e-12               1.1582e-08           
  -0.2                  -3.7762e-08           -8.8e-13              6.4e-12               3.7792e-08           
  -0.25                 -1.219e-07            -1.12e-12             5.92e-12              1.2192e-07           
  -0.3                  -3.7884e-07           -1.44e-12             6.18e-12              3.7892e-07           
  -0.35                 -1.09582e-06          -1.84e-12             5.86e-12              1.09398e-06          
  -0.4                  -2.8e-06              -2.44e-12             6.12e-12              2.8022e-06           
  -0.45                 -6.0656e-06           -3.5e-12              5.7e-12               6.0658e-06           
  -0.5                  -1.11316e-05          -5e-12                5.82e-12              1.11364e-05          
  -0.55                 -1.7764e-05           -6.84e-12             5.42e-12              1.7756e-05           
  -0.6                  -2.549e-05            -9.7e-12              5.44e-12              2.5492e-05           
  -0.65                 -3.383e-05            -1.326e-11            5.42e-12              3.383e-05            
  -0.7                  -4.246e-05            -1.802e-11            5.28e-12              4.2458e-05           
  -0.75                 -5.1068e-05           -2.386e-11            5.56e-12              5.1084e-05           
  -0.8                  -5.9614e-05           -3.122e-11            5.18e-12              5.9604e-05           
  -0.85                 -6.79e-05             -4.026e-11            5.28e-12              6.7904e-05           
  -0.9                  -7.5944e-05           -5.138e-11            5e-12                 7.5942e-05           
  -0.95                 -8.3756e-05           -6.464e-11            4.86e-12              8.3732e-05           
  -1                    -9.1216e-05           -8.036e-11            5.14e-12              9.1174e-05           
  -1.05                 -9.8346e-05           -9.912e-11            5.38e-12              9.834e-05            
  -1.1                  -0.000105218          -1.2092e-10           4.68e-12              0.000105196          
  -1.15                 -0.000111808          -1.4646e-10           5e-12                 0.000111796          
  -1.2                  -0.00011796           -1.762e-10            5.68e-12              0.00011818           
  -1.25                 -0.00012394           -2.1038e-10           6.54e-12              0.00012422           
  -1.3                  -0.00012968           -2.4904e-10           7.08e-12              0.00012996           
  -1.35                 -0.0001351            -2.9366e-10           9.04e-12              0.00013534           
END_DB

BEGIN_DB
 ICCAP_VAR vb         0.8            
 ICCAP_VAR vd         -0.05          
 ICCAP_VAR vs         -0             

 #vg                    id                    ig                    ib                    is                   
  0.5                   -2.84e-12             4.62e-12              1.562e-11             -3.04e-12            
  0.45                  -2.32e-12             3.5e-12               1.368e-11             -2.5e-12             
  0.4                   -1.8e-12              2.52e-12              1.29e-11              -1.82e-12            
  0.35                  -1.4e-12              1.84e-12              1.234e-11             -1.64e-12            
  0.3                   -1.46e-12             1.16e-12              1.154e-11             -9.6e-13             
