! VERSION = 6.00
BEGIN_HEADER
 ICCAP_INPUTS
  vg         V  G GROUND SMU2 0.001 LIN        1    0.5        -1.35      38   -0.05     
  vb         V  B GROUND SMU4 0.1 LIN        2    0          1.2        7    0.2       
  vd         V  D GROUND SMU1 0.1 LIST       3 3 -0.05 -0.6 -1.2
  vs         V  S GROUND SMU3 0.1 CON        -0
 ICCAP_OUTPUTS
  id         I  D GROUND SMU1 B
  ig         I  G GROUND SMU2 B
  ib         I  B GROUND SMU4 B
  is         I  S GROUND SMU3 B
 ICCAP_VALUES
  MASTER_SETUP_TYPE "~dc_idvg~"
  LINVT_VALUE ""
  LISTVT_VALUE ""
  TYPE "-1"
  TEMP " 27.0000 "
  IS_TNOM " 1.00000 "
  MAIN.W "10.00u"
  MAIN.L "1.200u"
  MAIN.AD "3.400p"
  MAIN.AS "3.400p"
  MAIN.PD "20.68u"
  MAIN.PS "20.68u"
  MAIN.NF "1.000"
  MAIN.M "1"
  MAIN.NRD "0.000"
  MAIN.NRS "0.000"
  MAIN.LDRIFT1 "1E-06"
  MAIN.LDRIFT2 "1E-06"
  MAIN.SA "0.000"
  MAIN.SB "0.000"
  MAIN.SD "0.000"
  MAIN.SCA "0.000"
  MAIN.SCB "0.000"
  MAIN.SCC "0.000"
  MAIN.SC "0.000"
  MODULE "S549"
  PIN_D "18"
  PIN_G "3"
  PIN_S "4"
  PIN_B "17"
  PIN_E ""
  PIN_6 ""
  XY_ID ""
  FUNC "L Scale"
  STI "SA ref"
  WPE "WPE ref"
  COMMENT ""
  DIS_MEAS ""
  TypeTCI "10"
END_HEADER

BEGIN_DB
 ICCAP_VAR vb         0              
 ICCAP_VAR vd         -0.05          
 ICCAP_VAR vs         -0             

 #vg                    id                    ig                    ib                    is                   
  0.5                   -2.04e-12             2.354e-11             -6.46e-12             -2.3e-12             
  0.45                  -1.4e-12              6.42e-12              -2.2e-12              -1.8e-12             
  0.4                   -1.04e-12             3.12e-12              -1.22e-12             -1.34e-12            
  0.35                  -9.8e-13              2.02e-12              -1.28e-12             -9.4e-13             
  0.3                   -5.6e-13              1.34e-12              -9.8e-13              -6.4e-13             
  0.25                  -5.2e-13              8e-13                 -9.4e-13              -5.2e-13             
  0.2                   -4e-13                4.8e-13               -1.1e-12              -6e-14               
  0.15                  -4.6e-13              1.6e-13               -8.8e-13              -6e-14               
  0.1                   -9e-13                2e-14                 -1e-12                8e-13                
  0.05                  -4.08e-12             -1.6e-13              -9.6e-13              4e-12                
  0                     -1.872e-11            -2.2e-13              -8.2e-13              1.866e-11            
  -0.05                 -8.87e-11             -3.8e-13              -9.6e-13              8.882e-11            
  -0.1                  -4.261e-10            -5e-13                -8.6e-13              4.2568e-10           
  -0.15                 -2.0524e-09           -4.4e-13              -1.02e-12             2.0534e-09           
  -0.2                  -9.8136e-09           -7.8e-13              -9.8e-13              9.8122e-09           
  -0.25                 -4.531e-08            -9.6e-13              -9.8e-13              4.534e-08            
  -0.3                  -1.856e-07            -1.64e-12             -9.2e-13              1.8572e-07           
  -0.35                 -6.0114e-07           -3.66e-12             -8.6e-13              6.013e-07            
  -0.4                  -1.466e-06            -6.78e-12             -8e-13                1.4688e-06           
  -0.45                 -2.7936e-06           -1.214e-11            -8.6e-13              2.7962e-06           
  -0.5                  -4.453e-06            -2.042e-11            -8.2e-13              4.4562e-06           
  -0.55                 -6.2812e-06           -3.23e-11             -8.2e-13              6.2838e-06           
  -0.6                  -8.1712e-06           -4.872e-11            -9.4e-13              8.1734e-06           
  -0.65                 -1.00534e-05          -7.072e-11            -8.4e-13              1.00554e-05          
  -0.7                  -1.189e-05            -9.97e-11             -9.2e-13              1.1906e-05           
  -0.75                 -1.3674e-05           -1.369e-10            -9.6e-13              1.369e-05            
  -0.8                  -1.5396e-05           -1.8374e-10           -8.2e-13              1.541e-05            
  -0.85                 -1.7042e-05           -2.42e-10             -8.2e-13              1.7056e-05           
  -0.9                  -1.8618e-05           -3.131e-10            -8.2e-13              1.8632e-05           
  -0.95                 -2.0116e-05           -3.9892e-10           -8.8e-13              2.0132e-05           
  -1                    -2.1544e-05           -5.0152e-10           -8.6e-13              2.156e-05            
  -1.05                 -2.2898e-05           -6.2288e-10           -8e-13                2.2912e-05           
  -1.1                  -2.4184e-05           -7.6426e-10           -9.2e-13              2.4196e-05           
  -1.15                 -2.5404e-05           -9.2936e-10           -3.4e-13              2.5412e-05           
  -1.2                  -2.6554e-05           -1.12e-09             -4e-14                2.6568e-05           
  -1.25                 -2.765e-05            -1.3378e-09           1.48e-12              2.7666e-05           
  -1.3                  -2.8688e-05           -1.5874e-09           4e-12                 2.8702e-05           
  -1.35                 -2.9664e-05           -1.8786e-09           9.36e-12              2.9682e-05           
END_DB

BEGIN_DB
 ICCAP_VAR vb         0.2            
 ICCAP_VAR vd         -0.05          
 ICCAP_VAR vs         -0             

 #vg                    id                    ig                    ib                    is                   
  0.5                   -1.68e-12             4.4e-12               0                     -2.4e-12             
  0.45                  -1.34e-12             3.32e-12              8e-14                 -1.88e-12            
  0.4                   -1.08e-12             2.42e-12              1.6e-13               -1.34e-12            
  0.35                  -7.8e-13              1.66e-12              8e-14                 -1.08e-12            
  0.3                   -5.2e-13              1.38e-12              8e-14                 -8e-13               
  0.25                  -4.2e-13              7.2e-13               -2e-14                -4.4e-13             
  0.2                   -3e-13                5e-13                 1e-13                 -4e-13               
  0.15                  -1e-13                1.2e-13               2e-14                 -6e-14               
  0.1                   -3.8e-13              2e-14                 0                     1.2e-13              
  0.05                  -9.4e-13              -2e-14                2e-14                 1.14e-12             
  0                     -5.08e-12             -2.8e-13              -1.4e-13              5.14e-12             
  -0.05                 -2.474e-11            -3.4e-13              -2e-14                2.486e-11            
  -0.1                  -1.2256e-10           -4.8e-13              -2e-14                1.228e-10            
  -0.15                 -6.1052e-10           -5e-13                1e-13                 6.1034e-10           
  -0.2                  -3.0322e-09           -7.4e-13              0                     3.0312e-09           
  -0.25                 -1.486e-08            -9.8e-13              6e-14                 1.4886e-08           
  -0.3                  -6.8654e-08           -1.56e-12             0                     6.8678e-08           
  -0.35                 -2.6836e-07           -2.78e-12             -6e-14                2.6854e-07           
  -0.4                  -8.017e-07            -5.7e-12              -6e-14                8.0168e-07           
  -0.45                 -1.795e-06            -1.046e-11            0                     1.797e-06            
  -0.5                  -3.2046e-06           -1.83e-11             -1.2e-13              3.2074e-06           
  -0.55                 -4.8744e-06           -2.97e-11             -8e-14                4.8764e-06           
  -0.6                  -6.6672e-06           -4.568e-11            6e-14                 6.6684e-06           
  -0.65                 -8.4926e-06           -6.744e-11            -1.6e-13              8.4946e-06           
  -0.7                  -1.03052e-05          -9.58e-11             8e-14                 1.0307e-05           
  -0.75                 -1.206e-05            -1.3244e-10           -2e-14                1.2074e-05           
  -0.8                  -1.3768e-05           -1.7858e-10           -6e-14                1.3784e-05           
  -0.85                 -1.5412e-05           -2.3648e-10           0                     1.5426e-05           
  -0.9                  -1.6984e-05           -3.0644e-10           -2e-14                1.6996e-05           
  -0.95                 -1.8484e-05           -3.9232e-10           -2e-14                1.85e-05             
  -1                    -1.9916e-05           -4.9558e-10           0                     1.9932e-05           
  -1.05                 -2.128e-05            -6.1506e-10           1.2e-13               2.1294e-05           
  -1.1                  -2.2574e-05           -7.5626e-10           4e-14                 2.2584e-05           
  -1.15                 -2.38e-05             -9.2022e-10           2.4e-13               2.3812e-05           
  -1.2                  -2.4966e-05           -1.109e-09            8e-13                 2.4976e-05           
  -1.25                 -2.607e-05            -1.3296e-09           2.14e-12              2.6086e-05           
  -1.3                  -2.7116e-05           -1.5788e-09           4.9e-12               2.713e-05            
  -1.35                 -2.8104e-05           -1.8658e-09           1.006e-11             2.812e-05            
END_DB

BEGIN_DB
 ICCAP_VAR vb         0.4            
 ICCAP_VAR vd         -0.05          
 ICCAP_VAR vs         -0             

 #vg                    id                    ig                    ib                    is                   
  0.5                   -1.68e-12             4.26e-12              8e-14                 -2.22e-12            
  0.45                  -1.34e-12             3.2e-12               1.6e-13               -1.86e-12            
  0.4                   -1e-12                2.5e-12               6e-14                 -1.36e-12            
  0.35                  -7.8e-13              1.66e-12              6e-14                 -1.04e-12            
  0.3                   -5.6e-13              1.3e-12               -8e-14                -6.6e-13             
  0.25                  -4.2e-13              8e-13                 4e-14                 -4.8e-13             
  0.2                   -2.6e-13              5e-13                 0                     -2.6e-13             
  0.15                  -1.6e-13              1.2e-13               -6e-14                -4e-14               
  0.1                   -2.4e-13              -8e-14                -4e-14                2e-14                
  0.05                  -2.6e-13              -1.2e-13              -1e-13                4.8e-13              
  0                     -1.56e-12             -3e-13                0                     1.56e-12             
  -0.05                 -7.8e-12              -2.6e-13              6e-14                 7.86e-12             
  -0.1                  -3.898e-11            -4.4e-13              -1.2e-13              3.936e-11            
  -0.15                 -1.9946e-10           -5.2e-13              -4e-14                1.9988e-10           
  -0.2                  -1.017e-09            -6.8e-13              8e-14                 1.01752e-09          
  -0.25                 -5.1688e-09           -8.6e-13              -6e-14                5.1672e-09           
  -0.3                  -2.5524e-08           -1.24e-12             -1.6e-13              2.5548e-08           
  -0.35                 -1.1418e-07           -2.16e-12             2e-14                 1.1417e-07           
  -0.4                  -4.111e-07            -4.52e-12             0                     4.112e-07            
  -0.45                 -1.09776e-06          -8.92e-12             -4e-14                1.09768e-06          
  -0.5                  -2.2348e-06           -1.6e-11              -6e-14                2.237e-06            
  -0.55                 -3.7166e-06           -2.684e-11            0                     3.7194e-06           
  -0.6                  -5.3932e-06           -4.236e-11            -2e-14                5.3946e-06           
  -0.65                 -7.1482e-06           -6.344e-11            -1.6e-13              7.1512e-06           
  -0.7                  -8.9168e-06           -9.114e-11            1e-13                 8.919e-06            
  -0.75                 -1.0655e-05           -1.274e-10            6e-14                 1.06562e-05          
  -0.8                  -1.2338e-05           -1.7294e-10           -2e-14                1.2352e-05           
  -0.85                 -1.397e-05            -2.2998e-10           4e-14                 1.3986e-05           
  -0.9                  -1.554e-05            -3.005e-10            4e-14                 1.5556e-05           
  -0.95                 -1.7042e-05           -3.8506e-10           -1.4e-13              1.7056e-05           
  -1                    -1.8474e-05           -4.8676e-10           8e-14                 1.849e-05            
  -1.05                 -1.9838e-05           -6.0682e-10           -1e-13                1.9854e-05           
  -1.1                  -2.1142e-05           -7.4706e-10           1.6e-13               2.115e-05            
  -1.15                 -2.2372e-05           -9.1102e-10           2.4e-13               2.2384e-05           
  -1.2                  -2.3542e-05           -1.0992e-09           9.6e-13               2.3558e-05           
  -1.25                 -2.4658e-05           -1.317e-09            2.1e-12               2.4672e-05           
  -1.3                  -2.571e-05            -1.568e-09            4.96e-12              2.5726e-05           
  -1.35                 -2.6708e-05           -1.8518e-09           1.04e-11              2.6724e-05           
END_DB

BEGIN_DB
 ICCAP_VAR vb         0.6            
 ICCAP_VAR vd         -0.05          
 ICCAP_VAR vs         -0             

 #vg                    id                    ig                    ib                    is                   
  0.5                   -1.74e-12             4.34e-12              1.2e-13               -2.14e-12            
  0.45                  -1.3e-12              3.24e-12              2e-14                 -1.74e-12            
  0.4                   -1.02e-12             2.46e-12              6e-14                 -1.34e-12            
  0.35                  -6.4e-13              1.68e-12              -1e-13                -8e-13               
  0.3                   -6.4e-13              1.24e-12              4e-14                 -7.4e-13             
  0.25                  -3.4e-13              7.6e-13               2e-14                 -4.4e-13             
  0.2                   -1.8e-13              3.2e-13               0                     -2.8e-13             
  0.15                  -4e-14                3e-13                 0                     2e-14                
  0.1                   -1e-13                0                     1.2e-13               -6e-14               
  0.05                  -8e-14                -1e-13                0                     1.4e-13              
  0                     -6.2e-13              -2.6e-13              -4e-14                5.4e-13              
  -0.05                 -2.58e-12             -2.6e-13              1.4e-13               2.52e-12             
  -0.1                  -1.334e-11            -3.6e-13              -1e-13                1.366e-11            
  -0.15                 -6.998e-11            -5.6e-13              1.4e-13               7.026e-11            
  -0.2                  -3.639e-10            -6.2e-13              -4e-14                3.6444e-10           
  -0.25                 -1.893e-09            -7.4e-13              2e-14                 1.8944e-09           
  -0.3                  -9.7342e-09           -1.2e-12              1.6e-13               9.7364e-09           
  -0.35                 -4.7412e-08           -1.82e-12             0                     4.7428e-08           
  -0.4                  -1.9878e-07           -3.6e-12              2e-13                 1.9898e-07           
  -0.45                 -6.347e-07            -7.36e-12             -4e-14                6.3462e-07           
  -0.5                  -1.4984e-06           -1.382e-11            0                     1.5008e-06           
  -0.55                 -2.7658e-06           -2.42e-11             1.2e-13               2.7682e-06           
  -0.6                  -4.3034e-06           -3.904e-11            -6e-14                4.3058e-06           
  -0.65                 -5.9736e-06           -5.964e-11            0                     5.9764e-06           
  -0.7                  -7.689e-06            -8.706e-11            2e-14                 7.6914e-06           
  -0.75                 -9.394e-06            -1.2248e-10           -2e-14                9.3946e-06           
  -0.8                  -1.1065e-05           -1.6766e-10           6e-14                 1.10674e-05          
  -0.85                 -1.268e-05            -2.2388e-10           -2e-14                1.2694e-05           
  -0.9                  -1.4242e-05           -2.933e-10            2e-14                 1.4254e-05           
  -0.95                 -1.5738e-05           -3.7708e-10           2e-14                 1.5752e-05           
  -1                    -1.7172e-05           -4.7838e-10           0                     1.7186e-05           
  -1.05                 -1.8536e-05           -5.9706e-10           2e-14                 1.8552e-05           
  -1.1                  -1.9842e-05           -7.3732e-10           1.2e-13               1.9852e-05           
  -1.15                 -2.108e-05            -9.0204e-10           2.8e-13               2.1094e-05           
  -1.2                  -2.2256e-05           -1.0892e-09           6.4e-13               2.227e-05            
  -1.25                 -2.3376e-05           -1.3046e-09           2.44e-12              2.3392e-05           
  -1.3                  -2.4438e-05           -1.554e-09            4.78e-12              2.4452e-05           
  -1.35                 -2.5444e-05           -1.8388e-09           1.028e-11             2.5456e-05           
END_DB

BEGIN_DB
 ICCAP_VAR vb         0.8            
 ICCAP_VAR vd         -0.05          
 ICCAP_VAR vs         -0             

 #vg                    id                    ig                    ib                    is                   
  0.5                   -1.6e-12              4.32e-12              2.4e-13               -2.3e-12             
  0.45                  -1.1e-12              3.2e-12               0                     -1.66e-12            
  0.4                   -1.1e-12              2.32e-12              1.4e-13               -1.44e-12            
  0.35                  -6.4e-13              1.72e-12              1.4e-13               -9.6e-13             
  0.3                   -5.4e-13              1.28e-12              1e-13                 -6.4e-13             
