! VERSION = 6.00
BEGIN_HEADER
 ICCAP_INPUTS
  vd         V  D GROUND SMU1 0.1 LIN        1    -0         -1.35      28   -0.05     
  vg         V  G GROUND SMU2 0.001 LIN        2    -0.442     -1.35      5    -0.227    
  vb         V  B GROUND SMU4 0.1 CON        -0
  vs         V  S GROUND SMU3 0.1 CON        -0
 ICCAP_OUTPUTS
  id         I  D GROUND SMU1 B
  ig         I  G GROUND SMU2 B
  ib         I  B GROUND SMU4 B
  is         I  S GROUND SMU3 B
 ICCAP_VALUES
  MASTER_SETUP_TYPE "~dc_idvd~"
  LINVT_VALUE "|idvg|100.0n|100.0m|1.000m|5|1.350|"
  LISTVT_VALUE ""
  TYPE "-1"
  TEMP " 27.0000 "
  IS_TNOM " 1.00000 "
  MAIN.W "5.000u"
  MAIN.L "5.000u"
  MAIN.AD "1.700p"
  MAIN.AS "1.700p"
  MAIN.PD "10.68u"
  MAIN.PS "10.68u"
  MAIN.NF "1.000"
  MAIN.M "1"
  MAIN.NRD "0.000"
  MAIN.NRS "0.000"
  MAIN.LDRIFT1 "1E-06"
  MAIN.LDRIFT2 "1E-06"
  MAIN.SA "0.000"
  MAIN.SB "0.000"
  MAIN.SD "0.000"
  MAIN.SCA "0.000"
  MAIN.SCB "0.000"
  MAIN.SCC "0.000"
  MAIN.SC "0.000"
  MODULE "S550"
  PIN_D "18"
  PIN_G "3"
  PIN_S "4"
  PIN_B "17"
  PIN_E ""
  PIN_6 ""
  XY_ID ""
  FUNC "LW Scale"
  STI "SA ref"
  WPE "WPE ref"
  COMMENT ""
  DIS_MEAS ""
  TypeTCI "10"
END_HEADER

BEGIN_DB
 ICCAP_VAR vg         -0.442         
 ICCAP_VAR vb         -0             
 ICCAP_VAR vs         -0             

 #vd                    id                    ig                    ib                    is                   
  -0                    7.3872e-10            -2.776e-11            -3.32e-12             -7.803e-10           
  -0.05                 -3.7464e-07           -2.106e-11            -3.22e-12             3.7484e-07           
  -0.1                  -5.4462e-07           -1.766e-11            -3.24e-12             5.4492e-07           
  -0.15                 -5.9834e-07           -1.65e-11             -3.12e-12             5.9864e-07           
  -0.2                  -6.1286e-07           -1.602e-11            -3.06e-12             6.1314e-07           
  -0.25                 -6.1856e-07           -1.598e-11            -3.1e-12              6.188e-07            
  -0.3                  -6.2212e-07           -1.576e-11            -3.04e-12             6.2238e-07           
  -0.35                 -6.2506e-07           -1.57e-11             -3e-12                6.2526e-07           
  -0.4                  -6.275e-07            -1.574e-11            -2.96e-12             6.2778e-07           
  -0.45                 -6.2978e-07           -1.548e-11            -2.86e-12             6.2996e-07           
  -0.5                  -6.317e-07            -1.544e-11            -2.8e-12              6.3198e-07           
  -0.55                 -6.3354e-07           -1.558e-11            -2.74e-12             6.3388e-07           
  -0.6                  -6.3524e-07           -1.538e-11            -2.78e-12             6.3546e-07           
  -0.65                 -6.367e-07            -1.536e-11            -2.78e-12             6.3698e-07           
  -0.7                  -6.3804e-07           -1.534e-11            -2.78e-12             6.3826e-07           
  -0.75                 -6.3926e-07           -1.526e-11            -2.74e-12             6.3956e-07           
  -0.8                  -6.405e-07            -1.514e-11            -2.9e-12              6.4074e-07           
  -0.85                 -6.415e-07            -1.498e-11            -2.8e-12              6.4172e-07           
  -0.9                  -6.4252e-07           -1.49e-11             -2.72e-12             6.4272e-07           
  -0.95                 -6.4342e-07           -1.476e-11            -2.66e-12             6.437e-07            
  -1                    -6.444e-07            -1.46e-11             -2.56e-12             6.4468e-07           
  -1.05                 -6.4522e-07           -1.432e-11            -2.64e-12             6.455e-07            
  -1.1                  -6.4592e-07           -1.412e-11            -2.54e-12             6.462e-07            
  -1.15                 -6.4662e-07           -1.418e-11            -2.32e-12             6.4692e-07           
  -1.2                  -6.4736e-07           -1.368e-11            -2.32e-12             6.4752e-07           
  -1.25                 -6.4796e-07           -1.338e-11            -2.42e-12             6.4828e-07           
  -1.3                  -6.4858e-07           -1.312e-11            -2.1e-12              6.4884e-07           
  -1.35                 -6.4918e-07           -1.276e-11            -1.6e-12              6.495e-07            
END_DB

BEGIN_DB
 ICCAP_VAR vg         -0.669         
 ICCAP_VAR vb         -0             
 ICCAP_VAR vs         -0             

 #vd                    id                    ig                    ib                    is                   
  -0                    2.284e-09             -1.9552e-10           -2.4e-12              -1.9486e-09          
  -0.05                 -1.4118e-06           -1.6434e-10           -2.24e-12             1.4156e-06           
  -0.1                  -2.5396e-06           -1.4062e-10           -2.26e-12             2.5432e-06           
  -0.15                 -3.3788e-06           -1.2338e-10           -2.46e-12             3.3828e-06           
  -0.2                  -3.938e-06            -1.1182e-10           -2.42e-12             3.9422e-06           
  -0.25                 -4.2476e-06           -1.0538e-10           -2.32e-12             4.2514e-06           
  -0.3                  -4.3806e-06           -1.025e-10            -2.26e-12             4.3848e-06           
  -0.35                 -4.4326e-06           -1.013e-10            -2.26e-12             4.4366e-06           
  -0.4                  -4.4586e-06           -1.0068e-10           -2.18e-12             4.4626e-06           
  -0.45                 -4.4762e-06           -1.004e-10            -2.14e-12             4.48e-06             
  -0.5                  -4.4904e-06           -1.0004e-10           -2.18e-12             4.4938e-06           
  -0.55                 -4.5026e-06           -9.988e-11            -2.2e-12              4.5066e-06           
  -0.6                  -4.5132e-06           -9.942e-11            -2.04e-12             4.5172e-06           
  -0.65                 -4.523e-06            -9.936e-11            -2e-12                4.5268e-06           
  -0.7                  -4.5318e-06           -9.912e-11            -2.06e-12             4.5356e-06           
  -0.75                 -4.54e-06             -9.898e-11            -2.04e-12             4.5442e-06           
  -0.8                  -4.5476e-06           -9.872e-11            -2.04e-12             4.5516e-06           
  -0.85                 -4.5546e-06           -9.86e-11             -2.06e-12             4.5586e-06           
  -0.9                  -4.5612e-06           -9.848e-11            -2.08e-12             4.5648e-06           
  -0.95                 -4.5674e-06           -9.816e-11            -2.06e-12             4.571e-06            
  -1                    -4.5732e-06           -9.804e-11            -2.08e-12             4.5768e-06           
  -1.05                 -4.5784e-06           -9.792e-11            -1.9e-12              4.5822e-06           
  -1.1                  -4.5834e-06           -9.776e-11            -1.88e-12             4.5874e-06           
  -1.15                 -4.5884e-06           -9.76e-11             -2e-12                4.5918e-06           
  -1.2                  -4.5928e-06           -9.72e-11             -1.92e-12             4.5966e-06           
  -1.25                 -4.597e-06            -9.696e-11            -1.96e-12             4.6008e-06           
  -1.3                  -4.6012e-06           -9.688e-11            -1.92e-12             4.605e-06            
  -1.35                 -4.605e-06            -9.662e-11            -1.52e-12             4.609e-06            
END_DB

BEGIN_DB
 ICCAP_VAR vg         -0.896         
 ICCAP_VAR vb         -0             
 ICCAP_VAR vs         -0             

 #vd                    id                    ig                    ib                    is                   
  -0                    3.1352e-09            -7.1358e-10           -1.88e-12             -2.6198e-09          
  -0.05                 -2.3748e-06           -6.294e-10            -1.92e-12             2.3792e-06           
  -0.1                  -4.502e-06            -5.5806e-10           -1.98e-12             4.506e-06            
  -0.15                 -6.3684e-06           -4.9842e-10           -1.8e-12              6.3728e-06           
  -0.2                  -7.9666e-06           -4.4972e-10           -1.86e-12             7.9714e-06           
  -0.25                 -9.2922e-06           -4.1092e-10           -1.92e-12             9.2962e-06           
  -0.3                  -1.03362e-05          -3.8128e-10           -1.78e-12             1.03402e-05          
  -0.35                 -1.10984e-05          -3.6026e-10           -1.74e-12             1.11038e-05          
  -0.4                  -1.1586e-05           -3.4644e-10           -1.84e-12             1.1604e-05           
  -0.45                 -1.1856e-05           -3.3894e-10           -1.72e-12             1.1874e-05           
  -0.5                  -1.1984e-05           -3.3542e-10           -1.6e-12              1.2002e-05           
  -0.55                 -1.2048e-05           -3.337e-10            -1.66e-12             1.2066e-05           
  -0.6                  -1.209e-05            -3.3244e-10           -1.52e-12             1.2106e-05           
  -0.65                 -1.212e-05            -3.3166e-10           -1.64e-12             1.2136e-05           
  -0.7                  -1.2146e-05           -3.3084e-10           -1.86e-12             1.2164e-05           
  -0.75                 -1.2168e-05           -3.302e-10            -1.7e-12              1.2186e-05           
  -0.8                  -1.219e-05            -3.2964e-10           -1.46e-12             1.2206e-05           
  -0.85                 -1.2208e-05           -3.2928e-10           -1.6e-12              1.2224e-05           
  -0.9                  -1.2226e-05           -3.2882e-10           -1.6e-12              1.2242e-05           
  -0.95                 -1.224e-05            -3.2846e-10           -1.64e-12             1.2258e-05           
  -1                    -1.2256e-05           -3.2798e-10           -1.6e-12              1.2272e-05           
  -1.05                 -1.2268e-05           -3.2768e-10           -1.74e-12             1.2286e-05           
  -1.1                  -1.2282e-05           -3.2704e-10           -1.52e-12             1.23e-05             
  -1.15                 -1.2294e-05           -3.2698e-10           -1.52e-12             1.2312e-05           
  -1.2                  -1.2306e-05           -3.2662e-10           -1.68e-12             1.2324e-05           
  -1.25                 -1.2318e-05           -3.262e-10            -1.7e-12              1.2334e-05           
  -1.3                  -1.2326e-05           -3.2586e-10           -1.64e-12             1.2344e-05           
  -1.35                 -1.2336e-05           -3.2554e-10           -1.52e-12             1.2354e-05           
END_DB

BEGIN_DB
 ICCAP_VAR vg         -1.123         
 ICCAP_VAR vb         -0             
 ICCAP_VAR vs         -0             

 #vd                    id                    ig                    ib                    is                   
  -0                    4.1866e-09            -1.8726e-09           -1.18e-12             -2.8132e-09          
  -0.05                 -3.1544e-06           -1.7002e-09           -1.3e-12              3.1594e-06           
  -0.1                  -6.103e-06            -1.5484e-09           -1.32e-12             6.1084e-06           
  -0.15                 -8.8318e-06           -1.4126e-09           -1.3e-12              8.8368e-06           
  -0.2                  -1.13334e-05          -1.295e-09            -1.58e-12             1.13396e-05          
  -0.25                 -1.3594e-05           -1.1912e-09           -1.32e-12             1.3614e-05           
  -0.3                  -1.562e-05            -1.1036e-09           -1.48e-12             1.5638e-05           
  -0.35                 -1.7392e-05           -1.0296e-09           -1.28e-12             1.741e-05            
  -0.4                  -1.8908e-05           -9.6944e-10           -1.4e-12              1.8928e-05           
  -0.45                 -2.0158e-05           -9.2018e-10           -1.46e-12             2.0176e-05           
  -0.5                  -2.1136e-05           -8.8318e-10           -1.54e-12             2.1156e-05           
  -0.55                 -2.1844e-05           -8.565e-10            -1.36e-12             2.1864e-05           
  -0.6                  -2.23e-05             -8.3926e-10           -1.42e-12             2.232e-05            
  -0.65                 -2.2558e-05           -8.2982e-10           -1.36e-12             2.2578e-05           
  -0.7                  -2.2698e-05           -8.2394e-10           -1.44e-12             2.2716e-05           
  -0.75                 -2.2778e-05           -8.2126e-10           -1.24e-12             2.2798e-05           
  -0.8                  -2.2834e-05           -8.1906e-10           -1.32e-12             2.2852e-05           
  -0.85                 -2.2878e-05           -8.1786e-10           -1.28e-12             2.2896e-05           
  -0.9                  -2.2916e-05           -8.1786e-10           -1.38e-12             2.2932e-05           
  -0.95                 -2.2948e-05           -8.1548e-10           -1.4e-12              2.2964e-05           
  -1                    -2.2978e-05           -8.1414e-10           -1.34e-12             2.2996e-05           
  -1.05                 -2.3004e-05           -8.1386e-10           -1.38e-12             2.3022e-05           
  -1.1                  -2.303e-05            -8.1282e-10           -1.42e-12             2.3048e-05           
  -1.15                 -2.3052e-05           -8.1136e-10           -1.3e-12              2.307e-05            
  -1.2                  -2.3076e-05           -8.1098e-10           -1.34e-12             2.3092e-05           
  -1.25                 -2.3096e-05           -8.0976e-10           -1.44e-12             2.3114e-05           
  -1.3                  -2.3116e-05           -8.0904e-10           -1.42e-12             2.3134e-05           
  -1.35                 -2.3134e-05           -8.0868e-10           -1.18e-12             2.3154e-05           
END_DB

BEGIN_DB
 ICCAP_VAR vg         -1.35          
 ICCAP_VAR vb         -0             
 ICCAP_VAR vs         -0             

 #vd                    id                    ig                    ib                    is                   
  -0                    4.7902e-09            -4.0552e-09           2.57e-11              -2.5048e-09          
  -0.05                 -3.7646e-06           -3.745e-09            1.848e-11             3.772e-06            
  -0.1                  -7.3612e-06           -3.4658e-09           1.328e-11             7.3688e-06           
  -0.15                 -1.07762e-05          -3.2136e-09           1.002e-11             1.07836e-05          
  -0.2                  -1.3994e-05           -2.9796e-09           7.88e-12              1.4014e-05           
  -0.25                 -1.7026e-05           -2.7778e-09           6.26e-12              1.7046e-05           
  -0.3                  -1.9852e-05           -2.5926e-09           5.22e-12              1.9874e-05           
  -0.35                 -2.2468e-05           -2.4274e-09           4.66e-12              2.2486e-05           
  -0.4                  -2.4866e-05           -2.2834e-09           4.16e-12              2.4888e-05           
  -0.45                 -2.704e-05            -2.1566e-09           3.6e-12               2.7062e-05           
  -0.5                  -2.898e-05            -2.0484e-09           3.42e-12              2.9002e-05           
  -0.55                 -3.0678e-05           -1.9586e-09           3.34e-12              3.0698e-05           
  -0.6                  -3.2124e-05           -1.882e-09            3.02e-12              3.2146e-05           
  -0.65                 -3.3318e-05           -1.8204e-09           2.74e-12              3.3338e-05           
  -0.7                  -3.425e-05            -1.7736e-09           2.74e-12              3.4268e-05           
  -0.75                 -3.4924e-05           -1.7404e-09           2.68e-12              3.4944e-05           
  -0.8                  -3.5364e-05           -1.7174e-09           2.64e-12              3.5386e-05           
  -0.85                 -3.5628e-05           -1.7068e-09           2.54e-12              3.5648e-05           
  -0.9                  -3.5784e-05           -1.699e-09            2.58e-12              3.58e-05             
  -0.95                 -3.5878e-05           -1.6932e-09           2.66e-12              3.5896e-05           
  -1                    -3.5946e-05           -1.6914e-09           2.5e-12               3.5966e-05           
  -1.05                 -3.6004e-05           -1.6876e-09           2.54e-12              3.6024e-05           
  -1.1                  -3.6052e-05           -1.6856e-09           2.5e-12               3.6072e-05           
  -1.15                 -3.6094e-05           -1.6834e-09           2.58e-12              3.6112e-05           
  -1.2                  -3.6134e-05           -1.6804e-09           2.64e-12              3.6154e-05           
  -1.25                 -3.6172e-05           -1.679e-09            2.56e-12              3.619e-05            
  -1.3                  -3.6204e-05           -1.6764e-09           2.74e-12              3.6226e-05           
  -1.35                 -3.6236e-05           -1.6764e-09           2.56e-12              3.6254e-05           
END_DB

