! VERSION = 6.00
BEGIN_HEADER
 ICCAP_INPUTS
  vg         V  G GROUND SMU2 0.001 LIN        1    0.5        -1.35      38   -0.05     
  vb         V  B GROUND SMU4 0.1 LIN        2    0          1.2        7    0.2       
  vd         V  D GROUND SMU1 0.1 LIST       3 3 -0.05 -0.6 -1.2
  vs         V  S GROUND SMU3 0.1 CON        -0
 ICCAP_OUTPUTS
  id         I  D GROUND SMU1 B
  ig         I  G GROUND SMU2 B
  ib         I  B GROUND SMU4 B
  is         I  S GROUND SMU3 B
 ICCAP_VALUES
  MASTER_SETUP_TYPE "~dc_idvg~"
  LINVT_VALUE ""
  LISTVT_VALUE ""
  TYPE "-1"
  TEMP " 27.0000 "
  IS_TNOM " 1.00000 "
  MAIN.W "5.000u"
  MAIN.L "130.0n"
  MAIN.AD "1.700p"
  MAIN.AS "1.700p"
  MAIN.PD "10.68u"
  MAIN.PS "10.68u"
  MAIN.NF "1.000"
  MAIN.M "1"
  MAIN.NRD "0.000"
  MAIN.NRS "0.000"
  MAIN.LDRIFT1 "1E-06"
  MAIN.LDRIFT2 "1E-06"
  MAIN.SA "0.000"
  MAIN.SB "0.000"
  MAIN.SD "0.000"
  MAIN.SCA "0.000"
  MAIN.SCB "0.000"
  MAIN.SCC "0.000"
  MAIN.SC "0.000"
  MODULE "S550"
  PIN_D "20"
  PIN_G "1"
  PIN_S "2"
  PIN_B "19"
  PIN_E ""
  PIN_6 ""
  XY_ID ""
  FUNC "LW Scale"
  STI "SA ref"
  WPE "WPE ref"
  COMMENT ""
  DIS_MEAS ""
  TypeTCI "10"
END_HEADER

BEGIN_DB
 ICCAP_VAR vb         0              
 ICCAP_VAR vd         -0.05          
 ICCAP_VAR vs         -0             

 #vg                    id                    ig                    ib                    is                   
  0.5                   -1.92e-12             2.332e-11             -6.22e-12             -1.94e-12            
  0.45                  -1.64e-12             5.88e-12              -1.82e-12             -1.54e-12            
  0.4                   -1.24e-12             2.6e-12               -1.2e-12              -1.04e-12            
  0.35                  -1.1e-12              1.68e-12              -1.16e-12             -7.8e-13             
  0.3                   -8.2e-13              1.14e-12              -1.04e-12             -5.4e-13             
  0.25                  -5.6e-13              6.8e-13               -1.04e-12             -3.6e-13             
  0.2                   -6e-13                3.8e-13               -9.8e-13              -2.2e-13             
  0.15                  -6.4e-13              1e-13                 -9.8e-13              3.2e-13              
  0.1                   -1.54e-12             -2e-13                -1e-12                1.3e-12              
  0.05                  -5.74e-12             -2.8e-13              -9e-13                5.52e-12             
  0                     -2.408e-11            -3.8e-13              -1e-12                2.394e-11            
  -0.05                 -1.0434e-10           -4.2e-13              -9.8e-13              1.0418e-10           
  -0.1                  -4.5508e-10           -6e-13                -8.6e-13              4.5522e-10           
  -0.15                 -1.9926e-09           -6e-13                -9.8e-13              1.9944e-09           
  -0.2                  -8.6582e-09           -8.4e-13              -9.8e-13              8.651e-09            
  -0.25                 -3.6828e-08           -1.02e-12             -9e-13                3.6866e-08           
  -0.3                  -1.4966e-07           -1.4e-12              -1.02e-12             1.4968e-07           
  -0.35                 -5.5022e-07           -2.06e-12             -9.6e-13              5.4974e-07           
  -0.4                  -1.7172e-06           -2.66e-12             -9.6e-13              1.7204e-06           
  -0.45                 -4.3402e-06           -3.82e-12             -9.2e-13              4.3442e-06           
  -0.5                  -8.905e-06            -5.28e-12             -9.8e-13              8.911e-06            
  -0.55                 -1.5276e-05           -7.24e-12             -9.4e-13              1.527e-05            
  -0.6                  -2.2956e-05           -9.64e-12             -9e-13                2.2976e-05           
  -0.65                 -3.1356e-05           -1.284e-11            -9.4e-13              3.1356e-05           
  -0.7                  -4.0066e-05           -1.676e-11            -9.4e-13              4.0084e-05           
  -0.75                 -4.8724e-05           -2.13e-11             -9.6e-13              4.8692e-05           
  -0.8                  -5.72e-05             -2.676e-11            -1.02e-12             5.7188e-05           
  -0.85                 -6.5396e-05           -3.306e-11            -9.6e-13              6.5392e-05           
  -0.9                  -7.317e-05            -4.052e-11            -9.4e-13              7.314e-05            
  -0.95                 -8.0542e-05           -4.908e-11            -9.2e-13              8.0556e-05           
  -1                    -8.7624e-05           -5.904e-11            -1.04e-12             8.7602e-05           
  -1.05                 -9.4224e-05           -7.036e-11            -8.8e-13              9.4218e-05           
  -1.1                  -0.000100528          -8.354e-11            -8.8e-13              0.000100462          
  -1.15                 -0.000106388          -9.83e-11             -9e-13                0.000106402          
  -1.2                  -0.00011203           -1.1498e-10           -8.2e-13              0.000111988          
  -1.25                 -0.00011708           -1.3368e-10           -7.2e-13              0.0001174            
  -1.3                  -0.000122             -1.5472e-10           -2.8e-13              0.00012232           
  -1.35                 -0.00012664           -1.786e-10            1.2e-13               0.00012696           
END_DB

BEGIN_DB
 ICCAP_VAR vb         0.2            
 ICCAP_VAR vd         -0.05          
 ICCAP_VAR vs         -0             

 #vg                    id                    ig                    ib                    is                   
  0.5                   -1.74e-12             4.08e-12              8e-14                 -1.74e-12            
  0.45                  -1.46e-12             2.9e-12               -8e-14                -1.44e-12            
  0.4                   -1.24e-12             2.22e-12              0                     -1.1e-12             
  0.35                  -9.2e-13              1.62e-12              0                     -8.2e-13             
  0.3                   -6.8e-13              1.1e-12               -1e-13                -5.4e-13             
  0.25                  -6e-13                5.8e-13               0                     -3.2e-13             
  0.2                   -3.8e-13              3.2e-13               -6e-14                -2.2e-13             
  0.15                  -3.4e-13              6e-14                 -2e-14                -4e-14               
  0.1                   -5.2e-13              -8e-14                -4e-14                2.6e-13              
  0.05                  -1.7e-12              -2.2e-13              -1e-13                1.48e-12             
  0                     -7.16e-12             -3.2e-13              0                     7.12e-12             
  -0.05                 -3.216e-11            -3.8e-13              -2e-14                3.234e-11            
  -0.1                  -1.458e-10            -5.2e-13              -2e-14                1.4594e-10           
  -0.15                 -6.6058e-10           -6e-13                -4e-14                6.6086e-10           
  -0.2                  -2.9698e-09           -7.2e-13              -4e-14                2.9718e-09           
  -0.25                 -1.321e-08            -1.06e-12             2e-14                 1.323e-08            
  -0.3                  -5.6836e-08           -1.44e-12             -8e-14                5.6916e-08           
  -0.35                 -2.2856e-07           -1.96e-12             -1e-13                2.2894e-07           
  -0.4                  -8.122e-07            -2.66e-12             -4e-14                8.1278e-07           
  -0.45                 -2.3812e-06           -3.66e-12             0                     2.379e-06            
  -0.5                  -5.6026e-06           -5.12e-12             -1e-13                5.601e-06            
  -0.55                 -1.0734e-05           -7.14e-12             -1.8e-13              1.07464e-05          
  -0.6                  -1.753e-05            -9.42e-12             -6e-14                1.7528e-05           
  -0.65                 -2.537e-05            -1.256e-11            -2e-13                2.537e-05            
  -0.7                  -3.3774e-05           -1.636e-11            -1.2e-13              3.3754e-05           
  -0.75                 -4.2244e-05           -2.106e-11            -4e-14                4.2284e-05           
  -0.8                  -5.0748e-05           -2.646e-11            -4e-14                5.072e-05            
  -0.85                 -5.8942e-05           -3.268e-11            -8e-14                5.8862e-05           
  -0.9                  -6.6778e-05           -4.014e-11            -8e-14                6.6796e-05           
  -0.95                 -7.429e-05            -4.874e-11            -1e-13                7.4284e-05           
  -1                    -8.1328e-05           -5.862e-11            1.2e-13               8.1354e-05           
  -1.05                 -8.8068e-05           -6.992e-11            -2e-13                8.8032e-05           
  -1.1                  -9.4414e-05           -8.282e-11            6e-14                 9.4418e-05           
  -1.15                 -0.000100422          -9.756e-11            0                     0.000100428          
  -1.2                  -0.000106138          -1.1406e-10           -8e-14                0.000106126          
  -1.25                 -0.000111484          -1.3334e-10           2.6e-13               0.000111492          
  -1.3                  -0.0001164            -1.5372e-10           4.2e-13               0.00011666           
  -1.35                 -0.00012118           -1.78e-10             9e-13                 0.00012148           
END_DB

BEGIN_DB
 ICCAP_VAR vb         0.4            
 ICCAP_VAR vd         -0.05          
 ICCAP_VAR vs         -0             

 #vg                    id                    ig                    ib                    is                   
  0.5                   -1.72e-12             4.06e-12              0                     -1.72e-12            
  0.45                  -1.52e-12             2.9e-12               4e-14                 -1.46e-12            
  0.4                   -1.08e-12             2.26e-12              -2e-14                -9.8e-13             
  0.35                  -8.6e-13              1.6e-12               -2e-14                -7.6e-13             
  0.3                   -7.6e-13              1.04e-12              1e-13                 -5.4e-13             
  0.25                  -5.2e-13              6.4e-13               0                     -3.8e-13             
  0.2                   -4.6e-13              3.4e-13               -8e-14                -2.4e-13             
  0.15                  -1.4e-13              8e-14                 2e-14                 -1e-13               
  0.1                   -2.8e-13              -1e-13                -2e-14                1.4e-13              
  0.05                  -6.2e-13              -2.6e-13              -4e-14                6.2e-13              
  0                     -2.62e-12             -4e-13                -1e-13                2.66e-12             
  -0.05                 -1.186e-11            -4.2e-13              -2e-14                1.198e-11            
  -0.1                  -5.51e-11             -5.4e-13              2e-14                 5.512e-11            
  -0.15                 -2.5536e-10           -6.4e-13              -4e-14                2.557e-10            
  -0.2                  -1.1786e-09           -6.6e-13              -2e-14                1.1792e-09           
  -0.25                 -5.39e-09             -1.04e-12             -4e-14                5.3938e-09           
  -0.3                  -2.413e-08            -1.46e-12             -4e-14                2.414e-08            
  -0.35                 -1.02606e-07          -1.9e-12              -2e-14                1.02654e-07          
  -0.4                  -3.9872e-07           -2.66e-12             -1.4e-13              3.9896e-07           
  -0.45                 -1.3174e-06           -3.46e-12             0                     1.3188e-06           
  -0.5                  -3.5228e-06           -5e-12                -8e-14                3.5256e-06           
  -0.55                 -7.5446e-06           -7e-12                -8e-14                7.5424e-06           
  -0.6                  -1.3394e-05           -9.32e-12             -4e-14                1.3412e-05           
  -0.65                 -2.0594e-05           -1.242e-11            -1.4e-13              2.0596e-05           
  -0.7                  -2.8588e-05           -1.622e-11            -6e-14                2.8608e-05           
  -0.75                 -3.695e-05            -2.064e-11            -8e-14                3.6938e-05           
  -0.8                  -4.5278e-05           -2.606e-11            -1.8e-13              4.5282e-05           
  -0.85                 -5.3466e-05           -3.246e-11            -2e-14                5.342e-05            
  -0.9                  -6.134e-05            -3.986e-11            -4e-14                6.1354e-05           
  -0.95                 -6.8896e-05           -4.834e-11            -4e-14                6.8962e-05           
  -1                    -7.6114e-05           -5.822e-11            0                     7.6112e-05           
  -1.05                 -8.2938e-05           -6.94e-11             -4e-14                8.2916e-05           
  -1.1                  -8.9344e-05           -8.238e-11            0                     8.9342e-05           
  -1.15                 -9.5428e-05           -9.702e-11            -2e-14                9.544e-05            
  -1.2                  -0.00010114           -1.1356e-10           -4e-14                0.000101144          
  -1.25                 -0.000106554          -1.3234e-10           2.4e-13               0.000106568          
  -1.3                  -0.000111608          -1.5334e-10           3.6e-13               0.000111648          
  -1.35                 -0.0001163            -1.7842e-10           1.1e-12               0.00011664           
END_DB

BEGIN_DB
 ICCAP_VAR vb         0.6            
 ICCAP_VAR vd         -0.05          
 ICCAP_VAR vs         -0             

 #vg                    id                    ig                    ib                    is                   
  0.5                   -1.68e-12             4.08e-12              2e-14                 -1.8e-12             
  0.45                  -1.32e-12             2.82e-12              1.2e-13               -1.4e-12             
  0.4                   -1.06e-12             2.18e-12              -8e-14                -9e-13               
  0.35                  -9e-13                1.54e-12              -1e-13                -7e-13               
  0.3                   -6.8e-13              1.12e-12              1e-13                 -7e-13               
  0.25                  -5e-13                7.4e-13               -6e-14                -3.2e-13             
  0.2                   -3.2e-13              3.2e-13               2e-14                 -2.2e-13             
  0.15                  -2.4e-13              8e-14                 -2e-13                0                    
  0.1                   -2.8e-13              0                     -2e-14                0                    
  0.05                  -4.2e-13              -3e-13                -4e-14                3e-13                
  0                     -1.1e-12              -3.2e-13              -8e-14                1.14e-12             
  -0.05                 -5e-12                -4.4e-13              0                     5.06e-12             
  -0.1                  -2.362e-11            -5.4e-13              -4e-14                2.382e-11            
  -0.15                 -1.117e-10            -7.2e-13              -4e-14                1.12e-10             
  -0.2                  -5.2538e-10           -8.4e-13              -2e-14                5.2614e-10           
  -0.25                 -2.4592e-09           -1.04e-12             -1.2e-13              2.4582e-09           
  -0.3                  -1.13042e-08          -1.5e-12              2e-14                 1.13268e-08          
  -0.35                 -5.0142e-08           -1.8e-12              -1.2e-13              5.0138e-08           
  -0.4                  -2.0682e-07           -2.56e-12             0                     2.0706e-07           
  -0.45                 -7.4696e-07           -3.68e-12             -2e-14                7.475e-07            
  -0.5                  -2.2278e-06           -4.86e-12             0                     2.2314e-06           
  -0.55                 -5.304e-06            -6.8e-12              -1.4e-13              5.299e-06            
  -0.6                  -1.02548e-05          -9.22e-12             -6e-14                1.0262e-05           
  -0.65                 -1.6762e-05           -1.216e-11            0                     1.6778e-05           
  -0.7                  -2.4332e-05           -1.59e-11             0                     2.431e-05            
  -0.75                 -3.2434e-05           -2.048e-11            -1.4e-13              3.2402e-05           
  -0.8                  -4.0684e-05           -2.572e-11            -4e-14                4.0672e-05           
  -0.85                 -4.8818e-05           -3.208e-11            -1.2e-13              4.8858e-05           
  -0.9                  -5.6764e-05           -3.95e-11             -4e-14                5.6768e-05           
  -0.95                 -6.4356e-05           -4.804e-11            2e-14                 6.4294e-05           
  -1                    -7.156e-05            -5.78e-11             -2.4e-13              7.1552e-05           
  -1.05                 -7.8434e-05           -6.914e-11            -8e-14                7.8438e-05           
  -1.1                  -8.4894e-05           -8.2e-11              -1.4e-13              8.4874e-05           
  -1.15                 -9.1064e-05           -9.664e-11            0                     9.102e-05            
  -1.2                  -9.6866e-05           -1.1334e-10           -6e-14                9.6818e-05           
  -1.25                 -0.000102322          -1.3198e-10           1e-13                 0.000102332          
  -1.3                  -0.000107512          -1.5294e-10           4.6e-13               0.000107472          
  -1.35                 -0.000112366          -1.776e-10            9.8e-13               0.000112374          
END_DB

BEGIN_DB
 ICCAP_VAR vb         0.8            
 ICCAP_VAR vd         -0.05          
 ICCAP_VAR vs         -0             

 #vg                    id                    ig                    ib                    is                   
  0.5                   -1.68e-12             3.94e-12              1.4e-13               -1.76e-12            
  0.45                  -1.38e-12             2.82e-12              0                     -1.44e-12            
  0.4                   -1.14e-12             2.16e-12              6e-14                 -1.12e-12            
  0.35                  -8.8e-13              1.56e-12              6e-14                 -7.2e-13             
  0.3                   -6.4e-13              1.12e-12              -6e-14                -5.8e-13             
