! VERSION = 6.00
BEGIN_HEADER
 ICCAP_INPUTS
  vd         V  D GROUND SMU1 0.1 LIN        1    -0         -1.35      28   -0.05     
  vg         V  G GROUND SMU2 0.001 LIST       2 3 -0.207 -0.407 -0.607
  vb         V  B GROUND SMU4 0.1 CON        -0
  vs         V  S GROUND SMU3 0.1 CON        -0
 ICCAP_OUTPUTS
  id         I  D GROUND SMU1 B
  ig         I  G GROUND SMU2 B
  ib         I  B GROUND SMU4 B
  is         I  S GROUND SMU3 B
 ICCAP_VALUES
  MASTER_SETUP_TYPE "~dc_idvd~"
  LINVT_VALUE ""
  LISTVT_VALUE "|idvg|100.0n|-200.0m|1.000m|3|200.0m|200.0m|"
  TYPE "-1"
  TEMP " 27.0000 "
  IS_TNOM " 1.00000 "
  MAIN.W "5.000u"
  MAIN.L "130.0n"
  MAIN.AD "1.700p"
  MAIN.AS "1.700p"
  MAIN.PD "10.68u"
  MAIN.PS "10.68u"
  MAIN.NF "1.000"
  MAIN.M "1"
  MAIN.NRD "0.000"
  MAIN.NRS "0.000"
  MAIN.LDRIFT1 "1E-06"
  MAIN.LDRIFT2 "1E-06"
  MAIN.SA "0.000"
  MAIN.SB "0.000"
  MAIN.SD "0.000"
  MAIN.SCA "0.000"
  MAIN.SCB "0.000"
  MAIN.SCC "0.000"
  MAIN.SC "0.000"
  MODULE "S550"
  PIN_D "20"
  PIN_G "1"
  PIN_S "2"
  PIN_B "19"
  PIN_E ""
  PIN_6 ""
  XY_ID ""
  FUNC "LW Scale"
  STI "SA ref"
  WPE "WPE ref"
  COMMENT ""
  DIS_MEAS ""
  TypeTCI "10"
END_HEADER

BEGIN_DB
 ICCAP_VAR vg         -0.207         
 ICCAP_VAR vb         -0             
 ICCAP_VAR vs         -0             

 #vd                    id                    ig                    ib                    is                   
  -0                    1.682e-11             -3.6e-13              -1.14e-12             -3.23e-11            
  -0.05                 -1.0368e-08           -3e-13                -1.2e-12              1.039e-08            
  -0.1                  -1.281e-08            -2e-13                -1.2e-12              1.2836e-08           
  -0.15                 -1.396e-08            -1.4e-13              -1.22e-12             1.3992e-08           
  -0.2                  -1.495e-08            -2.2e-13              -1.18e-12             1.4966e-08           
  -0.25                 -1.5884e-08           -1.6e-13              -1.28e-12             1.5912e-08           
  -0.3                  -1.6864e-08           -1.6e-13              -1.22e-12             1.6888e-08           
  -0.35                 -1.7828e-08           -1.6e-13              -1.14e-12             1.7856e-08           
  -0.4                  -1.8854e-08           0                     -1.14e-12             1.8872e-08           
  -0.45                 -1.9878e-08           1.2e-13               -1.1e-12              1.989e-08            
  -0.5                  -2.0942e-08           3.2e-13               -1.1e-12              2.0962e-08           
  -0.55                 -2.204e-08            4.4e-13               -1.12e-12             2.206e-08            
  -0.6                  -2.3172e-08           7.2e-13               -1.1e-12              2.3136e-08           
  -0.65                 -2.4346e-08           8.4e-13               -1e-12                2.4366e-08           
  -0.7                  -2.5572e-08           1.16e-12              -1.12e-12             2.5584e-08           
  -0.75                 -2.6832e-08           1.38e-12              -1.14e-12             2.6874e-08           
  -0.8                  -2.8138e-08           1.82e-12              -1.24e-12             2.8176e-08           
  -0.85                 -2.9522e-08           2.38e-12              -1.2e-12              2.9524e-08           
  -0.9                  -3.0934e-08           2.76e-12              -1.08e-12             3.096e-08            
  -0.95                 -3.2372e-08           3.28e-12              -1.1e-12              3.2426e-08           
  -1                    -3.3932e-08           3.94e-12              -1.06e-12             3.3938e-08           
  -1.05                 -3.5506e-08           4.72e-12              -1e-12                3.5546e-08           
  -1.1                  -3.7166e-08           5.56e-12              -1.04e-12             3.7188e-08           
  -1.15                 -3.8864e-08           6.52e-12              -9.8e-13              3.8872e-08           
  -1.2                  -4.0662e-08           7.52e-12              -9e-13                4.0692e-08           
  -1.25                 -4.2518e-08           8.62e-12              -8.6e-13              4.255e-08            
  -1.3                  -4.4476e-08           9.64e-12              -5.8e-13              4.4516e-08           
  -1.35                 -4.6504e-08           1.096e-11             4e-14                 4.652e-08            
END_DB

BEGIN_DB
 ICCAP_VAR vg         -0.407         
 ICCAP_VAR vb         -0             
 ICCAP_VAR vs         -0             

 #vd                    id                    ig                    ib                    is                   
  -0                    3.1096e-09            -3.1e-12              -1.12e-12             -3.3292e-09          
  -0.05                 -1.9472e-06           -2.38e-12             -9.8e-13              1.9486e-06           
  -0.1                  -2.6072e-06           -2e-12                -9.6e-13              2.6098e-06           
  -0.15                 -2.9114e-06           -1.7e-12              -9.4e-13              2.9136e-06           
  -0.2                  -3.1244e-06           -1.48e-12             -1.06e-12             3.1274e-06           
  -0.25                 -3.3126e-06           -1.46e-12             -1e-12                3.3136e-06           
  -0.3                  -3.4882e-06           -1.28e-12             -1e-12                3.4902e-06           
  -0.35                 -3.6576e-06           -1.24e-12             -1.02e-12             3.663e-06            
  -0.4                  -3.8254e-06           -1.22e-12             -1.02e-12             3.831e-06            
  -0.45                 -3.9942e-06           -1.22e-12             -1.02e-12             3.996e-06            
  -0.5                  -4.1612e-06           -1.18e-12             -9.8e-13              4.1664e-06           
  -0.55                 -4.3322e-06           -1.1e-12              -9.8e-13              4.335e-06            
  -0.6                  -4.5016e-06           -1.04e-12             -1e-12                4.501e-06            
  -0.65                 -4.6714e-06           -9.4e-13              -1.08e-12             4.6778e-06           
  -0.7                  -4.8492e-06           -7.8e-13              -1e-12                4.8538e-06           
  -0.75                 -5.0248e-06           -6.2e-13              -9.6e-13              5.0274e-06           
  -0.8                  -5.2064e-06           -4.2e-13              -1.1e-12              5.2148e-06           
  -0.85                 -5.3882e-06           -1.6e-13              -9.2e-13              5.3924e-06           
  -0.9                  -5.5732e-06           1e-13                 -1.1e-12              5.5778e-06           
  -0.95                 -5.7628e-06           3.8e-13               -9.6e-13              5.7708e-06           
  -1                    -5.9572e-06           7.8e-13               -9e-13                5.958e-06            
  -1.05                 -6.1518e-06           1.3e-12               -8.4e-13              6.1582e-06           
  -1.1                  -6.3534e-06           1.7e-12               -5.6e-13              6.355e-06            
  -1.15                 -6.557e-06            2.18e-12              6e-14                 6.561e-06            
  -1.2                  -6.7696e-06           2.9e-12               1.04e-12              6.7728e-06           
  -1.25                 -6.9814e-06           3.62e-12              3.3e-12               6.9854e-06           
  -1.3                  -7.1964e-06           4.48e-12              7.52e-12              7.202e-06            
  -1.35                 -7.423e-06            5.32e-12              1.472e-11             7.4282e-06           
END_DB

BEGIN_DB
 ICCAP_VAR vg         -0.607         
 ICCAP_VAR vb         -0             
 ICCAP_VAR vs         -0             

 #vd                    id                    ig                    ib                    is                   
  -0                    4.1526e-08            -1.16e-11             -1.06e-12             -3.915e-08           
  -0.05                 -2.3896e-05           -9.64e-12             -8.6e-13              2.3898e-05           
  -0.1                  -3.9386e-05           -8.2e-12              -9.4e-13              3.9382e-05           
  -0.15                 -4.8944e-05           -6.98e-12             -9.8e-13              4.8954e-05           
  -0.2                  -5.4926e-05           -6.02e-12             -1.1e-12              5.5006e-05           
  -0.25                 -5.906e-05            -5.38e-12             -9.4e-13              5.9044e-05           
  -0.3                  -6.2136e-05           -4.92e-12             -9.4e-13              6.216e-05            
  -0.35                 -6.4678e-05           -4.56e-12             -1e-12                6.47e-05             
  -0.4                  -6.6948e-05           -4.34e-12             -1.06e-12             6.6926e-05           
  -0.45                 -6.8972e-05           -4.14e-12             -9.4e-13              6.9086e-05           
  -0.5                  -7.1054e-05           -4.14e-12             -9e-13                7.1084e-05           
  -0.55                 -7.2856e-05           -4e-12                -8.8e-13              7.2822e-05           
  -0.6                  -7.457e-05            -4e-12                -9e-13                7.4638e-05           
  -0.65                 -7.6402e-05           -4e-12                -9.6e-13              7.638e-05            
  -0.7                  -7.8184e-05           -3.92e-12             -9.8e-13              7.8174e-05           
  -0.75                 -7.9848e-05           -3.78e-12             -1.02e-12             7.9864e-05           
  -0.8                  -8.1614e-05           -3.72e-12             -9.2e-13              8.1534e-05           
  -0.85                 -8.3288e-05           -3.58e-12             -8.4e-13              8.324e-05            
  -0.9                  -8.4978e-05           -3.48e-12             -8.6e-13              8.5046e-05           
  -0.95                 -8.6632e-05           -3.44e-12             -9.6e-13              8.6606e-05           
  -1                    -8.8302e-05           -3.1e-12              -7.6e-13              8.8314e-05           
  -1.05                 -8.997e-05            -2.88e-12             -5.8e-13              9.0032e-05           
  -1.1                  -9.1622e-05           -2.72e-12             -2e-13                9.1692e-05           
  -1.15                 -9.3348e-05           -2.24e-12             5.2e-13               9.3318e-05           
  -1.2                  -9.4962e-05           -1.82e-12             2.64e-12              9.4998e-05           
  -1.25                 -9.6644e-05           -1.5e-12              7.66e-12              9.6628e-05           
  -1.3                  -9.834e-05            -9.4e-13              1.788e-11             9.8244e-05           
  -1.35                 -9.99e-05             -4.4e-13              3.8e-11               9.9858e-05           
END_DB

