! VERSION = 6.00
BEGIN_HEADER
 ICCAP_INPUTS
  vg         V  G GROUND SMU2 0.001 LIN        1    0.5        -1.35      38   -0.05     
  vb         V  B GROUND SMU4 0.1 LIN        2    0          1.2        7    0.2       
  vd         V  D GROUND SMU1 0.1 LIST       3 3 -0.05 -0.6 -1.2
  vs         V  S GROUND SMU3 0.1 CON        -0
 ICCAP_OUTPUTS
  id         I  D GROUND SMU1 B
  ig         I  G GROUND SMU2 B
  ib         I  B GROUND SMU4 B
  is         I  S GROUND SMU3 B
 ICCAP_VALUES
  MASTER_SETUP_TYPE "~dc_idvg~"
  LINVT_VALUE ""
  LISTVT_VALUE ""
  TYPE "-1"
  TEMP "-40.0000 "
  IS_TNOM " 0.00000 "
  MAIN.W "10.00u"
  MAIN.L "10.00u"
  MAIN.AD "3.400p"
  MAIN.AS "3.400p"
  MAIN.PD "20.68u"
  MAIN.PS "20.68u"
  MAIN.NF "1.000"
  MAIN.M "1"
  MAIN.NRD "0.000"
  MAIN.NRS "0.000"
  MAIN.LDRIFT1 "1E-06"
  MAIN.LDRIFT2 "1E-06"
  MAIN.SA "0.000"
  MAIN.SB "0.000"
  MAIN.SD "0.000"
  MAIN.SCA "0.000"
  MAIN.SCB "0.000"
  MAIN.SCC "0.000"
  MAIN.SC "0.000"
  MODULE "S549"
  PIN_D "12"
  PIN_G "9"
  PIN_S "10"
  PIN_B "11"
  PIN_E ""
  PIN_6 ""
  XY_ID ""
  FUNC "Large"
  STI "SA ref"
  WPE "WPE ref"
  COMMENT ""
  DIS_MEAS ""
  TypeTCI "10"
END_HEADER

BEGIN_DB
 ICCAP_VAR vb         0              
 ICCAP_VAR vd         -0.05          
 ICCAP_VAR vs         -0             

 #vg                    id                    ig                    ib                    is                   
  0.5                   -1.84e-12             4.64e-12              -5e-13                -1.7e-12             
  0.45                  -1.44e-12             3.3e-12               -3e-13                -1.4e-12             
  0.4                   -1.16e-12             2.32e-12              -1.6e-13              -9.8e-13             
  0.35                  -8.6e-13              1.64e-12              -1e-13                -6.8e-13             
  0.3                   -5.4e-13              1.22e-12              -1.6e-13              -3.2e-13             
  0.25                  -4.2e-13              8e-13                 -4e-14                -3.4e-13             
  0.2                   -2e-13                4.6e-13               -1e-13                -1.2e-13             
  0.15                  -6e-14                1e-13                 -8e-14                6e-14                
  0.1                   -2.2e-13              2.8e-13               -2e-14                -2.2e-13             
  0.05                  2e-14                 -2.4e-13              -1.4e-13              4.4e-13              
  0                     -6e-14                -1.8e-13              -2e-13                0                    
  -0.05                 -1.2e-13              -1.8e-13              -1.6e-13              2.8e-13              
  -0.1                  -1.42e-12             -5.2e-13              -1.4e-13              1.92e-12             
  -0.15                 -1.168e-11            -2.8e-13              -6e-14                1.18e-11             
  -0.2                  -9.242e-11            -7.6e-13              -6e-14                9.302e-11            
  -0.25                 -7.3306e-10           -1.2e-12              -1e-13                7.3396e-10           
  -0.3                  -5.4336e-09           -2.74e-12             -1.4e-13              5.4348e-09           
  -0.35                 -3.1528e-08           -8.8e-12              -2.4e-13              3.1564e-08           
  -0.4                  -1.1938e-07           -2.348e-11            -1e-13                1.1954e-07           
  -0.45                 -2.958e-07            -5.07e-11             -1e-13                2.9602e-07           
  -0.5                  -5.4364e-07           -9.458e-11            -1.2e-13              5.4386e-07           
  -0.55                 -8.286e-07            -1.6058e-10           -6e-14                8.29e-07             
  -0.6                  -1.12752e-06          -2.5392e-10           -1.4e-13              1.128e-06            
  -0.65                 -1.4248e-06           -3.819e-10            -8e-14                1.4286e-06           
  -0.7                  -1.7164e-06           -5.5194e-10           -1.2e-13              1.7202e-06           
  -0.75                 -1.9964e-06           -7.7268e-10           -1.4e-13              2.0004e-06           
  -0.8                  -2.2638e-06           -1.0532e-09           -1.2e-13              2.268e-06            
  -0.85                 -2.5172e-06           -1.4026e-09           -4e-14                2.522e-06            
  -0.9                  -2.7564e-06           -1.8314e-09           -1e-13                2.7616e-06           
  -0.95                 -2.9814e-06           -2.3486e-09           -4e-14                2.987e-06            
  -1                    -3.1928e-06           -2.9682e-09           -4e-14                3.1992e-06           
  -1.05                 -3.3906e-06           -3.6976e-09           0                     3.3978e-06           
  -1.1                  -3.576e-06            -4.5522e-09           1e-13                 3.5836e-06           
  -1.15                 -3.7496e-06           -5.5464e-09           5.4e-13               3.7584e-06           
  -1.2                  -3.9116e-06           -6.682e-09            2e-12                 3.9214e-06           
  -1.25                 -4.0626e-06           -7.9876e-09           6.22e-12              4.0738e-06           
  -1.3                  -4.2034e-06           -9.4598e-09           1.622e-11             4.216e-06            
  -1.35                 -4.3348e-06           -1.11298e-08          3.778e-11             4.3492e-06           
END_DB

BEGIN_DB
 ICCAP_VAR vb         0.2            
 ICCAP_VAR vd         -0.05          
 ICCAP_VAR vs         -0             

 #vg                    id                    ig                    ib                    is                   
  0.5                   -1.84e-12             3.94e-12              4e-14                 -1.64e-12            
  0.45                  -1.48e-12             2.8e-12               6e-14                 -1.14e-12            
  0.4                   -9.8e-13              2.12e-12              -6e-14                -8.6e-13             
  0.35                  -8e-13                1.54e-12              4e-14                 -5.2e-13             
  0.3                   -5.4e-13              1.04e-12              -8e-14                -3.4e-13             
  0.25                  -3e-13                7e-13                 -2e-14                -1.6e-13             
  0.2                   -3.4e-13              4.6e-13               -2e-14                -2e-14               
  0.15                  -1e-13                2.6e-13               -8e-14                -1.4e-13             
  0.1                   -6e-14                -2e-14                -6e-14                1e-13                
  0.05                  -8e-14                -1e-13                8e-14                 0                    
  0                     2e-14                 -2e-13                0                     1e-13                
  -0.05                 0                     -1.8e-13              -4e-14                1e-13                
  -0.1                  -2.4e-13              -2.8e-13              6e-14                 3.8e-13              
  -0.15                 -2.38e-12             -3.8e-13              -6e-14                2.74e-12             
  -0.2                  -2.046e-11            -5.8e-13              2e-14                 2.104e-11            
  -0.25                 -1.697e-10            -1.04e-12             -1.4e-13              1.7062e-10           
  -0.3                  -1.37e-09             -1.88e-12             -8e-14                1.3722e-09           
  -0.35                 -9.8002e-09           -5.54e-12             -2e-14                9.804e-09            
  -0.4                  -5.0478e-08           -1.652e-11            -2e-14                5.0514e-08           
  -0.45                 -1.6368e-07           -4.006e-11            4e-14                 1.639e-07            
  -0.5                  -3.6042e-07           -8.078e-11            -1e-13                3.6066e-07           
  -0.55                 -6.132e-07            -1.4344e-10           -2e-14                6.1352e-07           
  -0.6                  -8.93e-07             -2.339e-10            -2e-14                8.9344e-07           
  -0.65                 -1.179e-06            -3.5872e-10           -8e-14                1.1828e-06           
  -0.7                  -1.4638e-06           -5.2544e-10           -8e-14                1.4678e-06           
  -0.75                 -1.7402e-06           -7.4284e-10           -2e-14                1.7442e-06           
  -0.8                  -2.0058e-06           -1.0186e-09           -8e-14                2.01e-06             
  -0.85                 -2.2584e-06           -1.3648e-09           -6e-14                2.2632e-06           
  -0.9                  -2.498e-06            -1.7892e-09           -2e-14                2.503e-06            
  -0.95                 -2.7236e-06           -2.3026e-09           2e-14                 2.7292e-06           
  -1                    -2.9364e-06           -2.919e-09            -6e-14                2.9426e-06           
  -1.05                 -3.1358e-06           -3.6448e-09           -4e-14                3.1428e-06           
  -1.1                  -3.3232e-06           -4.4964e-09           4e-14                 3.331e-06            
  -1.15                 -3.4988e-06           -5.4834e-09           5.2e-13               3.5074e-06           
  -1.2                  -3.6628e-06           -6.6212e-09           2.1e-12               3.6726e-06           
  -1.25                 -3.8164e-06           -7.9222e-09           6.2e-12               3.8276e-06           
  -1.3                  -3.9594e-06           -9.392e-09            1.64e-11              3.972e-06            
  -1.35                 -4.0934e-06           -1.10562e-08          3.77e-11              4.1076e-06           
END_DB

BEGIN_DB
 ICCAP_VAR vb         0.4            
 ICCAP_VAR vd         -0.05          
 ICCAP_VAR vs         -0             

 #vg                    id                    ig                    ib                    is                   
  0.5                   -1.76e-12             3.96e-12              -4e-14                -1.66e-12            
  0.45                  -1.56e-12             2.92e-12              -4e-14                -1.34e-12            
  0.4                   -1.06e-12             2.26e-12              0                     -8.2e-13             
  0.35                  -7.6e-13              1.66e-12              0                     -8e-13               
  0.3                   -6e-13                1.02e-12              0                     -4.6e-13             
  0.25                  -3.8e-13              5.6e-13               -6e-14                -8e-14               
  0.2                   -3.8e-13              4.8e-13               0                     -1.4e-13             
  0.15                  -4e-14                0                     -4e-14                6e-14                
  0.1                   4e-14                 2e-14                 -4e-14                4e-14                
  0.05                  1e-13                 -1e-13                6e-14                 1.8e-13              
  0                     2e-14                 -2e-13                -6e-14                3e-13                
  -0.05                 4e-14                 -2e-13                4e-14                 -2e-14               
  -0.1                  2e-14                 -4.2e-13              4e-14                 3.2e-13              
  -0.15                 -4.8e-13              -5e-13                0                     8.6e-13              
  -0.2                  -4.82e-12             -6.6e-13              -2e-14                5.46e-12             
  -0.25                 -4.24e-11             -9.2e-13              0                     4.312e-11            
  -0.3                  -3.5892e-10           -1.64e-12             -6e-14                3.6018e-10           
  -0.35                 -2.872e-09            -3.54e-12             -4e-14                2.8756e-09           
  -0.4                  -1.887e-08            -1.09e-11             2e-14                 1.8906e-08           
  -0.45                 -8.1658e-08           -3.006e-11            0                     8.1714e-08           
  -0.5                  -2.2408e-07           -6.664e-11            -2e-14                2.243e-07            
  -0.55                 -4.3814e-07           -1.2556e-10           -6e-14                4.3846e-07           
  -0.6                  -6.9436e-07           -2.1246e-10           -6e-14                6.9474e-07           
  -0.65                 -9.678e-07            -3.3378e-10           -2e-14                9.6826e-07           
  -0.7                  -1.2428e-06           -4.9714e-10           2e-14                 1.2468e-06           
  -0.75                 -1.514e-06            -7.1082e-10           -1.4e-13              1.5182e-06           
  -0.8                  -1.7768e-06           -9.8392e-10           -8e-14                1.781e-06            
  -0.85                 -2.028e-06            -1.3254e-09           -4e-14                2.0326e-06           
  -0.9                  -2.2668e-06           -1.746e-09            -1.2e-13              2.272e-06            
  -0.95                 -2.4928e-06           -2.2564e-09           -4e-14                2.4986e-06           
  -1                    -2.7064e-06           -2.8678e-09           0                     2.7124e-06           
  -1.05                 -2.907e-06            -3.5896e-09           2e-14                 2.9138e-06           
  -1.1                  -3.0956e-06           -4.4368e-09           6e-14                 3.1034e-06           
  -1.15                 -3.2728e-06           -5.4196e-09           5.8e-13               3.2814e-06           
  -1.2                  -3.4384e-06           -6.552e-09            2.08e-12              3.4482e-06           
  -1.25                 -3.5938e-06           -7.8488e-09           6.38e-12              3.6048e-06           
  -1.3                  -3.7388e-06           -9.3164e-09           1.652e-11             3.7514e-06           
  -1.35                 -3.8748e-06           -1.09742e-08          3.77e-11              3.889e-06            
END_DB

BEGIN_DB
 ICCAP_VAR vb         0.6            
 ICCAP_VAR vd         -0.05          
 ICCAP_VAR vs         -0             

 #vg                    id                    ig                    ib                    is                   
  0.5                   -1.68e-12             3.76e-12              -4e-14                -1.62e-12            
  0.45                  -1.26e-12             2.78e-12              -2e-14                -1.32e-12            
  0.4                   -1.02e-12             2.08e-12              -1.2e-13              -6.4e-13             
  0.35                  -6.8e-13              1.52e-12              -2e-14                -6.4e-13             
  0.3                   -7.2e-13              1.16e-12              4e-14                 -4.8e-13             
  0.25                  -2.6e-13              7e-13                 -4e-14                -6e-14               
  0.2                   -1.4e-13              3.4e-13               -1e-13                -4e-14               
  0.15                  -1.4e-13              1.6e-13               -2e-14                -1e-13               
  0.1                   0                     2e-14                 -4e-14                6e-14                
  0.05                  -8e-14                -1.8e-13              -8e-14                1.6e-13              
  0                     0                     -2e-13                -4e-14                1.2e-13              
  -0.05                 2e-14                 -1.4e-13              -1e-13                1.8e-13              
  -0.1                  4e-14                 -3.2e-13              6e-14                 -2e-14               
  -0.15                 -6e-14                -4.4e-13              -8e-14                4.4e-13              
  -0.2                  -1.24e-12             -6.6e-13              0                     1.6e-12              
  -0.25                 -1.126e-11            -9.4e-13              -2e-14                1.186e-11            
  -0.3                  -9.792e-11            -1.44e-12             -6e-14                9.928e-11            
  -0.35                 -8.3068e-10           -2.64e-12             -2e-14                8.33e-10             
  -0.4                  -6.3928e-09           -7e-12                -6e-14                6.3974e-09           
  -0.45                 -3.6114e-08           -2.13e-11             0                     3.6162e-08           
  -0.5                  -1.2786e-07           -5.27e-11             -1.6e-13              1.2806e-07           
  -0.55                 -2.9774e-07           -1.0716e-10           -4e-14                2.9806e-07           
  -0.6                  -5.2498e-07           -1.9004e-10           -4e-14                5.2534e-07           
  -0.65                 -7.81e-07             -3.0754e-10           -2e-14                7.815e-07            
  -0.7                  -1.04714e-06          -4.6676e-10           -6e-14                1.04778e-06          
  -0.75                 -1.3108e-06           -6.7638e-10           -1e-13                1.3148e-06           
  -0.8                  -1.5698e-06           -9.4592e-10           -4e-14                1.574e-06            
  -0.85                 -1.8192e-06           -1.2824e-09           -6e-14                1.8238e-06           
  -0.9                  -2.0572e-06           -1.6988e-09           -4e-14                2.0624e-06           
  -0.95                 -2.2832e-06           -2.2044e-09           -1e-13                2.2888e-06           
  -1                    -2.497e-06            -2.811e-09            4e-14                 2.5032e-06           
  -1.05                 -2.6984e-06           -3.5296e-09           4e-14                 2.7052e-06           
  -1.1                  -2.8882e-06           -4.3714e-09           2e-13                 2.896e-06            
  -1.15                 -3.0666e-06           -5.3504e-09           7e-13                 3.0752e-06           
  -1.2                  -3.2338e-06           -6.4754e-09           2.24e-12              3.2436e-06           
  -1.25                 -3.391e-06            -7.773e-09            6.48e-12              3.4018e-06           
  -1.3                  -3.5376e-06           -9.2348e-09           1.658e-11             3.55e-06             
  -1.35                 -3.675e-06            -1.08916e-08          3.802e-11             3.6892e-06           
END_DB

BEGIN_DB
 ICCAP_VAR vb         0.8            
 ICCAP_VAR vd         -0.05          
 ICCAP_VAR vs         -0             

 #vg                    id                    ig                    ib                    is                   
  0.5                   -1.82e-12             3.78e-12              0                     -1.54e-12            
  0.45                  -1.34e-12             2.9e-12               2e-14                 -1.22e-12            
  0.4                   -1.08e-12             2.06e-12              -4e-14                -7.8e-13             
  0.35                  -7.6e-13              1.6e-12               2e-14                 -6.6e-13             
  0.3                   -5.8e-13              1.14e-12              4e-14                 -6e-13               
