! VERSION = 6.00
BEGIN_HEADER
 ICCAP_INPUTS
  vd         V  D GROUND SMU1 0.1 LIN        1    -0         -1.35      28   -0.05     
  vg         V  G GROUND SMU2 0.001 LIN        2    -0.378     -1.35      5    -0.243    
  vb         V  B GROUND SMU4 0.1 CON        -0
  vs         V  S GROUND SMU3 0.1 CON        -0
 ICCAP_OUTPUTS
  id         I  D GROUND SMU1 B
  ig         I  G GROUND SMU2 B
  ib         I  B GROUND SMU4 B
  is         I  S GROUND SMU3 B
 ICCAP_VALUES
  MASTER_SETUP_TYPE "~dc_idvd~"
  LINVT_VALUE "|idvg|100.0n|100.0m|1.000m|5|1.350|"
  LISTVT_VALUE ""
  TYPE "-1"
  TEMP " 125.000 "
  IS_TNOM " 0.00000 "
  MAIN.W "10.00u"
  MAIN.L "10.00u"
  MAIN.AD "3.400p"
  MAIN.AS "3.400p"
  MAIN.PD "20.68u"
  MAIN.PS "20.68u"
  MAIN.NF "1.000"
  MAIN.M "1"
  MAIN.NRD "0.000"
  MAIN.NRS "0.000"
  MAIN.LDRIFT1 "1E-06"
  MAIN.LDRIFT2 "1E-06"
  MAIN.SA "0.000"
  MAIN.SB "0.000"
  MAIN.SD "0.000"
  MAIN.SCA "0.000"
  MAIN.SCB "0.000"
  MAIN.SCC "0.000"
  MAIN.SC "0.000"
  MODULE "S549"
  PIN_D "12"
  PIN_G "9"
  PIN_S "10"
  PIN_B "11"
  PIN_E ""
  PIN_6 ""
  XY_ID ""
  FUNC "Large"
  STI "SA ref"
  WPE "WPE ref"
  COMMENT ""
  DIS_MEAS ""
  TypeTCI "10"
END_HEADER

BEGIN_DB
 ICCAP_VAR vg         -0.378         
 ICCAP_VAR vb         -0             
 ICCAP_VAR vs         -0             

 #vd                    id                    ig                    ib                    is                   
  -0                    4.7614e-10            -7.206e-11            -4.872e-11            -4.7862e-10          
  -0.05                 -2.9198e-07           -5.48e-11             -4.61e-11             2.9212e-07           
  -0.1                  -4.3976e-07           -4.54e-11             -4.26e-11             4.399e-07            
  -0.15                 -4.9762e-07           -4.162e-11            -4.002e-11            4.9776e-07           
  -0.2                  -5.1574e-07           -4.026e-11            -3.812e-11            5.1586e-07           
  -0.25                 -5.2116e-07           -3.974e-11            -3.594e-11            5.2136e-07           
  -0.3                  -5.2322e-07           -3.974e-11            -3.468e-11            5.234e-07            
  -0.35                 -5.2428e-07           -3.96e-11             -3.246e-11            5.2442e-07           
  -0.4                  -5.2502e-07           -3.95e-11             -3.118e-11            5.252e-07            
  -0.45                 -5.2572e-07           -3.942e-11            -2.96e-11             5.2584e-07           
  -0.5                  -5.263e-07            -3.912e-11            -2.814e-11            5.2644e-07           
  -0.55                 -5.2682e-07           -3.904e-11            -2.692e-11            5.27e-07             
  -0.6                  -5.2734e-07           -3.898e-11            -2.558e-11            5.2748e-07           
  -0.65                 -5.2776e-07           -3.878e-11            -2.472e-11            5.2792e-07           
  -0.7                  -5.2822e-07           -3.87e-11             -2.376e-11            5.2834e-07           
  -0.75                 -5.2856e-07           -3.834e-11            -2.24e-11             5.287e-07            
  -0.8                  -5.2894e-07           -3.802e-11            -2.108e-11            5.2908e-07           
  -0.85                 -5.2926e-07           -3.78e-11             -2.022e-11            5.2942e-07           
  -0.9                  -5.2956e-07           -3.73e-11             -1.908e-11            5.2972e-07           
  -0.95                 -5.2984e-07           -3.672e-11            -1.826e-11            5.3e-07              
  -1                    -5.3012e-07           -3.64e-11             -1.72e-11             5.303e-07            
  -1.05                 -5.3038e-07           -3.58e-11             -1.612e-11            5.3052e-07           
  -1.1                  -5.3062e-07           -3.504e-11            -1.516e-11            5.3076e-07           
  -1.15                 -5.3086e-07           -3.426e-11            -1.262e-11            5.3102e-07           
  -1.2                  -5.3112e-07           -3.332e-11            -1.022e-11            5.3126e-07           
  -1.25                 -5.3132e-07           -3.204e-11            -7.5e-12              5.3144e-07           
  -1.3                  -5.315e-07            -3.1e-11              -3.04e-12             5.3166e-07           
  -1.35                 -5.317e-07            -2.964e-11            2.5e-12               5.318e-07            
END_DB

BEGIN_DB
 ICCAP_VAR vg         -0.621         
 ICCAP_VAR vb         -0             
 ICCAP_VAR vs         -0             

 #vd                    id                    ig                    ib                    is                   
  -0                    1.7692e-09            -5.8228e-10           -1.748e-11            -1.1426e-09          
  -0.05                 -1.09032e-06          -4.9214e-10           -1.822e-11            1.09094e-06          
  -0.1                  -1.9684e-06           -4.225e-10            -1.614e-11            1.972e-06            
  -0.15                 -2.6384e-06           -3.7102e-10           -1.516e-11            2.642e-06            
  -0.2                  -3.1084e-06           -3.3564e-10           -1.444e-11            3.112e-06            
  -0.25                 -3.3982e-06           -3.139e-10            -1.392e-11            3.402e-06            
  -0.3                  -3.5458e-06           -3.0258e-10           -1.34e-11             3.5496e-06           
  -0.35                 -3.6068e-06           -2.9778e-10           -1.28e-11             3.61e-06             
  -0.4                  -3.6296e-06           -2.9588e-10           -1.236e-11            3.633e-06            
  -0.45                 -3.6398e-06           -2.951e-10            -1.188e-11            3.6434e-06           
  -0.5                  -3.6462e-06           -2.945e-10            -1.104e-11            3.6498e-06           
  -0.55                 -3.6512e-06           -2.9424e-10           -1.052e-11            3.6548e-06           
  -0.6                  -3.6556e-06           -2.9382e-10           -1e-11                3.659e-06            
  -0.65                 -3.6592e-06           -2.9348e-10           -9.72e-12             3.6624e-06           
  -0.7                  -3.6626e-06           -2.9316e-10           -9.08e-12             3.666e-06            
  -0.75                 -3.6656e-06           -2.9272e-10           -9.34e-12             3.6688e-06           
  -0.8                  -3.6682e-06           -2.9234e-10           -8.86e-12             3.6718e-06           
  -0.85                 -3.671e-06            -2.9214e-10           -8.18e-12             3.6742e-06           
  -0.9                  -3.6734e-06           -2.9178e-10           -8.28e-12             3.6768e-06           
  -0.95                 -3.6756e-06           -2.915e-10            -7.94e-12             3.679e-06            
  -1                    -3.6776e-06           -2.9132e-10           -7.12e-12             3.681e-06            
  -1.05                 -3.6796e-06           -2.9082e-10           -6.5e-12              3.6828e-06           
  -1.1                  -3.6816e-06           -2.8992e-10           -6.26e-12             3.6848e-06           
  -1.15                 -3.6832e-06           -2.896e-10            -6.08e-12             3.6866e-06           
  -1.2                  -3.685e-06            -2.8924e-10           -5.5e-12              3.6882e-06           
  -1.25                 -3.6864e-06           -2.8848e-10           -4.58e-12             3.6896e-06           
  -1.3                  -3.688e-06            -2.8782e-10           -3.26e-12             3.6912e-06           
  -1.35                 -3.6894e-06           -2.8694e-10           -1.64e-12             3.6926e-06           
END_DB

BEGIN_DB
 ICCAP_VAR vg         -0.864         
 ICCAP_VAR vb         -0             
 ICCAP_VAR vs         -0             

 #vd                    id                    ig                    ib                    is                   
  -0                    3.3424e-09            -2.3062e-09           -9.64e-12             -1.2068e-09          
  -0.05                 -1.8714e-06           -2.0436e-09           -9.42e-12             1.8764e-06           
  -0.1                  -3.5508e-06           -1.8214e-09           -9.32e-12             3.5558e-06           
  -0.15                 -5.0308e-06           -1.634e-09            -8.44e-12             5.0358e-06           
  -0.2                  -6.309e-06            -1.4806e-09           -7.48e-12             6.314e-06            
  -0.25                 -7.3836e-06           -1.3566e-09           -7.22e-12             7.3886e-06           
  -0.3                  -8.2542e-06           -1.2596e-09           -7.22e-12             8.259e-06            
  -0.35                 -8.9218e-06           -1.1872e-09           -6.86e-12             8.9264e-06           
  -0.4                  -9.3952e-06           -1.1366e-09           -6.88e-12             9.4002e-06           
  -0.45                 -9.6914e-06           -1.1054e-09           -5.98e-12             9.6958e-06           
  -0.5                  -9.8468e-06           -1.089e-09            -5.82e-12             9.851e-06            
  -0.55                 -9.9178e-06           -1.0816e-09           -6.18e-12             9.922e-06            
  -0.6                  -9.9502e-06           -1.0784e-09           -5.2e-12              9.9546e-06           
  -0.65                 -9.9682e-06           -1.0766e-09           -5.08e-12             9.9724e-06           
  -0.7                  -9.981e-06            -1.0748e-09           -4.94e-12             9.9848e-06           
  -0.75                 -9.9914e-06           -1.0738e-09           -4.54e-12             9.9952e-06           
  -0.8                  -1.00002e-05          -1.0726e-09           -4.6e-12              1.00042e-05          
  -0.85                 -1.00086e-05          -1.0718e-09           -4.04e-12             1.00128e-05          
  -0.9                  -1.00162e-05          -1.0706e-09           -4.36e-12             1.00204e-05          
  -0.95                 -1.0023e-05           -1.07e-09             -3.78e-12             1.0027e-05           
  -1                    -1.00292e-05          -1.0704e-09           -3.44e-12             1.00336e-05          
  -1.05                 -1.00354e-05          -1.069e-09            -3.24e-12             1.00392e-05          
  -1.1                  -1.00408e-05          -1.0682e-09           -3.62e-12             1.00446e-05          
  -1.15                 -1.00456e-05          -1.0674e-09           -2.78e-12             1.00498e-05          
  -1.2                  -1.00506e-05          -1.0666e-09           -3.12e-12             1.00546e-05          
  -1.25                 -1.0055e-05           -1.066e-09            -2.24e-12             1.00592e-05          
  -1.3                  -1.00598e-05          -1.0652e-09           -2.08e-12             1.0064e-05           
  -1.35                 -1.0064e-05           -1.0646e-09           -2.08e-12             1.0068e-05           
END_DB

BEGIN_DB
 ICCAP_VAR vg         -1.107         
 ICCAP_VAR vb         -0             
 ICCAP_VAR vs         -0             

 #vd                    id                    ig                    ib                    is                   
  -0                    5.2486e-09            -6.406e-09            -1.26e-12             -2.5204e-10          
  -0.05                 -2.534e-06            -5.8368e-09           -2.78e-12             2.5428e-06           
  -0.1                  -4.9034e-06           -5.3332e-09           -2.98e-12             4.9118e-06           
  -0.15                 -7.0978e-06           -4.8898e-09           -2.78e-12             7.106e-06            
  -0.2                  -9.113e-06            -4.4966e-09           -3.42e-12             9.1212e-06           
  -0.25                 -1.09466e-05          -4.156e-09            -3e-12                1.09546e-05          
  -0.3                  -1.2592e-05           -3.8628e-09           -3.02e-12             1.2604e-05           
  -0.35                 -1.4048e-05           -3.6148e-09           -2.82e-12             1.4058e-05           
  -0.4                  -1.5314e-05           -3.4062e-09           -2.66e-12             1.5324e-05           
  -0.45                 -1.6384e-05           -3.235e-09            -2.4e-12              1.6394e-05           
  -0.5                  -1.7256e-05           -3.0996e-09           -1.94e-12             1.7266e-05           
  -0.55                 -1.7934e-05           -2.9964e-09           -1.9e-12              1.7946e-05           
  -0.6                  -1.842e-05            -2.9246e-09           -2.02e-12             1.8432e-05           
  -0.65                 -1.8734e-05           -2.8782e-09           -1.62e-12             1.8744e-05           
  -0.7                  -1.8906e-05           -2.8526e-09           -1.78e-12             1.8918e-05           
  -0.75                 -1.8994e-05           -2.8402e-09           -1.5e-12              1.9004e-05           
  -0.8                  -1.9038e-05           -2.8334e-09           -1.42e-12             1.9048e-05           
  -0.85                 -1.9066e-05           -2.8288e-09           -1.22e-12             1.9076e-05           
  -0.9                  -1.9086e-05           -2.8264e-09           -1.06e-12             1.9096e-05           
  -0.95                 -1.9102e-05           -2.823e-09            -9e-13                1.9112e-05           
  -1                    -1.9116e-05           -2.8212e-09           -5.2e-13              1.9126e-05           
  -1.05                 -1.913e-05            -2.8198e-09           -9.8e-13              1.914e-05            
  -1.1                  -1.9142e-05           -2.8188e-09           3.8e-13               1.9152e-05           
  -1.15                 -1.9152e-05           -2.8164e-09           -5.4e-13              1.9164e-05           
  -1.2                  -1.9164e-05           -2.8156e-09           0                     1.9172e-05           
  -1.25                 -1.9172e-05           -2.8136e-09           6e-14                 1.9182e-05           
  -1.3                  -1.918e-05            -2.8116e-09           1.4e-13               1.9192e-05           
  -1.35                 -1.919e-05            -2.8098e-09           5.4e-13               1.92e-05             
END_DB

BEGIN_DB
 ICCAP_VAR vg         -1.35          
 ICCAP_VAR vb         -0             
 ICCAP_VAR vs         -0             

 #vd                    id                    ig                    ib                    is                   
  -0                    1.1518e-08            -1.4464e-08           1.8934e-10            2.058e-09            
  -0.05                 -3.0752e-06           -1.3394e-08           1.4172e-10            3.0916e-06           
  -0.1                  -6.0138e-06           -1.2424e-08           1.0802e-10            6.0296e-06           
  -0.15                 -8.8012e-06           -1.1548e-08           8.49e-11              8.8164e-06           
  -0.2                  -1.1434e-05           -1.0762e-08           6.968e-11             1.14484e-05          
  -0.25                 -1.3908e-05           -1.0048e-08           5.8e-11               1.3926e-05           
  -0.3                  -1.6222e-05           -9.421e-09            5.008e-11             1.6238e-05           
  -0.35                 -1.8366e-05           -8.858e-09            4.452e-11             1.8384e-05           
  -0.4                  -2.0346e-05           -8.3626e-09           4.084e-11             2.0362e-05           
  -0.45                 -2.2152e-05           -7.924e-09            3.766e-11             2.2168e-05           
  -0.5                  -2.378e-05            -7.542e-09            3.49e-11              2.3796e-05           
  -0.55                 -2.5228e-05           -7.2108e-09           3.368e-11             2.5244e-05           
  -0.6                  -2.649e-05            -6.9344e-09           3.168e-11             2.6506e-05           
  -0.65                 -2.7566e-05           -6.7028e-09           3.078e-11             2.7582e-05           
  -0.7                  -2.8452e-05           -6.5164e-09           3.022e-11             2.8466e-05           
  -0.75                 -2.9146e-05           -6.3742e-09           2.914e-11             2.9162e-05           
  -0.8                  -2.9656e-05           -6.2704e-09           2.886e-11             2.967e-05            
  -0.85                 -2.9996e-05           -6.2042e-09           2.918e-11             3.001e-05            
  -0.9                  -3.0196e-05           -6.1652e-09           2.87e-11              3.021e-05            
  -0.95                 -3.0302e-05           -6.1432e-09           2.888e-11             3.0316e-05           
  -1                    -3.0362e-05           -6.1282e-09           2.902e-11             3.0376e-05           
  -1.05                 -3.0402e-05           -6.1232e-09           2.888e-11             3.0416e-05           
  -1.1                  -3.0428e-05           -6.1186e-09           2.936e-11             3.0442e-05           
  -1.15                 -3.045e-05            -6.1098e-09           2.918e-11             3.0464e-05           
  -1.2                  -3.0472e-05           -6.1068e-09           2.94e-11              3.0486e-05           
  -1.25                 -3.049e-05            -6.1016e-09           3.01e-11              3.0504e-05           
  -1.3                  -3.0506e-05           -6.0982e-09           2.934e-11             3.052e-05            
  -1.35                 -3.052e-05            -6.0984e-09           2.994e-11             3.0534e-05           
END_DB

