! VERSION = 6.00
BEGIN_HEADER
 ICCAP_INPUTS
  vd         V  D GROUND SMU1 0.1 LIN        1    -0         -1.35      28   -0.05     
  vg         V  G GROUND SMU2 0.001 LIN        2    -0.574     -1.35      5    -0.194    
  vb         V  B GROUND SMU4 0.1 CON        1.2
  vs         V  S GROUND SMU3 0.1 CON        -0
 ICCAP_OUTPUTS
  id         I  D GROUND SMU1 B
  ig         I  G GROUND SMU2 B
  ib         I  B GROUND SMU4 B
  is         I  S GROUND SMU3 B
 ICCAP_VALUES
  MASTER_SETUP_TYPE "~dc_idvd~"
  LINVT_VALUE "|idvg|100.0n|100.0m|1.000m|5|1.350|"
  LISTVT_VALUE ""
  TYPE "-1"
  TEMP " 27.0000 "
  IS_TNOM " 1.00000 "
  MAIN.W "150.0n"
  MAIN.L "10.00u"
  MAIN.AD "100.5f"
  MAIN.AS "100.5f"
  MAIN.PD "1.340u"
  MAIN.PS "1.340u"
  MAIN.NF "1.000"
  MAIN.M "1"
  MAIN.NRD "0.000"
  MAIN.NRS "0.000"
  MAIN.LDRIFT1 "1E-06"
  MAIN.LDRIFT2 "1E-06"
  MAIN.SA "0.000"
  MAIN.SB "0.000"
  MAIN.SD "0.000"
  MAIN.SCA "0.000"
  MAIN.SCB "0.000"
  MAIN.SCC "0.000"
  MAIN.SC "0.000"
  MODULE "S555"
  PIN_D "16"
  PIN_G "5"
  PIN_S "6"
  PIN_B "15"
  PIN_E ""
  PIN_6 ""
  XY_ID ""
  FUNC "Narrow"
  STI "SA ref"
  WPE "WPE ref"
  COMMENT ""
  DIS_MEAS ""
  TypeTCI "10"
END_HEADER

BEGIN_DB
 ICCAP_VAR vg         -0.574         
 ICCAP_VAR vb         1.2            
 ICCAP_VAR vs         -0             

 #vd                    id                    ig                    ib                    is                   
  -0                    1.012e-11             -3.3e-12              3.6e-13               -8.64e-12            
  -0.05                 -6.2816e-09           -2.56e-12             4e-13                 6.283e-09            
  -0.1                  -9.2886e-09           -2.1e-12              4e-13                 9.2918e-09           
  -0.15                 -1.02886e-08          -1.94e-12             3.4e-13               1.02918e-08          
  -0.2                  -1.05468e-08          -1.96e-12             2.8e-13               1.0552e-08           
  -0.25                 -1.064e-08            -1.86e-12             2.6e-13               1.06402e-08          
  -0.3                  -1.06938e-08          -1.92e-12             3e-13                 1.06904e-08          
  -0.35                 -1.07306e-08          -1.94e-12             3e-13                 1.0731e-08           
  -0.4                  -1.07636e-08          -1.76e-12             2.6e-13               1.07652e-08          
  -0.45                 -1.07956e-08          -1.88e-12             2e-13                 1.0796e-08           
  -0.5                  -1.08214e-08          -1.86e-12             3e-13                 1.08234e-08          
  -0.55                 -1.08504e-08          -1.84e-12             3e-13                 1.0849e-08           
  -0.6                  -1.08722e-08          -1.76e-12             3.2e-13               1.08714e-08          
  -0.65                 -1.08888e-08          -1.8e-12              1.8e-13               1.08856e-08          
  -0.7                  -1.09074e-08          -1.66e-12             3e-13                 1.0908e-08           
  -0.75                 -1.09202e-08          -1.84e-12             2.2e-13               1.0923e-08           
  -0.8                  -1.0937e-08           -1.68e-12             2.2e-13               1.09392e-08          
  -0.85                 -1.0938e-08           -1.62e-12             2.6e-13               1.09516e-08          
  -0.9                  -1.095e-08            -1.8e-12              2.6e-13               1.0971e-08           
  -0.95                 -1.097e-08            -1.66e-12             2e-13                 1.09794e-08          
  -1                    -1.098e-08            -1.7e-12              2.6e-13               1.09928e-08          
  -1.05                 -1.099e-08            -1.74e-12             1.8e-13               1.10042e-08          
  -1.1                  -1.1e-08              -1.78e-12             1.2e-13               1.10118e-08          
  -1.15                 -1.1012e-08           -1.66e-12             2e-13                 1.10228e-08          
  -1.2                  -1.1016e-08           -1.7e-12              1.8e-13               1.10322e-08          
  -1.25                 -1.1026e-08           -1.66e-12             1.2e-13               1.10412e-08          
  -1.3                  -1.103e-08            -1.76e-12             1.6e-13               1.10448e-08          
  -1.35                 -1.104e-08            -1.72e-12             1e-13                 1.1052e-08           
END_DB

BEGIN_DB
 ICCAP_VAR vg         -0.768         
 ICCAP_VAR vb         1.2            
 ICCAP_VAR vs         -0             

 #vd                    id                    ig                    ib                    is                   
  -0                    3.688e-11             -1.408e-11            -2e-14                -2.196e-11           
  -0.05                 -2.1352e-08           -1.206e-11            1.2e-13               2.1394e-08           
  -0.1                  -3.8018e-08           -1.056e-11            2.4e-13               3.8064e-08           
  -0.15                 -5.0126e-08           -9.38e-12             2e-13                 5.0168e-08           
  -0.2                  -5.794e-08            -8.72e-12             1.4e-13               5.7984e-08           
  -0.25                 -6.2022e-08           -8.26e-12             1e-13                 6.207e-08            
  -0.3                  -6.3654e-08           -8.02e-12             1.6e-13               6.3666e-08           
  -0.35                 -6.4176e-08           -7.98e-12             1.8e-13               6.4218e-08           
  -0.4                  -6.4434e-08           -7.98e-12             1.6e-13               6.4482e-08           
  -0.45                 -6.4612e-08           -8.02e-12             8e-14                 6.4658e-08           
  -0.5                  -6.4772e-08           -8e-12                4e-14                 6.4842e-08           
  -0.55                 -6.4926e-08           -7.92e-12             4e-14                 6.4972e-08           
  -0.6                  -6.505e-08            -7.8e-12              1.6e-13               6.507e-08            
  -0.65                 -6.5126e-08           -7.86e-12             8e-14                 6.518e-08            
  -0.7                  -6.5244e-08           -7.84e-12             1e-13                 6.5292e-08           
  -0.75                 -6.5332e-08           -7.86e-12             0                     6.5372e-08           
  -0.8                  -6.5408e-08           -7.88e-12             1e-13                 6.5466e-08           
  -0.85                 -6.5504e-08           -7.8e-12              1e-13                 6.5528e-08           
  -0.9                  -6.5542e-08           -7.9e-12              0                     6.5568e-08           
  -0.95                 -6.5638e-08           -7.82e-12             1.4e-13               6.566e-08            
  -1                    -6.5688e-08           -7.92e-12             6e-14                 6.5704e-08           
  -1.05                 -6.574e-08            -7.8e-12              1e-13                 6.5788e-08           
  -1.1                  -6.581e-08            -7.82e-12             8e-14                 6.5826e-08           
  -1.15                 -6.5838e-08           -7.74e-12             -4e-14                6.587e-08            
  -1.2                  -6.587e-08            -7.78e-12             6e-14                 6.5918e-08           
  -1.25                 -6.5936e-08           -7.74e-12             2.2e-13               6.5958e-08           
  -1.3                  -6.5976e-08           -7.8e-12              8e-14                 6.6016e-08           
  -1.35                 -6.5994e-08           -7.8e-12              1.2e-13               6.606e-08            
END_DB

BEGIN_DB
 ICCAP_VAR vg         -0.962         
 ICCAP_VAR vb         1.2            
 ICCAP_VAR vs         -0             

 #vd                    id                    ig                    ib                    is                   
  -0                    6.498e-11             -4.004e-11            1.2e-13               -2.832e-11           
  -0.05                 -3.703e-08            -3.566e-11            8e-14                 3.7104e-08           
  -0.1                  -6.9536e-08           -3.21e-11             0                     6.9598e-08           
  -0.15                 -9.7386e-08           -2.91e-11             1.2e-13               9.7464e-08           
  -0.2                  -1.2046e-07           -2.674e-11            1.2e-13               1.207e-07            
  -0.25                 -1.3892e-07           -2.486e-11            2e-14                 1.3916e-07           
  -0.3                  -1.5278e-07           -2.332e-11            1.2e-13               1.53e-07             
  -0.35                 -1.6218e-07           -2.216e-11            8e-14                 1.6244e-07           
  -0.4                  -1.6774e-07           -2.178e-11            2e-14                 1.6798e-07           
  -0.45                 -1.7028e-07           -2.152e-11            0                     1.7048e-07           
  -0.5                  -1.713e-07            -2.126e-11            0                     1.7152e-07           
  -0.55                 -1.718e-07            -2.11e-11             0                     1.7204e-07           
  -0.6                  -1.7216e-07           -2.118e-11            8e-14                 1.7244e-07           
  -0.65                 -1.7246e-07           -2.12e-11             1.2e-13               1.727e-07            
  -0.7                  -1.728e-07            -2.108e-11            1e-13                 1.7304e-07           
  -0.75                 -1.7302e-07           -2.112e-11            2e-13                 1.732e-07            
  -0.8                  -1.7322e-07           -2.092e-11            1.2e-13               1.7344e-07           
  -0.85                 -1.7332e-07           -2.11e-11             6e-14                 1.736e-07            
  -0.9                  -1.7348e-07           -2.106e-11            1.4e-13               1.7376e-07           
  -0.95                 -1.7366e-07           -2.112e-11            0                     1.7392e-07           
  -1                    -1.7388e-07           -2.094e-11            0                     1.7406e-07           
  -1.05                 -1.7398e-07           -2.094e-11            4e-14                 1.7424e-07           
  -1.1                  -1.7416e-07           -2.104e-11            2e-14                 1.7434e-07           
  -1.15                 -1.7422e-07           -2.096e-11            2e-14                 1.7446e-07           
  -1.2                  -1.7438e-07           -2.09e-11             6e-14                 1.7456e-07           
  -1.25                 -1.744e-07            -2.08e-11             0                     1.747e-07            
  -1.3                  -1.7452e-07           -2.096e-11            -4e-14                1.7478e-07           
  -1.35                 -1.7464e-07           -2.082e-11            1e-13                 1.7492e-07           
END_DB

BEGIN_DB
 ICCAP_VAR vg         -1.156         
 ICCAP_VAR vb         1.2            
 ICCAP_VAR vs         -0             

 #vd                    id                    ig                    ib                    is                   
  -0                    1.058e-10             -8.926e-11            6e-14                 -1.554e-11           
  -0.05                 -5.1148e-08           -8.16e-11             1.2e-13               5.1264e-08           
  -0.1                  -9.8266e-08           -7.484e-11            6e-14                 9.8412e-08           
  -0.15                 -1.4116e-07           -6.9e-11              1e-13                 1.4148e-07           
  -0.2                  -1.7968e-07           -6.376e-11            1.4e-13               1.7998e-07           
  -0.25                 -2.1372e-07           -5.934e-11            6e-14                 2.141e-07            
  -0.3                  -2.433e-07            -5.558e-11            0                     2.436e-07            
  -0.35                 -2.6816e-07           -5.236e-11            8e-14                 2.6854e-07           
  -0.4                  -2.8856e-07           -4.976e-11            2e-14                 2.8884e-07           
  -0.45                 -3.043e-07            -4.812e-11            8e-14                 3.046e-07            
  -0.5                  -3.1554e-07           -4.658e-11            6e-14                 3.158e-07            
  -0.55                 -3.2262e-07           -4.584e-11            6e-14                 3.2306e-07           
  -0.6                  -3.2662e-07           -4.528e-11            4e-14                 3.269e-07            
  -0.65                 -3.283e-07            -4.52e-11             6e-14                 3.2854e-07           
  -0.7                  -3.291e-07            -4.492e-11            -4e-14                3.2938e-07           
  -0.75                 -3.2966e-07           -4.5e-11              6e-14                 3.3002e-07           
  -0.8                  -3.3032e-07           -4.49e-11             6e-14                 3.305e-07            
  -0.85                 -3.3052e-07           -4.46e-11             1.4e-13               3.3088e-07           
  -0.9                  -3.3084e-07           -4.474e-11            2e-14                 3.311e-07            
  -0.95                 -3.311e-07            -4.474e-11            1.6e-13               3.3138e-07           
  -1                    -3.3134e-07           -4.46e-11             -8e-14                3.317e-07            
  -1.05                 -3.3158e-07           -4.456e-11            8e-14                 3.3192e-07           
  -1.1                  -3.3184e-07           -4.468e-11            1e-13                 3.3212e-07           
  -1.15                 -3.3192e-07           -4.454e-11            4e-14                 3.322e-07            
  -1.2                  -3.3222e-07           -4.438e-11            1.6e-13               3.3248e-07           
  -1.25                 -3.3236e-07           -4.464e-11            1.4e-13               3.326e-07            
  -1.3                  -3.3266e-07           -4.446e-11            1e-13                 3.3292e-07           
  -1.35                 -3.3282e-07           -4.466e-11            8e-14                 3.3304e-07           
END_DB

BEGIN_DB
 ICCAP_VAR vg         -1.35          
 ICCAP_VAR vb         1.2            
 ICCAP_VAR vs         -0             

 #vd                    id                    ig                    ib                    is                   
  -0                    1.581e-10             -1.7306e-10           1.2e-12               1.152e-11            
  -0.05                 -6.3094e-08           -1.6038e-10           9.2e-13               6.329e-08            
  -0.1                  -1.2266e-07           -1.4902e-10           6.4e-13               1.2304e-07           
  -0.15                 -1.7866e-07           -1.3884e-10           5.4e-13               1.7904e-07           
  -0.2                  -2.3088e-07           -1.2974e-10           4.2e-13               2.3114e-07           
  -0.25                 -2.7906e-07           -1.2156e-10           4e-13                 2.7956e-07           
  -0.3                  -3.2324e-07           -1.1428e-10           4.2e-13               3.2372e-07           
  -0.35                 -3.6328e-07           -1.0774e-10           4.4e-13               3.6366e-07           
  -0.4                  -3.9884e-07           -1.0212e-10           4.4e-13               3.9918e-07           
  -0.45                 -4.301e-07            -9.746e-11            3.6e-13               4.3064e-07           
  -0.5                  -4.5692e-07           -9.37e-11             3e-13                 4.572e-07            
  -0.55                 -4.7906e-07           -9.032e-11            2.4e-13               4.7932e-07           
  -0.6                  -4.966e-07            -8.794e-11            2.6e-13               4.971e-07            
  -0.65                 -5.1004e-07           -8.602e-11            3.2e-13               5.1042e-07           
  -0.7                  -5.1894e-07           -8.48e-11             2.4e-13               5.1932e-07           
  -0.75                 -5.2426e-07           -8.392e-11            3e-13                 5.244e-07            
  -0.8                  -5.2684e-07           -8.356e-11            3.2e-13               5.2718e-07           
  -0.85                 -5.2832e-07           -8.318e-11            3e-13                 5.285e-07            
  -0.9                  -5.29e-07             -8.342e-11            3e-13                 5.293e-07            
  -0.95                 -5.297e-07            -8.312e-11            2.8e-13               5.3012e-07           
  -1                    -5.3036e-07           -8.316e-11            3e-13                 5.305e-07            
  -1.05                 -5.3046e-07           -8.308e-11            2.6e-13               5.3094e-07           
  -1.1                  -5.31e-07             -8.288e-11            2.8e-13               5.3152e-07           
  -1.15                 -5.3174e-07           -8.276e-11            2.8e-13               5.3242e-07           
  -1.2                  -5.3226e-07           -8.268e-11            2.6e-13               5.3272e-07           
  -1.25                 -5.326e-07            -8.274e-11            3e-13                 5.3278e-07           
  -1.3                  -5.3274e-07           -8.256e-11            3.6e-13               5.3318e-07           
  -1.35                 -5.33e-07             -8.252e-11            3.2e-13               5.3346e-07           
END_DB

