! VERSION = 6.00
BEGIN_HEADER
 ICCAP_INPUTS
  vd         V  D GROUND SMU1 0.1 LIN        1    -0         -1.35      28   -0.05     
  vg         V  G GROUND SMU2 0.001 LIST       2 3 -0.115 -0.315 -0.515
  vb         V  B GROUND SMU4 0.1 CON        -0
  vs         V  S GROUND SMU3 0.1 CON        -0
 ICCAP_OUTPUTS
  id         I  D GROUND SMU1 B
  ig         I  G GROUND SMU2 B
  ib         I  B GROUND SMU4 B
  is         I  S GROUND SMU3 B
 ICCAP_VALUES
  MASTER_SETUP_TYPE "~dc_idvd~"
  LINVT_VALUE ""
  LISTVT_VALUE "|idvg|100.0n|-200.0m|1.000m|3|200.0m|200.0m|"
  TYPE "-1"
  TEMP " 125.000 "
  IS_TNOM " 0.00000 "
  MAIN.W "150.0n"
  MAIN.L "130.0n"
  MAIN.AD "100.5f"
  MAIN.AS "100.5f"
  MAIN.PD "1.340u"
  MAIN.PS "1.340u"
  MAIN.NF "1.000"
  MAIN.M "1"
  MAIN.NRD "0.000"
  MAIN.NRS "0.000"
  MAIN.LDRIFT1 "1E-06"
  MAIN.LDRIFT2 "1E-06"
  MAIN.SA "0.000"
  MAIN.SB "0.000"
  MAIN.SD "0.000"
  MAIN.SCA "0.000"
  MAIN.SCB "0.000"
  MAIN.SCC "0.000"
  MAIN.SC "0.000"
  MODULE "S554"
  PIN_D "16"
  PIN_G "5"
  PIN_S "6"
  PIN_B "15"
  PIN_E ""
  PIN_6 ""
  XY_ID ""
  FUNC "Small"
  STI "SA ref"
  WPE "WPE ref"
  COMMENT ""
  DIS_MEAS ""
  TypeTCI "10"
END_HEADER

BEGIN_DB
 ICCAP_VAR vg         -0.115         
 ICCAP_VAR vb         -0             
 ICCAP_VAR vs         -0             

 #vd                    id                    ig                    ib                    is                   
  -0                    2.02e-12              2.2e-13               -6.4e-12              -2.64e-12            
  -0.05                 -1.03932e-09          2.2e-13               -6.58e-12             1.03908e-09          
  -0.1                  -1.34e-09             1.6e-13               -6.28e-12             1.3408e-09           
  -0.15                 -1.4594e-09           2.4e-13               -6.32e-12             1.4586e-09           
  -0.2                  -1.5324e-09           1.4e-13               -6e-12                1.5332e-09           
  -0.25                 -1.5968e-09           3e-13                 -5.7e-12              1.6e-09              
  -0.3                  -1.662e-09            1.6e-13               -5.6e-12              1.6586e-09           
  -0.35                 -1.714e-09            1.8e-13               -4.82e-12             1.6958e-09           
  -0.4                  -1.7554e-09           1.8e-13               -4.86e-12             1.7542e-09           
  -0.45                 -1.8126e-09           1.8e-13               -5.54e-12             1.8128e-09           
  -0.5                  -1.8708e-09           3e-13                 -4.96e-12             1.8712e-09           
  -0.55                 -1.9338e-09           8e-14                 -4.98e-12             1.9314e-09           
  -0.6                  -1.9928e-09           2e-13                 -4.7e-12              1.9928e-09           
  -0.65                 -2.057e-09            1.2e-13               -4.64e-12             2.0566e-09           
  -0.7                  -2.1194e-09           1.4e-13               -4.58e-12             2.1194e-09           
  -0.75                 -2.1852e-09           2e-13                 -4.26e-12             2.183e-09            
  -0.8                  -2.2512e-09           1.2e-13               -4.32e-12             2.2494e-09           
  -0.85                 -2.3158e-09           3.2e-13               -4.18e-12             2.3158e-09           
  -0.9                  -2.387e-09            2.2e-13               -4.14e-12             2.3852e-09           
  -0.95                 -2.4562e-09           2e-13                 -3.6e-12              2.4518e-09           
  -1                    -2.529e-09            2.6e-13               -4.42e-12             2.5272e-09           
  -1.05                 -2.6034e-09           2.2e-13               -3.94e-12             2.602e-09            
  -1.1                  -2.6796e-09           3.8e-13               -3.62e-12             2.6772e-09           
  -1.15                 -2.7556e-09           2.2e-13               -3.62e-12             2.7558e-09           
  -1.2                  -2.8374e-09           4e-13                 -3.28e-12             2.835e-09            
  -1.25                 -2.9228e-09           3.8e-13               -3.06e-12             2.9206e-09           
  -1.3                  -3.0086e-09           4.4e-13               -2.86e-12             3.0074e-09           
  -1.35                 -3.0974e-09           5e-13                 -2.84e-12             3.094e-09            
END_DB

BEGIN_DB
 ICCAP_VAR vg         -0.315         
 ICCAP_VAR vb         -0             
 ICCAP_VAR vs         -0             

 #vd                    id                    ig                    ib                    is                   
  -0                    1.4622e-10            -2.2e-13              -5.12e-12             -1.429e-10           
  -0.05                 -6.4686e-08           -1.4e-13              -5.62e-12             6.4732e-08           
  -0.1                  -8.714e-08            -1.6e-13              -4.48e-12             8.715e-08            
  -0.15                 -9.6398e-08           -4e-14                -4.14e-12             9.6416e-08           
  -0.2                  -1.02002e-07          -1.2e-13              -3.9e-12              1.01998e-07          
  -0.25                 -1.06562e-07          -6e-14                -4.24e-12             1.06556e-07          
  -0.3                  -1.1066e-07           -4e-14                -3.9e-12              1.10794e-07          
  -0.35                 -1.1466e-07           -1.4e-13              -3.72e-12             1.14738e-07          
  -0.4                  -1.1872e-07           4e-14                 -4.28e-12             1.1862e-07           
  -0.45                 -1.227e-07            -2e-14                -3.24e-12             1.2266e-07           
  -0.5                  -1.2662e-07           -4e-14                -3.34e-12             1.2668e-07           
  -0.55                 -1.3054e-07           0                     -3.32e-12             1.3066e-07           
  -0.6                  -1.346e-07            -1e-13                -2.88e-12             1.3464e-07           
  -0.65                 -1.387e-07            -4e-14                -2.94e-12             1.3862e-07           
  -0.7                  -1.4256e-07           1e-13                 -2.62e-12             1.4274e-07           
  -0.75                 -1.4678e-07           4e-14                 -2.86e-12             1.4676e-07           
  -0.8                  -1.5076e-07           -2e-14                -2.72e-12             1.509e-07            
  -0.85                 -1.55e-07             4e-14                 -2.36e-12             1.5518e-07           
  -0.9                  -1.5934e-07           0                     -3.06e-12             1.5944e-07           
  -0.95                 -1.6376e-07           -8e-14                -2.38e-12             1.637e-07            
  -1                    -1.6822e-07           0                     -2.02e-12             1.6826e-07           
  -1.05                 -1.7266e-07           8e-14                 -1.96e-12             1.7272e-07           
  -1.1                  -1.7726e-07           1e-13                 -2.14e-12             1.7724e-07           
  -1.15                 -1.8204e-07           4e-14                 -2.04e-12             1.8192e-07           
  -1.2                  -1.8664e-07           1.8e-13               -2.18e-12             1.8676e-07           
  -1.25                 -1.916e-07            8e-14                 -1.42e-12             1.9172e-07           
  -1.3                  -1.9646e-07           0                     -6.4e-13              1.9666e-07           
  -1.35                 -2.016e-07            1.2e-13               5.8e-13               2.0182e-07           
END_DB

BEGIN_DB
 ICCAP_VAR vg         -0.515         
 ICCAP_VAR vb         -0             
 ICCAP_VAR vs         -0             

 #vd                    id                    ig                    ib                    is                   
  -0                    1.2112e-09            -2.6e-13              -3.96e-12             -1.1366e-09          
  -0.05                 -8.0898e-07           -2.8e-13              -4.6e-12              8.092e-07            
  -0.1                  -1.311e-06            -2.2e-13              -3.88e-12             1.3152e-06           
  -0.15                 -1.6076e-06           -2.6e-13              -3.54e-12             1.6092e-06           
  -0.2                  -1.7806e-06           -1.2e-13              -2.96e-12             1.7832e-06           
  -0.25                 -1.876e-06            -2.4e-13              -2.48e-12             1.8938e-06           
  -0.3                  -1.972e-06            -2e-13                -3.3e-12              1.9606e-06           
  -0.35                 -2.0408e-06           -1.6e-13              -2.94e-12             2.0434e-06           
  -0.4                  -2.1022e-06           -8e-14                -2.3e-12              2.0948e-06           
  -0.45                 -2.16e-06             -8e-14                -3e-12                2.1624e-06           
  -0.5                  -2.208e-06            -1.2e-13              -2.48e-12             2.202e-06            
  -0.55                 -2.2662e-06           -1.4e-13              -2.76e-12             2.2698e-06           
  -0.6                  -2.3132e-06           -1.2e-13              -2.3e-12              2.3214e-06           
  -0.65                 -2.3684e-06           -8e-14                -2.68e-12             2.375e-06            
  -0.7                  -2.4214e-06           -8e-14                -2e-12                2.4246e-06           
  -0.75                 -2.4636e-06           -2e-14                -1.8e-12              2.4714e-06           
  -0.8                  -2.518e-06            -1.8e-13              -2e-12                2.4928e-06           
  -0.85                 -2.5662e-06           -1.4e-13              -2.08e-12             2.569e-06            
  -0.9                  -2.6138e-06           -1e-13                -1.76e-12             2.6172e-06           
  -0.95                 -2.6494e-06           2e-14                 -1.64e-12             2.6588e-06           
  -1                    -2.71e-06             -8e-14                -2.26e-12             2.7094e-06           
  -1.05                 -2.7266e-06           -1e-13                -2.04e-12             2.7586e-06           
  -1.1                  -2.8074e-06           -2.4e-13              -1.26e-12             2.7998e-06           
  -1.15                 -2.8558e-06           -2e-13                -7.6e-13              2.8584e-06           
  -1.2                  -2.9052e-06           -4e-14                -3.6e-13              2.8706e-06           
  -1.25                 -2.9534e-06           2e-14                 9.8e-13               2.932e-06            
  -1.3                  -3.003e-06            0                     3.22e-12              3.0066e-06           
  -1.35                 -3.052e-06            -2e-14                7.16e-12              3.0554e-06           
END_DB

