! VERSION = 6.00
BEGIN_HEADER
 ICCAP_INPUTS
  vd         V  D GROUND SMU1 0.1 LIN        1    -0         -1.35      28   -0.05     
  vg         V  G GROUND SMU2 0.001 LIST       2 3 -0.313 -0.513 -0.713
  vb         V  B GROUND SMU4 0.1 CON        1.2
  vs         V  S GROUND SMU3 0.1 CON        -0
 ICCAP_OUTPUTS
  id         I  D GROUND SMU1 B
  ig         I  G GROUND SMU2 B
  ib         I  B GROUND SMU4 B
  is         I  S GROUND SMU3 B
 ICCAP_VALUES
  MASTER_SETUP_TYPE "~dc_idvd~"
  LINVT_VALUE ""
  LISTVT_VALUE "|idvg|100.0n|-200.0m|1.000m|3|200.0m|200.0m|"
  TYPE "-1"
  TEMP " 27.0000 "
  IS_TNOM " 1.00000 "
  MAIN.W "600.0n"
  MAIN.L "1.200u"
  MAIN.AD "204.0f"
  MAIN.AS "204.0f"
  MAIN.PD "1.880u"
  MAIN.PS "1.880u"
  MAIN.NF "1.000"
  MAIN.M "1"
  MAIN.NRD "0.000"
  MAIN.NRS "0.000"
  MAIN.LDRIFT1 "1E-06"
  MAIN.LDRIFT2 "1E-06"
  MAIN.SA "0.000"
  MAIN.SB "0.000"
  MAIN.SD "0.000"
  MAIN.SCA "0.000"
  MAIN.SCB "0.000"
  MAIN.SCC "0.000"
  MAIN.SC "0.000"
  MODULE "S551"
  PIN_D "12"
  PIN_G "9"
  PIN_S "10"
  PIN_B "11"
  PIN_E ""
  PIN_6 ""
  XY_ID ""
  FUNC "LW Scale"
  STI "SA ref"
  WPE "WPE ref"
  COMMENT ""
  DIS_MEAS ""
  TypeTCI "10"
END_HEADER

BEGIN_DB
 ICCAP_VAR vg         -0.313         
 ICCAP_VAR vb         1.2            
 ICCAP_VAR vs         -0             

 #vd                    id                    ig                    ib                    is                   
  -0                    3.4e-13               -1.4e-13              1.8e-13               -3e-13               
  -0.05                 -9.682e-11            6e-14                 1.2e-13               9.684e-11            
  -0.1                  -1.1286e-10           3.2e-13               -6e-14                1.1266e-10           
  -0.15                 -1.1644e-10           -2e-14                6e-14                 1.163e-10            
  -0.2                  -1.1796e-10           2e-14                 4e-14                 1.18e-10             
  -0.25                 -1.1958e-10           8e-14                 2e-13                 1.1932e-10           
  -0.3                  -1.2082e-10           1.6e-13               4e-14                 1.2068e-10           
  -0.35                 -1.2196e-10           2e-14                 0                     1.2168e-10           
  -0.4                  -1.2288e-10           8e-14                 1e-13                 1.2278e-10           
  -0.45                 -1.2388e-10           1e-13                 -4e-14                1.2366e-10           
  -0.5                  -1.2512e-10           1.4e-13               8e-14                 1.2462e-10           
  -0.55                 -1.2556e-10           6e-14                 1.2e-13               1.2522e-10           
  -0.6                  -1.2658e-10           6e-14                 -4e-14                1.261e-10            
  -0.65                 -1.271e-10            0                     0                     1.2678e-10           
  -0.7                  -1.2788e-10           1.4e-13               0                     1.2732e-10           
  -0.75                 -1.2842e-10           4e-14                 -4e-14                1.2818e-10           
  -0.8                  -1.2898e-10           2.8e-13               8e-14                 1.2836e-10           
  -0.85                 -1.295e-10            1e-13                 0                     1.2916e-10           
  -0.9                  -1.3018e-10           1e-13                 -2e-14                1.296e-10            
  -0.95                 -1.3066e-10           2.8e-13               4e-14                 1.3002e-10           
  -1                    -1.3112e-10           2.8e-13               -4e-14                1.3044e-10           
  -1.05                 -1.3186e-10           1.8e-13               0                     1.311e-10            
  -1.1                  -1.32e-10             3.4e-13               1.4e-13               1.313e-10            
  -1.15                 -1.3262e-10           2.8e-13               -4e-14                1.3194e-10           
  -1.2                  -1.3316e-10           2.2e-13               4e-14                 1.322e-10            
  -1.25                 -1.3358e-10           4.2e-13               0                     1.3264e-10           
  -1.3                  -1.3382e-10           2.8e-13               8e-14                 1.3304e-10           
  -1.35                 -1.3424e-10           4e-13                 0                     1.3354e-10           
END_DB

BEGIN_DB
 ICCAP_VAR vg         -0.513         
 ICCAP_VAR vb         1.2            
 ICCAP_VAR vs         -0             

 #vd                    id                    ig                    ib                    is                   
  -0                    1.089e-10             -9e-13                -1e-13                -1.087e-10           
  -0.05                 -3.8692e-08           -6e-13                0                     3.8708e-08           
  -0.1                  -4.907e-08            -5e-13                -6e-14                4.906e-08            
  -0.15                 -5.1602e-08           -4.6e-13              4e-14                 5.1674e-08           
  -0.2                  -5.2782e-08           -5.6e-13              0                     5.2822e-08           
  -0.25                 -5.3424e-08           -4.4e-13              0                     5.3486e-08           
  -0.3                  -5.4076e-08           -3.4e-13              -4e-14                5.4058e-08           
  -0.35                 -5.4646e-08           -3.6e-13              -1e-13                5.4634e-08           
  -0.4                  -5.5066e-08           -4.2e-13              -6e-14                5.5094e-08           
  -0.45                 -5.523e-08            -3.6e-13              -4e-14                5.5332e-08           
  -0.5                  -5.5976e-08           -4.4e-13              2e-14                 5.598e-08            
  -0.55                 -5.6306e-08           -4.6e-13              -2e-14                5.6354e-08           
  -0.6                  -5.6688e-08           -5e-13                6e-14                 5.6686e-08           
  -0.65                 -5.6906e-08           -4.8e-13              2e-14                 5.691e-08            
  -0.7                  -5.7312e-08           -3.8e-13              -4e-14                5.7354e-08           
  -0.75                 -5.7656e-08           -3.8e-13              -6e-14                5.7638e-08           
  -0.8                  -5.7868e-08           -3.4e-13              -4e-14                5.7912e-08           
  -0.85                 -5.8196e-08           -2.6e-13              -6e-14                5.8184e-08           
  -0.9                  -5.8398e-08           -3.8e-13              -8e-14                5.8456e-08           
  -0.95                 -5.8636e-08           -3.2e-13              6e-14                 5.8664e-08           
  -1                    -5.8836e-08           -3e-13                6e-14                 5.8484e-08           
  -1.05                 -5.9052e-08           -3e-13                6e-14                 5.9106e-08           
  -1.1                  -5.9302e-08           -3.6e-13              8e-14                 5.9286e-08           
  -1.15                 -5.9444e-08           -4e-13                2e-14                 5.9508e-08           
  -1.2                  -5.97e-08             -2.6e-13              4e-14                 5.9676e-08           
  -1.25                 -5.9802e-08           -2e-13                2e-14                 5.9862e-08           
  -1.3                  -5.9992e-08           -3e-13                4e-14                 6.007e-08            
  -1.35                 -6.0172e-08           -2.2e-13              1.4e-13               6.02e-08             
END_DB

BEGIN_DB
 ICCAP_VAR vg         -0.713         
 ICCAP_VAR vb         1.2            
 ICCAP_VAR vs         -0             

 #vd                    id                    ig                    ib                    is                   
  -0                    7.2134e-10            -5.58e-12             -4e-14                -7.3036e-10          
  -0.05                 -3.872e-07            -4.66e-12             -2e-14                3.8746e-07           
  -0.1                  -6.4804e-07           -3.94e-12             -2e-14                6.4836e-07           
  -0.15                 -7.9714e-07           -3.66e-12             6e-14                 7.9752e-07           
  -0.2                  -8.667e-07            -3.54e-12             -8e-14                8.6684e-07           
  -0.25                 -8.9688e-07           -3.5e-12              -2e-14                8.9722e-07           
  -0.3                  -9.1038e-07           -3.3e-12              1.6e-13               9.1126e-07           
  -0.35                 -9.1906e-07           -3.18e-12             2e-14                 9.1934e-07           
  -0.4                  -9.2654e-07           -3.22e-12             4e-14                 9.2702e-07           
  -0.45                 -9.3306e-07           -3.32e-12             0                     9.3386e-07           
  -0.5                  -9.387e-07            -3.34e-12             -6e-14                9.3914e-07           
  -0.55                 -9.4354e-07           -3.26e-12             -8e-14                9.438e-07            
  -0.6                  -9.4868e-07           -3.22e-12             -4e-14                9.4908e-07           
  -0.65                 -9.5288e-07           -3.16e-12             -2e-14                9.5378e-07           
  -0.7                  -9.5778e-07           -3.28e-12             0                     9.5668e-07           
  -0.75                 -9.6136e-07           -3.2e-12              2e-14                 9.624e-07            
  -0.8                  -9.6622e-07           -3.24e-12             -6e-14                9.6628e-07           
  -0.85                 -9.691e-07            -3.22e-12             2e-14                 9.6896e-07           
  -0.9                  -9.7162e-07           -3.2e-12              6e-14                 9.7292e-07           
  -0.95                 -9.755e-07            -3.1e-12              2e-14                 9.7546e-07           
  -1                    -9.8026e-07           -3.2e-12              -4e-14                9.804e-07            
  -1.05                 -9.8222e-07           -3.1e-12              -2e-14                9.8254e-07           
  -1.1                  -9.8504e-07           -3.04e-12             -8e-14                9.8448e-07           
  -1.15                 -9.8684e-07           -3.08e-12             -8e-14                9.8808e-07           
  -1.2                  -9.9008e-07           -3.06e-12             6e-14                 9.8966e-07           
  -1.25                 -9.919e-07            -3.06e-12             0                     9.924e-07            
  -1.3                  -9.9444e-07           -3.12e-12             2e-14                 9.951e-07            
  -1.35                 -9.9716e-07           -3e-12                6e-14                 9.9844e-07           
END_DB

