! VERSION = 6.00
BEGIN_HEADER
 ICCAP_INPUTS
  vd         V  D GROUND SMU1 0.1 LIN        1    -0         -1.35      28   -0.05     
  vg         V  G GROUND SMU2 0.001 LIN        2    -0.626     -1.35      5    -0.181    
  vb         V  B GROUND SMU4 0.1 CON        1.2
  vs         V  S GROUND SMU3 0.1 CON        -0
 ICCAP_OUTPUTS
  id         I  D GROUND SMU1 B
  ig         I  G GROUND SMU2 B
  ib         I  B GROUND SMU4 B
  is         I  S GROUND SMU3 B
 ICCAP_VALUES
  MASTER_SETUP_TYPE "~dc_idvd~"
  LINVT_VALUE "|idvg|100.0n|100.0m|1.000m|5|1.350|"
  LISTVT_VALUE ""
  TYPE "-1"
  TEMP " 27.0000 "
  IS_TNOM " 1.00000 "
  MAIN.W "10.00u"
  MAIN.L "10.00u"
  MAIN.AD "3.400p"
  MAIN.AS "3.400p"
  MAIN.PD "20.68u"
  MAIN.PS "20.68u"
  MAIN.NF "1.000"
  MAIN.M "1"
  MAIN.NRD "0.000"
  MAIN.NRS "0.000"
  MAIN.LDRIFT1 "1E-06"
  MAIN.LDRIFT2 "1E-06"
  MAIN.SA "0.000"
  MAIN.SB "0.000"
  MAIN.SD "0.000"
  MAIN.SCA "0.000"
  MAIN.SCB "0.000"
  MAIN.SCC "0.000"
  MAIN.SC "0.000"
  MODULE "S549"
  PIN_D "12"
  PIN_G "9"
  PIN_S "10"
  PIN_B "11"
  PIN_E ""
  PIN_6 ""
  XY_ID ""
  FUNC "Large"
  STI "SA ref"
  WPE "WPE ref"
  COMMENT ""
  DIS_MEAS ""
  TypeTCI "10"
END_HEADER

BEGIN_DB
 ICCAP_VAR vg         -0.626         
 ICCAP_VAR vb         1.2            
 ICCAP_VAR vs         -0             

 #vd                    id                    ig                    ib                    is                   
  -0                    7.9274e-10            -2.864e-10            3.6e-13               -5.8406e-10          
  -0.05                 -3.4816e-07           -2.25e-10             2.8e-13               3.4858e-07           
  -0.1                  -5.2564e-07           -1.8992e-10           3e-13                 5.261e-07            
  -0.15                 -5.9056e-07           -1.7492e-10           2.6e-13               5.91e-07             
  -0.2                  -6.0714e-07           -1.7082e-10           2.6e-13               6.0758e-07           
  -0.25                 -6.1126e-07           -1.694e-10            2.6e-13               6.1168e-07           
  -0.3                  -6.129e-07            -1.6912e-10           2.8e-13               6.1334e-07           
  -0.35                 -6.1404e-07           -1.6848e-10           2.8e-13               6.1446e-07           
  -0.4                  -6.1498e-07           -1.68e-10             3.6e-13               6.1538e-07           
  -0.45                 -6.1576e-07           -1.6788e-10           2.8e-13               6.161e-07            
  -0.5                  -6.164e-07            -1.6762e-10           2.4e-13               6.1686e-07           
  -0.55                 -6.1706e-07           -1.6734e-10           1e-13                 6.175e-07            
  -0.6                  -6.1764e-07           -1.6734e-10           1.8e-13               6.1802e-07           
  -0.65                 -6.181e-07            -1.6714e-10           2.2e-13               6.1854e-07           
  -0.7                  -6.1858e-07           -1.6688e-10           2e-13                 6.1902e-07           
  -0.75                 -6.19e-07             -1.6668e-10           2.8e-13               6.194e-07            
  -0.8                  -6.1942e-07           -1.6664e-10           2.4e-13               6.198e-07            
  -0.85                 -6.1974e-07           -1.6658e-10           1.4e-13               6.2018e-07           
  -0.9                  -6.2014e-07           -1.6638e-10           2.8e-13               6.2054e-07           
  -0.95                 -6.2042e-07           -1.6594e-10           1.4e-13               6.2086e-07           
  -1                    -6.207e-07            -1.6586e-10           2e-13                 6.211e-07            
  -1.05                 -6.2094e-07           -1.6542e-10           1.4e-13               6.2136e-07           
  -1.1                  -6.2122e-07           -1.6506e-10           2.6e-13               6.2164e-07           
  -1.15                 -6.2148e-07           -1.6458e-10           2.2e-13               6.2188e-07           
  -1.2                  -6.2172e-07           -1.6412e-10           2.6e-13               6.2212e-07           
  -1.25                 -6.219e-07            -1.6362e-10           2.8e-13               6.2228e-07           
  -1.3                  -6.2212e-07           -1.6306e-10           2.6e-13               6.2248e-07           
  -1.35                 -6.2228e-07           -1.6234e-10           3.2e-13               6.2272e-07           
END_DB

BEGIN_DB
 ICCAP_VAR vg         -0.807         
 ICCAP_VAR vb         1.2            
 ICCAP_VAR vs         -0             

 #vd                    id                    ig                    ib                    is                   
  -0                    2.3388e-09            -1.1638e-09           4e-14                 -1.0928e-09          
  -0.05                 -1.03354e-06          -9.9524e-10           2e-14                 1.03482e-06          
  -0.1                  -1.8432e-06           -8.633e-10            4e-14                 1.8476e-06           
  -0.15                 -2.4326e-06           -7.6564e-10           1e-13                 2.4372e-06           
  -0.2                  -2.814e-06            -7.0062e-10           1e-13                 2.8184e-06           
  -0.25                 -3.0176e-06           -6.6426e-10           1e-13                 3.022e-06            
  -0.3                  -3.0992e-06           -6.49e-10             4e-14                 3.1034e-06           
  -0.35                 -3.1252e-06           -6.4358e-10           -4e-14                3.1294e-06           
  -0.4                  -3.135e-06            -6.4164e-10           2e-14                 3.139e-06            
  -0.45                 -3.1404e-06           -6.4076e-10           8e-14                 3.145e-06            
  -0.5                  -3.145e-06            -6.3934e-10           2e-14                 3.1492e-06           
  -0.55                 -3.1486e-06           -6.3858e-10           6e-14                 3.1528e-06           
  -0.6                  -3.1516e-06           -6.3784e-10           6e-14                 3.156e-06            
  -0.65                 -3.1544e-06           -6.3756e-10           1.4e-13               3.1588e-06           
  -0.7                  -3.157e-06            -6.3686e-10           -4e-14                3.1612e-06           
  -0.75                 -3.159e-06            -6.3658e-10           8e-14                 3.1632e-06           
  -0.8                  -3.1612e-06           -6.3586e-10           -2e-14                3.1656e-06           
  -0.85                 -3.1632e-06           -6.3568e-10           2e-14                 3.1676e-06           
  -0.9                  -3.165e-06            -6.3528e-10           1.2e-13               3.1692e-06           
  -0.95                 -3.1666e-06           -6.3524e-10           1e-13                 3.1708e-06           
  -1                    -3.168e-06            -6.3464e-10           6e-14                 3.1724e-06           
  -1.05                 -3.1696e-06           -6.3422e-10           8e-14                 3.1738e-06           
  -1.1                  -3.171e-06            -6.337e-10            6e-14                 3.1752e-06           
  -1.15                 -3.1724e-06           -6.3326e-10           -6e-14                3.1766e-06           
  -1.2                  -3.1736e-06           -6.3284e-10           2.2e-13               3.1776e-06           
  -1.25                 -3.1748e-06           -6.3254e-10           1.2e-13               3.1788e-06           
  -1.3                  -3.1758e-06           -6.3214e-10           2.4e-13               3.18e-06             
  -1.35                 -3.1768e-06           -6.3132e-10           1.2e-13               3.1808e-06           
END_DB

BEGIN_DB
 ICCAP_VAR vg         -0.988         
 ICCAP_VAR vb         1.2            
 ICCAP_VAR vs         -0             

 #vd                    id                    ig                    ib                    is                   
  -0                    3.7734e-09            -3.0856e-09           1e-13                 -1.08746e-09         
  -0.05                 -1.6988e-06           -2.7416e-09           2.2e-13               1.7052e-06           
  -0.1                  -3.1944e-06           -2.4502e-09           4e-14                 3.2006e-06           
  -0.15                 -4.4758e-06           -2.2054e-09           1e-13                 4.4818e-06           
  -0.2                  -5.5386e-06           -2.01e-09             1.2e-13               5.5446e-06           
  -0.25                 -6.3814e-06           -1.8532e-09           2e-13                 6.3868e-06           
  -0.3                  -7.005e-06            -1.7364e-09           2.4e-13               7.0108e-06           
  -0.35                 -7.4198e-06           -1.6616e-09           1e-13                 7.4256e-06           
  -0.4                  -7.6532e-06           -1.6178e-09           0                     7.6588e-06           
  -0.45                 -7.7564e-06           -1.597e-09            0                     7.762e-06            
  -0.5                  -7.7966e-06           -1.589e-09            1.4e-13               7.8018e-06           
  -0.55                 -7.814e-06            -1.583e-09            2.2e-13               7.8194e-06           
  -0.6                  -7.8254e-06           -1.5814e-09           2.2e-13               7.8304e-06           
  -0.65                 -7.834e-06            -1.5796e-09           8e-14                 7.8392e-06           
  -0.7                  -7.841e-06            -1.578e-09            6e-14                 7.8462e-06           
  -0.75                 -7.8476e-06           -1.577e-09            2e-14                 7.8526e-06           
  -0.8                  -7.853e-06            -1.5766e-09           8e-14                 7.8584e-06           
  -0.85                 -7.8584e-06           -1.5744e-09           1.6e-13               7.8634e-06           
  -0.9                  -7.8628e-06           -1.5742e-09           2e-13                 7.868e-06            
  -0.95                 -7.8674e-06           -1.5728e-09           0                     7.8726e-06           
  -1                    -7.8718e-06           -1.572e-09            -2e-14                7.877e-06            
  -1.05                 -7.8758e-06           -1.571e-09            1.2e-13               7.881e-06            
  -1.1                  -7.8796e-06           -1.57e-09             1e-13                 7.8846e-06           
  -1.15                 -7.8828e-06           -1.5694e-09           1.4e-13               7.888e-06            
  -1.2                  -7.8858e-06           -1.569e-09            8e-14                 7.8912e-06           
  -1.25                 -7.889e-06            -1.5688e-09           1e-13                 7.894e-06            
  -1.3                  -7.8914e-06           -1.5678e-09           4e-14                 7.8968e-06           
  -1.35                 -7.8938e-06           -1.568e-09            6e-14                 7.8994e-06           
END_DB

BEGIN_DB
 ICCAP_VAR vg         -1.169         
 ICCAP_VAR vb         1.2            
 ICCAP_VAR vs         -0             

 #vd                    id                    ig                    ib                    is                   
  -0                    5.22e-09              -6.5858e-09           4.92e-12              -2.5578e-10          
  -0.05                 -2.2748e-06           -5.9892e-09           3.34e-12              2.2842e-06           
  -0.1                  -4.3744e-06           -5.4608e-09           2.38e-12              4.3834e-06           
  -0.15                 -6.284e-06            -4.9986e-09           1.82e-12              6.2932e-06           
  -0.2                  -7.9976e-06           -4.597e-09            1.4e-12               8.0064e-06           
  -0.25                 -9.5096e-06           -4.2528e-09           1.3e-12               9.5184e-06           
  -0.3                  -1.08132e-05          -3.9644e-09           1.24e-12              1.08216e-05          
  -0.35                 -1.1896e-05           -3.7268e-09           1.08e-12              1.1916e-05           
  -0.4                  -1.277e-05            -3.5382e-09           9.8e-13               1.2792e-05           
  -0.45                 -1.343e-05            -3.3998e-09           9.4e-13               1.3452e-05           
  -0.5                  -1.3884e-05           -3.304e-09            9.8e-13               1.3904e-05           
  -0.55                 -1.4152e-05           -3.2468e-09           9.2e-13               1.4172e-05           
  -0.6                  -1.4282e-05           -3.2172e-09           8.6e-13               1.4304e-05           
  -0.65                 -1.434e-05            -3.2044e-09           8.4e-13               1.436e-05            
  -0.7                  -1.4366e-05           -3.1982e-09           8.2e-13               1.4388e-05           
  -0.75                 -1.4384e-05           -3.1952e-09           9e-13                 1.4404e-05           
  -0.8                  -1.4398e-05           -3.1908e-09           1.02e-12              1.4418e-05           
  -0.85                 -1.441e-05            -3.1878e-09           9.6e-13               1.443e-05            
  -0.9                  -1.442e-05            -3.186e-09            9.2e-13               1.444e-05            
  -0.95                 -1.4428e-05           -3.1832e-09           8.6e-13               1.445e-05            
  -1                    -1.4436e-05           -3.1836e-09           8.2e-13               1.4458e-05           
  -1.05                 -1.4444e-05           -3.1808e-09           7e-13                 1.4464e-05           
  -1.1                  -1.4452e-05           -3.1792e-09           9.4e-13               1.4472e-05           
  -1.15                 -1.4458e-05           -3.1784e-09           1.02e-12              1.4478e-05           
  -1.2                  -1.4464e-05           -3.1768e-09           8.8e-13               1.4484e-05           
  -1.25                 -1.447e-05            -3.1746e-09           9.4e-13               1.449e-05            
  -1.3                  -1.4476e-05           -3.1732e-09           9.2e-13               1.4496e-05           
  -1.35                 -1.448e-05            -3.1732e-09           8.6e-13               1.4502e-05           
END_DB

BEGIN_DB
 ICCAP_VAR vg         -1.35          
 ICCAP_VAR vb         1.2            
 ICCAP_VAR vs         -0             

 #vd                    id                    ig                    ib                    is                   
  -0                    1.0662e-08            -1.2326e-08           9.138e-11             1.3436e-09           
  -0.05                 -2.7568e-06           -1.1366e-08           6.654e-11             2.7718e-06           
  -0.1                  -5.3668e-06           -1.0506e-08           4.986e-11             5.3812e-06           
  -0.15                 -7.8126e-06           -9.746e-09            3.898e-11             7.8266e-06           
  -0.2                  -1.00874e-05          -9.0554e-09           3.154e-11             1.01006e-05          
  -0.25                 -1.218e-05            -8.4408e-09           2.672e-11             1.2206e-05           
  -0.3                  -1.4094e-05           -7.9012e-09           2.332e-11             1.412e-05            
  -0.35                 -1.5818e-05           -7.4254e-09           2.1e-11               1.5842e-05           
  -0.4                  -1.7346e-05           -7.0188e-09           1.914e-11             1.7372e-05           
  -0.45                 -1.8674e-05           -6.6746e-09           1.774e-11             1.8698e-05           
  -0.5                  -1.9792e-05           -6.3876e-09           1.688e-11             1.9818e-05           
  -0.55                 -2.0702e-05           -6.16e-09             1.612e-11             2.0726e-05           
  -0.6                  -2.14e-05             -5.9874e-09           1.57e-11              2.1424e-05           
  -0.65                 -2.1892e-05           -5.8626e-09           1.532e-11             2.1918e-05           
  -0.7                  -2.2202e-05           -5.788e-09            1.516e-11             2.2224e-05           
  -0.75                 -2.2364e-05           -5.7472e-09           1.49e-11              2.2388e-05           
  -0.8                  -2.2442e-05           -5.727e-09            1.49e-11              2.2466e-05           
  -0.85                 -2.248e-05            -5.7184e-09           1.498e-11             2.2504e-05           
  -0.9                  -2.2506e-05           -5.7106e-09           1.508e-11             2.253e-05            
  -0.95                 -2.2524e-05           -5.7084e-09           1.492e-11             2.2548e-05           
  -1                    -2.254e-05            -5.7002e-09           1.486e-11             2.2564e-05           
  -1.05                 -2.2554e-05           -5.6946e-09           1.492e-11             2.2578e-05           
  -1.1                  -2.2568e-05           -5.6942e-09           1.498e-11             2.2592e-05           
  -1.15                 -2.2578e-05           -5.6886e-09           1.49e-11              2.2602e-05           
  -1.2                  -2.259e-05            -5.6866e-09           1.504e-11             2.2614e-05           
  -1.25                 -2.26e-05             -5.6852e-09           1.498e-11             2.2624e-05           
  -1.3                  -2.261e-05            -5.681e-09            1.484e-11             2.2632e-05           
  -1.35                 -2.2618e-05           -5.6826e-09           1.5e-11               2.2642e-05           
END_DB

