! VERSION = 6.00
BEGIN_HEADER
 ICCAP_INPUTS
  vd         V  D GROUND SMU1 0.1 LIN        1    -0         -1.35      28   -0.05     
  vg         V  G GROUND SMU2 0.001 LIN        2    -0.49      -1.35      5    -0.215    
  vb         V  B GROUND SMU4 0.1 CON        -0
  vs         V  S GROUND SMU3 0.1 CON        -0
 ICCAP_OUTPUTS
  id         I  D GROUND SMU1 B
  ig         I  G GROUND SMU2 B
  ib         I  B GROUND SMU4 B
  is         I  S GROUND SMU3 B
 ICCAP_VALUES
  MASTER_SETUP_TYPE "~dc_idvd~"
  LINVT_VALUE "|idvg|100.0n|100.0m|1.000m|5|1.350|"
  LISTVT_VALUE ""
  TYPE "-1"
  TEMP " 27.0000 "
  IS_TNOM " 1.00000 "
  MAIN.W "10.00u"
  MAIN.L "180.0n"
  MAIN.AD "3.400p"
  MAIN.AS "3.400p"
  MAIN.PD "20.68u"
  MAIN.PS "20.68u"
  MAIN.NF "1.000"
  MAIN.M "1"
  MAIN.NRD "0.000"
  MAIN.NRS "0.000"
  MAIN.LDRIFT1 "1E-06"
  MAIN.LDRIFT2 "1E-06"
  MAIN.SA "0.000"
  MAIN.SB "0.000"
  MAIN.SD "0.000"
  MAIN.SCA "0.000"
  MAIN.SCB "0.000"
  MAIN.SCC "0.000"
  MAIN.SC "0.000"
  MODULE "S548"
  PIN_D "12"
  PIN_G "9"
  PIN_S "10"
  PIN_B "11"
  PIN_E ""
  PIN_6 ""
  XY_ID ""
  FUNC "L Scale"
  STI "SA ref"
  WPE "WPE ref"
  COMMENT ""
  DIS_MEAS ""
  TypeTCI "10"
END_HEADER

BEGIN_DB
 ICCAP_VAR vg         -0.49          
 ICCAP_VAR vb         -0             
 ICCAP_VAR vs         -0             

 #vd                    id                    ig                    ib                    is                   
  -0                    2.8836e-08            -4.28e-12             -3.26e-12             -3.1502e-08          
  -0.05                 -1.6732e-05           -3.54e-12             -3.08e-12             1.6736e-05           
  -0.1                  -2.5108e-05           -2.98e-12             -2.96e-12             2.5126e-05           
  -0.15                 -2.9024e-05           -2.8e-12              -2.94e-12             2.906e-05            
  -0.2                  -3.1128e-05           -2.52e-12             -2.94e-12             3.1142e-05           
  -0.25                 -3.249e-05            -2.32e-12             -2.82e-12             3.251e-05            
  -0.3                  -3.3552e-05           -2.34e-12             -3.08e-12             3.3586e-05           
  -0.35                 -3.45e-05             -2.2e-12              -2.94e-12             3.4516e-05           
  -0.4                  -3.5358e-05           -2.1e-12              -2.7e-12              3.5386e-05           
  -0.45                 -3.6162e-05           -2.22e-12             -2.8e-12              3.6164e-05           
  -0.5                  -3.6892e-05           -2.34e-12             -2.8e-12              3.6934e-05           
  -0.55                 -3.7622e-05           -2.14e-12             -2.82e-12             3.7656e-05           
  -0.6                  -3.8328e-05           -2.14e-12             -2.7e-12              3.8344e-05           
  -0.65                 -3.8988e-05           -2.08e-12             -2.64e-12             3.899e-05            
  -0.7                  -3.9624e-05           -1.88e-12             -2.52e-12             3.9644e-05           
  -0.75                 -4.0222e-05           -1.8e-12              -2.7e-12              4.024e-05            
  -0.8                  -4.0826e-05           -1.8e-12              -2.6e-12              4.0832e-05           
  -0.85                 -4.1382e-05           -1.56e-12             -2.42e-12             4.1404e-05           
  -0.9                  -4.195e-05            -1.28e-12             -2.54e-12             4.1948e-05           
  -0.95                 -4.2454e-05           -1.08e-12             -2.6e-12              4.2468e-05           
  -1                    -4.2998e-05           -8.8e-13              -2.36e-12             4.3032e-05           
  -1.05                 -4.3528e-05           -5e-13                -2.26e-12             4.3532e-05           
  -1.1                  -4.4038e-05           -2e-14                -1.96e-12             4.4044e-05           
  -1.15                 -4.4508e-05           3.8e-13               -1.02e-12             4.4564e-05           
  -1.2                  -4.5006e-05           9.8e-13               1.02e-12              4.501e-05            
  -1.25                 -4.547e-05            1.54e-12              5.32e-12              4.5474e-05           
  -1.3                  -4.5938e-05           2.06e-12              1.386e-11             4.5976e-05           
  -1.35                 -4.6434e-05           2.86e-12              2.976e-11             4.6424e-05           
END_DB

BEGIN_DB
 ICCAP_VAR vg         -0.705         
 ICCAP_VAR vb         -0             
 ICCAP_VAR vs         -0             

 #vd                    id                    ig                    ib                    is                   
  -0                    9.999e-08             -1.8e-11              -2.3e-12              -9.2622e-08          
  -0.05                 -6.528e-05            -1.566e-11            -2.32e-12             6.5314e-05           
  -0.1                  -0.00011644           -1.364e-11            -2.24e-12             0.00011678           
  -0.15                 -0.00015454           -1.23e-11             -2.18e-12             0.00015486           
  -0.2                  -0.00018134           -1.126e-11            -2.16e-12             0.00018162           
  -0.25                 -0.00019934           -1.042e-11            -2.1e-12              0.00019982           
  -0.3                  -0.00021182           -9.9e-12              -2.14e-12             0.00021204           
  -0.35                 -0.00022046           -9.54e-12             -2.18e-12             0.00022082           
  -0.4                  -0.00022722           -9.32e-12             -2.12e-12             0.00022768           
  -0.45                 -0.00023296           -8.98e-12             -1.98e-12             0.00023326           
  -0.5                  -0.00023782           -8.72e-12             -2.06e-12             0.0002382            
  -0.55                 -0.00024218           -8.8e-12              -2.1e-12              0.00024256           
  -0.6                  -0.00024624           -8.72e-12             -2.12e-12             0.0002466            
  -0.65                 -0.00025002           -8.56e-12             -2.08e-12             0.00025038           
  -0.7                  -0.00025364           -8.44e-12             -1.98e-12             0.00025388           
  -0.75                 -0.00025682           -8.52e-12             -1.94e-12             0.00025722           
  -0.8                  -0.00026022           -8.24e-12             -1.9e-12              0.00026046           
  -0.85                 -0.00026334           -8.18e-12             -1.98e-12             0.0002637            
  -0.9                  -0.00026646           -8.1e-12              -2.06e-12             0.00026682           
  -0.95                 -0.00026936           -7.98e-12             -1.86e-12             0.00026972           
  -1                    -0.00027224           -7.9e-12              -1.92e-12             0.00027254           
  -1.05                 -0.00027502           -7.64e-12             -1.82e-12             0.00027538           
  -1.1                  -0.00027776           -7.44e-12             -1.64e-12             0.00027816           
  -1.15                 -0.0002805            -7e-12                -1.24e-12             0.00028092           
  -1.2                  -0.0002832            -6.88e-12             -1.6e-13              0.00028356           
  -1.25                 -0.00028578           -6.52e-12             2.54e-12              0.00028608           
  -1.3                  -0.00028836           -6.16e-12             8.94e-12              0.00028864           
  -1.35                 -0.00029094           -5.8e-12              2.282e-11             0.00029134           
END_DB

BEGIN_DB
 ICCAP_VAR vg         -0.92          
 ICCAP_VAR vb         -0             
 ICCAP_VAR vs         -0             

 #vd                    id                    ig                    ib                    is                   
  -0                    2.9396e-07            -5.544e-11            -1.94e-12             -1.3972e-07          
  -0.05                 -0.00011224           -4.954e-11            -1.76e-12             0.0001126            
  -0.1                  -0.00021194           -4.464e-11            -1.86e-12             0.00021224           
  -0.15                 -0.0002984            -4.042e-11            -1.76e-12             0.00029878           
  -0.2                  -0.00037158           -3.7e-11              -1.84e-12             0.000372             
  -0.25                 -0.000432             -3.402e-11            -1.86e-12             0.00043242           
  -0.3                  -0.0004802            -3.168e-11            -1.74e-12             0.00048044           
  -0.35                 -0.00051766           -3.01e-11             -1.74e-12             0.00051802           
  -0.4                  -0.00054652           -2.866e-11            -1.76e-12             0.00054684           
  -0.45                 -0.00056872           -2.756e-11            -1.62e-12             0.00056908           
  -0.5                  -0.0005862            -2.692e-11            -1.64e-12             0.00058654           
  -0.55                 -0.00060052           -2.61e-11             -1.72e-12             0.00060082           
  -0.6                  -0.00061244           -2.554e-11            -1.68e-12             0.00061278           
  -0.65                 -0.0006231            -2.54e-11             -1.64e-12             0.00062352           
  -0.7                  -0.00063246           -2.5e-11              -1.62e-12             0.00063272           
  -0.75                 -0.00064096           -2.456e-11            -1.64e-12             0.00064152           
  -0.8                  -0.00064898           -2.444e-11            -1.62e-12             0.00064926           
  -0.85                 -0.00065652           -2.428e-11            -1.62e-12             0.0006568            
  -0.9                  -0.00066356           -2.414e-11            -1.46e-12             0.0006643            
  -0.95                 -0.00067064           -2.384e-11            -1.66e-12             0.00067064           
  -1                    -0.00067692           -2.368e-11            -1.7e-12              0.0006772            
  -1.05                 -0.00068324           -2.354e-11            -1.52e-12             0.00068354           
  -1.1                  -0.00068918           -2.332e-11            -1.6e-12              0.00068964           
  -1.15                 -0.00069516           -2.316e-11            -1.4e-12              0.00069538           
  -1.2                  -0.00070076           -2.302e-11            -1.04e-12             0.00070136           
  -1.25                 -0.00070674           -2.26e-11             -2.6e-13              0.00070708           
  -1.3                  -0.00071226           -2.248e-11            1.8e-12               0.00071254           
  -1.35                 -0.00071734           -2.224e-11            6.54e-12              0.00071772           
END_DB

BEGIN_DB
 ICCAP_VAR vg         -1.135         
 ICCAP_VAR vb         -0             
 ICCAP_VAR vs         -0             

 #vd                    id                    ig                    ib                    is                   
  -0                    4.1588e-07            -1.3656e-10           -1.46e-12             -1.5486e-07          
  -0.05                 -0.00015038           -1.2536e-10           -1.52e-12             0.00015074           
  -0.1                  -0.00029034           -1.1516e-10           -1.54e-12             0.00029068           
  -0.15                 -0.0004188            -1.056e-10            -1.48e-12             0.00041916           
  -0.2                  -0.00053518           -9.754e-11            -1.46e-12             0.00053552           
  -0.25                 -0.00063944           -9.052e-11            -1.54e-12             0.00063984           
  -0.3                  -0.0007312            -8.428e-11            -1.36e-12             0.00073174           
  -0.35                 -0.00081064           -7.906e-11            -1.34e-12             0.000811             
  -0.4                  -0.00087804           -7.49e-11             -1.48e-12             0.00087848           
  -0.45                 -0.00093452           -7.112e-11            -1.36e-12             0.0009351            
  -0.5                  -0.00098114           -6.832e-11            -1.36e-12             0.00098172           
  -0.55                 -0.00101972           -6.586e-11            -1.26e-12             0.00102034           
  -0.6                  -0.00105098           -6.416e-11            -1.44e-12             0.0010512            
  -0.65                 -0.00107688           -6.278e-11            -1.4e-12              0.00107716           
  -0.7                  -0.00109862           -6.138e-11            -1.38e-12             0.00109904           
  -0.75                 -0.00111718           -6.05e-11             -1.34e-12             0.0011176            
  -0.8                  -0.0011337            -5.972e-11            -1.32e-12             0.0011342            
  -0.85                 -0.00114806           -5.898e-11            -1.22e-12             0.00114886           
  -0.9                  -0.0011612            -5.84e-11             -1.36e-12             0.0011628            
  -0.95                 -0.0011734            -5.806e-11            -1.26e-12             0.0011752            
  -1                    -0.001185             -5.738e-11            -1.36e-12             0.0011868            
  -1.05                 -0.0011962            -5.73e-11             -1.28e-12             0.001198             
  -1.1                  -0.0012068            -5.674e-11            -1.2e-12              0.001208             
  -1.15                 -0.0012166            -5.618e-11            -1.34e-12             0.0012184            
  -1.2                  -0.001226             -5.6e-11              -1.12e-12             0.0012278            
  -1.25                 -0.0012354            -5.568e-11            -1e-12                0.0012372            
  -1.3                  -0.0012442            -5.514e-11            -4.2e-13              0.001246             
  -1.35                 -0.001253             -5.486e-11            1.14e-12              0.0012548            
END_DB

BEGIN_DB
 ICCAP_VAR vg         -1.35          
 ICCAP_VAR vb         -0             
 ICCAP_VAR vs         -0             

 #vd                    id                    ig                    ib                    is                   
  -0                    4.4282e-07            -2.8398e-10           1.3e-12               -1.807e-07           
  -0.05                 -0.00018002           -2.6424e-10           5.8e-13               0.00018038           
  -0.1                  -0.00035146           -2.4508e-10           1.4e-13               0.00035178           
  -0.15                 -0.00051308           -2.2854e-10           -4e-14                0.00051344           
  -0.2                  -0.00066458           -2.1394e-10           -1.8e-13              0.00066518           
  -0.25                 -0.00080544           -1.9998e-10           -4.2e-13              0.00080592           
  -0.3                  -0.00093498           -1.8808e-10           -4.6e-13              0.0009355            
  -0.35                 -0.00105276           -1.7718e-10           -5.4e-13              0.00105288           
  -0.4                  -0.001159             -1.6776e-10           -5.8e-13              0.0011606            
  -0.45                 -0.0012536            -1.5844e-10           -6.2e-13              0.0012552            
  -0.5                  -0.0013372            -1.5166e-10           -5e-13                0.0013388            
  -0.55                 -0.0014102            -1.4574e-10           -7e-13                0.001412             
  -0.6                  -0.0014732            -1.4076e-10           -7.6e-13              0.0014746            
  -0.65                 -0.0015266            -1.3634e-10           -5.8e-13              0.0015282            
  -0.7                  -0.0015722            -1.3252e-10           -5.8e-13              0.001574             
  -0.75                 -0.0016112            -1.2964e-10           -5.8e-13              0.0016134            
  -0.8                  -0.0016452            -1.2642e-10           -6.2e-13              0.001647             
  -0.85                 -0.0016738            -1.2526e-10           -6.2e-13              0.0016756            
  -0.9                  -0.0016986            -1.2252e-10           -6.6e-13              0.0017004            
  -0.95                 -0.0017212            -1.2156e-10           -7e-13                0.0017228            
  -1                    -0.001741             -1.2022e-10           -6.8e-13              0.0017426            
  -1.05                 -0.0017588            -1.1882e-10           -7.4e-13              0.0017604            
  -1.1                  -0.0017754            -1.1812e-10           -6e-13                0.0017776            
  -1.15                 -0.0017908            -1.1682e-10           -7e-13                0.0017926            
  -1.2                  -0.0018062            -1.164e-10            -7e-13                0.0018074            
  -1.25                 -0.0018196            -1.1512e-10           -4.2e-13              0.0018218            
  -1.3                  -0.0018328            -1.1498e-10           -3.4e-13              0.001835             
  -1.35                 -0.001846             -1.1402e-10           -1.6e-13              0.0018474            
END_DB

