! VERSION = 6.00
BEGIN_HEADER
 ICCAP_INPUTS
  vd         V  D GROUND SMU1 0.1 LIN        1    -0         -1.35      28   -0.05     
  vg         V  G GROUND SMU2 0.001 LIN        2    -0.618     -1.35      5    -0.183    
  vb         V  B GROUND SMU4 0.1 CON        1.2
  vs         V  S GROUND SMU3 0.1 CON        -0
 ICCAP_OUTPUTS
  id         I  D GROUND SMU1 B
  ig         I  G GROUND SMU2 B
  ib         I  B GROUND SMU4 B
  is         I  S GROUND SMU3 B
 ICCAP_VALUES
  MASTER_SETUP_TYPE "~dc_idvd~"
  LINVT_VALUE "|idvg|100.0n|100.0m|1.000m|5|1.350|"
  LISTVT_VALUE ""
  TYPE "-1"
  TEMP " 27.0000 "
  IS_TNOM " 1.00000 "
  MAIN.W "600.0n"
  MAIN.L "500.0n"
  MAIN.AD "204.0f"
  MAIN.AS "204.0f"
  MAIN.PD "1.880u"
  MAIN.PS "1.880u"
  MAIN.NF "1.000"
  MAIN.M "1"
  MAIN.NRD "0.000"
  MAIN.NRS "0.000"
  MAIN.LDRIFT1 "1E-06"
  MAIN.LDRIFT2 "1E-06"
  MAIN.SA "0.000"
  MAIN.SB "0.000"
  MAIN.SD "0.000"
  MAIN.SCA "0.000"
  MAIN.SCB "0.000"
  MAIN.SCC "0.000"
  MAIN.SC "0.000"
  MODULE "S551"
  PIN_D "14"
  PIN_G "7"
  PIN_S "8"
  PIN_B "13"
  PIN_E ""
  PIN_6 ""
  XY_ID ""
  FUNC "LW Scale"
  STI "SA ref"
  WPE "WPE ref"
  COMMENT ""
  DIS_MEAS ""
  TypeTCI "10"
END_HEADER

BEGIN_DB
 ICCAP_VAR vg         -0.618         
 ICCAP_VAR vb         1.2            
 ICCAP_VAR vs         -0             

 #vd                    id                    ig                    ib                    is                   
  -0                    7.2206e-10            -1.54e-12             4.2e-13               -8.0336e-10          
  -0.05                 -4.0496e-07           -1.14e-12             3.4e-13               4.052e-07            
  -0.1                  -5.9736e-07           -1e-12                3.2e-13               5.9736e-07           
  -0.15                 -6.7608e-07           -8.8e-13              2.4e-13               6.7634e-07           
  -0.2                  -7.128e-07            -8.8e-13              1.4e-13               7.1364e-07           
  -0.25                 -7.362e-07            -8e-13                1.6e-13               7.3642e-07           
  -0.3                  -7.5322e-07           -9.2e-13              2.2e-13               7.5278e-07           
  -0.35                 -7.6846e-07           -8e-13                1.6e-13               7.6814e-07           
  -0.4                  -7.8158e-07           -7.2e-13              6e-14                 7.819e-07            
  -0.45                 -7.937e-07            -7.8e-13              8e-14                 7.9388e-07           
  -0.5                  -8.05e-07             -8.6e-13              8e-14                 8.0516e-07           
  -0.55                 -8.157e-07            -8e-13                6e-14                 8.1596e-07           
  -0.6                  -8.2698e-07           -7.8e-13              4e-14                 8.274e-07            
  -0.65                 -8.3666e-07           -5.6e-13              4e-14                 8.3694e-07           
  -0.7                  -8.4548e-07           -6.4e-13              2e-14                 8.445e-07            
  -0.75                 -8.5424e-07           -7.2e-13              0                     8.5448e-07           
  -0.8                  -8.6236e-07           -6.2e-13              6e-14                 8.6256e-07           
  -0.85                 -8.698e-07            -7.6e-13              8e-14                 8.7024e-07           
  -0.9                  -8.7758e-07           -7.2e-13              4e-14                 8.7758e-07           
  -0.95                 -8.8442e-07           -6.6e-13              8e-14                 8.849e-07            
  -1                    -8.9078e-07           -8.2e-13              1e-13                 8.9114e-07           
  -1.05                 -8.9736e-07           -5.8e-13              0                     8.9756e-07           
  -1.1                  -9.0406e-07           -3.8e-13              0                     9.0396e-07           
  -1.15                 -9.097e-07            -5.8e-13              2e-14                 9.1024e-07           
  -1.2                  -9.1564e-07           -4.4e-13              8e-14                 9.1574e-07           
  -1.25                 -9.2116e-07           -3.8e-13              1.8e-13               9.2154e-07           
  -1.3                  -9.2664e-07           -7e-13                2.2e-13               9.2692e-07           
  -1.35                 -9.3192e-07           -7e-13                4.6e-13               9.3214e-07           
END_DB

BEGIN_DB
 ICCAP_VAR vg         -0.801         
 ICCAP_VAR vb         1.2            
 ICCAP_VAR vs         -0             

 #vd                    id                    ig                    ib                    is                   
  -0                    2.1154e-09            -4.42e-12             2e-14                 -1.901e-09           
  -0.05                 -1.3854e-06           -3.78e-12             -2e-14                1.3896e-06           
  -0.1                  -2.4438e-06           -3.22e-12             -1e-13                2.4484e-06           
  -0.15                 -3.1874e-06           -3.14e-12             -4e-14                3.1954e-06           
  -0.2                  -3.658e-06            -2.74e-12             0                     3.6662e-06           
  -0.25                 -3.932e-06            -2.9e-12              0                     3.9374e-06           
  -0.3                  -4.0886e-06           -2.78e-12             -2e-14                4.0954e-06           
  -0.35                 -4.1996e-06           -2.7e-12              2e-14                 4.2036e-06           
  -0.4                  -4.2766e-06           -2.18e-12             -2e-14                4.28e-06             
  -0.45                 -4.3428e-06           -2.34e-12             4e-14                 4.3452e-06           
  -0.5                  -4.4012e-06           -2.52e-12             -2e-14                4.4042e-06           
  -0.55                 -4.4504e-06           -2.52e-12             -8e-14                4.4518e-06           
  -0.6                  -4.4932e-06           -2.32e-12             0                     4.4952e-06           
  -0.65                 -4.5378e-06           -2.36e-12             -1e-13                4.539e-06            
  -0.7                  -4.5766e-06           -2.28e-12             -4e-14                4.5788e-06           
  -0.75                 -4.6158e-06           -2.34e-12             -1.2e-13              4.6196e-06           
  -0.8                  -4.6488e-06           -2.46e-12             -1e-13                4.6536e-06           
  -0.85                 -4.6866e-06           -2.34e-12             -1e-13                4.6894e-06           
  -0.9                  -4.7214e-06           -2.24e-12             -6e-14                4.7222e-06           
  -0.95                 -4.748e-06            -2.42e-12             -1.4e-13              4.7538e-06           
  -1                    -4.7806e-06           -2.2e-12              -1.4e-13              4.7852e-06           
  -1.05                 -4.808e-06            -2.24e-12             -1.4e-13              4.816e-06            
  -1.1                  -4.836e-06            -2.46e-12             -1.2e-13              4.8434e-06           
  -1.15                 -4.8634e-06           -2.3e-12              -8e-14                4.8702e-06           
  -1.2                  -4.8922e-06           -2.12e-12             -6e-14                4.8942e-06           
  -1.25                 -4.9136e-06           -2.32e-12             -4e-14                4.92e-06             
  -1.3                  -4.9406e-06           -2.32e-12             8e-14                 4.9448e-06           
  -1.35                 -4.9654e-06           -2.24e-12             1.2e-13               4.9698e-06           
END_DB

BEGIN_DB
 ICCAP_VAR vg         -0.984         
 ICCAP_VAR vb         1.2            
 ICCAP_VAR vs         -0             

 #vd                    id                    ig                    ib                    is                   
  -0                    3.0534e-09            -1.16e-11             0                     -2.7346e-09          
  -0.05                 -2.3732e-06           -1.014e-11            -4e-14                2.3756e-06           
  -0.1                  -4.444e-06            -9.5e-12              2e-14                 4.4506e-06           
  -0.15                 -6.2028e-06           -8.5e-12              2e-14                 6.205e-06            
  -0.2                  -7.6396e-06           -7.58e-12             -8e-14                7.6452e-06           
  -0.25                 -8.7672e-06           -7.1e-12              -1e-13                8.7708e-06           
  -0.3                  -9.5974e-06           -6.82e-12             0                     9.6022e-06           
  -0.35                 -1.01624e-05          -6.58e-12             -4e-14                1.01824e-05          
  -0.4                  -1.05542e-05          -6.28e-12             -1.6e-13              1.05624e-05          
  -0.45                 -1.0819e-05           -6.16e-12             -1e-13                1.08286e-05          
  -0.5                  -1.10024e-05          -6.02e-12             0                     1.1004e-05           
  -0.55                 -1.1146e-05           -6.06e-12             0                     1.11612e-05          
  -0.6                  -1.1264e-05           -5.9e-12              -1.8e-13              1.12798e-05          
  -0.65                 -1.1374e-05           -5.76e-12             -1.4e-13              1.13878e-05          
  -0.7                  -1.147e-05            -6.2e-12              -1e-13                1.14878e-05          
  -0.75                 -1.1562e-05           -5.78e-12             -6e-14                1.1582e-05           
  -0.8                  -1.1652e-05           -5.76e-12             -6e-14                1.1672e-05           
  -0.85                 -1.1726e-05           -5.72e-12             -8e-14                1.1746e-05           
  -0.9                  -1.1804e-05           -5.74e-12             -6e-14                1.181e-05            
  -0.95                 -1.1862e-05           -5.76e-12             2e-14                 1.1888e-05           
  -1                    -1.1932e-05           -5.8e-12              -8e-14                1.1952e-05           
  -1.05                 -1.2e-05              -5.58e-12             -1.4e-13              1.201e-05            
  -1.1                  -1.206e-05            -5.44e-12             -1.6e-13              1.2084e-05           
  -1.15                 -1.2128e-05           -5.7e-12              -8e-14                1.215e-05            
  -1.2                  -1.219e-05            -5.66e-12             -2e-14                1.2206e-05           
  -1.25                 -1.225e-05            -5.52e-12             -8e-14                1.2266e-05           
  -1.3                  -1.2294e-05           -5.58e-12             -1.8e-13              1.2308e-05           
  -1.35                 -1.2342e-05           -5.58e-12             -6e-14                1.2362e-05           
END_DB

BEGIN_DB
 ICCAP_VAR vg         -1.167         
 ICCAP_VAR vb         1.2            
 ICCAP_VAR vs         -0             

 #vd                    id                    ig                    ib                    is                   
  -0                    3.3836e-09            -2.44e-11             1.4e-13               -3.5046e-09          
  -0.05                 -3.228e-06            -2.244e-11            -1e-13                3.2318e-06           
  -0.1                  -6.196e-06            -2.054e-11            -8e-14                6.2016e-06           
  -0.15                 -8.8928e-06           -1.926e-11            -1.2e-13              8.891e-06            
  -0.2                  -1.12934e-05          -1.77e-11             2e-14                 1.12964e-05          
  -0.25                 -1.3404e-05           -1.634e-11            -8e-14                1.3426e-05           
  -0.3                  -1.521e-05            -1.522e-11            -1.2e-13              1.5226e-05           
  -0.35                 -1.6718e-05           -1.454e-11            0                     1.6734e-05           
  -0.4                  -1.7906e-05           -1.378e-11            -1.2e-13              1.7946e-05           
  -0.45                 -1.8848e-05           -1.322e-11            -1.2e-13              1.8864e-05           
  -0.5                  -1.9538e-05           -1.276e-11            -1.2e-13              1.9568e-05           
  -0.55                 -2.003e-05            -1.248e-11            -8e-14                2.0058e-05           
  -0.6                  -2.0402e-05           -1.218e-11            -1.6e-13              2.0402e-05           
  -0.65                 -2.069e-05            -1.206e-11            -8e-14                2.0688e-05           
  -0.7                  -2.0886e-05           -1.196e-11            -1e-13                2.0922e-05           
  -0.75                 -2.1072e-05           -1.178e-11            -1e-13                2.1102e-05           
  -0.8                  -2.1232e-05           -1.16e-11             -1.4e-13              2.1254e-05           
  -0.85                 -2.139e-05            -1.152e-11            -1.6e-13              2.1408e-05           
  -0.9                  -2.1526e-05           -1.184e-11            -6e-14                2.1524e-05           
  -0.95                 -2.1656e-05           -1.168e-11            -4e-14                2.1674e-05           
  -1                    -2.1774e-05           -1.134e-11            -8e-14                2.1796e-05           
  -1.05                 -2.1888e-05           -1.142e-11            -1.8e-13              2.19e-05             
  -1.1                  -2.1994e-05           -1.13e-11             -1.4e-13              2.1994e-05           
  -1.15                 -2.2108e-05           -1.124e-11            -1.8e-13              2.2106e-05           
  -1.2                  -2.2194e-05           -1.15e-11             -4e-14                2.2228e-05           
  -1.25                 -2.2304e-05           -1.142e-11            -1.8e-13              2.2318e-05           
  -1.3                  -2.2386e-05           -1.134e-11            0                     2.2412e-05           
  -1.35                 -2.2486e-05           -1.11e-11             -1.8e-13              2.2486e-05           
END_DB

BEGIN_DB
 ICCAP_VAR vg         -1.35          
 ICCAP_VAR vb         1.2            
 ICCAP_VAR vs         -0             

 #vd                    id                    ig                    ib                    is                   
  -0                    3.5152e-09            -4.638e-11            3.2e-13               -3.9002e-09          
  -0.05                 -3.9426e-06           -4.31e-11             2.6e-13               3.9452e-06           
  -0.1                  -7.6624e-06           -3.99e-11             2e-13                 7.6636e-06           
  -0.15                 -1.1146e-05           -3.716e-11            2.2e-13               1.1156e-05           
  -0.2                  -1.4378e-05           -3.478e-11            4e-14                 1.44e-05             
  -0.25                 -1.737e-05            -3.224e-11            6e-14                 1.739e-05            
  -0.3                  -2.0094e-05           -3.044e-11            4e-14                 2.0106e-05           
  -0.35                 -2.252e-05            -2.88e-11             -1e-13                2.2532e-05           
  -0.4                  -2.466e-05            -2.692e-11            0                     2.4684e-05           
  -0.45                 -2.6518e-05           -2.582e-11            4e-14                 2.6546e-05           
  -0.5                  -2.8078e-05           -2.482e-11            -8e-14                2.8094e-05           
  -0.55                 -2.937e-05            -2.406e-11            -1.2e-13              2.9408e-05           
  -0.6                  -3.04e-05             -2.334e-11            -8e-14                3.042e-05            
  -0.65                 -3.1188e-05           -2.27e-11             -1e-13                3.1196e-05           
  -0.7                  -3.1792e-05           -2.228e-11            -6e-14                3.1814e-05           
  -0.75                 -3.2258e-05           -2.178e-11            -1e-13                3.229e-05            
  -0.8                  -3.2652e-05           -2.176e-11            -8e-14                3.2684e-05           
  -0.85                 -3.2944e-05           -2.158e-11            -1e-13                3.2982e-05           
  -0.9                  -3.3192e-05           -2.142e-11            -4e-14                3.3214e-05           
  -0.95                 -3.3446e-05           -2.104e-11            -1e-13                3.347e-05            
  -1                    -3.3658e-05           -2.128e-11            -4e-14                3.3646e-05           
  -1.05                 -3.383e-05            -2.1e-11              -2e-14                3.3852e-05           
  -1.1                  -3.4006e-05           -2.092e-11            -8e-14                3.401e-05            
  -1.15                 -3.415e-05            -2.072e-11            -2.2e-13              3.4158e-05           
  -1.2                  -3.429e-05            -2.088e-11            -4e-14                3.4352e-05           
  -1.25                 -3.4484e-05           -2.094e-11            6e-14                 3.4494e-05           
  -1.3                  -3.4618e-05           -2.076e-11            -2e-14                3.4646e-05           
  -1.35                 -3.476e-05            -2.044e-11            -1e-13                3.476e-05            
END_DB

