! VERSION = 6.00
BEGIN_HEADER
 ICCAP_INPUTS
  vd         V  D GROUND SMU1 0.1 LIN        1    -0         -1.35      28   -0.05     
  vg         V  G GROUND SMU2 0.001 LIN        2    -0.55      -1.35      5    -0.2      
  vb         V  B GROUND SMU4 0.1 CON        1.2
  vs         V  S GROUND SMU3 0.1 CON        -0
 ICCAP_OUTPUTS
  id         I  D GROUND SMU1 B
  ig         I  G GROUND SMU2 B
  ib         I  B GROUND SMU4 B
  is         I  S GROUND SMU3 B
 ICCAP_VALUES
  MASTER_SETUP_TYPE "~dc_idvd~"
  LINVT_VALUE "|idvg|100.0n|100.0m|1.000m|5|1.350|"
  LISTVT_VALUE ""
  TYPE "-1"
  TEMP " 125.000 "
  IS_TNOM " 0.00000 "
  MAIN.W "150.0n"
  MAIN.L "130.0n"
  MAIN.AD "100.5f"
  MAIN.AS "100.5f"
  MAIN.PD "1.340u"
  MAIN.PS "1.340u"
  MAIN.NF "1.000"
  MAIN.M "1"
  MAIN.NRD "0.000"
  MAIN.NRS "0.000"
  MAIN.LDRIFT1 "1E-06"
  MAIN.LDRIFT2 "1E-06"
  MAIN.SA "0.000"
  MAIN.SB "0.000"
  MAIN.SD "0.000"
  MAIN.SCA "0.000"
  MAIN.SCB "0.000"
  MAIN.SCC "0.000"
  MAIN.SC "0.000"
  MODULE "S554"
  PIN_D "16"
  PIN_G "5"
  PIN_S "6"
  PIN_B "15"
  PIN_E ""
  PIN_6 ""
  XY_ID ""
  FUNC "Small"
  STI "SA ref"
  WPE "WPE ref"
  COMMENT ""
  DIS_MEAS ""
  TypeTCI "10"
END_HEADER

BEGIN_DB
 ICCAP_VAR vg         -0.55          
 ICCAP_VAR vb         1.2            
 ICCAP_VAR vs         -0             

 #vd                    id                    ig                    ib                    is                   
  -0                    3.7848e-10            -6.4e-13              5.43e-11              -4.749e-10           
  -0.05                 -2.5676e-07           -4.2e-13              4.702e-11             2.566e-07            
  -0.1                  -3.8728e-07           -3.8e-13              4.46e-11              3.8728e-07           
  -0.15                 -4.5684e-07           -4.4e-13              4.23e-11              4.5696e-07           
  -0.2                  -5.0146e-07           -3e-13                3.92e-11              5.0174e-07           
  -0.25                 -5.3686e-07           -2.8e-13              3.678e-11             5.364e-07            
  -0.3                  -5.691e-07            -3.8e-13              3.524e-11             5.6984e-07           
  -0.35                 -6.0112e-07           -2.2e-13              3.386e-11             6.0052e-07           
  -0.4                  -6.3242e-07           -4.2e-13              3.218e-11             6.3224e-07           
  -0.45                 -6.6358e-07           -2.6e-13              3.11e-11              6.6364e-07           
  -0.5                  -6.9538e-07           -2e-13                2.92e-11              6.8884e-07           
  -0.55                 -7.278e-07            -2.2e-13              2.884e-11             7.2798e-07           
  -0.6                  -7.6054e-07           -2.6e-13              2.778e-11             7.6148e-07           
  -0.65                 -7.9482e-07           -2.4e-13              2.672e-11             7.9492e-07           
  -0.7                  -8.292e-07            -1.8e-13              2.568e-11             8.2976e-07           
  -0.75                 -8.651e-07            -3.2e-13              2.496e-11             8.6504e-07           
  -0.8                  -8.9808e-07           -1.6e-13              2.408e-11             9.0074e-07           
  -0.85                 -9.3828e-07           -1e-13                2.362e-11             9.2692e-07           
  -0.9                  -9.7612e-07           -2.2e-13              2.268e-11             9.7564e-07           
  -0.95                 -1.0151e-06           -2.2e-13              2.26e-11              1.01558e-06          
  -1                    -1.05498e-06          -2.4e-13              2.164e-11             1.05512e-06          
  -1.05                 -1.09642e-06          -1.6e-13              2.092e-11             1.08666e-06          
  -1.1                  -1.13878e-06          -2.6e-13              2.072e-11             1.13176e-06          
  -1.15                 -1.175e-06            -8e-14                1.974e-11             1.1838e-06           
  -1.2                  -1.2258e-06           -1.4e-13              2.004e-11             1.229e-06            
  -1.25                 -1.2698e-06           0                     2.104e-11             1.2752e-06           
  -1.3                  -1.3196e-06           -1.2e-13              2.148e-11             1.3228e-06           
  -1.35                 -1.368e-06            2e-14                 2.372e-11             1.3718e-06           
END_DB

BEGIN_DB
 ICCAP_VAR vg         -0.75          
 ICCAP_VAR vb         1.2            
 ICCAP_VAR vs         -0             

 #vd                    id                    ig                    ib                    is                   
  -0                    1.721e-09             -7.8e-13              1.328e-11             -1.473e-09           
  -0.05                 -1.3204e-06           -7.6e-13              1.28e-11              1.3144e-06           
  -0.1                  -2.3234e-06           -6.4e-13              1.306e-11             2.3332e-06           
  -0.15                 -3.063e-06            -4.6e-13              1.318e-11             3.0544e-06           
  -0.2                  -3.5776e-06           -5.2e-13              1.3e-11               3.5718e-06           
  -0.25                 -3.969e-06            -5.4e-13              1.294e-11             3.9712e-06           
  -0.3                  -4.2564e-06           -5.2e-13              1.276e-11             4.286e-06            
  -0.35                 -4.4876e-06           -4.6e-13              1.21e-11              4.506e-06            
  -0.4                  -4.6962e-06           -4.8e-13              1.2e-11               4.6886e-06           
  -0.45                 -4.8638e-06           -3.2e-13              1.23e-11              4.8704e-06           
  -0.5                  -5.0288e-06           -3.6e-13              1.268e-11             5.032e-06            
  -0.55                 -5.19e-06             -4.6e-13              1.216e-11             5.1918e-06           
  -0.6                  -5.3864e-06           -3.4e-13              1.19e-11              5.3498e-06           
  -0.65                 -5.5014e-06           -3.6e-13              1.176e-11             5.5018e-06           
  -0.7                  -5.651e-06            -5.2e-13              1.156e-11             5.6588e-06           
  -0.75                 -5.8064e-06           -4e-13                1.164e-11             5.8104e-06           
  -0.8                  -5.9532e-06           -4e-13                1.14e-11              5.9582e-06           
  -0.85                 -6.115e-06            -4.4e-13              1.164e-11             6.1058e-06           
  -0.9                  -6.2534e-06           -4.2e-13              1.116e-11             6.2596e-06           
  -0.95                 -6.414e-06            -5e-13                1.2e-11               6.4044e-06           
  -1                    -6.5582e-06           -4.2e-13              1.096e-11             6.5592e-06           
  -1.05                 -6.7102e-06           -5.2e-13              1.11e-11              6.7144e-06           
  -1.1                  -6.882e-06            -3.6e-13              1.12e-11              6.8682e-06           
  -1.15                 -7.0164e-06           -3.8e-13              1.096e-11             7.023e-06            
  -1.2                  -7.1754e-06           -4e-13                1.17e-11              7.1734e-06           
  -1.25                 -7.3346e-06           -4e-13                1.278e-11             7.331e-06            
  -1.3                  -7.5118e-06           -4.2e-13              1.444e-11             7.4914e-06           
  -1.35                 -7.6608e-06           -4e-13                1.798e-11             7.6542e-06           
END_DB

BEGIN_DB
 ICCAP_VAR vg         -0.95          
 ICCAP_VAR vb         1.2            
 ICCAP_VAR vs         -0             

 #vd                    id                    ig                    ib                    is                   
  -0                    2.547e-09             -1.6e-12              8.62e-12              -2.4082e-09          
  -0.05                 -2.559e-06            -1.44e-12             8.6e-12               2.5582e-06           
  -0.1                  -4.777e-06            -1.3e-12              9e-12                 4.7984e-06           
  -0.15                 -6.655e-06            -1.2e-12              8.6e-12               6.6832e-06           
  -0.2                  -8.3054e-06           -1.32e-12             9.18e-12              8.3482e-06           
  -0.25                 -9.639e-06            -9.6e-13              9.18e-12              9.6498e-06           
  -0.3                  -1.07104e-05          -1e-12                8.56e-12              1.07078e-05          
  -0.35                 -1.1516e-05           -1.08e-12             8.04e-12              1.1572e-05           
  -0.4                  -1.2262e-05           -1e-12                8.58e-12              1.2262e-05           
  -0.45                 -1.283e-05            -9.8e-13              8.62e-12              1.2842e-05           
  -0.5                  -1.3326e-05           -9.4e-13              8.74e-12              1.3332e-05           
  -0.55                 -1.3742e-05           -8e-13                8.26e-12              1.3754e-05           
  -0.6                  -1.4142e-05           -8.6e-13              8.94e-12              1.4164e-05           
  -0.65                 -1.4514e-05           -8.6e-13              8.18e-12              1.455e-05            
  -0.7                  -1.489e-05            -8.8e-13              8.56e-12              1.486e-05            
  -0.75                 -1.517e-05            -7.4e-13              8.46e-12              1.5218e-05           
  -0.8                  -1.5538e-05           -8.4e-13              8.02e-12              1.5544e-05           
  -0.85                 -1.5834e-05           -9.2e-13              8.84e-12              1.5862e-05           
  -0.9                  -1.6138e-05           -8.4e-13              8.38e-12              1.6162e-05           
  -0.95                 -1.6458e-05           -8.2e-13              7.96e-12              1.6466e-05           
  -1                    -1.6724e-05           -7.4e-13              8.24e-12              1.6726e-05           
  -1.05                 -1.7032e-05           -7e-13                8.24e-12              1.7032e-05           
  -1.1                  -1.7324e-05           -8.8e-13              8.28e-12              1.736e-05            
  -1.15                 -1.761e-05            -8.6e-13              8.24e-12              1.7658e-05           
  -1.2                  -1.7922e-05           -7.8e-13              8.82e-12              1.7942e-05           
  -1.25                 -1.8102e-05           -8.2e-13              9.3e-12               1.8064e-05           
  -1.3                  -1.8478e-05           -7.6e-13              1.068e-11             1.8498e-05           
  -1.35                 -1.8806e-05           -8.6e-13              1.32e-11              1.8818e-05           
END_DB

BEGIN_DB
 ICCAP_VAR vg         -1.15          
 ICCAP_VAR vb         1.2            
 ICCAP_VAR vs         -0             

 #vd                    id                    ig                    ib                    is                   
  -0                    2.9052e-09            -3.22e-12             6.72e-12              -3.1372e-09          
  -0.05                 -3.666e-06            -2.88e-12             6e-12                 3.6678e-06           
  -0.1                  -7.008e-06            -2.68e-12             6.92e-12              7.033e-06            
  -0.15                 -1.00672e-05          -2.54e-12             6.78e-12              1.00986e-05          
  -0.2                  -1.285e-05            -2.48e-12             6.46e-12              1.285e-05            
  -0.25                 -1.5298e-05           -2.1e-12              7.26e-12              1.5338e-05           
  -0.3                  -1.7356e-05           -2.1e-12              6.64e-12              1.7438e-05           
  -0.35                 -1.9264e-05           -2.02e-12             6.96e-12              1.9168e-05           
  -0.4                  -2.0754e-05           -1.88e-12             6.9e-12               2.0662e-05           
  -0.45                 -2.22e-05             -1.96e-12             6.88e-12              2.2172e-05           
  -0.5                  -2.3284e-05           -1.66e-12             6.8e-12               2.3278e-05           
  -0.55                 -2.4334e-05           -1.62e-12             6.76e-12              2.4344e-05           
  -0.6                  -2.5166e-05           -1.56e-12             6.86e-12              2.514e-05            
  -0.65                 -2.5716e-05           -1.64e-12             6.82e-12              2.5778e-05           
  -0.7                  -2.6382e-05           -1.7e-12              6.68e-12              2.6462e-05           
  -0.75                 -2.715e-05            -1.62e-12             6.76e-12              2.7202e-05           
  -0.8                  -2.7606e-05           -1.72e-12             6.96e-12              2.778e-05            
  -0.85                 -2.8302e-05           -1.6e-12              6.64e-12              2.826e-05            
  -0.9                  -2.8768e-05           -1.48e-12             6.54e-12              2.8662e-05           
  -0.95                 -2.9266e-05           -1.42e-12             6.94e-12              2.9212e-05           
  -1                    -2.9728e-05           -1.54e-12             6.6e-12               2.9784e-05           
  -1.05                 -3.0234e-05           -1.52e-12             6.36e-12              3.0146e-05           
  -1.1                  -3.0676e-05           -1.38e-12             6.94e-12              3.0616e-05           
  -1.15                 -3.1068e-05           -1.36e-12             6.76e-12              3.1104e-05           
  -1.2                  -3.1444e-05           -1.34e-12             7.1e-12               3.1474e-05           
  -1.25                 -3.1894e-05           -1.5e-12              7.24e-12              3.1932e-05           
  -1.3                  -3.2402e-05           -1.46e-12             7.86e-12              3.2256e-05           
  -1.35                 -3.2674e-05           -1.44e-12             9.6e-12               3.2822e-05           
END_DB

BEGIN_DB
 ICCAP_VAR vg         -1.35          
 ICCAP_VAR vb         1.2            
 ICCAP_VAR vs         -0             

 #vd                    id                    ig                    ib                    is                   
  -0                    3.2656e-09            -5.96e-12             5.68e-12              -3.8102e-09          
  -0.05                 -4.6104e-06           -5.48e-12             5.24e-12              4.626e-06            
  -0.1                  -8.9766e-06           -5.02e-12             6.1e-12               8.978e-06            
  -0.15                 -1.3056e-05           -4.66e-12             5.32e-12              1.3062e-05           
  -0.2                  -1.682e-05            -4.32e-12             5.74e-12              1.6826e-05           
  -0.25                 -2.0276e-05           -4.22e-12             5.86e-12              2.0272e-05           
  -0.3                  -2.3424e-05           -4e-12                6e-12                 2.3412e-05           
  -0.35                 -2.6258e-05           -3.7e-12              5.92e-12              2.631e-05            
  -0.4                  -2.8772e-05           -3.36e-12             6.34e-12              2.8838e-05           
  -0.45                 -3.1012e-05           -3.38e-12             5.88e-12              3.0992e-05           
  -0.5                  -3.305e-05            -3.16e-12             5.7e-12               3.2886e-05           
  -0.55                 -3.4692e-05           -3.22e-12             6.12e-12              3.4624e-05           
  -0.6                  -3.623e-05            -3.04e-12             5.72e-12              3.6248e-05           
  -0.65                 -3.7736e-05           -2.96e-12             6.1e-12               3.7558e-05           
  -0.7                  -3.8724e-05           -2.86e-12             6.16e-12              3.8912e-05           
  -0.75                 -4e-05                -2.82e-12             5.6e-12               3.9914e-05           
  -0.8                  -4.0944e-05           -2.84e-12             5.48e-12              4.098e-05            
  -0.85                 -4.1826e-05           -2.88e-12             6.66e-12              4.1716e-05           
  -0.9                  -4.2668e-05           -2.76e-12             5.9e-12               4.2622e-05           
  -0.95                 -4.3328e-05           -2.62e-12             5.9e-12               4.3368e-05           
  -1                    -4.4124e-05           -2.66e-12             6.08e-12              4.4092e-05           
  -1.05                 -4.4882e-05           -2.6e-12              5.84e-12              4.477e-05            
  -1.1                  -4.5406e-05           -2.64e-12             5.94e-12              4.5458e-05           
  -1.15                 -4.6004e-05           -2.54e-12             5.78e-12              4.6002e-05           
  -1.2                  -4.6824e-05           -2.54e-12             5.98e-12              4.6664e-05           
  -1.25                 -4.7402e-05           -2.7e-12              6.44e-12              4.7368e-05           
  -1.3                  -4.7918e-05           -2.54e-12             6.56e-12              4.7982e-05           
  -1.35                 -4.852e-05            -2.68e-12             7.82e-12              4.8512e-05           
END_DB

