! VERSION = 6.00
BEGIN_HEADER
 ICCAP_INPUTS
  vg         V  G GROUND SMU2 0.001 LIN        1    0.5        -1.35      38   -0.05     
  vb         V  B GROUND SMU4 0.1 LIN        2    0          1.2        7    0.2       
  vd         V  D GROUND SMU1 0.1 LIST       3 3 -0.05 -0.6 -1.2
  vs         V  S GROUND SMU3 0.1 CON        -0
 ICCAP_OUTPUTS
  id         I  D GROUND SMU1 B
  ig         I  G GROUND SMU2 B
  ib         I  B GROUND SMU4 B
  is         I  S GROUND SMU3 B
 ICCAP_VALUES
  MASTER_SETUP_TYPE "~dc_idvg~"
  LINVT_VALUE ""
  LISTVT_VALUE ""
  TYPE "-1"
  TEMP " 27.0000 "
  IS_TNOM " 1.00000 "
  MAIN.W "10.00u"
  MAIN.L "130.0n"
  MAIN.AD "3.400p"
  MAIN.AS "3.400p"
  MAIN.PD "20.68u"
  MAIN.PS "20.68u"
  MAIN.NF "1.000"
  MAIN.M "1"
  MAIN.NRD "0.000"
  MAIN.NRS "0.000"
  MAIN.LDRIFT1 "1E-06"
  MAIN.LDRIFT2 "1E-06"
  MAIN.SA "0.000"
  MAIN.SB "0.000"
  MAIN.SD "0.000"
  MAIN.SCA "0.000"
  MAIN.SCB "0.000"
  MAIN.SCC "0.000"
  MAIN.SC "0.000"
  MODULE "S548"
  PIN_D "18"
  PIN_G "3"
  PIN_S "4"
  PIN_B "17"
  PIN_E ""
  PIN_6 ""
  XY_ID ""
  FUNC "Short"
  STI "SA ref"
  WPE "WPE ref"
  COMMENT ""
  DIS_MEAS ""
  TypeTCI "10"
END_HEADER

BEGIN_DB
 ICCAP_VAR vb         0              
 ICCAP_VAR vd         -0.05          
 ICCAP_VAR vs         -0             

 #vg                    id                    ig                    ib                    is                   
  0.5                   -2.42e-12             2.494e-11             -6.46e-12             -3.48e-12            
  0.45                  -1.8e-12              7.16e-12              -2.04e-12             -2.62e-12            
  0.4                   -1.34e-12             3.52e-12              -1.34e-12             -1.96e-12            
  0.35                  -1.14e-12             2.26e-12              -1.14e-12             -1.54e-12            
  0.3                   -9.4e-13              1.62e-12              -9.8e-13              -1.08e-12            
  0.25                  -6e-13                9.6e-13               -1.14e-12             -5.8e-13             
  0.2                   -6.8e-13              5.4e-13               -1.1e-12              -3.2e-13             
  0.15                  -1.2e-12              3.2e-13               -9.2e-13              3.8e-13              
  0.1                   -3.06e-12             -4e-14                -1.06e-12             2.82e-12             
  0.05                  -1.28e-11             -4e-14                -9e-13                1.252e-11            
  0                     -5.414e-11            -3.4e-13              -1.02e-12             5.406e-11            
  -0.05                 -2.3458e-10           -3.2e-13              -8.4e-13              2.3438e-10           
  -0.1                  -1.02302e-09          -5.2e-13              -9.2e-13              1.0232e-09           
  -0.15                 -4.4718e-09           -6e-13                -1e-12                4.4738e-09           
  -0.2                  -1.939e-08            -8.4e-13              -1.02e-12             1.9428e-08           
  -0.25                 -8.2696e-08           -9.4e-13              -1e-12                8.265e-08            
  -0.3                  -3.3566e-07           -1.18e-12             -7.6e-13              3.3494e-07           
  -0.35                 -1.2226e-06           -1.6e-12              -8.2e-13              1.2246e-06           
  -0.4                  -3.755e-06            -2.48e-12             -9.6e-13              3.7546e-06           
  -0.45                 -9.293e-06            -3.4e-12              -8.8e-13              9.2838e-06           
  -0.5                  -1.866e-05            -4.64e-12             -9.2e-13              1.8678e-05           
  -0.55                 -3.1512e-05           -6.7e-12              -9e-13                3.1536e-05           
  -0.6                  -4.6832e-05           -9.32e-12             -8.4e-13              4.6832e-05           
  -0.65                 -6.3394e-05           -1.28e-11             -9.4e-13              6.3422e-05           
  -0.7                  -8.041e-05            -1.712e-11            -8.6e-13              8.0396e-05           
  -0.75                 -9.7224e-05           -2.262e-11            -9.2e-13              9.7238e-05           
  -0.8                  -0.0001137            -2.938e-11            -8.2e-13              0.000113676          
  -0.85                 -0.00012928           -3.766e-11            -9e-13                0.00012956           
  -0.9                  -0.0001443            -4.772e-11            -8.8e-13              0.00014458           
  -0.95                 -0.00015864           -5.976e-11            -9.4e-13              0.00015892           
  -1                    -0.00017208           -7.408e-11            -8.8e-13              0.00017238           
  -1.05                 -0.00018474           -9.06e-11             -7.2e-13              0.00018508           
  -1.1                  -0.00019686           -1.0994e-10           -9e-13                0.00019712           
  -1.15                 -0.00020822           -1.3196e-10           -7.8e-13              0.0002085            
  -1.2                  -0.00021888           -1.5732e-10           -6.8e-13              0.00021912           
  -1.25                 -0.00022894           -1.8636e-10           -4e-13                0.0002294            
  -1.3                  -0.00023848           -2.1892e-10           8e-14                 0.0002388            
  -1.35                 -0.00024736           -2.562e-10            1.1e-12               0.00024772           
END_DB

BEGIN_DB
 ICCAP_VAR vb         0.2            
 ICCAP_VAR vd         -0.05          
 ICCAP_VAR vs         -0             

 #vg                    id                    ig                    ib                    is                   
  0.5                   -2.04e-12             5.56e-12              4e-14                 -3.34e-12            
  0.45                  -1.56e-12             4.22e-12              0                     -2.64e-12            
  0.4                   -1.2e-12              3.1e-12               6e-14                 -1.92e-12            
  0.35                  -8.8e-13              2.22e-12              -4e-14                -1.3e-12             
  0.3                   -7.8e-13              1.48e-12              -2e-14                -1.02e-12            
  0.25                  -5e-13                1.04e-12              1e-13                 -7e-13               
  0.2                   -4e-13                6.4e-13               -1e-13                -4e-13               
  0.15                  -5e-13                3e-13                 -4e-14                -2e-14               
  0.1                   -9.2e-13              6e-14                 0                     6.4e-13              
  0.05                  -3.68e-12             -4e-14                -2e-14                3.5e-12              
  0                     -1.604e-11            -3e-13                2e-14                 1.612e-11            
  -0.05                 -7.244e-11            -3.2e-13              2e-13                 7.228e-11            
  -0.1                  -3.271e-10            -5e-13                -1.2e-13              3.2754e-10           
  -0.15                 -1.4796e-09           -5.4e-13              8e-14                 1.4798e-09           
  -0.2                  -6.6354e-09           -6.8e-13              -2e-14                6.6384e-09           
  -0.25                 -2.9542e-08           -8.8e-13              -2e-14                2.957e-08            
  -0.3                  -1.2754e-07           -1.12e-12             -8e-14                1.2758e-07           
  -0.35                 -5.129e-07            -1.62e-12             2e-14                 5.128e-07            
  -0.4                  -1.8078e-06           -2.36e-12             1.2e-13               1.8024e-06           
  -0.45                 -5.1892e-06           -3.24e-12             -4e-14                5.1812e-06           
  -0.5                  -1.1936e-05           -4.4e-12              1e-13                 1.1938e-05           
  -0.55                 -2.246e-05            -6.42e-12             -1e-13                2.2484e-05           
  -0.6                  -3.6092e-05           -8.96e-12             8e-14                 3.6118e-05           
  -0.65                 -5.1688e-05           -1.234e-11            -2e-14                5.1726e-05           
  -0.7                  -6.813e-05            -1.682e-11            -1.2e-13              6.8118e-05           
  -0.75                 -8.4776e-05           -2.228e-11            8e-14                 8.4798e-05           
  -0.8                  -0.000101126          -2.892e-11            -1.6e-13              0.000101098          
  -0.85                 -0.0001168            -3.714e-11            0                     0.00011706           
  -0.9                  -0.00013196           -4.736e-11            -4e-14                0.00013222           
  -0.95                 -0.00014638           -5.932e-11            -2e-14                0.0001466            
  -1                    -0.00016002           -7.344e-11            -6e-14                0.00016034           
  -1.05                 -0.00017298           -8.998e-11            -6e-14                0.00017328           
  -1.1                  -0.00018518           -1.0904e-10           4e-14                 0.0001855            
  -1.15                 -0.00019676           -1.311e-10            -6e-14                0.00019704           
  -1.2                  -0.00020762           -1.5666e-10           1e-13                 0.00020796           
  -1.25                 -0.00021788           -1.8574e-10           4.2e-13               0.00021814           
  -1.3                  -0.00022744           -2.1926e-10           8e-13                 0.00022772           
  -1.35                 -0.00023652           -2.563e-10            1.76e-12              0.00023684           
END_DB

BEGIN_DB
 ICCAP_VAR vb         0.4            
 ICCAP_VAR vd         -0.05          
 ICCAP_VAR vs         -0             

 #vg                    id                    ig                    ib                    is                   
  0.5                   -2.18e-12             5.6e-12               4e-14                 -3.28e-12            
  0.45                  -1.66e-12             4.18e-12              -2e-14                -2.66e-12            
  0.4                   -1.16e-12             3.06e-12              -1e-13                -1.82e-12            
  0.35                  -9e-13                2.18e-12              6e-14                 -1.38e-12            
  0.3                   -7.4e-13              1.58e-12              -1.2e-13              -9.6e-13             
  0.25                  -5.2e-13              1.06e-12              6e-14                 -6.6e-13             
  0.2                   -3.4e-13              6.6e-13               8e-14                 -4e-13               
  0.15                  -2.4e-13              2.8e-13               4e-14                 -6e-14               
  0.1                   -3.4e-13              1e-13                 6e-14                 2.2e-13              
  0.05                  -1.26e-12             -1e-13                -1.2e-13              1.28e-12             
  0                     -5.86e-12             -2.4e-13              1e-13                 5.78e-12             
  -0.05                 -2.656e-11            -3.6e-13              8e-14                 2.67e-11             
  -0.1                  -1.2322e-10           -4e-13                6e-14                 1.2348e-10           
  -0.15                 -5.7144e-10           -5.8e-13              2e-14                 5.7152e-10           
  -0.2                  -2.631e-09            -6e-13                -1.2e-13              2.6318e-09           
  -0.25                 -1.2042e-08           -8.6e-13              4e-14                 1.2066e-08           
  -0.3                  -5.4102e-08           -1.18e-12             4e-14                 5.4098e-08           
  -0.35                 -2.3102e-07           -1.6e-12              0                     2.3128e-07           
  -0.4                  -8.94e-07             -2.18e-12             2e-14                 8.9592e-07           
  -0.45                 -2.9154e-06           -3.02e-12             -6e-14                2.913e-06            
  -0.5                  -7.6376e-06           -4.36e-12             1e-13                 7.629e-06            
  -0.55                 -1.5992e-05           -6.18e-12             4e-14                 1.598e-05            
  -0.6                  -2.7846e-05           -8.7e-12              0                     2.7874e-05           
  -0.65                 -4.2302e-05           -1.2e-11              -1.2e-13              4.232e-05            
  -0.7                  -5.815e-05            -1.638e-11            6e-14                 5.8148e-05           
  -0.75                 -7.4438e-05           -2.176e-11            -8e-14                7.4456e-05           
  -0.8                  -9.0716e-05           -2.846e-11            -4e-14                9.0734e-05           
  -0.85                 -0.000106564          -3.674e-11            -4e-14                0.000106552          
  -0.9                  -0.00012158           -4.666e-11            -6e-14                0.00012186           
  -0.95                 -0.00013606           -5.854e-11            4e-14                 0.00013638           
  -1                    -0.00014992           -7.286e-11            -1.4e-13              0.00015022           
  -1.05                 -0.000163             -8.902e-11            2e-14                 0.00016328           
  -1.1                  -0.00017524           -1.08e-10             4e-14                 0.00017562           
  -1.15                 -0.00018708           -1.3038e-10           0                     0.00018726           
  -1.2                  -0.00019796           -1.554e-10            1.6e-13               0.00019828           
  -1.25                 -0.00020836           -1.842e-10            4.6e-13               0.0002087            
  -1.3                  -0.00021824           -2.172e-10            9e-13                 0.00021848           
  -1.35                 -0.00022736           -2.5416e-10           1.94e-12              0.0002276            
END_DB

BEGIN_DB
 ICCAP_VAR vb         0.6            
 ICCAP_VAR vd         -0.05          
 ICCAP_VAR vs         -0             

 #vg                    id                    ig                    ib                    is                   
  0.5                   -1.9e-12              5.54e-12              4e-14                 -3.28e-12            
  0.45                  -1.48e-12             4.16e-12              2e-13                 -2.66e-12            
  0.4                   -1e-12                3.04e-12              -2e-14                -1.82e-12            
  0.35                  -8.6e-13              2.26e-12              6e-14                 -1.36e-12            
  0.3                   -6.6e-13              1.54e-12              1.2e-13               -9.4e-13             
  0.25                  -4.2e-13              1e-12                 6e-14                 -6.2e-13             
  0.2                   -3.4e-13              5.6e-13               2e-14                 -4.2e-13             
  0.15                  -1.2e-13              4e-13                 2e-14                 -1.8e-13             
  0.1                   -2.6e-13              8e-14                 1.4e-13               4e-14                
  0.05                  -5.6e-13              -1.2e-13              4e-14                 4.8e-13              
  0                     -2.4e-12              -2.8e-13              2e-14                 2.48e-12             
  -0.05                 -1.11e-11             -3.4e-13              4e-14                 1.126e-11            
  -0.1                  -5.27e-11             -4.4e-13              8e-14                 5.286e-11            
  -0.15                 -2.4898e-10           -5.8e-13              -4e-14                2.4912e-10           
  -0.2                  -1.168e-09            -6.8e-13              8e-14                 1.1684e-09           
  -0.25                 -5.4546e-09           -8.8e-13              -1e-13                5.4538e-09           
  -0.3                  -2.5158e-08           -1.22e-12             0                     2.5188e-08           
  -0.35                 -1.11788e-07          -1.4e-12              4e-14                 1.11748e-07          
  -0.4                  -4.6308e-07           -2.1e-12              4e-14                 4.6278e-07           
  -0.45                 -1.6602e-06           -3.02e-12             -4e-14                1.665e-06            
  -0.5                  -4.8696e-06           -4.16e-12             1e-13                 4.8706e-06           
  -0.55                 -1.13566e-05          -5.96e-12             2e-14                 1.13384e-05          
  -0.6                  -2.1522e-05           -8.42e-12             0                     2.1536e-05           
  -0.65                 -3.473e-05            -1.17e-11             6e-14                 3.4724e-05           
  -0.7                  -4.9758e-05           -1.598e-11            8e-14                 4.9762e-05           
  -0.75                 -6.5692e-05           -2.134e-11            4e-14                 6.5694e-05           
  -0.8                  -8.1748e-05           -2.814e-11            0                     8.1726e-05           
  -0.85                 -9.7552e-05           -3.62e-11             -4e-14                9.7502e-05           
  -0.9                  -0.000112782          -4.61e-11             -4e-14                0.000112744          
  -0.95                 -0.00012714           -5.798e-11            -4e-14                0.00012748           
  -1                    -0.00014102           -7.21e-11             -6e-14                0.00014126           
  -1.05                 -0.00015424           -8.848e-11            -6e-14                0.00015458           
  -1.1                  -0.0001667            -1.0756e-10           -8e-14                0.00016702           
  -1.15                 -0.00017854           -1.2938e-10           6e-14                 0.00017882           
  -1.2                  -0.00018964           -1.5524e-10           1.2e-13               0.00019004           
  -1.25                 -0.00020026           -1.8294e-10           4.4e-13               0.00020062           
  -1.3                  -0.00021024           -2.164e-10            9.2e-13               0.00021044           
  -1.35                 -0.00021946           -2.5296e-10           1.88e-12              0.00021978           
END_DB

BEGIN_DB
 ICCAP_VAR vb         0.8            
 ICCAP_VAR vd         -0.05          
 ICCAP_VAR vs         -0             

 #vg                    id                    ig                    ib                    is                   
  0.5                   -1.86e-12             5.46e-12              2e-13                 -3.34e-12            
  0.45                  -1.32e-12             4.12e-12              -4e-14                -2.32e-12            
  0.4                   -1.26e-12             3.06e-12              8e-14                 -2.04e-12            
  0.35                  -7e-13                2.18e-12              4e-14                 -1.28e-12            
  0.3                   -5.8e-13              1.52e-12              -4e-14                -9e-13               
