! VERSION = 6.00
BEGIN_HEADER
 ICCAP_INPUTS
  vg         V  G GROUND SMU2 0.001 LIN        1    0.5        -1.35      38   -0.05     
  vb         V  B GROUND SMU4 0.1 LIN        2    0          1.2        7    0.2       
  vd         V  D GROUND SMU1 0.1 LIST       3 3 -0.05 -0.6 -1.2
  vs         V  S GROUND SMU3 0.1 CON        -0
 ICCAP_OUTPUTS
  id         I  D GROUND SMU1 B
  ig         I  G GROUND SMU2 B
  ib         I  B GROUND SMU4 B
  is         I  S GROUND SMU3 B
 ICCAP_VALUES
  MASTER_SETUP_TYPE "~dc_idvg~"
  LINVT_VALUE ""
  LISTVT_VALUE ""
  TYPE "-1"
  TEMP " 27.0000 "
  IS_TNOM " 1.00000 "
  MAIN.W "10.00u"
  MAIN.L "180.0n"
  MAIN.AD "3.400p"
  MAIN.AS "3.400p"
  MAIN.PD "20.68u"
  MAIN.PS "20.68u"
  MAIN.NF "1.000"
  MAIN.M "1"
  MAIN.NRD "0.000"
  MAIN.NRS "0.000"
  MAIN.LDRIFT1 "1E-06"
  MAIN.LDRIFT2 "1E-06"
  MAIN.SA "0.000"
  MAIN.SB "0.000"
  MAIN.SD "0.000"
  MAIN.SCA "0.000"
  MAIN.SCB "0.000"
  MAIN.SCC "0.000"
  MAIN.SC "0.000"
  MODULE "S548"
  PIN_D "12"
  PIN_G "9"
  PIN_S "10"
  PIN_B "11"
  PIN_E ""
  PIN_6 ""
  XY_ID ""
  FUNC "L Scale"
  STI "SA ref"
  WPE "WPE ref"
  COMMENT ""
  DIS_MEAS ""
  TypeTCI "10"
END_HEADER

BEGIN_DB
 ICCAP_VAR vb         0              
 ICCAP_VAR vd         -0.05          
 ICCAP_VAR vs         -0             

 #vg                    id                    ig                    ib                    is                   
  0.5                   -1.84e-12             2.25e-11              -5.86e-12             -2.14e-12            
  0.45                  -1.5e-12              5.8e-12               -1.96e-12             -1.7e-12             
  0.4                   -1.12e-12             2.84e-12              -1.08e-12             -1.3e-12             
  0.35                  -8.4e-13              1.76e-12              -1.04e-12             -8e-13               
  0.3                   -6.4e-13              1.28e-12              -1.02e-12             -7.2e-13             
  0.25                  -5.8e-13              6.8e-13               -1.16e-12             -3.4e-13             
  0.2                   -5.8e-13              3.6e-13               -8.8e-13              -1.2e-13             
  0.15                  -9.6e-13              8e-14                 -1e-12                5.2e-13              
  0.1                   -3.34e-12             -2e-13                -1.1e-12              3.2e-12              
  0.05                  -1.384e-11            -1.6e-13              -1.02e-12             1.356e-11            
  0                     -6.154e-11            -4.2e-13              -1.04e-12             6.166e-11            
  -0.05                 -2.7844e-10           -3.6e-13              -9.8e-13              2.78e-10             
  -0.1                  -1.2672e-09           -2.6e-13              -9.8e-13              1.2672e-09           
  -0.15                 -5.776e-09            -4.4e-13              -9.4e-13              5.7808e-09           
  -0.2                  -2.6156e-08           -6.2e-13              -9.2e-13              2.6204e-08           
  -0.25                 -1.158e-07            -9e-13                -1.08e-12             1.1594e-07           
  -0.3                  -4.7674e-07           -1.06e-12             -9.2e-13              4.7722e-07           
  -0.35                 -1.6796e-06           -1.44e-12             -9.2e-13              1.6796e-06           
  -0.4                  -4.7202e-06           -1.96e-12             -8.8e-13              4.722e-06            
  -0.45                 -1.04244e-05          -2.84e-12             -1.04e-12             1.04256e-05          
  -0.5                  -1.8792e-05           -3.96e-12             -1e-12                1.8792e-05           
  -0.55                 -2.9104e-05           -5.96e-12             -9.6e-13              2.9094e-05           
  -0.6                  -4.0536e-05           -8.16e-12             -9.2e-13              4.055e-05            
  -0.65                 -5.2476e-05           -1.148e-11            -8.8e-13              5.2486e-05           
  -0.7                  -6.4454e-05           -1.564e-11            -8e-13                6.4462e-05           
  -0.75                 -7.6182e-05           -2.086e-11            -9.4e-13              7.618e-05            
  -0.8                  -8.7558e-05           -2.754e-11            -1e-12                8.7552e-05           
  -0.85                 -9.847e-05            -3.568e-11            -8.6e-13              9.8434e-05           
  -0.9                  -0.000108818          -4.578e-11            -9.2e-13              0.0001088            
  -0.95                 -0.00011854           -5.756e-11            -9.2e-13              0.00011888           
  -1                    -0.00012796           -7.22e-11             -8.8e-13              0.00012828           
  -1.05                 -0.00013684           -8.94e-11             -9.4e-13              0.00013716           
  -1.1                  -0.00014528           -1.101e-10            -7.6e-13              0.00014556           
  -1.15                 -0.00015318           -1.331e-10            -8.4e-13              0.0001535            
  -1.2                  -0.00016062           -1.602e-10            -7e-13                0.00016096           
  -1.25                 -0.00016772           -1.9048e-10           -3.6e-13              0.00016808           
  -1.3                  -0.00017438           -2.2476e-10           1.4e-13               0.00017472           
  -1.35                 -0.00018066           -2.6468e-10           1.16e-12              0.00018094           
END_DB

BEGIN_DB
 ICCAP_VAR vb         0.2            
 ICCAP_VAR vd         -0.05          
 ICCAP_VAR vs         -0             

 #vg                    id                    ig                    ib                    is                   
  0.5                   -1.72e-12             4.1e-12               0                     -1.92e-12            
  0.45                  -1.4e-12              3.16e-12              0                     -1.66e-12            
  0.4                   -1.02e-12             2.36e-12              -6e-14                -1.22e-12            
  0.35                  -7.6e-13              1.74e-12              0                     -8.4e-13             
  0.3                   -6.2e-13              1.28e-12              -4e-14                -6.6e-13             
  0.25                  -4.2e-13              6.6e-13               -6e-14                -3.2e-13             
  0.2                   -4.2e-13              3.6e-13               -1e-13                -2.4e-13             
  0.15                  -4.8e-13              6e-14                 -2e-14                1e-13                
  0.1                   -8.4e-13              0                     -6e-14                7.4e-13              
  0.05                  -3.92e-12             -2e-13                -6e-14                3.64e-12             
  0                     -1.738e-11            -3.2e-13              -4e-14                1.724e-11            
  -0.05                 -8.106e-11            -4.2e-13              -1e-13                8.12e-11             
  -0.1                  -3.8342e-10           -4.8e-13              -1.6e-13              3.832e-10            
  -0.15                 -1.8134e-09           -4.4e-13              -8e-14                1.8134e-09           
  -0.2                  -8.5406e-09           -6.4e-13              -2e-14                8.5398e-09           
  -0.25                 -3.9748e-08           -8e-13                -1.6e-13              3.9768e-08           
  -0.3                  -1.7772e-07           -1.04e-12             0                     1.7798e-07           
  -0.35                 -7.1658e-07           -1.4e-12              -1.8e-13              7.1564e-07           
  -0.4                  -2.3894e-06           -1.82e-12             1.4e-13               2.3912e-06           
  -0.45                 -6.225e-06            -2.78e-12             -2.4e-13              6.2278e-06           
  -0.5                  -1.2798e-05           -3.74e-12             -4e-14                1.2794e-05           
  -0.55                 -2.1744e-05           -5.54e-12             -1.4e-13              2.1752e-05           
  -0.6                  -3.2314e-05           -7.84e-12             -1.2e-13              3.2332e-05           
  -0.65                 -4.3744e-05           -1.096e-11            -4e-14                4.3754e-05           
  -0.7                  -5.5422e-05           -1.51e-11             -1.8e-13              5.5434e-05           
  -0.75                 -6.703e-05            -2.026e-11            0                     6.7018e-05           
  -0.8                  -7.8344e-05           -2.676e-11            -1e-13                7.833e-05            
  -0.85                 -8.9258e-05           -3.494e-11            6e-14                 8.9254e-05           
  -0.9                  -9.9712e-05           -4.48e-11             0                     9.9694e-05           
  -0.95                 -0.000109658          -5.666e-11            -1.2e-13              0.000109642          
  -1                    -0.000119             -7.13e-11             6e-14                 0.0001193            
  -1.05                 -0.00012798           -8.842e-11            -1.2e-13              0.00012826           
  -1.1                  -0.00013644           -1.0856e-10           -1e-13                0.00013676           
  -1.15                 -0.00014446           -1.3182e-10           8e-14                 0.0001448            
  -1.2                  -0.000152             -1.5856e-10           1.2e-13               0.00015236           
  -1.25                 -0.0001592            -1.8836e-10           4.6e-13               0.00015956           
  -1.3                  -0.00016598           -2.2378e-10           9.2e-13               0.0001663            
  -1.35                 -0.00017232           -2.6316e-10           1.84e-12              0.00017266           
END_DB

BEGIN_DB
 ICCAP_VAR vb         0.4            
 ICCAP_VAR vd         -0.05          
 ICCAP_VAR vs         -0             

 #vg                    id                    ig                    ib                    is                   
  0.5                   -1.66e-12             4.14e-12              4e-14                 -1.96e-12            
  0.45                  -1.26e-12             2.96e-12              4e-14                 -1.44e-12            
  0.4                   -9.8e-13              2.36e-12              -2e-14                -1.2e-12             
  0.35                  -8e-13                1.46e-12              8e-14                 -6.4e-13             
  0.3                   -3.6e-13              1.02e-12              -4e-14                -4.2e-13             
  0.25                  -4.4e-13              7.6e-13               -1.6e-13              -4.2e-13             
  0.2                   -3.6e-13              3.2e-13               -2e-13                -2e-14               
  0.15                  -2.8e-13              1.6e-13               8e-14                 -1.2e-13             
  0.1                   -2e-13                -4e-14                -6e-14                1.8e-13              
  0.05                  -1.26e-12             -1.8e-13              -4e-14                1.26e-12             
  0                     -5.7e-12              -2.6e-13              -1e-13                5.64e-12             
  -0.05                 -2.728e-11            -3.8e-13              -1.2e-13              2.726e-11            
  -0.1                  -1.3254e-10           -3.8e-13              6e-14                 1.3244e-10           
  -0.15                 -6.4276e-10           -4.4e-13              -2e-14                6.428e-10            
  -0.2                  -3.1156e-09           -6e-13                -1e-13                3.1152e-09           
  -0.25                 -1.4978e-08           -6.8e-13              -4e-14                1.4996e-08           
  -0.3                  -7.0408e-08           -9.2e-13              -1.2e-13              7.0442e-08           
  -0.35                 -3.1008e-07           -1.32e-12             0                     3.1014e-07           
  -0.4                  -1.186e-06            -1.86e-12             -1e-13                1.1876e-06           
  -0.45                 -3.6126e-06           -2.46e-12             -4e-14                3.6144e-06           
  -0.5                  -8.528e-06            -3.54e-12             0                     8.5292e-06           
  -0.55                 -1.6058e-05           -5.22e-12             -6e-14                1.6074e-05           
  -0.6                  -2.5658e-05           -7.54e-12             -1.2e-13              2.5666e-05           
  -0.65                 -3.6458e-05           -1.06e-11             -2e-14                3.645e-05            
  -0.7                  -4.7786e-05           -1.466e-11            -4e-14                4.7792e-05           
  -0.75                 -5.9216e-05           -1.976e-11            -8e-14                5.922e-05            
  -0.8                  -7.0442e-05           -2.64e-11             -6e-14                7.0448e-05           
  -0.85                 -8.1358e-05           -3.434e-11            0                     8.135e-05            
  -0.9                  -9.1834e-05           -4.406e-11            -2e-13                9.1836e-05           
  -0.95                 -0.000101828          -5.602e-11            -4e-14                0.000101808          
  -1                    -0.00011135           -7.026e-11            -4e-14                0.000111334          
  -1.05                 -0.00012022           -8.728e-11            -1e-13                0.00012054           
  -1.1                  -0.0001288            -1.0752e-10           8e-14                 0.00012914           
  -1.15                 -0.00013694           -1.3068e-10           2e-14                 0.00013726           
  -1.2                  -0.0001446            -1.5728e-10           1.6e-13               0.00014494           
  -1.25                 -0.0001519            -1.8856e-10           5e-13                 0.0001522            
  -1.3                  -0.0001587            -2.2282e-10           9.6e-13               0.00015904           
  -1.35                 -0.0001652            -2.624e-10            1.82e-12              0.00016548           
END_DB

BEGIN_DB
 ICCAP_VAR vb         0.6            
 ICCAP_VAR vd         -0.05          
 ICCAP_VAR vs         -0             

 #vg                    id                    ig                    ib                    is                   
  0.5                   -1.54e-12             3.9e-12               1.4e-13               -2.04e-12            
  0.45                  -1.3e-12              2.98e-12              4e-14                 -1.46e-12            
  0.4                   -1.12e-12             2.16e-12              -8e-14                -1.22e-12            
  0.35                  -8.2e-13              1.58e-12              1.4e-13               -1.02e-12            
  0.3                   -4e-13                1e-12                 -4e-14                -5e-13               
  0.25                  -3.8e-13              7.2e-13               -8e-14                -3.8e-13             
  0.2                   -3.6e-13              3e-13                 0                     -2.8e-13             
  0.15                  -1.6e-13              4e-14                 0                     6e-14                
  0.1                   -2.4e-13              -6e-14                -1.4e-13              1e-13                
  0.05                  -5.2e-13              -1.8e-13              -1e-13                3.8e-13              
  0                     -1.98e-12             -3.6e-13              0                     2.2e-12              
  -0.05                 -1.032e-11            -4.4e-13              8e-14                 1.034e-11            
  -0.1                  -5.044e-11            -3.2e-13              -4e-14                5.05e-11             
  -0.15                 -2.5016e-10           -6e-13                2e-14                 2.505e-10            
  -0.2                  -1.2382e-09           -5.8e-13              1.2e-13               1.239e-09            
  -0.25                 -6.0964e-09           -7.4e-13              -6e-14                6.0988e-09           
  -0.3                  -2.9638e-08           -1.04e-12             -4e-14                2.9646e-08           
  -0.35                 -1.3828e-07           -1.26e-12             2e-14                 1.3844e-07           
  -0.4                  -5.843e-07            -1.86e-12             -1e-13                5.851e-07            
  -0.45                 -2.0412e-06           -2.38e-12             -1e-13                2.0436e-06           
  -0.5                  -5.5382e-06           -3.46e-12             -6e-14                5.5434e-06           
  -0.55                 -1.169e-05            -5.02e-12             -1.2e-13              1.1704e-05           
  -0.6                  -2.02e-05             -7.22e-12             0                     2.0208e-05           
  -0.65                 -3.029e-05            -1.02e-11             -1.4e-13              3.0308e-05           
  -0.7                  -4.1248e-05           -1.418e-11            -4e-14                4.1264e-05           
  -0.75                 -5.2436e-05           -1.92e-11             0                     5.2428e-05           
  -0.8                  -6.3562e-05           -2.572e-11            -2e-14                6.3546e-05           
  -0.85                 -7.4408e-05           -3.378e-11            -8e-14                7.442e-05            
  -0.9                  -8.4902e-05           -4.34e-11             1e-13                 8.4892e-05           
  -0.95                 -9.4974e-05           -5.532e-11            -1.2e-13              9.497e-05            
  -1                    -0.000104576          -6.944e-11            2e-14                 0.000104582          
  -1.05                 -0.000113664          -8.654e-11            8e-14                 0.000113644          
  -1.1                  -0.00012214           -1.0654e-10           -6e-14                0.00012246           
  -1.15                 -0.00013034           -1.2984e-10           1.2e-13               0.00013066           
  -1.2                  -0.00013814           -1.562e-10            8e-14                 0.00013844           
  -1.25                 -0.0001454            -1.8684e-10           4.2e-13               0.00014576           
  -1.3                  -0.0001523            -2.2086e-10           1e-12                 0.0001526            
  -1.35                 -0.00015878           -2.6066e-10           2.04e-12              0.00015912           
END_DB

BEGIN_DB
 ICCAP_VAR vb         0.8            
 ICCAP_VAR vd         -0.05          
 ICCAP_VAR vs         -0             

 #vg                    id                    ig                    ib                    is                   
  0.5                   -1.72e-12             3.86e-12              8e-14                 -2.04e-12            
  0.45                  -1.3e-12              2.88e-12              0                     -1.5e-12             
  0.4                   -9.8e-13              2.22e-12              -2e-14                -1.16e-12            
  0.35                  -7.2e-13              1.58e-12              2e-14                 -8.4e-13             
  0.3                   -4.2e-13              1.1e-12               2e-14                 -5.2e-13             
