! VERSION = 6.00
BEGIN_HEADER
 ICCAP_INPUTS
  vg         V  G GROUND SMU2 0.001 LIN        1    0.5        -1.35      38   -0.05     
  vb         V  B GROUND SMU4 0.1 LIN        2    0          1.2        7    0.2       
  vd         V  D GROUND SMU1 0.1 LIST       3 3 -0.05 -0.6 -1.2
  vs         V  S GROUND SMU3 0.1 CON        -0
 ICCAP_OUTPUTS
  id         I  D GROUND SMU1 B
  ig         I  G GROUND SMU2 B
  ib         I  B GROUND SMU4 B
  is         I  S GROUND SMU3 B
 ICCAP_VALUES
  MASTER_SETUP_TYPE "~dc_idvg~"
  LINVT_VALUE ""
  LISTVT_VALUE ""
  TYPE "-1"
  TEMP " 27.0000 "
  IS_TNOM " 1.00000 "
  MAIN.W "180.0n"
  MAIN.L "10.00u"
  MAIN.AD "102.6f"
  MAIN.AS "102.6f"
  MAIN.PD "1.340u"
  MAIN.PS "1.340u"
  MAIN.NF "1.000"
  MAIN.M "1"
  MAIN.NRD "0.000"
  MAIN.NRS "0.000"
  MAIN.LDRIFT1 "1E-06"
  MAIN.LDRIFT2 "1E-06"
  MAIN.SA "0.000"
  MAIN.SB "0.000"
  MAIN.SD "0.000"
  MAIN.SCA "0.000"
  MAIN.SCB "0.000"
  MAIN.SCC "0.000"
  MAIN.SC "0.000"
  MODULE "S554"
  PIN_D "20"
  PIN_G "1"
  PIN_S "2"
  PIN_B "19"
  PIN_E ""
  PIN_6 ""
  XY_ID ""
  FUNC "W Scale"
  STI "SA ref"
  WPE "WPE ref"
  COMMENT ""
  DIS_MEAS ""
  TypeTCI "10"
END_HEADER

BEGIN_DB
 ICCAP_VAR vb         0              
 ICCAP_VAR vd         -0.05          
 ICCAP_VAR vs         -0             

 #vg                    id                    ig                    ib                    is                   
  0.5                   -8e-14                1.944e-11             -6.14e-12             1.2e-13              
  0.45                  2e-14                 2.92e-12              -1.96e-12             1.4e-13              
  0.4                   -8e-14                3.4e-13               -1.18e-12             0                    
  0.35                  0                     0                     -1.14e-12             2e-14                
  0.3                   -6e-14                -1.4e-13              -1.18e-12             8e-14                
  0.25                  -2e-14                -2.4e-13              -1.08e-12             -2e-14               
  0.2                   0                     -1e-13                -1.2e-12              1.6e-13              
  0.15                  -2e-14                -2e-13                -1.04e-12             2e-14                
  0.1                   -1.6e-13              -3.6e-13              -1.1e-12              1.2e-13              
  0.05                  4e-14                 -4.2e-13              -1.06e-12             1.8e-13              
  0                     -2e-13                -3.8e-13              -1.14e-12             2.4e-13              
  -0.05                 -6.4e-13              -4.4e-13              -1e-12                7e-13                
  -0.1                  -3.28e-12             -4e-13                -9e-13                3.18e-12             
  -0.15                 -1.63e-11             -5.2e-13              -1.08e-12             1.624e-11            
  -0.2                  -7.966e-11            -5.6e-13              -9.6e-13              7.968e-11            
  -0.25                 -3.6068e-10           -4.6e-13              -1.12e-12             3.6096e-10           
  -0.3                  -1.3154e-09           -6e-13                -1e-12                1.317e-09            
  -0.35                 -3.518e-09            -9e-13                -1.06e-12             3.5184e-09           
  -0.4                  -7.0994e-09           -1.5e-12              -1.04e-12             7.0972e-09           
  -0.45                 -1.1674e-08           -2.2e-12              -1.02e-12             1.1702e-08           
  -0.5                  -1.6856e-08           -3.34e-12             -1.04e-12             1.6884e-08           
  -0.55                 -2.2314e-08           -5.04e-12             -9e-13                2.2342e-08           
  -0.6                  -2.7888e-08           -7.18e-12             -9.4e-13              2.792e-08            
  -0.65                 -3.3446e-08           -1e-11                -9.2e-13              3.348e-08            
  -0.7                  -3.8934e-08           -1.352e-11            -9.2e-13              3.8968e-08           
  -0.75                 -4.4298e-08           -1.796e-11            -8.8e-13              4.4348e-08           
  -0.8                  -4.9534e-08           -2.348e-11            -8.2e-13              4.9584e-08           
  -0.85                 -5.4574e-08           -3.03e-11             -9.8e-13              5.4634e-08           
  -0.9                  -5.9426e-08           -3.856e-11            -8.8e-13              5.9486e-08           
  -0.95                 -6.408e-08            -4.878e-11            -9.6e-13              6.4142e-08           
  -1                    -6.8536e-08           -6.07e-11             -9.2e-13              6.8608e-08           
  -1.05                 -7.2786e-08           -7.52e-11             -9.8e-13              7.2864e-08           
  -1.1                  -7.6806e-08           -9.168e-11            -8.2e-13              7.6936e-08           
  -1.15                 -8.0678e-08           -1.1102e-10           -9e-13                8.0832e-08           
  -1.2                  -8.4338e-08           -1.3296e-10           -7.2e-13              8.4496e-08           
  -1.25                 -8.7824e-08           -1.5776e-10           -8.2e-13              8.8004e-08           
  -1.3                  -9.109e-08            -1.8596e-10           -2.4e-13              9.1308e-08           
  -1.35                 -9.4238e-08           -2.1694e-10           2.4e-13               9.4456e-08           
END_DB

BEGIN_DB
 ICCAP_VAR vb         0.2            
 ICCAP_VAR vd         -0.05          
 ICCAP_VAR vs         -0             

 #vg                    id                    ig                    ib                    is                   
  0.5                   1e-13                 4.2e-13               -6e-14                8e-14                
  0.45                  1e-13                 2e-14                 1.4e-13               -2e-14               
  0.4                   -4e-14                1.2e-13               -6e-14                1.2e-13              
  0.35                  2e-14                 -8e-14                -4e-14                0                    
  0.3                   -6e-14                -2e-13                0                     2e-14                
  0.25                  6e-14                 -2.2e-13              -2e-14                1.4e-13              
  0.2                   -6e-14                -1.2e-13              1.2e-13               4e-14                
  0.15                  -4e-14                -2.4e-13              1.2e-13               -2e-14               
  0.1                   -2e-14                -3e-13                -4e-14                1.6e-13              
  0.05                  0                     -4e-13                -8e-14                6e-14                
  0                     4e-14                 -3.4e-13              1.2e-13               1.6e-13              
  -0.05                 -2e-13                -4e-13                -1e-13                2.6e-13              
  -0.1                  -1.02e-12             -2.8e-13              0                     1.04e-12             
  -0.15                 -5.06e-12             -3.4e-13              -6e-14                5.24e-12             
  -0.2                  -2.648e-11            -4.8e-13              -6e-14                2.66e-11             
  -0.25                 -1.3142e-10           -6.2e-13              -6e-14                1.3152e-10           
  -0.3                  -5.7058e-10           -6.2e-13              -6e-14                5.7076e-10           
  -0.35                 -1.8832e-09           -7.8e-13              -2e-14                1.8852e-09           
  -0.4                  -4.5284e-09           -1.3e-12              0                     4.528e-09            
  -0.45                 -8.3996e-09           -2.06e-12             -4e-14                8.3992e-09           
  -0.5                  -1.3082e-08           -3.2e-12              0                     1.311e-08            
  -0.55                 -1.822e-08            -4.76e-12             -1.6e-13              1.825e-08            
  -0.6                  -2.3572e-08           -6.88e-12             -8e-14                2.3602e-08           
  -0.65                 -2.899e-08            -9.6e-12              -1.6e-13              2.9018e-08           
  -0.7                  -3.4378e-08           -1.308e-11            -1.8e-13              3.4416e-08           
  -0.75                 -3.9678e-08           -1.746e-11            -2e-14                3.9718e-08           
  -0.8                  -4.4852e-08           -2.302e-11            6e-14                 4.4898e-08           
  -0.85                 -4.9878e-08           -2.976e-11            -1.6e-13              4.9942e-08           
  -0.9                  -5.4748e-08           -3.798e-11            -8e-14                5.4812e-08           
  -0.95                 -5.9406e-08           -4.782e-11            2e-14                 5.9454e-08           
  -1                    -6.3868e-08           -5.998e-11            -1.2e-13              6.3954e-08           
  -1.05                 -6.8144e-08           -7.414e-11            2e-14                 6.8238e-08           
  -1.1                  -7.22e-08             -9.102e-11            -1.2e-13              7.2328e-08           
  -1.15                 -7.6102e-08           -1.104e-10            8e-14                 7.6224e-08           
  -1.2                  -7.981e-08            -1.324e-10            0                     7.9968e-08           
  -1.25                 -8.3312e-08           -1.5682e-10           3e-13                 8.3494e-08           
  -1.3                  -8.6652e-08           -1.8464e-10           5.2e-13               8.6848e-08           
  -1.35                 -8.9802e-08           -2.161e-10            1.18e-12              9.002e-08            
END_DB

BEGIN_DB
 ICCAP_VAR vb         0.4            
 ICCAP_VAR vd         -0.05          
 ICCAP_VAR vs         -0             

 #vg                    id                    ig                    ib                    is                   
  0.5                   0                     4.4e-13               -4e-14                2e-14                
  0.45                  6e-14                 1e-13                 4e-14                 0                    
  0.4                   6e-14                 4e-14                 -2e-14                1.2e-13              
  0.35                  2e-14                 -8e-14                0                     4e-14                
  0.3                   -4e-14                -1e-13                -4e-14                4e-14                
  0.25                  0                     -2.4e-13              8e-14                 -4e-14               
  0.2                   0                     -2.2e-13              -2e-14                1e-13                
  0.15                  2e-14                 -3.4e-13              -6e-14                1.8e-13              
  0.1                   0                     -4.2e-13              4e-14                 -1e-13               
  0.05                  4e-14                 -3.2e-13              -1e-13                1.2e-13              
  0                     -4e-14                -3.2e-13              0                     2e-14                
  -0.05                 -2e-14                -4.6e-13              1e-13                 2e-14                
  -0.1                  -3e-13                -3.4e-13              -6e-14                4.8e-13              
  -0.15                 -1.78e-12             -4.2e-13              6e-14                 1.86e-12             
  -0.2                  -9.42e-12             -5e-13                -1e-13                9.5e-12              
  -0.25                 -4.894e-11            -5.4e-13              2e-14                 4.906e-11            
  -0.3                  -2.3786e-10           -6.4e-13              -8e-14                2.381e-10            
  -0.35                 -9.4428e-10           -7.6e-13              -2e-14                9.4474e-10           
  -0.4                  -2.7378e-09           -1.08e-12             -8e-14                2.739e-09            
  -0.45                 -5.8422e-09           -1.86e-12             -4e-14                5.8434e-09           
  -0.5                  -9.9868e-09           -2.98e-12             6e-14                 9.9876e-09           
  -0.55                 -1.4744e-08           -4.38e-12             -1.2e-13              1.4772e-08           
  -0.6                  -1.9848e-08           -6.54e-12             2e-14                 1.9872e-08           
  -0.65                 -2.508e-08            -9.18e-12             -1.6e-13              2.512e-08            
  -0.7                  -3.0354e-08           -1.27e-11             -6e-14                3.0388e-08           
  -0.75                 -3.5566e-08           -1.706e-11            -2e-14                3.5606e-08           
  -0.8                  -4.0696e-08           -2.254e-11            -2e-14                4.0748e-08           
  -0.85                 -4.5664e-08           -2.914e-11            -1e-13                4.5716e-08           
  -0.9                  -5.0524e-08           -3.732e-11            4e-14                 5.0582e-08           
  -0.95                 -5.5188e-08           -4.736e-11            -6e-14                5.527e-08            
  -1                    -5.9672e-08           -5.918e-11            2e-14                 5.9732e-08           
  -1.05                 -6.3922e-08           -7.338e-11            -1e-13                6.4032e-08           
  -1.1                  -6.8058e-08           -9.02e-11             -6e-14                6.8172e-08           
  -1.15                 -7.1998e-08           -1.0954e-10           0                     7.212e-08            
  -1.2                  -7.5706e-08           -1.3134e-10           2e-14                 7.5854e-08           
  -1.25                 -7.9244e-08           -1.561e-10            3e-13                 7.9418e-08           
  -1.3                  -8.263e-08            -1.8378e-10           4.4e-13               8.284e-08            
  -1.35                 -8.5824e-08           -2.1506e-10           1.12e-12              8.6076e-08           
END_DB

BEGIN_DB
 ICCAP_VAR vb         0.6            
 ICCAP_VAR vd         -0.05          
 ICCAP_VAR vs         -0             

 #vg                    id                    ig                    ib                    is                   
  0.5                   1.4e-13               4.2e-13               8e-14                 1e-13                
  0.45                  -2e-14                1e-13                 1e-13                 1.4e-13              
  0.4                   1e-13                 2e-14                 -2e-14                1.2e-13              
  0.35                  2e-14                 -1.6e-13              0                     4e-14                
  0.3                   4e-14                 -1.2e-13              -8e-14                6e-14                
  0.25                  1.4e-13               -1.8e-13              0                     1.4e-13              
  0.2                   -8e-14                -3e-13                4e-14                 2e-14                
  0.15                  6e-14                 -2.6e-13              -1.2e-13              1.6e-13              
  0.1                   -1e-13                -3e-13                1e-13                 0                    
  0.05                  6e-14                 -3.2e-13              -4e-14                1e-13                
  0                     -4e-14                -3.2e-13              6e-14                 4e-14                
  -0.05                 -4e-14                -3.8e-13              -4e-14                -4e-14               
  -0.1                  -1.2e-13              -3.8e-13              4e-14                 1.8e-13              
  -0.15                 -5.8e-13              -3.8e-13              2e-14                 6.2e-13              
  -0.2                  -3.46e-12             -5.4e-13              -2e-14                3.62e-12             
  -0.25                 -1.892e-11            -5.4e-13              2e-14                 1.894e-11            
  -0.3                  -9.822e-11            -6.2e-13              -8e-14                9.844e-11            
  -0.35                 -4.4786e-10           -6.8e-13              -8e-14                4.4812e-10           
  -0.4                  -1.5596e-09           -9e-13                0                     1.5608e-09           
  -0.45                 -3.8986e-09           -1.72e-12             -1.8e-13              3.9008e-09           
  -0.5                  -7.4354e-09           -2.86e-12             -2e-14                7.4344e-09           
  -0.55                 -1.177e-08            -4.04e-12             2e-14                 1.1796e-08           
  -0.6                  -1.6586e-08           -6.22e-12             0                     1.6616e-08           
  -0.65                 -2.1632e-08           -8.82e-12             -6e-14                2.166e-08            
  -0.7                  -2.6756e-08           -1.224e-11            -2e-14                2.68e-08             
  -0.75                 -3.1882e-08           -1.64e-11             -1e-13                3.1914e-08           
  -0.8                  -3.6926e-08           -2.19e-11             -4e-14                3.6972e-08           
  -0.85                 -4.1866e-08           -2.852e-11            -4e-14                4.1924e-08           
  -0.9                  -4.669e-08            -3.67e-11             4e-14                 4.6744e-08           
  -0.95                 -5.1358e-08           -4.658e-11            -1e-13                5.143e-08            
  -1                    -5.5848e-08           -5.834e-11            2e-14                 5.594e-08            
  -1.05                 -6.0152e-08           -7.256e-11            -2e-14                6.0266e-08           
  -1.1                  -6.4278e-08           -8.912e-11            2e-14                 6.4384e-08           
  -1.15                 -6.824e-08            -1.0822e-10           -8e-14                6.8374e-08           
  -1.2                  -7.2002e-08           -1.301e-10            8e-14                 7.2154e-08           
  -1.25                 -7.557e-08            -1.5494e-10           2e-13                 7.575e-08            
  -1.3                  -7.8954e-08           -1.826e-10            5.6e-13               7.9162e-08           
  -1.35                 -8.219e-08            -2.1368e-10           1.1e-12               8.243e-08            
END_DB

BEGIN_DB
 ICCAP_VAR vb         0.8            
 ICCAP_VAR vd         -0.05          
 ICCAP_VAR vs         -0             

 #vg                    id                    ig                    ib                    is                   
  0.5                   1.4e-13               4.4e-13               4e-14                 1.4e-13              
  0.45                  0                     1.4e-13               1.6e-13               2e-14                
  0.4                   1.4e-13               -1.4e-13              0                     1.4e-13              
  0.35                  -4e-14                -1.6e-13              4e-14                 6e-14                
  0.3                   4e-14                 -1.2e-13              0                     1.6e-13              
