! VERSION = 6.00
BEGIN_HEADER
 ICCAP_INPUTS
  vd         V  D GROUND SMU1 0.1 LIN        1    -0         -1.35      28   -0.05     
  vg         V  G GROUND SMU2 0.001 LIN        2    -0.414     -1.35      5    -0.234    
  vb         V  B GROUND SMU4 0.1 CON        -0
  vs         V  S GROUND SMU3 0.1 CON        -0
 ICCAP_OUTPUTS
  id         I  D GROUND SMU1 B
  ig         I  G GROUND SMU2 B
  ib         I  B GROUND SMU4 B
  is         I  S GROUND SMU3 B
 ICCAP_VALUES
  MASTER_SETUP_TYPE "~dc_idvd~"
  LINVT_VALUE "|idvg|100.0n|100.0m|1.000m|5|1.350|"
  LISTVT_VALUE ""
  TYPE "-1"
  TEMP " 70.0000 "
  IS_TNOM " 0.00000 "
  MAIN.W "10.00u"
  MAIN.L "10.00u"
  MAIN.AD "3.400p"
  MAIN.AS "3.400p"
  MAIN.PD "20.68u"
  MAIN.PS "20.68u"
  MAIN.NF "1.000"
  MAIN.M "1"
  MAIN.NRD "0.000"
  MAIN.NRS "0.000"
  MAIN.LDRIFT1 "1E-06"
  MAIN.LDRIFT2 "1E-06"
  MAIN.SA "0.000"
  MAIN.SB "0.000"
  MAIN.SD "0.000"
  MAIN.SCA "0.000"
  MAIN.SCB "0.000"
  MAIN.SCC "0.000"
  MAIN.SC "0.000"
  MODULE "S549"
  PIN_D "12"
  PIN_G "9"
  PIN_S "10"
  PIN_B "11"
  PIN_E ""
  PIN_6 ""
  XY_ID ""
  FUNC "Large"
  STI "SA ref"
  WPE "WPE ref"
  COMMENT ""
  DIS_MEAS ""
  TypeTCI "10"
END_HEADER

BEGIN_DB
 ICCAP_VAR vg         -0.414         
 ICCAP_VAR vb         -0             
 ICCAP_VAR vs         -0             

 #vd                    id                    ig                    ib                    is                   
  -0                    6.2346e-10            -7.94e-11             -5.878e-11            -6.3606e-10          
  -0.05                 -3.3292e-07           -6.03e-11             -5.73e-11             3.3304e-07           
  -0.1                  -4.933e-07            -5.022e-11            -5.626e-11            4.935e-07            
  -0.15                 -5.4966e-07           -4.63e-11             -5.522e-11            5.4984e-07           
  -0.2                  -5.65e-07             -4.514e-11            -5.424e-11            5.6514e-07           
  -0.25                 -5.6936e-07           -4.474e-11            -5.34e-11             5.695e-07            
  -0.3                  -5.7128e-07           -4.45e-11             -5.214e-11            5.7144e-07           
  -0.35                 -5.7254e-07           -4.45e-11             -5.118e-11            5.727e-07            
  -0.4                  -5.7356e-07           -4.44e-11             -4.994e-11            5.7374e-07           
  -0.45                 -5.745e-07            -4.426e-11            -4.89e-11             5.7466e-07           
  -0.5                  -5.753e-07            -4.42e-11             -4.77e-11             5.7546e-07           
  -0.55                 -5.7602e-07           -4.412e-11            -4.66e-11             5.7614e-07           
  -0.6                  -5.7666e-07           -4.4e-11              -4.52e-11             5.7682e-07           
  -0.65                 -5.7724e-07           -4.39e-11             -4.396e-11            5.7742e-07           
  -0.7                  -5.7782e-07           -4.354e-11            -4.274e-11            5.7798e-07           
  -0.75                 -5.7838e-07           -4.35e-11             -4.15e-11             5.7856e-07           
  -0.8                  -5.7886e-07           -4.332e-11            -4.012e-11            5.7902e-07           
  -0.85                 -5.793e-07            -4.286e-11            -3.888e-11            5.7948e-07           
  -0.9                  -5.7968e-07           -4.268e-11            -3.766e-11            5.7986e-07           
  -0.95                 -5.801e-07            -4.228e-11            -3.614e-11            5.8026e-07           
  -1                    -5.8046e-07           -4.174e-11            -3.476e-11            5.8062e-07           
  -1.05                 -5.808e-07            -4.114e-11            -3.328e-11            5.8098e-07           
  -1.1                  -5.8112e-07           -4.048e-11            -3.16e-11             5.813e-07            
  -1.15                 -5.8142e-07           -3.978e-11            -3.014e-11            5.816e-07            
  -1.2                  -5.817e-07            -3.898e-11            -2.83e-11             5.8186e-07           
  -1.25                 -5.8202e-07           -3.778e-11            -2.642e-11            5.8216e-07           
  -1.3                  -5.8226e-07           -3.668e-11            -2.412e-11            5.8244e-07           
  -1.35                 -5.825e-07            -3.552e-11            -2.146e-11            5.8264e-07           
END_DB

BEGIN_DB
 ICCAP_VAR vg         -0.648         
 ICCAP_VAR vb         -0             
 ICCAP_VAR vs         -0             

 #vd                    id                    ig                    ib                    is                   
  -0                    2.2036e-09            -6.007e-10            -2.008e-11            -1.5474e-09          
  -0.05                 -1.24e-06             -5.0756e-10           -1.802e-11            1.2434e-06           
  -0.1                  -2.2362e-06           -4.3592e-10           -1.722e-11            2.2398e-06           
  -0.15                 -2.9882e-06           -3.8304e-10           -1.632e-11            2.9918e-06           
  -0.2                  -3.505e-06            -3.4724e-10           -1.542e-11            3.5086e-06           
  -0.25                 -3.8098e-06           -3.2578e-10           -1.466e-11            3.8134e-06           
  -0.3                  -3.952e-06            -3.1554e-10           -1.378e-11            3.9556e-06           
  -0.35                 -4.0046e-06           -3.1166e-10           -1.306e-11            4.0082e-06           
  -0.4                  -4.0246e-06           -3.1e-10              -1.22e-11             4.0282e-06           
  -0.45                 -4.0352e-06           -3.094e-10            -1.156e-11            4.0386e-06           
  -0.5                  -4.0424e-06           -3.0882e-10           -1.086e-11            4.046e-06            
  -0.55                 -4.0486e-06           -3.0822e-10           -1.022e-11            4.052e-06            
  -0.6                  -4.054e-06            -3.0786e-10           -9.52e-12             4.0572e-06           
  -0.65                 -4.0586e-06           -3.0754e-10           -9e-12                4.062e-06            
  -0.7                  -4.063e-06            -3.072e-10            -8.48e-12             4.0664e-06           
  -0.75                 -4.0668e-06           -3.0674e-10           -7.92e-12             4.0702e-06           
  -0.8                  -4.0706e-06           -3.0646e-10           -7.44e-12             4.074e-06            
  -0.85                 -4.0738e-06           -3.0612e-10           -6.96e-12             4.0772e-06           
  -0.9                  -4.0768e-06           -3.0606e-10           -6.38e-12             4.08e-06             
  -0.95                 -4.0798e-06           -3.0564e-10           -6.12e-12             4.0832e-06           
  -1                    -4.0826e-06           -3.0514e-10           -5.62e-12             4.0858e-06           
  -1.05                 -4.085e-06            -3.046e-10            -5.24e-12             4.0884e-06           
  -1.1                  -4.0874e-06           -3.0416e-10           -4.78e-12             4.0908e-06           
  -1.15                 -4.0896e-06           -3.0382e-10           -4.36e-12             4.0928e-06           
  -1.2                  -4.0918e-06           -3.0312e-10           -3.94e-12             4.095e-06            
  -1.25                 -4.0938e-06           -3.0268e-10           -3.56e-12             4.0968e-06           
  -1.3                  -4.0954e-06           -3.02e-10             -3.16e-12             4.0986e-06           
  -1.35                 -4.097e-06            -3.011e-10            -2.32e-12             4.1004e-06           
END_DB

BEGIN_DB
 ICCAP_VAR vg         -0.882         
 ICCAP_VAR vb         -0             
 ICCAP_VAR vs         -0             

 #vd                    id                    ig                    ib                    is                   
  -0                    3.4732e-09            -2.2776e-09           -8.44e-12             -1.5966e-09          
  -0.05                 -2.1042e-06           -2.0172e-09           -7.8e-12              2.109e-06            
  -0.1                  -3.9906e-06           -1.7956e-09           -7.38e-12             3.9956e-06           
  -0.15                 -5.6498e-06           -1.6102e-09           -7.06e-12             5.6548e-06           
  -0.2                  -7.0772e-06           -1.4576e-09           -6.68e-12             7.0818e-06           
  -0.25                 -8.2696e-06           -1.336e-09            -6.32e-12             8.2744e-06           
  -0.3                  -9.2246e-06           -1.2416e-09           -5.96e-12             9.2298e-06           
  -0.35                 -9.9428e-06           -1.1714e-09           -5.6e-12              9.9478e-06           
  -0.4                  -1.04334e-05          -1.1248e-09           -5.14e-12             1.0438e-05           
  -0.45                 -1.0719e-05           -1.0976e-09           -4.76e-12             1.0724e-05           
  -0.5                  -1.08564e-05          -1.0844e-09           -4.52e-12             1.08606e-05          
  -0.55                 -1.09142e-05          -1.0786e-09           -4.14e-12             1.09184e-05          
  -0.6                  -1.0943e-05           -1.0758e-09           -3.84e-12             1.09468e-05          
  -0.65                 -1.09608e-05          -1.0742e-09           -3.48e-12             1.0965e-05           
  -0.7                  -1.0972e-05           -1.0728e-09           -2.96e-12             1.09792e-05          
  -0.75                 -1.0984e-05           -1.0712e-09           -2.74e-12             1.09914e-05          
  -0.8                  -1.0996e-05           -1.0702e-09           -2.46e-12             1.10024e-05          
  -0.85                 -1.1006e-05           -1.0692e-09           -2.26e-12             1.1012e-05           
  -0.9                  -1.1014e-05           -1.0684e-09           -2e-12                1.1021e-05           
  -0.95                 -1.1022e-05           -1.0682e-09           -1.78e-12             1.1029e-05           
  -1                    -1.103e-05            -1.0672e-09           -1.48e-12             1.10368e-05          
  -1.05                 -1.1038e-05           -1.0662e-09           -1.24e-12             1.1044e-05           
  -1.1                  -1.1044e-05           -1.0658e-09           -1.12e-12             1.1051e-05           
  -1.15                 -1.105e-05            -1.0648e-09           -6.8e-13              1.10572e-05          
  -1.2                  -1.1056e-05           -1.0644e-09           -6.2e-13              1.10632e-05          
  -1.25                 -1.1062e-05           -1.0636e-09           -3.6e-13              1.10686e-05          
  -1.3                  -1.1066e-05           -1.0626e-09           -1.6e-13              1.10734e-05          
  -1.35                 -1.1072e-05           -1.062e-09            6e-14                 1.10786e-05          
END_DB

BEGIN_DB
 ICCAP_VAR vg         -1.116         
 ICCAP_VAR vb         -0             
 ICCAP_VAR vs         -0             

 #vd                    id                    ig                    ib                    is                   
  -0                    5.1694e-09            -6.1524e-09           -2.84e-12             -9.5854e-10          
  -0.05                 -2.8198e-06           -5.6002e-09           -3.46e-12             2.8282e-06           
  -0.1                  -5.4564e-06           -5.1126e-09           -3.68e-12             5.4648e-06           
  -0.15                 -7.8974e-06           -4.6802e-09           -3.72e-12             7.905e-06            
  -0.2                  -1.01364e-05          -4.3012e-09           -3.72e-12             1.01444e-05          
  -0.25                 -1.2168e-05           -3.9722e-09           -3.2e-12              1.218e-05            
  -0.3                  -1.399e-05            -3.6898e-09           -3.22e-12             1.4e-05              
  -0.35                 -1.5592e-05           -3.4502e-09           -2.86e-12             1.5602e-05           
  -0.4                  -1.6974e-05           -3.252e-09            -2.58e-12             1.6984e-05           
  -0.45                 -1.813e-05            -3.0914e-09           -2.38e-12             1.814e-05            
  -0.5                  -1.9058e-05           -2.967e-09            -2.1e-12              1.9066e-05           
  -0.55                 -1.9756e-05           -2.8752e-09           -1.82e-12             1.9766e-05           
  -0.6                  -2.023e-05            -2.8114e-09           -1.62e-12             2.0242e-05           
  -0.65                 -2.0512e-05           -2.7748e-09           -1.48e-12             2.0522e-05           
  -0.7                  -2.0656e-05           -2.755e-09            -1.14e-12             2.0666e-05           
  -0.75                 -2.0724e-05           -2.7472e-09           -8.4e-13              2.0734e-05           
  -0.8                  -2.0762e-05           -2.7424e-09           -6.4e-13              2.0772e-05           
  -0.85                 -2.079e-05            -2.7376e-09           -4e-13                2.08e-05             
  -0.9                  -2.0812e-05           -2.735e-09            -1.6e-13              2.082e-05            
  -0.95                 -2.083e-05            -2.7324e-09           4e-14                 2.084e-05            
  -1                    -2.0846e-05           -2.7308e-09           3.4e-13               2.0856e-05           
  -1.05                 -2.0862e-05           -2.7296e-09           5e-13                 2.087e-05            
  -1.1                  -2.0876e-05           -2.7294e-09           7.4e-13               2.0884e-05           
  -1.15                 -2.0888e-05           -2.7262e-09           8.4e-13               2.0896e-05           
  -1.2                  -2.09e-05             -2.7246e-09           1.06e-12              2.0908e-05           
  -1.25                 -2.0912e-05           -2.7228e-09           1.22e-12              2.092e-05            
  -1.3                  -2.0922e-05           -2.7216e-09           1.42e-12              2.093e-05            
  -1.35                 -2.093e-05            -2.722e-09            1.62e-12              2.094e-05            
END_DB

BEGIN_DB
 ICCAP_VAR vg         -1.35          
 ICCAP_VAR vb         -0             
 ICCAP_VAR vs         -0             

 #vd                    id                    ig                    ib                    is                   
  -0                    1.2154e-08            -1.3562e-08           1.2164e-10            1.0602e-09           
  -0.05                 -3.3924e-06           -1.2552e-08           8.818e-11             3.4078e-06           
  -0.1                  -6.6354e-06           -1.1634e-08           6.592e-11             6.6504e-06           
  -0.15                 -9.7124e-06           -1.0816e-08           5.092e-11             9.7268e-06           
  -0.2                  -1.2616e-05           -1.0068e-08           4.08e-11              1.2632e-05           
  -0.25                 -1.5348e-05           -9.4034e-09           3.406e-11             1.5364e-05           
  -0.3                  -1.7898e-05           -8.8114e-09           2.952e-11             1.7914e-05           
  -0.35                 -2.0258e-05           -8.276e-09            2.606e-11             2.0274e-05           
  -0.4                  -2.243e-05            -7.8028e-09           2.368e-11             2.2446e-05           
  -0.45                 -2.4406e-05           -7.3864e-09           2.196e-11             2.442e-05            
  -0.5                  -2.6176e-05           -7.0322e-09           2.08e-11              2.6192e-05           
  -0.55                 -2.774e-05            -6.7258e-09           1.97e-11              2.7754e-05           
  -0.6                  -2.909e-05            -6.4732e-09           1.898e-11             2.9102e-05           
  -0.65                 -3.022e-05            -6.2618e-09           1.856e-11             3.0236e-05           
  -0.7                  -3.1132e-05           -6.0998e-09           1.834e-11             3.1146e-05           
  -0.75                 -3.182e-05            -5.9756e-09           1.806e-11             3.1834e-05           
  -0.8                  -3.2296e-05           -5.8938e-09           1.808e-11             3.231e-05            
  -0.85                 -3.2584e-05           -5.8402e-09           1.826e-11             3.2598e-05           
  -0.9                  -3.274e-05            -5.8154e-09           1.824e-11             3.2752e-05           
  -0.95                 -3.2822e-05           -5.7998e-09           1.852e-11             3.2834e-05           
  -1                    -3.2872e-05           -5.7912e-09           1.86e-11              3.2886e-05           
  -1.05                 -3.2908e-05           -5.783e-09            1.878e-11             3.2922e-05           
  -1.1                  -3.2938e-05           -5.7822e-09           1.892e-11             3.295e-05            
  -1.15                 -3.2962e-05           -5.7762e-09           1.906e-11             3.2974e-05           
  -1.2                  -3.2984e-05           -5.7704e-09           1.918e-11             3.2996e-05           
  -1.25                 -3.3004e-05           -5.7676e-09           1.952e-11             3.3016e-05           
  -1.3                  -3.3022e-05           -5.7652e-09           1.968e-11             3.3034e-05           
  -1.35                 -3.304e-05            -5.7628e-09           1.98e-11              3.3052e-05           
END_DB

