! VERSION = 6.00
BEGIN_HEADER
 ICCAP_INPUTS
  vd         V  D GROUND SMU1 0.1 LIN        1    -0         -1.35      28   -0.05     
  vg         V  G GROUND SMU2 0.001 LIN        2    -0.442     -1.35      5    -0.227    
  vb         V  B GROUND SMU4 0.1 CON        -0
  vs         V  S GROUND SMU3 0.1 CON        -0
 ICCAP_OUTPUTS
  id         I  D GROUND SMU1 B
  ig         I  G GROUND SMU2 B
  ib         I  B GROUND SMU4 B
  is         I  S GROUND SMU3 B
 ICCAP_VALUES
  MASTER_SETUP_TYPE "~dc_idvd~"
  LINVT_VALUE "|idvg|100.0n|100.0m|1.000m|5|1.350|"
  LISTVT_VALUE ""
  TYPE "-1"
  TEMP " 27.0000 "
  IS_TNOM " 1.00000 "
  MAIN.W "5.000u"
  MAIN.L "10.00u"
  MAIN.AD "1.700p"
  MAIN.AS "1.700p"
  MAIN.PD "10.68u"
  MAIN.PS "10.68u"
  MAIN.NF "1.000"
  MAIN.M "1"
  MAIN.NRD "0.000"
  MAIN.NRS "0.000"
  MAIN.LDRIFT1 "1E-06"
  MAIN.LDRIFT2 "1E-06"
  MAIN.SA "0.000"
  MAIN.SB "0.000"
  MAIN.SD "0.000"
  MAIN.SCA "0.000"
  MAIN.SCB "0.000"
  MAIN.SCC "0.000"
  MAIN.SC "0.000"
  MODULE "S550"
  PIN_D "16"
  PIN_G "5"
  PIN_S "6"
  PIN_B "15"
  PIN_E ""
  PIN_6 ""
  XY_ID ""
  FUNC "W Scale"
  STI "SA ref"
  WPE "WPE ref"
  COMMENT ""
  DIS_MEAS ""
  TypeTCI "10"
END_HEADER

BEGIN_DB
 ICCAP_VAR vg         -0.442         
 ICCAP_VAR vb         -0             
 ICCAP_VAR vs         -0             

 #vd                    id                    ig                    ib                    is                   
  -0                    3.653e-10             -5.21e-11             -3.18e-12             -3.6962e-10          
  -0.05                 -1.9716e-07           -3.974e-11            -3.16e-12             1.9736e-07           
  -0.1                  -2.8928e-07           -3.354e-11            -3.1e-12              2.8952e-07           
  -0.15                 -3.189e-07            -3.126e-11            -3.14e-12             3.1914e-07           
  -0.2                  -3.26e-07             -3.076e-11            -3.16e-12             3.2626e-07           
  -0.25                 -3.28e-07             -3.058e-11            -3.1e-12              3.2824e-07           
  -0.3                  -3.2904e-07           -3.04e-11             -3e-12                3.2928e-07           
  -0.35                 -3.2976e-07           -3.02e-11             -2.94e-12             3.3e-07              
  -0.4                  -3.3038e-07           -3.024e-11            -2.84e-12             3.3062e-07           
  -0.45                 -3.3092e-07           -3.018e-11            -2.9e-12              3.3116e-07           
  -0.5                  -3.3142e-07           -2.99e-11             -2.82e-12             3.3162e-07           
  -0.55                 -3.318e-07            -3e-11                -2.74e-12             3.3202e-07           
  -0.6                  -3.322e-07            -2.988e-11            -2.84e-12             3.3242e-07           
  -0.65                 -3.3254e-07           -2.994e-11            -2.98e-12             3.3276e-07           
  -0.7                  -3.3286e-07           -2.974e-11            -2.7e-12              3.3308e-07           
  -0.75                 -3.3314e-07           -2.954e-11            -2.62e-12             3.3336e-07           
  -0.8                  -3.3342e-07           -2.958e-11            -2.74e-12             3.3366e-07           
  -0.85                 -3.3366e-07           -2.94e-11             -2.68e-12             3.3388e-07           
  -0.9                  -3.3386e-07           -2.92e-11             -2.62e-12             3.3408e-07           
  -0.95                 -3.3404e-07           -2.898e-11            -2.62e-12             3.3432e-07           
  -1                    -3.3428e-07           -2.888e-11            -2.52e-12             3.345e-07            
  -1.05                 -3.3444e-07           -2.86e-11             -2.66e-12             3.3466e-07           
  -1.1                  -3.346e-07            -2.84e-11             -2.64e-12             3.3482e-07           
  -1.15                 -3.3476e-07           -2.814e-11            -2.4e-12              3.3502e-07           
  -1.2                  -3.3492e-07           -2.778e-11            -2.38e-12             3.3512e-07           
  -1.25                 -3.3504e-07           -2.73e-11             -2.48e-12             3.3528e-07           
  -1.3                  -3.352e-07            -2.69e-11             -2.4e-12              3.3542e-07           
  -1.35                 -3.3532e-07           -2.652e-11            -2.04e-12             3.3556e-07           
END_DB

BEGIN_DB
 ICCAP_VAR vg         -0.669         
 ICCAP_VAR vb         -0             
 ICCAP_VAR vs         -0             

 #vd                    id                    ig                    ib                    is                   
  -0                    1.296e-09             -3.6174e-10           -2.28e-12             -9.5712e-10          
  -0.05                 -7.243e-07            -3.061e-10            -2.26e-12             7.2484e-07           
  -0.1                  -1.3032e-06           -2.6292e-10           -2.34e-12             1.3072e-06           
  -0.15                 -1.7386e-06           -2.313e-10            -2.32e-12             1.7426e-06           
  -0.2                  -2.0342e-06           -2.1002e-10           -2.24e-12             2.0382e-06           
  -0.25                 -2.2034e-06           -1.978e-10            -2.22e-12             2.2074e-06           
  -0.3                  -2.2776e-06           -1.9202e-10           -2.12e-12             2.2814e-06           
  -0.35                 -2.3032e-06           -1.9024e-10           -2.2e-12              2.307e-06            
  -0.4                  -2.3128e-06           -1.8944e-10           -2.28e-12             2.3166e-06           
  -0.45                 -2.3182e-06           -1.8892e-10           -2.1e-12              2.3222e-06           
  -0.5                  -2.3226e-06           -1.8864e-10           -2.08e-12             2.3264e-06           
  -0.55                 -2.3262e-06           -1.884e-10            -2.04e-12             2.3302e-06           
  -0.6                  -2.3294e-06           -1.881e-10            -2.1e-12              2.3332e-06           
  -0.65                 -2.332e-06            -1.8782e-10           -2.2e-12              2.3358e-06           
  -0.7                  -2.3344e-06           -1.8772e-10           -2.14e-12             2.3382e-06           
  -0.75                 -2.3364e-06           -1.8736e-10           -2.06e-12             2.3404e-06           
  -0.8                  -2.3386e-06           -1.8734e-10           -2.04e-12             2.3422e-06           
  -0.85                 -2.3404e-06           -1.871e-10            -2e-12                2.344e-06            
  -0.9                  -2.342e-06            -1.8676e-10           -2.08e-12             2.3458e-06           
  -0.95                 -2.3436e-06           -1.8674e-10           -1.96e-12             2.3474e-06           
  -1                    -2.3452e-06           -1.8656e-10           -1.94e-12             2.349e-06            
  -1.05                 -2.3464e-06           -1.8636e-10           -1.86e-12             2.3504e-06           
  -1.1                  -2.3478e-06           -1.8604e-10           -1.9e-12              2.3514e-06           
  -1.15                 -2.3488e-06           -1.8576e-10           -1.84e-12             2.3526e-06           
  -1.2                  -2.35e-06             -1.855e-10            -1.94e-12             2.3538e-06           
  -1.25                 -2.351e-06            -1.8534e-10           -1.98e-12             2.3548e-06           
  -1.3                  -2.3522e-06           -1.8506e-10           -1.98e-12             2.3558e-06           
  -1.35                 -2.353e-06            -1.847e-10            -1.88e-12             2.3568e-06           
END_DB

BEGIN_DB
 ICCAP_VAR vg         -0.896         
 ICCAP_VAR vb         -0             
 ICCAP_VAR vs         -0             

 #vd                    id                    ig                    ib                    is                   
  -0                    2.3466e-09            -1.3242e-09           -1.98e-12             -1.08182e-09         
  -0.05                 -1.2106e-06           -1.172e-09            -1.74e-12             1.2154e-06           
  -0.1                  -2.2966e-06           -1.0422e-09           -1.76e-12             2.3014e-06           
  -0.15                 -3.251e-06            -9.346e-10            -1.9e-12              3.2558e-06           
  -0.2                  -4.0702e-06           -8.4674e-10           -1.8e-12              4.075e-06            
  -0.25                 -4.7518e-06           -7.7564e-10           -1.8e-12              4.7564e-06           
  -0.3                  -5.2934e-06           -7.2134e-10           -1.8e-12              5.298e-06            
  -0.35                 -5.6946e-06           -6.8216e-10           -1.64e-12             5.699e-06            
  -0.4                  -5.9612e-06           -6.5628e-10           -1.74e-12             5.9656e-06           
  -0.45                 -6.109e-06            -6.421e-10            -1.74e-12             6.1136e-06           
  -0.5                  -6.1748e-06           -6.3544e-10           -1.72e-12             6.1794e-06           
  -0.55                 -6.203e-06            -6.3272e-10           -1.58e-12             6.2076e-06           
  -0.6                  -6.218e-06            -6.3126e-10           -1.64e-12             6.222e-06            
  -0.65                 -6.2276e-06           -6.2976e-10           -1.62e-12             6.2316e-06           
  -0.7                  -6.2354e-06           -6.2918e-10           -1.82e-12             6.2398e-06           
  -0.75                 -6.2422e-06           -6.2886e-10           -1.76e-12             6.2464e-06           
  -0.8                  -6.2482e-06           -6.283e-10            -1.58e-12             6.2526e-06           
  -0.85                 -6.254e-06            -6.2786e-10           -1.68e-12             6.258e-06            
  -0.9                  -6.259e-06            -6.269e-10            -1.78e-12             6.2632e-06           
  -0.95                 -6.2638e-06           -6.267e-10            -1.7e-12              6.268e-06            
  -1                    -6.2676e-06           -6.2618e-10           -1.72e-12             6.2718e-06           
  -1.05                 -6.2714e-06           -6.2608e-10           -1.74e-12             6.2758e-06           
  -1.1                  -6.2754e-06           -6.2544e-10           -1.48e-12             6.2794e-06           
  -1.15                 -6.2782e-06           -6.2494e-10           -1.6e-12              6.2826e-06           
  -1.2                  -6.2814e-06           -6.2468e-10           -1.72e-12             6.2856e-06           
  -1.25                 -6.2846e-06           -6.2434e-10           -1.68e-12             6.2888e-06           
  -1.3                  -6.2872e-06           -6.2392e-10           -1.6e-12              6.2914e-06           
  -1.35                 -6.2894e-06           -6.234e-10            -1.64e-12             6.2934e-06           
END_DB

BEGIN_DB
 ICCAP_VAR vg         -1.123         
 ICCAP_VAR vb         -0             
 ICCAP_VAR vs         -0             

 #vd                    id                    ig                    ib                    is                   
  -0                    3.5306e-09            -3.5004e-09           -5.8e-13              -5.416e-10           
  -0.05                 -1.6046e-06           -3.1806e-09           -1.08e-12             1.6114e-06           
  -0.1                  -3.107e-06            -2.898e-09            -1.16e-12             3.1136e-06           
  -0.15                 -4.4982e-06           -2.6512e-09           -1.18e-12             4.5048e-06           
  -0.2                  -5.7744e-06           -2.433e-09            -1.2e-12              5.781e-06            
  -0.25                 -6.9322e-06           -2.2462e-09           -1.24e-12             6.9386e-06           
  -0.3                  -7.9678e-06           -2.085e-09            -1.42e-12             7.9738e-06           
  -0.35                 -8.8752e-06           -1.95e-09             -1.38e-12             8.8814e-06           
  -0.4                  -9.6542e-06           -1.8396e-09           -1.3e-12              9.6602e-06           
  -0.45                 -1.03002e-05          -1.7494e-09           -1.28e-12             1.0306e-05           
  -0.5                  -1.08106e-05          -1.6806e-09           -1.3e-12              1.08164e-05          
  -0.55                 -1.1178e-05           -1.6306e-09           -1.32e-12             1.11922e-05          
  -0.6                  -1.1426e-05           -1.5978e-09           -1.28e-12             1.14386e-05          
  -0.65                 -1.1564e-05           -1.579e-09            -1.28e-12             1.1582e-05           
  -0.7                  -1.163e-05            -1.571e-09            -1.26e-12             1.1648e-05           
  -0.75                 -1.1662e-05           -1.5672e-09           -1.44e-12             1.168e-05            
  -0.8                  -1.168e-05            -1.5642e-09           -1.38e-12             1.1698e-05           
  -0.85                 -1.1694e-05           -1.5624e-09           -1.36e-12             1.1712e-05           
  -0.9                  -1.1706e-05           -1.5612e-09           -1.32e-12             1.1724e-05           
  -0.95                 -1.1716e-05           -1.5594e-09           -1.16e-12             1.1734e-05           
  -1                    -1.1726e-05           -1.5576e-09           -1.2e-12              1.1744e-05           
  -1.05                 -1.1734e-05           -1.558e-09            -1.2e-12              1.1752e-05           
  -1.1                  -1.174e-05            -1.5568e-09           -1.22e-12             1.176e-05            
  -1.15                 -1.1748e-05           -1.5554e-09           -1.22e-12             1.1768e-05           
  -1.2                  -1.1754e-05           -1.5546e-09           -1.14e-12             1.1774e-05           
  -1.25                 -1.1762e-05           -1.5542e-09           -1.24e-12             1.178e-05            
  -1.3                  -1.1766e-05           -1.5532e-09           -1.26e-12             1.1784e-05           
  -1.35                 -1.1772e-05           -1.5528e-09           -1.24e-12             1.179e-05            
END_DB

BEGIN_DB
 ICCAP_VAR vg         -1.35          
 ICCAP_VAR vb         -0             
 ICCAP_VAR vs         -0             

 #vd                    id                    ig                    ib                    is                   
  -0                    5.5214e-09            -7.5702e-09           5.144e-11             9.0264e-10           
  -0.05                 -1.9126e-06           -7.0016e-09           3.68e-11              1.9228e-06           
  -0.1                  -3.7432e-06           -6.4882e-09           2.716e-11             3.7532e-06           
  -0.15                 -5.4814e-06           -6.0178e-09           2.09e-11              5.4912e-06           
  -0.2                  -7.1236e-06           -5.6002e-09           1.654e-11             7.1328e-06           
  -0.25                 -8.6676e-06           -5.2202e-09           1.364e-11             8.677e-06            
  -0.3                  -1.01092e-05          -4.882e-09            1.16e-11              1.01182e-05          
  -0.35                 -1.1442e-05           -4.5768e-09           1.022e-11             1.14506e-05          
  -0.4                  -1.2662e-05           -4.316e-09            9.3e-12               1.2682e-05           
  -0.45                 -1.3772e-05           -4.0836e-09           8.4e-12               1.3794e-05           
  -0.5                  -1.4764e-05           -3.8884e-09           7.8e-12               1.4786e-05           
  -0.55                 -1.5636e-05           -3.7212e-09           7.44e-12              1.5656e-05           
  -0.6                  -1.6382e-05           -3.5802e-09           7.06e-12              1.6404e-05           
  -0.65                 -1.7e-05              -3.462e-09            6.54e-12              1.7022e-05           
  -0.7                  -1.7488e-05           -3.379e-09            6.5e-12               1.7508e-05           
  -0.75                 -1.7844e-05           -3.315e-09            6.44e-12              1.7866e-05           
  -0.8                  -1.8078e-05           -3.2756e-09           6.3e-12               1.81e-05             
  -0.85                 -1.8212e-05           -3.2488e-09           6.16e-12              1.8234e-05           
  -0.9                  -1.8282e-05           -3.237e-09            6.12e-12              1.8302e-05           
  -0.95                 -1.8318e-05           -3.2368e-09           6.2e-12               1.834e-05            
  -1                    -1.8342e-05           -3.2332e-09           6.2e-12               1.8364e-05           
  -1.05                 -1.8362e-05           -3.2236e-09           6.16e-12              1.8382e-05           
  -1.1                  -1.8376e-05           -3.2204e-09           6.1e-12               1.8398e-05           
  -1.15                 -1.839e-05            -3.2178e-09           6.12e-12              1.841e-05            
  -1.2                  -1.8404e-05           -3.2144e-09           6.22e-12              1.8424e-05           
  -1.25                 -1.8414e-05           -3.213e-09            6.22e-12              1.8434e-05           
  -1.3                  -1.8424e-05           -3.2124e-09           6.12e-12              1.8444e-05           
  -1.35                 -1.8432e-05           -3.2112e-09           6.28e-12              1.8454e-05           
END_DB

