! VERSION = 6.00
BEGIN_HEADER
 ICCAP_INPUTS
  vg         V  G GROUND SMU2 0.001 LIN        1    0.5        -1.35      38   -0.05     
  vb         V  B GROUND SMU4 0.1 LIN        2    0          1.2        7    0.2       
  vd         V  D GROUND SMU1 0.1 LIST       3 3 -0.05 -0.6 -1.2
  vs         V  S GROUND SMU3 0.1 CON        -0
 ICCAP_OUTPUTS
  id         I  D GROUND SMU1 B
  ig         I  G GROUND SMU2 B
  ib         I  B GROUND SMU4 B
  is         I  S GROUND SMU3 B
 ICCAP_VALUES
  MASTER_SETUP_TYPE "~dc_idvg~"
  LINVT_VALUE ""
  LISTVT_VALUE ""
  TYPE "-1"
  TEMP " 27.0000 "
  IS_TNOM " 1.00000 "
  MAIN.W "10.00u"
  MAIN.L "2.000u"
  MAIN.AD "3.400p"
  MAIN.AS "3.400p"
  MAIN.PD "20.68u"
  MAIN.PS "20.68u"
  MAIN.NF "1.000"
  MAIN.M "1"
  MAIN.NRD "0.000"
  MAIN.NRS "0.000"
  MAIN.LDRIFT1 "1E-06"
  MAIN.LDRIFT2 "1E-06"
  MAIN.SA "0.000"
  MAIN.SB "0.000"
  MAIN.SD "0.000"
  MAIN.SCA "0.000"
  MAIN.SCB "0.000"
  MAIN.SCC "0.000"
  MAIN.SC "0.000"
  MODULE "S549"
  PIN_D "16"
  PIN_G "5"
  PIN_S "6"
  PIN_B "15"
  PIN_E ""
  PIN_6 ""
  XY_ID ""
  FUNC "L Scale"
  STI "SA ref"
  WPE "WPE ref"
  COMMENT ""
  DIS_MEAS ""
  TypeTCI "10"
END_HEADER

BEGIN_DB
 ICCAP_VAR vb         0              
 ICCAP_VAR vd         -0.05          
 ICCAP_VAR vs         -0             

 #vg                    id                    ig                    ib                    is                   
  0.5                   -1.76e-12             2.342e-11             -6.08e-12             -2.5e-12             
  0.45                  -1.34e-12             6.4e-12               -2.06e-12             -1.96e-12            
  0.4                   -1.08e-12             3.32e-12              -1.24e-12             -1.46e-12            
  0.35                  -8.2e-13              2.12e-12              -1.18e-12             -9.6e-13             
  0.3                   -7.6e-13              1.42e-12              -1e-12                -8.4e-13             
  0.25                  -4.6e-13              8.6e-13               -1.22e-12             -4.2e-13             
  0.2                   -3.4e-13              5.4e-13               -1e-12                -2.2e-13             
  0.15                  -4.6e-13              2.8e-13               -9.2e-13              -2e-14               
  0.1                   -7e-13                -4e-14                -9.8e-13              5.2e-13              
  0.05                  -2.72e-12             4e-14                 -9e-13                2.68e-12             
  0                     -1.286e-11            -3.4e-13              -1.06e-12             1.298e-11            
  -0.05                 -6.17e-11             -3e-13                -8.8e-13              6.162e-11            
  -0.1                  -2.9936e-10           -4.4e-13              -1.02e-12             2.9962e-10           
  -0.15                 -1.4586e-09           -4.4e-13              -1.02e-12             1.46e-09             
  -0.2                  -7.0542e-09           -7.6e-13              -9.4e-13              7.054e-09            
  -0.25                 -3.28e-08             -1.16e-12             -1e-12                3.2824e-08           
  -0.3                  -1.3342e-07           -2.36e-12             -9.6e-13              1.336e-07            
  -0.35                 -4.2134e-07           -5.12e-12             -9.8e-13              4.216e-07            
  -0.4                  -9.9438e-07           -1.06e-11             -9e-13                9.9448e-07           
  -0.45                 -1.8348e-06           -1.918e-11            -8.4e-13              1.8376e-06           
  -0.5                  -2.855e-06            -3.276e-11            -9.6e-13              2.8584e-06           
  -0.55                 -3.961e-06            -5.16e-11             -7.8e-13              3.9642e-06           
  -0.6                  -5.098e-06            -7.82e-11             -9e-13                5.101e-06            
  -0.65                 -6.229e-06            -1.134e-10            -8.8e-13              6.232e-06            
  -0.7                  -7.3358e-06           -1.5948e-10           -9.4e-13              7.3396e-06           
  -0.75                 -8.407e-06            -2.1896e-10           -1.02e-12             8.4098e-06           
  -0.8                  -9.4378e-06           -2.947e-10            -7e-13                9.4402e-06           
  -0.85                 -1.04268e-05          -3.874e-10            -1.02e-12             1.04288e-05          
  -0.9                  -1.13708e-05          -5.0046e-10           -8.8e-13              1.13742e-05          
  -0.95                 -1.2262e-05           -6.3666e-10           -8.4e-13              1.2278e-05           
  -1                    -1.3118e-05           -7.9712e-10           -8.6e-13              1.3134e-05           
  -1.05                 -1.393e-05            -9.9026e-10           -8e-13                1.3944e-05           
  -1.1                  -1.4702e-05           -1.2132e-09           -7.8e-13              1.4718e-05           
  -1.15                 -1.5434e-05           -1.4714e-09           -3.8e-13              1.545e-05            
  -1.2                  -1.6126e-05           -1.7664e-09           3.2e-13               1.6144e-05           
  -1.25                 -1.6784e-05           -2.1054e-09           2.44e-12              1.6802e-05           
  -1.3                  -1.7404e-05           -2.4894e-09           6.76e-12              1.7422e-05           
  -1.35                 -1.7992e-05           -2.9248e-09           1.52e-11              1.801e-05            
END_DB

BEGIN_DB
 ICCAP_VAR vb         0.2            
 ICCAP_VAR vd         -0.05          
 ICCAP_VAR vs         -0             

 #vg                    id                    ig                    ib                    is                   
  0.5                   -1.7e-12              4.72e-12              1.4e-13               -2.46e-12            
  0.45                  -1.36e-12             3.46e-12              2e-14                 -1.92e-12            
  0.4                   -1.12e-12             2.72e-12              2.2e-13               -1.72e-12            
  0.35                  -8.8e-13              1.9e-12               1.4e-13               -9.4e-13             
  0.3                   -5e-13                1.3e-12               -2e-14                -7.6e-13             
  0.25                  -4.4e-13              9.6e-13               4e-14                 -5.2e-13             
  0.2                   -3.6e-13              5.4e-13               -4e-14                -3.4e-13             
  0.15                  -2e-13                1.2e-13               1.4e-13               -6e-14               
  0.1                   -2.2e-13              1.2e-13               -6e-14                8e-14                
  0.05                  -7.2e-13              -1.2e-13              2e-14                 9.4e-13              
  0                     -3.46e-12             -6e-14                -1e-13                3.72e-12             
  -0.05                 -1.704e-11            -3.8e-13              0                     1.736e-11            
  -0.1                  -8.568e-11            -4.6e-13              -1e-13                8.604e-11            
  -0.15                 -4.3048e-10           -6.2e-13              -2e-14                4.3078e-10           
  -0.2                  -2.1596e-09           -6.4e-13              -4e-14                2.1604e-09           
  -0.25                 -1.06954e-08          -9.2e-13              6e-14                 1.06966e-08          
  -0.3                  -4.9522e-08           -1.7e-12              -2e-14                4.9548e-08           
  -0.35                 -1.9092e-07           -3.84e-12             -8e-14                1.9112e-07           
  -0.4                  -5.5378e-07           -8.4e-12              -2e-14                5.5382e-07           
  -0.45                 -1.1982e-06           -1.64e-11             -4e-14                1.2008e-06           
  -0.5                  -2.0788e-06           -2.916e-11            -6e-14                2.082e-06            
  -0.55                 -3.0974e-06           -4.756e-11            -1.2e-13              3.1006e-06           
  -0.6                  -4.18e-06             -7.31e-11             4e-14                 4.1832e-06           
  -0.65                 -5.2784e-06           -1.0776e-10           -4e-14                5.282e-06            
  -0.7                  -6.3652e-06           -1.5312e-10           -2e-14                6.3686e-06           
  -0.75                 -7.4242e-06           -2.1122e-10           -2e-14                7.4268e-06           
  -0.8                  -8.4482e-06           -2.8508e-10           -4e-14                8.4516e-06           
  -0.85                 -9.434e-06            -3.7672e-10           -2e-14                9.436e-06            
  -0.9                  -1.03768e-05          -4.8888e-10           -8e-14                1.03794e-05          
  -0.95                 -1.12768e-05          -6.253e-10            6e-14                 1.12798e-05          
  -1                    -1.2126e-05           -7.8486e-10           6e-14                 1.2142e-05           
  -1.05                 -1.2944e-05           -9.775e-10            0                     1.2958e-05           
  -1.1                  -1.372e-05            -1.199e-09            1.6e-13               1.3734e-05           
  -1.15                 -1.4456e-05           -1.456e-09            5.6e-13               1.4474e-05           
  -1.2                  -1.5156e-05           -1.7486e-09           1.28e-12              1.5172e-05           
  -1.25                 -1.5818e-05           -2.0886e-09           3.36e-12              1.5836e-05           
  -1.3                  -1.6446e-05           -2.4684e-09           7.6e-12               1.6464e-05           
  -1.35                 -1.7042e-05           -2.9068e-09           1.616e-11             1.7058e-05           
END_DB

BEGIN_DB
 ICCAP_VAR vb         0.4            
 ICCAP_VAR vd         -0.05          
 ICCAP_VAR vs         -0             

 #vg                    id                    ig                    ib                    is                   
  0.5                   -1.68e-12             4.54e-12              2e-14                 -2.46e-12            
  0.45                  -1.28e-12             3.34e-12              0                     -1.84e-12            
  0.4                   -9.8e-13              2.62e-12              1e-13                 -1.4e-12             
  0.35                  -7.2e-13              1.82e-12              4e-14                 -1.08e-12            
  0.3                   -6.8e-13              1.4e-12               1e-13                 -7.2e-13             
  0.25                  -4.4e-13              1.04e-12              4e-14                 -5.4e-13             
  0.2                   -2e-13                4.6e-13               8e-14                 -2e-13               
  0.15                  -2.2e-13              2.8e-13               1.4e-13               -3e-13               
  0.1                   -1.2e-13              6e-14                 2e-14                 2e-14                
  0.05                  -2.4e-13              -6e-14                6e-14                 3.4e-13              
  0                     -1.02e-12             -3.4e-13              0                     1.16e-12             
  -0.05                 -5.3e-12              -3e-13                -6e-14                5.62e-12             
  -0.1                  -2.7e-11              -3.6e-13              0                     2.718e-11            
  -0.15                 -1.3904e-10           -5.2e-13              0                     1.3948e-10           
  -0.2                  -7.1534e-10           -7.6e-13              8e-14                 7.1568e-10           
  -0.25                 -3.6722e-09           -8.8e-13              4e-14                 3.6712e-09           
  -0.3                  -1.8274e-08           -1.34e-12             -6e-14                1.829e-08            
  -0.35                 -8.1516e-08           -2.8e-12              -4e-14                8.156e-08            
  -0.4                  -2.8752e-07           -6.54e-12             -4e-14                2.8766e-07           
  -0.45                 -7.4408e-07           -1.368e-11            2e-14                 7.4408e-07           
  -0.5                  -1.4672e-06           -2.538e-11            4e-14                 1.4702e-06           
  -0.55                 -2.3808e-06           -4.306e-11            4e-14                 2.3844e-06           
  -0.6                  -3.3982e-06           -6.794e-11            -8e-14                3.4012e-06           
  -0.65                 -4.4552e-06           -1.0166e-10           6e-14                 4.4584e-06           
  -0.7                  -5.5174e-06           -1.4612e-10           0                     5.5202e-06           
  -0.75                 -6.5594e-06           -2.0364e-10           -6e-14                6.5632e-06           
  -0.8                  -7.5756e-06           -2.7652e-10           -2e-14                7.5778e-06           
  -0.85                 -8.5546e-06           -3.671e-10            0                     8.5574e-06           
  -0.9                  -9.496e-06            -4.799e-10            -8e-14                9.498e-06            
  -0.95                 -1.0395e-05           -6.1266e-10           6e-14                 1.0398e-05           
  -1                    -1.12554e-05          -7.7502e-10           -4e-14                1.1256e-05           
  -1.05                 -1.2062e-05           -9.6394e-10           1e-13                 1.2076e-05           
  -1.1                  -1.2842e-05           -1.1844e-09           1.8e-13               1.2856e-05           
  -1.15                 -1.3582e-05           -1.4412e-09           4.6e-13               1.36e-05             
  -1.2                  -1.4286e-05           -1.7362e-09           1.32e-12              1.4304e-05           
  -1.25                 -1.4954e-05           -2.0726e-09           3.32e-12              1.497e-05            
  -1.3                  -1.5586e-05           -2.4558e-09           7.8e-12               1.5602e-05           
  -1.35                 -1.6184e-05           -2.8878e-09           1.624e-11             1.6202e-05           
END_DB

BEGIN_DB
 ICCAP_VAR vb         0.6            
 ICCAP_VAR vd         -0.05          
 ICCAP_VAR vs         -0             

 #vg                    id                    ig                    ib                    is                   
  0.5                   -1.58e-12             4.42e-12              6e-14                 -2.5e-12             
  0.45                  -1.24e-12             3.32e-12              0                     -1.82e-12            
  0.4                   -9.6e-13              2.48e-12              0                     -1.32e-12            
  0.35                  -7.6e-13              1.76e-12              6e-14                 -8.8e-13             
  0.3                   -6e-13                1.42e-12              1e-13                 -7.4e-13             
  0.25                  -4e-13                7.8e-13               -2e-14                -3e-13               
  0.2                   -2.4e-13              3.8e-13               -8e-14                -8e-14               
  0.15                  -1.8e-13              3.2e-13               1.8e-13               -2.4e-13             
  0.1                   -1.2e-13              0                     2e-14                 6e-14                
  0.05                  -1.2e-13              0                     1.2e-13               1.8e-13              
  0                     -3.6e-13              -2.4e-13              -6e-14                3.8e-13              
  -0.05                 -1.7e-12              -3.6e-13              8e-14                 1.82e-12             
  -0.1                  -9.1e-12              -2.6e-13              -2e-14                9.32e-12             
  -0.15                 -4.808e-11            -4.4e-13              2e-14                 4.846e-11            
  -0.2                  -2.523e-10            -6e-13                2e-14                 2.5274e-10           
  -0.25                 -1.325e-09            -7.6e-13              -1e-13                1.326e-09            
  -0.3                  -6.8724e-09           -1.18e-12             8e-14                 6.872e-09            
  -0.35                 -3.3612e-08           -2.32e-12             1.4e-13               3.3642e-08           
  -0.4                  -1.3964e-07           -4.96e-12             0                     1.3978e-07           
  -0.45                 -4.345e-07            -1.096e-11            1e-13                 4.3462e-07           
  -0.5                  -9.9524e-07           -2.194e-11            4e-14                 9.951e-07            
  -0.55                 -1.7862e-06           -3.864e-11            6e-14                 1.7892e-06           
  -0.6                  -2.725e-06            -6.254e-11            1e-13                 2.7282e-06           
  -0.65                 -3.7332e-06           -9.544e-11            0                     3.7366e-06           
  -0.7                  -4.7644e-06           -1.3914e-10           0                     4.767e-06            
  -0.75                 -5.7874e-06           -1.9586e-10           2e-14                 5.79e-06             
  -0.8                  -6.79e-06             -2.6742e-10           4e-14                 6.7932e-06           
  -0.85                 -7.7634e-06           -3.5732e-10           -4e-14                7.766e-06            
  -0.9                  -8.6996e-06           -4.6928e-10           4e-14                 8.703e-06            
  -0.95                 -9.5982e-06           -6.0284e-10           1.6e-13               9.601e-06            
  -1                    -1.04578e-05          -7.6206e-10           1e-13                 1.0458e-05           
  -1.05                 -1.1274e-05           -9.5042e-10           2e-14                 1.12762e-05          
  -1.1                  -1.2046e-05           -1.1694e-09           1.4e-13               1.2062e-05           
  -1.15                 -1.2792e-05           -1.4248e-09           4.6e-13               1.2808e-05           
  -1.2                  -1.3498e-05           -1.7178e-09           1.34e-12              1.3514e-05           
  -1.25                 -1.417e-05            -2.0532e-09           3.42e-12              1.4188e-05           
  -1.3                  -1.4806e-05           -2.4348e-09           7.72e-12              1.4824e-05           
  -1.35                 -1.541e-05            -2.8694e-09           1.626e-11             1.5428e-05           
END_DB

BEGIN_DB
 ICCAP_VAR vb         0.8            
 ICCAP_VAR vd         -0.05          
 ICCAP_VAR vs         -0             

 #vg                    id                    ig                    ib                    is                   
  0.5                   -1.54e-12             4.38e-12              1e-13                 -2.48e-12            
  0.45                  -1.26e-12             3.36e-12              1.8e-13               -1.96e-12            
  0.4                   -9e-13                2.28e-12              4e-14                 -1.36e-12            
  0.35                  -7.2e-13              1.92e-12              2e-14                 -9.4e-13             
  0.3                   -6.4e-13              1.24e-12              6e-14                 -6.2e-13             
