! VERSION = 6.00
BEGIN_HEADER
 ICCAP_INPUTS
  vd         V  D GROUND SMU1 0.1 LIN        1    -0         -1.35      28   -0.05     
  vg         V  G GROUND SMU2 0.001 LIN        2    -0.614     -1.35      5    -0.184    
  vb         V  B GROUND SMU4 0.1 CON        1.2
  vs         V  S GROUND SMU3 0.1 CON        -0
 ICCAP_OUTPUTS
  id         I  D GROUND SMU1 B
  ig         I  G GROUND SMU2 B
  ib         I  B GROUND SMU4 B
  is         I  S GROUND SMU3 B
 ICCAP_VALUES
  MASTER_SETUP_TYPE "~dc_idvd~"
  LINVT_VALUE "|idvg|100.0n|100.0m|1.000m|5|1.350|"
  LISTVT_VALUE ""
  TYPE "-1"
  TEMP " 70.0000 "
  IS_TNOM " 0.00000 "
  MAIN.W "10.00u"
  MAIN.L "180.0n"
  MAIN.AD "3.400p"
  MAIN.AS "3.400p"
  MAIN.PD "20.68u"
  MAIN.PS "20.68u"
  MAIN.NF "1.000"
  MAIN.M "1"
  MAIN.NRD "0.000"
  MAIN.NRS "0.000"
  MAIN.LDRIFT1 "1E-06"
  MAIN.LDRIFT2 "1E-06"
  MAIN.SA "0.000"
  MAIN.SB "0.000"
  MAIN.SD "0.000"
  MAIN.SCA "0.000"
  MAIN.SCB "0.000"
  MAIN.SCC "0.000"
  MAIN.SC "0.000"
  MODULE "S548"
  PIN_D "12"
  PIN_G "9"
  PIN_S "10"
  PIN_B "11"
  PIN_E ""
  PIN_6 ""
  XY_ID ""
  FUNC "L Scale"
  STI "SA ref"
  WPE "WPE ref"
  COMMENT ""
  DIS_MEAS ""
  TypeTCI "10"
END_HEADER

BEGIN_DB
 ICCAP_VAR vg         -0.614         
 ICCAP_VAR vb         1.2            
 ICCAP_VAR vs         -0             

 #vd                    id                    ig                    ib                    is                   
  -0                    2.2458e-08            -9.24e-12             1.458e-11             -2.5426e-08          
  -0.05                 -1.3854e-05           -7.76e-12             1.456e-11             1.386e-05            
  -0.1                  -2.1336e-05           -6.92e-12             1.45e-11              2.1354e-05           
  -0.15                 -2.5152e-05           -6.14e-12             1.446e-11             2.5156e-05           
  -0.2                  -2.7226e-05           -6e-12                1.454e-11             2.7236e-05           
  -0.25                 -2.8612e-05           -5.6e-12              1.45e-11              2.8632e-05           
  -0.3                  -2.973e-05            -5.34e-12             1.456e-11             2.972e-05            
  -0.35                 -3.0692e-05           -5.18e-12             1.446e-11             3.071e-05            
  -0.4                  -3.1592e-05           -4.96e-12             1.452e-11             3.1594e-05           
  -0.45                 -3.244e-05            -4.92e-12             1.45e-11              3.2456e-05           
  -0.5                  -3.324e-05            -4.86e-12             1.444e-11             3.3244e-05           
  -0.55                 -3.4022e-05           -4.88e-12             1.448e-11             3.4034e-05           
  -0.6                  -3.4788e-05           -4.8e-12              1.446e-11             3.4796e-05           
  -0.65                 -3.5538e-05           -4.68e-12             1.446e-11             3.5566e-05           
  -0.7                  -3.627e-05            -4.68e-12             1.446e-11             3.6256e-05           
  -0.75                 -3.6972e-05           -4.58e-12             1.446e-11             3.6976e-05           
  -0.8                  -3.769e-05            -4.58e-12             1.446e-11             3.7666e-05           
  -0.85                 -3.837e-05            -4.56e-12             1.448e-11             3.8376e-05           
  -0.9                  -3.9066e-05           -4.38e-12             1.45e-11              3.9102e-05           
  -0.95                 -3.9744e-05           -4.14e-12             1.446e-11             3.9748e-05           
  -1                    -4.0404e-05           -3.96e-12             1.464e-11             4.042e-05            
  -1.05                 -4.1066e-05           -3.7e-12              1.492e-11             4.1078e-05           
  -1.1                  -4.173e-05            -3.4e-12              1.55e-11              4.1754e-05           
  -1.15                 -4.2364e-05           -3.1e-12              1.67e-11              4.237e-05            
  -1.2                  -4.2968e-05           -2.84e-12             1.956e-11             4.2998e-05           
  -1.25                 -4.3616e-05           -2.34e-12             2.506e-11             4.3628e-05           
  -1.3                  -4.4234e-05           -1.88e-12             3.564e-11             4.4236e-05           
  -1.35                 -4.486e-05            -1.44e-12             5.484e-11             4.4916e-05           
END_DB

BEGIN_DB
 ICCAP_VAR vg         -0.798         
 ICCAP_VAR vb         1.2            
 ICCAP_VAR vs         -0             

 #vd                    id                    ig                    ib                    is                   
  -0                    7.5682e-08            -2.918e-11            1.418e-11             -6.9378e-08          
  -0.05                 -4.6398e-05           -2.542e-11            1.418e-11             4.6384e-05           
  -0.1                  -8.2618e-05           -2.254e-11            1.414e-11             8.261e-05            
  -0.15                 -0.000109462          -2.044e-11            1.432e-11             0.000109428          
  -0.2                  -0.00012828           -1.854e-11            1.418e-11             0.00012864           
  -0.25                 -0.00014132           -1.758e-11            1.434e-11             0.00014158           
  -0.3                  -0.00015018           -1.654e-11            1.424e-11             0.00015054           
  -0.35                 -0.00015666           -1.598e-11            1.43e-11              0.00015702           
  -0.4                  -0.0001619            -1.552e-11            1.434e-11             0.00016222           
  -0.45                 -0.0001662            -1.508e-11            1.422e-11             0.0001666            
  -0.5                  -0.00017014           -1.496e-11            1.428e-11             0.00017044           
  -0.55                 -0.00017354           -1.466e-11            1.426e-11             0.00017386           
  -0.6                  -0.00017688           -1.452e-11            1.426e-11             0.00017716           
  -0.65                 -0.00018006           -1.426e-11            1.434e-11             0.00018034           
  -0.7                  -0.00018296           -1.418e-11            1.418e-11             0.00018326           
  -0.75                 -0.00018598           -1.412e-11            1.434e-11             0.00018624           
  -0.8                  -0.00018872           -1.406e-11            1.432e-11             0.00018906           
  -0.85                 -0.00019158           -1.398e-11            1.434e-11             0.0001918            
  -0.9                  -0.0001941            -1.382e-11            1.426e-11             0.00019444           
  -0.95                 -0.00019672           -1.37e-11             1.424e-11             0.00019696           
  -1                    -0.00019924           -1.372e-11            1.442e-11             0.00019964           
  -1.05                 -0.0002018            -1.348e-11            1.444e-11             0.00020222           
  -1.1                  -0.00020432           -1.32e-11             1.478e-11             0.00020456           
  -1.15                 -0.00020688           -1.308e-11            1.558e-11             0.00020722           
  -1.2                  -0.00020922           -1.278e-11            1.732e-11             0.00020958           
  -1.25                 -0.00021172           -1.25e-11             2.132e-11             0.00021196           
  -1.3                  -0.00021404           -1.228e-11            2.978e-11             0.00021442           
  -1.35                 -0.0002166            -1.19e-11             4.712e-11             0.00021686           
END_DB

BEGIN_DB
 ICCAP_VAR vg         -0.982         
 ICCAP_VAR vb         1.2            
 ICCAP_VAR vs         -0             

 #vd                    id                    ig                    ib                    is                   
  -0                    1.14962e-07           -7.29e-11             1.404e-11             -1.05522e-07         
  -0.05                 -7.9738e-05           -6.568e-11            1.408e-11             7.9734e-05           
  -0.1                  -0.00014966           -5.928e-11            1.416e-11             0.00014996           
  -0.15                 -0.00020982           -5.376e-11            1.424e-11             0.00021008           
  -0.2                  -0.00026016           -4.942e-11            1.422e-11             0.0002605            
  -0.25                 -0.00030132           -4.592e-11            1.424e-11             0.00030156           
  -0.3                  -0.0003338            -4.3e-11              1.424e-11             0.00033426           
  -0.35                 -0.00035902           -4.076e-11            1.436e-11             0.00035932           
  -0.4                  -0.00037846           -3.898e-11            1.438e-11             0.00037886           
  -0.45                 -0.00039362           -3.772e-11            1.424e-11             0.00039398           
  -0.5                  -0.00040568           -3.668e-11            1.424e-11             0.0004061            
  -0.55                 -0.00041588           -3.586e-11            1.43e-11              0.0004162            
  -0.6                  -0.00042458           -3.534e-11            1.426e-11             0.00042458           
  -0.65                 -0.00043226           -3.464e-11            1.43e-11              0.00043278           
  -0.7                  -0.0004397            -3.43e-11             1.43e-11              0.00043976           
  -0.75                 -0.00044614           -3.418e-11            1.424e-11             0.00044654           
  -0.8                  -0.00045256           -3.376e-11            1.43e-11              0.00045264           
  -0.85                 -0.00045838           -3.348e-11            1.424e-11             0.00045872           
  -0.9                  -0.00046398           -3.334e-11            1.416e-11             0.00046418           
  -0.95                 -0.00046968           -3.322e-11            1.418e-11             0.00047006           
  -1                    -0.00047518           -3.272e-11            1.426e-11             0.00047522           
  -1.05                 -0.00048004           -3.248e-11            1.436e-11             0.0004804            
  -1.1                  -0.00048526           -3.24e-11             1.452e-11             0.00048552           
  -1.15                 -0.00049012           -3.21e-11             1.468e-11             0.00049044           
  -1.2                  -0.000495             -3.206e-11            1.526e-11             0.00049528           
  -1.25                 -0.00049986           -3.182e-11            1.678e-11             0.00050018           
  -1.3                  -0.00050458           -3.156e-11            2.034e-11             0.00050496           
  -1.35                 -0.00050936           -3.128e-11            2.78e-11              0.00050976           
END_DB

BEGIN_DB
 ICCAP_VAR vg         -1.166         
 ICCAP_VAR vb         1.2            
 ICCAP_VAR vs         -0             

 #vd                    id                    ig                    ib                    is                   
  -0                    2.732e-07             -1.5532e-10           1.428e-11             -1.4076e-07          
  -0.05                 -0.0001085            -1.4234e-10           1.434e-11             0.00010876           
  -0.1                  -0.00020854           -1.3062e-10           1.44e-11              0.00020894           
  -0.15                 -0.0002998            -1.2048e-10           1.424e-11             0.0003001            
  -0.2                  -0.0003817            -1.114e-10            1.424e-11             0.00038216           
  -0.25                 -0.00045458           -1.0362e-10           1.422e-11             0.00045486           
  -0.3                  -0.00051792           -9.698e-11            1.42e-11              0.00051834           
  -0.35                 -0.00057224           -9.154e-11            1.424e-11             0.00057254           
  -0.4                  -0.00061794           -8.674e-11            1.434e-11             0.00061828           
  -0.45                 -0.000656             -8.294e-11            1.436e-11             0.00065638           
  -0.5                  -0.00068676           -8e-11                1.428e-11             0.00068704           
  -0.55                 -0.00071208           -7.742e-11            1.426e-11             0.00071232           
  -0.6                  -0.00073288           -7.536e-11            1.428e-11             0.00073348           
  -0.65                 -0.00075078           -7.396e-11            1.43e-11              0.00075086           
  -0.7                  -0.00076578           -7.288e-11            1.42e-11              0.00076602           
  -0.75                 -0.00077922           -7.168e-11            1.43e-11              0.00077932           
  -0.8                  -0.00079086           -7.072e-11            1.424e-11             0.0007913            
  -0.85                 -0.00080172           -7.004e-11            1.428e-11             0.000802             
  -0.9                  -0.00081218           -6.934e-11            1.43e-11              0.00081244           
  -0.95                 -0.00082152           -6.892e-11            1.432e-11             0.00082138           
  -1                    -0.00083056           -6.832e-11            1.426e-11             0.00083066           
  -1.05                 -0.0008391            -6.794e-11            1.43e-11              0.0008396            
  -1.1                  -0.0008476            -6.754e-11            1.448e-11             0.00084792           
  -1.15                 -0.00085578           -6.71e-11             1.444e-11             0.00085576           
  -1.2                  -0.0008635            -6.654e-11            1.468e-11             0.00086394           
  -1.25                 -0.00087116           -6.624e-11            1.514e-11             0.0008716            
  -1.3                  -0.0008789            -6.602e-11            1.63e-11              0.0008792            
  -1.35                 -0.00088624           -6.556e-11            1.902e-11             0.00088714           
END_DB

BEGIN_DB
 ICCAP_VAR vg         -1.35          
 ICCAP_VAR vb         1.2            
 ICCAP_VAR vs         -0             

 #vd                    id                    ig                    ib                    is                   
  -0                    3.5566e-07            -2.932e-10            1.776e-11             -1.4802e-07          
  -0.05                 -0.00013252           -2.7132e-10           1.676e-11             0.00013282           
  -0.1                  -0.00025796           -2.5412e-10           1.63e-11              0.00025828           
  -0.15                 -0.0003756            -2.3792e-10           1.6e-11               0.00037588           
  -0.2                  -0.00048498           -2.2272e-10           1.58e-11              0.00048526           
  -0.25                 -0.00058604           -2.0844e-10           1.554e-11             0.00058646           
  -0.3                  -0.00067834           -1.9578e-10           1.546e-11             0.00067872           
  -0.35                 -0.00076206           -1.8302e-10           1.53e-11              0.00076262           
  -0.4                  -0.0008368            -1.734e-10            1.536e-11             0.00083724           
  -0.45                 -0.00090292           -1.649e-10            1.526e-11             0.00090332           
  -0.5                  -0.00096058           -1.5816e-10           1.518e-11             0.00096112           
  -0.55                 -0.00101034           -1.521e-10            1.514e-11             0.00101082           
  -0.6                  -0.00105292           -1.472e-10            1.51e-11              0.00105342           
  -0.65                 -0.00108872           -1.4288e-10           1.51e-11              0.00108876           
  -0.7                  -0.00111924           -1.3972e-10           1.508e-11             0.00111954           
  -0.75                 -0.00114546           -1.3692e-10           1.51e-11              0.00114568           
  -0.8                  -0.0011676            -1.3484e-10           1.492e-11             0.001168             
  -0.85                 -0.0011872            -1.3286e-10           1.508e-11             0.0011882            
  -0.9                  -0.001205             -1.3132e-10           1.504e-11             0.0012054            
  -0.95                 -0.0012206            -1.3006e-10           1.498e-11             0.0012214            
  -1                    -0.0012358            -1.2858e-10           1.5e-11               0.0012364            
  -1.05                 -0.0012492            -1.2776e-10           1.496e-11             0.0012502            
  -1.1                  -0.0012622            -1.266e-10            1.498e-11             0.001263             
  -1.15                 -0.0012746            -1.2556e-10           1.494e-11             0.0012748            
  -1.2                  -0.0012858            -1.2506e-10           1.514e-11             0.0012868            
  -1.25                 -0.001297             -1.2452e-10           1.526e-11             0.0012972            
  -1.3                  -0.0013074            -1.2326e-10           1.564e-11             0.0013082            
  -1.35                 -0.0013184            -1.2268e-10           1.648e-11             0.001319             
END_DB

