! VERSION = 6.00
BEGIN_HEADER
 ICCAP_INPUTS
  vd         V  D GROUND SMU1 0.1 LIN        1    -0         -1.35      28   -0.05     
  vg         V  G GROUND SMU2 0.001 LIST       2 3 -0.107 -0.307 -0.507
  vb         V  B GROUND SMU4 0.1 CON        -0
  vs         V  S GROUND SMU3 0.1 CON        -0
 ICCAP_OUTPUTS
  id         I  D GROUND SMU1 B
  ig         I  G GROUND SMU2 B
  ib         I  B GROUND SMU4 B
  is         I  S GROUND SMU3 B
 ICCAP_VALUES
  MASTER_SETUP_TYPE "~dc_idvd~"
  LINVT_VALUE ""
  LISTVT_VALUE "|idvg|100.0n|-200.0m|1.000m|3|200.0m|200.0m|"
  TYPE "-1"
  TEMP " 27.0000 "
  IS_TNOM " 1.00000 "
  MAIN.W "180.0n"
  MAIN.L "10.00u"
  MAIN.AD "102.6f"
  MAIN.AS "102.6f"
  MAIN.PD "1.340u"
  MAIN.PS "1.340u"
  MAIN.NF "1.000"
  MAIN.M "1"
  MAIN.NRD "0.000"
  MAIN.NRS "0.000"
  MAIN.LDRIFT1 "1E-06"
  MAIN.LDRIFT2 "1E-06"
  MAIN.SA "0.000"
  MAIN.SB "0.000"
  MAIN.SD "0.000"
  MAIN.SCA "0.000"
  MAIN.SCB "0.000"
  MAIN.SCC "0.000"
  MAIN.SC "0.000"
  MODULE "S554"
  PIN_D "20"
  PIN_G "1"
  PIN_S "2"
  PIN_B "19"
  PIN_E ""
  PIN_6 ""
  XY_ID ""
  FUNC "W Scale"
  STI "SA ref"
  WPE "WPE ref"
  COMMENT ""
  DIS_MEAS ""
  TypeTCI "10"
END_HEADER

BEGIN_DB
 ICCAP_VAR vg         -0.107         
 ICCAP_VAR vb         -0             
 ICCAP_VAR vs         -0             

 #vd                    id                    ig                    ib                    is                   
  -0                    2.6e-13               2e-13                 -1.18e-12             6e-14                
  -0.05                 -4.16e-12             2.2e-13               -1.16e-12             4.04e-12             
  -0.1                  -4.88e-12             2.2e-13               -1.14e-12             4.68e-12             
  -0.15                 -5.1e-12              6e-14                 -1.16e-12             4.78e-12             
  -0.2                  -5.18e-12             1.8e-13               -1.28e-12             4.84e-12             
  -0.25                 -5.22e-12             1.4e-13               -1.2e-12              4.74e-12             
  -0.3                  -5.28e-12             3e-13                 -9.8e-13              4.62e-12             
  -0.35                 -5.28e-12             1.2e-13               -1.22e-12             4.82e-12             
  -0.4                  -5.44e-12             8e-14                 -1.08e-12             4.76e-12             
  -0.45                 -5.4e-12              4e-14                 -1.12e-12             4.74e-12             
  -0.5                  -5.52e-12             8e-14                 -9.4e-13              4.82e-12             
  -0.55                 -5.44e-12             2e-14                 -1.16e-12             4.78e-12             
  -0.6                  -5.5e-12              0                     -1.18e-12             4.82e-12             
  -0.65                 -5.5e-12              4e-14                 -1.06e-12             4.88e-12             
  -0.7                  -5.62e-12             6e-14                 -1.06e-12             4.84e-12             
  -0.75                 -5.54e-12             1.6e-13               -1.14e-12             4.98e-12             
  -0.8                  -5.68e-12             0                     -1.08e-12             4.92e-12             
  -0.85                 -5.7e-12              8e-14                 -1.12e-12             4.8e-12              
  -0.9                  -5.7e-12              4e-14                 -1.08e-12             4.9e-12              
  -0.95                 -5.7e-12              4e-14                 -1.16e-12             4.9e-12              
  -1                    -5.72e-12             1.8e-13               -1.04e-12             4.82e-12             
  -1.05                 -5.68e-12             6e-14                 -1.08e-12             4.78e-12             
  -1.1                  -5.78e-12             -2e-14                -1.12e-12             4.84e-12             
  -1.15                 -5.8e-12              4e-14                 -9.2e-13              4.86e-12             
  -1.2                  -5.94e-12             1e-13                 -1.06e-12             4.84e-12             
  -1.25                 -5.82e-12             4e-14                 -1e-12                4.88e-12             
  -1.3                  -5.86e-12             6e-14                 -9.8e-13              4.86e-12             
  -1.35                 -5.88e-12             6e-14                 -1e-12                4.88e-12             
END_DB

BEGIN_DB
 ICCAP_VAR vg         -0.307         
 ICCAP_VAR vb         -0             
 ICCAP_VAR vs         -0             

 #vd                    id                    ig                    ib                    is                   
  -0                    4.96e-12              -3.4e-13              -9.8e-13              -4.32e-12            
  -0.05                 -1.5212e-09           -2.4e-13              -1.08e-12             1.5222e-09           
  -0.1                  -1.8646e-09           -1.6e-13              -1.14e-12             1.8658e-09           
  -0.15                 -1.9294e-09           -2e-13                -8.6e-13              1.9306e-09           
  -0.2                  -1.9456e-09           -1.6e-13              -1e-12                1.9462e-09           
  -0.25                 -1.9536e-09           -2.2e-13              -9.8e-13              1.955e-09            
  -0.3                  -1.9606e-09           -2.6e-13              -1.02e-12             1.9618e-09           
  -0.35                 -1.9656e-09           -2.6e-13              -1.16e-12             1.9664e-09           
  -0.4                  -1.97e-09             -1.8e-13              -1.02e-12             1.9722e-09           
  -0.45                 -1.9738e-09           -2e-13                -1.1e-12              1.9746e-09           
  -0.5                  -1.978e-09            -1.2e-13              -1e-12                1.9796e-09           
  -0.55                 -1.9812e-09           -1.2e-13              -1.12e-12             1.982e-09            
  -0.6                  -1.983e-09            -2.2e-13              -9.4e-13              1.9836e-09           
  -0.65                 -1.9858e-09           -2.4e-13              -1.12e-12             1.9864e-09           
  -0.7                  -1.9876e-09           -1.4e-13              -1.04e-12             1.9886e-09           
  -0.75                 -1.9896e-09           -1.2e-13              -9.2e-13              1.9916e-09           
  -0.8                  -1.9912e-09           -1.8e-13              -9.8e-13              1.9926e-09           
  -0.85                 -1.9944e-09           -1.4e-13              -9.2e-13              1.9942e-09           
  -0.9                  -1.9944e-09           -2.4e-13              -8.8e-13              1.9952e-09           
  -0.95                 -1.9976e-09           -2.2e-13              -9.2e-13              1.9978e-09           
  -1                    -1.9972e-09           -2e-13                -9.8e-13              1.999e-09            
  -1.05                 -1.9994e-09           -2e-13                -8.2e-13              1.9998e-09           
  -1.1                  -1.9998e-09           -2.8e-13              -9.6e-13              2.0002e-09           
  -1.15                 -2e-09                -1.8e-13              -8.8e-13              2.0016e-09           
  -1.2                  -2.0022e-09           -1.4e-13              -1e-12                2.0024e-09           
  -1.25                 -2.002e-09            -1.8e-13              -8.8e-13              2.0022e-09           
  -1.3                  -2.0028e-09           -1.6e-13              -9.8e-13              2.0044e-09           
  -1.35                 -2.0044e-09           -1.8e-13              -1.02e-12             2.0044e-09           
END_DB

BEGIN_DB
 ICCAP_VAR vg         -0.507         
 ICCAP_VAR vb         -0             
 ICCAP_VAR vs         -0             

 #vd                    id                    ig                    ib                    is                   
  -0                    3.574e-11             -3.96e-12             -9.2e-13              -3.278e-11           
  -0.05                 -1.7514e-08           -3.2e-12              -8.4e-13              1.7542e-08           
  -0.1                  -2.8896e-08           -2.6e-12              -9.8e-13              2.8922e-08           
  -0.15                 -3.4958e-08           -2.14e-12             -9.6e-13              3.4992e-08           
  -0.2                  -3.7326e-08           -2.1e-12              -9e-13                3.736e-08            
  -0.25                 -3.8036e-08           -2.1e-12              -9.8e-13              3.806e-08            
  -0.3                  -3.8282e-08           -2.14e-12             -9e-13                3.831e-08            
  -0.35                 -3.8416e-08           -1.94e-12             -8.6e-13              3.845e-08            
  -0.4                  -3.8524e-08           -2e-12                -9e-13                3.855e-08            
  -0.45                 -3.8624e-08           -1.9e-12              -7.8e-13              3.8634e-08           
  -0.5                  -3.8702e-08           -2.08e-12             -8.4e-13              3.8734e-08           
  -0.55                 -3.8768e-08           -2.06e-12             -9e-13                3.8792e-08           
  -0.6                  -3.8834e-08           -2.04e-12             -9.2e-13              3.8866e-08           
  -0.65                 -3.8882e-08           -2.04e-12             -7.8e-13              3.8914e-08           
  -0.7                  -3.8946e-08           -1.98e-12             -7.2e-13              3.8984e-08           
  -0.75                 -3.899e-08            -1.96e-12             -7.8e-13              3.9024e-08           
  -0.8                  -3.903e-08            -2.02e-12             -8e-13                3.9056e-08           
  -0.85                 -3.9062e-08           -1.94e-12             -8.6e-13              3.9086e-08           
  -0.9                  -3.9096e-08           -2.02e-12             -7.4e-13              3.913e-08            
  -0.95                 -3.9136e-08           -1.98e-12             -7.4e-13              3.9164e-08           
  -1                    -3.917e-08            -2.02e-12             -8.2e-13              3.918e-08            
  -1.05                 -3.9186e-08           -1.94e-12             -8.8e-13              3.92e-08             
  -1.1                  -3.921e-08            -1.92e-12             -1e-12                3.9238e-08           
  -1.15                 -3.9226e-08           -1.9e-12              -8.8e-13              3.9258e-08           
  -1.2                  -3.9242e-08           -1.92e-12             -7.6e-13              3.9288e-08           
  -1.25                 -3.9276e-08           -1.98e-12             -8.4e-13              3.9298e-08           
  -1.3                  -3.9284e-08           -1.92e-12             -9.6e-13              3.9322e-08           
  -1.35                 -3.9304e-08           -1.94e-12             -8.6e-13              3.9332e-08           
END_DB

