! VERSION = 6.00
BEGIN_HEADER
 ICCAP_INPUTS
  vd         V  D GROUND SMU1 0.1 LIN        1    -0         -1.35      28   -0.05     
  vg         V  G GROUND SMU2 0.001 LIN        2    -0.618     -1.35      5    -0.183    
  vb         V  B GROUND SMU4 0.1 CON        1.2
  vs         V  S GROUND SMU3 0.1 CON        -0
 ICCAP_OUTPUTS
  id         I  D GROUND SMU1 B
  ig         I  G GROUND SMU2 B
  ib         I  B GROUND SMU4 B
  is         I  S GROUND SMU3 B
 ICCAP_VALUES
  MASTER_SETUP_TYPE "~dc_idvd~"
  LINVT_VALUE "|idvg|100.0n|100.0m|1.000m|5|1.350|"
  LISTVT_VALUE ""
  TYPE "-1"
  TEMP " 27.0000 "
  IS_TNOM " 1.00000 "
  MAIN.W "2.000u"
  MAIN.L "10.00u"
  MAIN.AD "680.0f"
  MAIN.AS "680.0f"
  MAIN.PD "4.680u"
  MAIN.PS "4.680u"
  MAIN.NF "1.000"
  MAIN.M "1"
  MAIN.NRD "0.000"
  MAIN.NRS "0.000"
  MAIN.LDRIFT1 "1E-06"
  MAIN.LDRIFT2 "1E-06"
  MAIN.SA "0.000"
  MAIN.SB "0.000"
  MAIN.SD "0.000"
  MAIN.SCA "0.000"
  MAIN.SCB "0.000"
  MAIN.SCC "0.000"
  MAIN.SC "0.000"
  MODULE "S551"
  PIN_D "20"
  PIN_G "1"
  PIN_S "2"
  PIN_B "19"
  PIN_E ""
  PIN_6 ""
  XY_ID ""
  FUNC "W Scale"
  STI "SA ref"
  WPE "WPE ref"
  COMMENT ""
  DIS_MEAS ""
  TypeTCI "10"
END_HEADER

BEGIN_DB
 ICCAP_VAR vg         -0.618         
 ICCAP_VAR vb         1.2            
 ICCAP_VAR vs         -0             

 #vd                    id                    ig                    ib                    is                   
  -0                    1.6454e-10            -6.568e-11            5e-13                 -1.1904e-10          
  -0.05                 -7.2772e-08           -5.162e-11            4.4e-13               7.285e-08            
  -0.1                  -1.09212e-07          -4.36e-11             4.6e-13               1.09308e-07          
  -0.15                 -1.2214e-07           -4.01e-11             2.4e-13               1.2234e-07           
  -0.2                  -1.254e-07            -3.91e-11             2e-13                 1.2564e-07           
  -0.25                 -1.263e-07            -3.874e-11            3.2e-13               1.2648e-07           
  -0.3                  -1.2666e-07           -3.856e-11            4e-13                 1.269e-07            
  -0.35                 -1.2696e-07           -3.86e-11             2.6e-13               1.2718e-07           
  -0.4                  -1.2722e-07           -3.846e-11            3.8e-13               1.2744e-07           
  -0.45                 -1.2742e-07           -3.836e-11            2.8e-13               1.2764e-07           
  -0.5                  -1.276e-07            -3.822e-11            2.4e-13               1.2782e-07           
  -0.55                 -1.2776e-07           -3.812e-11            2.6e-13               1.2796e-07           
  -0.6                  -1.2792e-07           -3.816e-11            2.2e-13               1.2814e-07           
  -0.65                 -1.2806e-07           -3.798e-11            2.2e-13               1.2828e-07           
  -0.7                  -1.2818e-07           -3.806e-11            3.4e-13               1.284e-07            
  -0.75                 -1.2828e-07           -3.8e-11              3.4e-13               1.285e-07            
  -0.8                  -1.284e-07            -3.802e-11            1.6e-13               1.2862e-07           
  -0.85                 -1.2852e-07           -3.778e-11            2.2e-13               1.2872e-07           
  -0.9                  -1.286e-07            -3.784e-11            2e-13                 1.288e-07            
  -0.95                 -1.287e-07            -3.784e-11            1e-13                 1.289e-07            
  -1                    -1.2876e-07           -3.774e-11            8e-14                 1.2896e-07           
  -1.05                 -1.2882e-07           -3.766e-11            1.4e-13               1.2904e-07           
  -1.1                  -1.289e-07            -3.768e-11            1.8e-13               1.2912e-07           
  -1.15                 -1.2898e-07           -3.762e-11            2.4e-13               1.2918e-07           
  -1.2                  -1.2902e-07           -3.764e-11            2.2e-13               1.2924e-07           
  -1.25                 -1.291e-07            -3.752e-11            1e-13                 1.2928e-07           
  -1.3                  -1.2912e-07           -3.75e-11             2.2e-13               1.2934e-07           
  -1.35                 -1.2916e-07           -3.738e-11            3e-13                 1.2938e-07           
END_DB

BEGIN_DB
 ICCAP_VAR vg         -0.801         
 ICCAP_VAR vb         1.2            
 ICCAP_VAR vs         -0             

 #vd                    id                    ig                    ib                    is                   
  -0                    5.2442e-10            -2.7394e-10           1.6e-13               -2.5388e-10          
  -0.05                 -2.2226e-07           -2.3422e-10           1e-13                 2.2264e-07           
  -0.1                  -3.962e-07            -2.033e-10            2.2e-13               3.967e-07            
  -0.15                 -5.2236e-07           -1.8082e-10           1.8e-13               5.228e-07            
  -0.2                  -6.0352e-07           -1.6592e-10           4e-14                 6.0396e-07           
  -0.25                 -6.4616e-07           -1.5762e-10           1e-13                 6.466e-07            
  -0.3                  -6.6298e-07           -1.5402e-10           4e-14                 6.6334e-07           
  -0.35                 -6.6846e-07           -1.5282e-10           2e-14                 6.6886e-07           
  -0.4                  -6.7066e-07           -1.523e-10            -8e-14                6.7094e-07           
  -0.45                 -6.719e-07            -1.5222e-10           -6e-14                6.7234e-07           
  -0.5                  -6.7306e-07           -1.5166e-10           1e-13                 6.734e-07            
  -0.55                 -6.7394e-07           -1.5158e-10           1.2e-13               6.7432e-07           
  -0.6                  -6.7472e-07           -1.4986e-10           0                     6.7514e-07           
  -0.65                 -6.755e-07            -1.4992e-10           6e-14                 6.7592e-07           
  -0.7                  -6.762e-07            -1.4962e-10           8e-14                 6.7654e-07           
  -0.75                 -6.7676e-07           -1.4922e-10           1.8e-13               6.7716e-07           
  -0.8                  -6.7736e-07           -1.4918e-10           6e-14                 6.7774e-07           
  -0.85                 -6.7774e-07           -1.4904e-10           -2e-14                6.7814e-07           
  -0.9                  -6.7822e-07           -1.4894e-10           2e-14                 6.7854e-07           
  -0.95                 -6.786e-07            -1.4884e-10           4e-14                 6.79e-07             
  -1                    -6.7912e-07           -1.4872e-10           0                     6.795e-07            
  -1.05                 -6.7944e-07           -1.488e-10            0                     6.7988e-07           
  -1.1                  -6.7984e-07           -1.486e-10            0                     6.8024e-07           
  -1.15                 -6.8016e-07           -1.485e-10            2e-14                 6.8054e-07           
  -1.2                  -6.8046e-07           -1.4826e-10           -4e-14                6.8084e-07           
  -1.25                 -6.8084e-07           -1.4822e-10           8e-14                 6.8118e-07           
  -1.3                  -6.8106e-07           -1.4794e-10           -4e-14                6.8144e-07           
  -1.35                 -6.8124e-07           -1.4946e-10           2e-14                 6.8172e-07           
END_DB

BEGIN_DB
 ICCAP_VAR vg         -0.984         
 ICCAP_VAR vb         1.2            
 ICCAP_VAR vs         -0             

 #vd                    id                    ig                    ib                    is                   
  -0                    9.788e-10             -7.3312e-10           1.2e-13               -2.3872e-10          
  -0.05                 -3.6834e-07           -6.5254e-10           2e-14                 3.6922e-07           
  -0.1                  -6.9244e-07           -5.834e-10            -2e-14                6.9324e-07           
  -0.15                 -9.7e-07              -5.256e-10            2e-14                 9.7092e-07           
  -0.2                  -1.199e-06            -4.7868e-10           2e-14                 1.2032e-06           
  -0.25                 -1.3814e-06           -4.417e-10            4e-14                 1.3854e-06           
  -0.3                  -1.5164e-06           -4.1504e-10           2e-14                 1.5206e-06           
  -0.35                 -1.606e-06            -3.9696e-10           -8e-14                1.61e-06             
  -0.4                  -1.6558e-06           -3.8632e-10           -1.2e-13              1.6602e-06           
  -0.45                 -1.678e-06            -3.814e-10            8e-14                 1.6824e-06           
  -0.5                  -1.6868e-06           -3.7948e-10           0                     1.6908e-06           
  -0.55                 -1.6906e-06           -3.7886e-10           2e-14                 1.6948e-06           
  -0.6                  -1.6936e-06           -3.784e-10            2e-14                 1.6978e-06           
  -0.65                 -1.6956e-06           -3.7778e-10           0                     1.6998e-06           
  -0.7                  -1.6974e-06           -3.7736e-10           -6e-14                1.7014e-06           
  -0.75                 -1.699e-06            -3.77e-10             6e-14                 1.7032e-06           
  -0.8                  -1.7004e-06           -3.7672e-10           1e-13                 1.7046e-06           
  -0.85                 -1.7018e-06           -3.765e-10            4e-14                 1.7058e-06           
  -0.9                  -1.703e-06            -3.7608e-10           2e-14                 1.707e-06            
  -0.95                 -1.7042e-06           -3.7556e-10           -2e-14                1.7084e-06           
  -1                    -1.7052e-06           -3.733e-10            -2e-14                1.7092e-06           
  -1.05                 -1.706e-06            -3.7532e-10           0                     1.71e-06             
  -1.1                  -1.707e-06            -3.756e-10            -4e-14                1.7108e-06           
  -1.15                 -1.7076e-06           -3.751e-10            2e-14                 1.7118e-06           
  -1.2                  -1.7086e-06           -3.7488e-10           -4e-14                1.7126e-06           
  -1.25                 -1.7094e-06           -3.7488e-10           1.4e-13               1.7132e-06           
  -1.3                  -1.7098e-06           -3.7478e-10           2e-14                 1.7138e-06           
  -1.35                 -1.7106e-06           -3.7448e-10           6e-14                 1.7148e-06           
END_DB

BEGIN_DB
 ICCAP_VAR vg         -1.167         
 ICCAP_VAR vb         1.2            
 ICCAP_VAR vs         -0             

 #vd                    id                    ig                    ib                    is                   
  -0                    1.575e-09             -1.5878e-09           1.28e-12              3.18e-12             
  -0.05                 -4.9464e-07           -1.4438e-09           9e-13                 4.963e-07            
  -0.1                  -9.5122e-07           -1.3158e-09           5.8e-13               9.5288e-07           
  -0.15                 -1.3654e-06           -1.204e-09            4.4e-13               1.3702e-06           
  -0.2                  -1.7382e-06           -1.1078e-09           2.8e-13               1.743e-06            
  -0.25                 -2.0674e-06           -1.0246e-09           2.2e-13               2.0724e-06           
  -0.3                  -2.3514e-06           -9.5584e-10           2e-13                 2.3562e-06           
  -0.35                 -2.589e-06            -8.9926e-10           2.8e-13               2.5938e-06           
  -0.4                  -2.7804e-06           -8.5408e-10           2.4e-13               2.785e-06            
  -0.45                 -2.9248e-06           -8.1984e-10           1.8e-13               2.9292e-06           
  -0.5                  -3.0236e-06           -7.9722e-10           2.4e-13               3.0282e-06           
  -0.55                 -3.0818e-06           -7.8346e-10           1.8e-13               3.0866e-06           
  -0.6                  -3.11e-06             -7.7654e-10           6e-14                 3.1156e-06           
  -0.65                 -3.1234e-06           -7.7338e-10           1.4e-13               3.1278e-06           
  -0.7                  -3.1296e-06           -7.7182e-10           2.6e-13               3.1344e-06           
  -0.75                 -3.134e-06            -7.7114e-10           2.6e-13               3.1384e-06           
  -0.8                  -3.1374e-06           -7.695e-10            1.4e-13               3.1416e-06           
  -0.85                 -3.1404e-06           -7.6658e-10           2e-13                 3.145e-06            
  -0.9                  -3.1428e-06           -7.6612e-10           2.4e-13               3.147e-06            
  -0.95                 -3.1448e-06           -7.6566e-10           1.6e-13               3.149e-06            
  -1                    -3.1466e-06           -7.648e-10            2e-13                 3.1512e-06           
  -1.05                 -3.1486e-06           -7.6716e-10           1.4e-13               3.153e-06            
  -1.1                  -3.1506e-06           -7.6694e-10           2.2e-13               3.155e-06            
  -1.15                 -3.152e-06            -7.6658e-10           1.6e-13               3.1568e-06           
  -1.2                  -3.1534e-06           -7.6584e-10           1.6e-13               3.1584e-06           
  -1.25                 -3.1554e-06           -7.658e-10            2.2e-13               3.1596e-06           
  -1.3                  -3.1566e-06           -7.6546e-10           1.8e-13               3.1608e-06           
  -1.35                 -3.1576e-06           -7.6488e-10           1.2e-13               3.1618e-06           
END_DB

BEGIN_DB
 ICCAP_VAR vg         -1.35          
 ICCAP_VAR vb         1.2            
 ICCAP_VAR vs         -0             

 #vd                    id                    ig                    ib                    is                   
  -0                    2.4322e-09            -3.0082e-09           2.23e-11              5.3364e-10           
  -0.05                 -6.0012e-07           -2.7734e-09           1.62e-11              6.0316e-07           
  -0.1                  -1.1672e-06           -2.5622e-09           1.214e-11             1.1734e-06           
  -0.15                 -1.7e-06              -2.3718e-09           9.5e-12               1.706e-06            
  -0.2                  -2.196e-06            -2.2038e-09           7.76e-12              2.202e-06            
  -0.25                 -2.654e-06            -2.0526e-09           6.46e-12              2.6596e-06           
  -0.3                  -3.0718e-06           -1.9236e-09           5.74e-12              3.078e-06            
  -0.35                 -3.4482e-06           -1.808e-09            5.14e-12              3.454e-06            
  -0.4                  -3.7828e-06           -1.7078e-09           4.8e-12               3.7882e-06           
  -0.45                 -4.0734e-06           -1.622e-09            4.34e-12              4.0792e-06           
  -0.5                  -4.3196e-06           -1.5532e-09           4.02e-12              4.3248e-06           
  -0.55                 -4.5194e-06           -1.4968e-09           3.76e-12              4.525e-06            
  -0.6                  -4.6732e-06           -1.4556e-09           3.74e-12              4.6794e-06           
  -0.65                 -4.783e-06            -1.4244e-09           3.6e-12               4.7884e-06           
  -0.7                  -4.8516e-06           -1.4056e-09           3.64e-12              4.857e-06            
  -0.75                 -4.888e-06            -1.395e-09            3.58e-12              4.893e-06            
  -0.8                  -4.905e-06            -1.3902e-09           3.6e-12               4.9102e-06           
  -0.85                 -4.9144e-06           -1.388e-09            3.48e-12              4.9192e-06           
  -0.9                  -4.9198e-06           -1.387e-09            3.58e-12              4.9252e-06           
  -0.95                 -4.9248e-06           -1.3852e-09           3.56e-12              4.93e-06             
  -1                    -4.9284e-06           -1.3854e-09           3.48e-12              4.9336e-06           
  -1.05                 -4.932e-06            -1.384e-09            3.66e-12              4.9376e-06           
  -1.1                  -4.9354e-06           -1.3828e-09           3.56e-12              4.9406e-06           
  -1.15                 -4.9382e-06           -1.3818e-09           3.72e-12              4.9426e-06           
  -1.2                  -4.9406e-06           -1.3804e-09           3.6e-12               4.9454e-06           
  -1.25                 -4.9428e-06           -1.3804e-09           3.56e-12              4.9482e-06           
  -1.3                  -4.9452e-06           -1.3788e-09           3.48e-12              4.9502e-06           
  -1.35                 -4.947e-06            -1.379e-09            3.56e-12              4.952e-06            
END_DB

