! VERSION = 6.00
BEGIN_HEADER
 ICCAP_INPUTS
  vd         V  D GROUND SMU1 0.1 LIN        1    -0         -1.35      28   -0.05     
  vg         V  G GROUND SMU2 0.001 LIST       2 3 -0.336 -0.536 -0.736
  vb         V  B GROUND SMU4 0.1 CON        1.2
  vs         V  S GROUND SMU3 0.1 CON        -0
 ICCAP_OUTPUTS
  id         I  D GROUND SMU1 B
  ig         I  G GROUND SMU2 B
  ib         I  B GROUND SMU4 B
  is         I  S GROUND SMU3 B
 ICCAP_VALUES
  MASTER_SETUP_TYPE "~dc_idvd~"
  LINVT_VALUE ""
  LISTVT_VALUE "|idvg|100.0n|-200.0m|1.000m|3|200.0m|200.0m|"
  TYPE "-1"
  TEMP " 27.0000 "
  IS_TNOM " 1.00000 "
  MAIN.W "5.000u"
  MAIN.L "130.0n"
  MAIN.AD "1.700p"
  MAIN.AS "1.700p"
  MAIN.PD "10.68u"
  MAIN.PS "10.68u"
  MAIN.NF "1.000"
  MAIN.M "1"
  MAIN.NRD "0.000"
  MAIN.NRS "0.000"
  MAIN.LDRIFT1 "1E-06"
  MAIN.LDRIFT2 "1E-06"
  MAIN.SA "0.000"
  MAIN.SB "0.000"
  MAIN.SD "0.000"
  MAIN.SCA "0.000"
  MAIN.SCB "0.000"
  MAIN.SCC "0.000"
  MAIN.SC "0.000"
  MODULE "S550"
  PIN_D "20"
  PIN_G "1"
  PIN_S "2"
  PIN_B "19"
  PIN_E ""
  PIN_6 ""
  XY_ID ""
  FUNC "LW Scale"
  STI "SA ref"
  WPE "WPE ref"
  COMMENT ""
  DIS_MEAS ""
  TypeTCI "10"
END_HEADER

BEGIN_DB
 ICCAP_VAR vg         -0.336         
 ICCAP_VAR vb         1.2            
 ICCAP_VAR vs         -0             

 #vd                    id                    ig                    ib                    is                   
  -0                    1.124e-11             -1.44e-12             2.4e-13               -1.792e-11           
  -0.05                 -5.9484e-09           -1.06e-12             2e-14                 5.943e-09            
  -0.1                  -7.6518e-09           -9.8e-13              1.6e-13               7.6568e-09           
  -0.15                 -8.7072e-09           -8.4e-13              1.2e-13               8.7026e-09           
  -0.2                  -9.6878e-09           -7.6e-13              0                     9.6872e-09           
  -0.25                 -1.0705e-08           -6e-13                0                     1.07062e-08          
  -0.3                  -1.18e-08             -5.8e-13              4e-14                 1.182e-08            
  -0.35                 -1.2974e-08           -5.6e-13              1.2e-13               1.2998e-08           
  -0.4                  -1.424e-08            -5.8e-13              -1e-13                1.425e-08            
  -0.45                 -1.558e-08            -6.2e-13              0                     1.5602e-08           
  -0.5                  -1.7054e-08           -4.6e-13              1.4e-13               1.7076e-08           
  -0.55                 -1.8612e-08           -4.6e-13              4e-14                 1.8644e-08           
  -0.6                  -2.0308e-08           -3.2e-13              1.4e-13               2.0332e-08           
  -0.65                 -2.2146e-08           -2.2e-13              4e-14                 2.2168e-08           
  -0.7                  -2.409e-08            4e-14                 8e-14                 2.4124e-08           
  -0.75                 -2.6202e-08           2.4e-13               1.2e-13               2.6234e-08           
  -0.8                  -2.85e-08             4.8e-13               6e-14                 2.8558e-08           
  -0.85                 -3.0982e-08           8e-13                 1e-13                 3.1006e-08           
  -0.9                  -3.3634e-08           1e-12                 0                     3.37e-08             
  -0.95                 -3.6526e-08           1.4e-12               -4e-14                3.6562e-08           
  -1                    -3.967e-08            1.84e-12              2e-14                 3.9694e-08           
  -1.05                 -4.3026e-08           2.34e-12              1.4e-13               4.3042e-08           
  -1.1                  -4.6638e-08           2.88e-12              0                     4.6684e-08           
  -1.15                 -5.0592e-08           3.48e-12              -2e-14                5.0648e-08           
  -1.2                  -5.4874e-08           4.28e-12              6e-14                 5.482e-08            
  -1.25                 -5.9434e-08           5.32e-12              2.6e-13               5.941e-08            
  -1.3                  -6.442e-08            6.14e-12              5.2e-13               6.448e-08            
  -1.35                 -6.9832e-08           7.14e-12              8.6e-13               6.9876e-08           
END_DB

BEGIN_DB
 ICCAP_VAR vg         -0.536         
 ICCAP_VAR vb         1.2            
 ICCAP_VAR vs         -0             

 #vd                    id                    ig                    ib                    is                   
  -0                    2.8072e-09            -6.8e-12              -4e-14                -2.6442e-09          
  -0.05                 -1.4754e-06           -5.42e-12             -8e-14                1.478e-06            
  -0.1                  -2.039e-06            -4.5e-12              0                     2.0426e-06           
  -0.15                 -2.3518e-06           -3.82e-12             -1.2e-13              2.357e-06            
  -0.2                  -2.6012e-06           -3.26e-12             -2e-14                2.6056e-06           
  -0.25                 -2.8378e-06           -3e-12                4e-14                 2.8406e-06           
  -0.3                  -3.0704e-06           -2.84e-12             2e-14                 3.0754e-06           
  -0.35                 -3.31e-06             -2.6e-12              0                     3.312e-06            
  -0.4                  -3.5526e-06           -2.56e-12             -2e-14                3.5532e-06           
  -0.45                 -3.8008e-06           -2.46e-12             0                     3.8032e-06           
  -0.5                  -4.059e-06            -2.4e-12              2e-14                 4.0578e-06           
  -0.55                 -4.323e-06            -2.36e-12             4e-14                 4.3288e-06           
  -0.6                  -4.6036e-06           -2.44e-12             -2e-14                4.606e-06            
  -0.65                 -4.8934e-06           -2.3e-12              -2e-14                4.8954e-06           
  -0.7                  -5.1904e-06           -2.2e-12              4e-14                 5.1944e-06           
  -0.75                 -5.506e-06            -2.18e-12             -1e-13                5.5076e-06           
  -0.8                  -5.827e-06            -2.06e-12             -8e-14                5.8348e-06           
  -0.85                 -6.1616e-06           -1.98e-12             2e-14                 6.1662e-06           
  -0.9                  -6.5138e-06           -1.9e-12              0                     6.5232e-06           
  -0.95                 -6.8828e-06           -1.62e-12             -4e-14                6.9036e-06           
  -1                    -7.2822e-06           -1.36e-12             -2e-14                7.2872e-06           
  -1.05                 -7.6772e-06           -1.1e-12              6e-14                 7.6836e-06           
  -1.1                  -8.094e-06            -6.8e-13              2.6e-13               8.092e-06            
  -1.15                 -8.5246e-06           -4.2e-13              6.8e-13               8.5272e-06           
  -1.2                  -8.9658e-06           8e-14                 1.72e-12              8.972e-06            
  -1.25                 -9.4292e-06           5.6e-13               3.74e-12              9.4462e-06           
  -1.3                  -9.92e-06             1.1e-12               7.74e-12              9.9212e-06           
  -1.35                 -1.04252e-05          1.74e-12              1.524e-11             1.0426e-05           
END_DB

BEGIN_DB
 ICCAP_VAR vg         -0.736         
 ICCAP_VAR vb         1.2            
 ICCAP_VAR vs         -0             

 #vd                    id                    ig                    ib                    is                   
  -0                    3.6308e-08            -2.08e-11             -4e-14                -3.4694e-08          
  -0.05                 -2.0688e-05           -1.792e-11            -2e-14                2.0694e-05           
  -0.1                  -3.4602e-05           -1.566e-11            -6e-14                3.4634e-05           
  -0.15                 -4.3782e-05           -1.372e-11            -1.4e-13              4.3778e-05           
  -0.2                  -4.995e-05            -1.218e-11            -1.4e-13              4.9948e-05           
  -0.25                 -5.4462e-05           -1.07e-11             -8e-14                5.4426e-05           
  -0.3                  -5.8052e-05           -9.8e-12              -2e-14                5.8092e-05           
  -0.35                 -6.1166e-05           -8.98e-12             -6e-14                6.1164e-05           
  -0.4                  -6.4144e-05           -8.46e-12             -4e-14                6.409e-05            
  -0.45                 -6.6796e-05           -7.98e-12             -4e-14                6.683e-05            
  -0.5                  -6.9446e-05           -7.86e-12             0                     6.951e-05            
  -0.55                 -7.2082e-05           -7.68e-12             -8e-14                7.2138e-05           
  -0.6                  -7.4744e-05           -7.6e-12              -6e-14                7.471e-05            
  -0.65                 -7.7292e-05           -7.48e-12             -8e-14                7.7332e-05           
  -0.7                  -7.9804e-05           -7.42e-12             -6e-14                7.9764e-05           
  -0.75                 -8.2276e-05           -7.3e-12              -6e-14                8.2348e-05           
  -0.8                  -8.483e-05            -7.4e-12              -2e-14                8.4892e-05           
  -0.85                 -8.7344e-05           -7.32e-12             -4e-14                8.7356e-05           
  -0.9                  -8.9858e-05           -7.28e-12             -8e-14                8.9942e-05           
  -0.95                 -9.2516e-05           -7.16e-12             0                     9.2482e-05           
  -1                    -9.506e-05            -6.94e-12             0                     9.4948e-05           
  -1.05                 -9.7604e-05           -6.78e-12             1.4e-13               9.7698e-05           
  -1.1                  -0.000100406          -6.72e-12             3.6e-13               0.000100416          
  -1.15                 -0.00010316           -6.46e-12             9.2e-13               0.000103102          
  -1.2                  -0.000105874          -6.22e-12             2.44e-12              0.000105912          
  -1.25                 -0.000108716          -5.96e-12             5.92e-12              0.000108762          
  -1.3                  -0.000111534          -5.54e-12             1.342e-11             0.000111594          
  -1.35                 -0.000114544          -5.16e-12             2.878e-11             0.000114538          
END_DB

