! VERSION = 6.00
BEGIN_HEADER
 ICCAP_INPUTS
  vd         V  D GROUND SMU1 0.1 LIN        1    -0         -1.35      28   -0.05     
  vg         V  G GROUND SMU2 0.001 LIN        2    -0.49      -1.35      5    -0.215    
  vb         V  B GROUND SMU4 0.1 CON        -0
  vs         V  S GROUND SMU3 0.1 CON        -0
 ICCAP_OUTPUTS
  id         I  D GROUND SMU1 B
  ig         I  G GROUND SMU2 B
  ib         I  B GROUND SMU4 B
  is         I  S GROUND SMU3 B
 ICCAP_VALUES
  MASTER_SETUP_TYPE "~dc_idvd~"
  LINVT_VALUE "|idvg|100.0n|100.0m|1.000m|5|1.350|"
  LISTVT_VALUE ""
  TYPE "-1"
  TEMP " 27.0000 "
  IS_TNOM " 1.00000 "
  MAIN.W "2.000u"
  MAIN.L "130.0n"
  MAIN.AD "680.0f"
  MAIN.AS "680.0f"
  MAIN.PD "4.680u"
  MAIN.PS "4.680u"
  MAIN.NF "1.000"
  MAIN.M "1"
  MAIN.NRD "0.000"
  MAIN.NRS "0.000"
  MAIN.LDRIFT1 "1E-06"
  MAIN.LDRIFT2 "1E-06"
  MAIN.SA "0.000"
  MAIN.SB "0.000"
  MAIN.SD "0.000"
  MAIN.SCA "0.000"
  MAIN.SCB "0.000"
  MAIN.SCC "0.000"
  MAIN.SC "0.000"
  MODULE "S550"
  PIN_D "14"
  PIN_G "7"
  PIN_S "8"
  PIN_B "13"
  PIN_E ""
  PIN_6 ""
  XY_ID ""
  FUNC "LW Scale"
  STI "SA ref"
  WPE "WPE ref"
  COMMENT ""
  DIS_MEAS ""
  TypeTCI "10"
END_HEADER

BEGIN_DB
 ICCAP_VAR vg         -0.49          
 ICCAP_VAR vb         -0             
 ICCAP_VAR vs         -0             

 #vd                    id                    ig                    ib                    is                   
  -0                    2.2806e-09            -1.12e-12             -2.8e-12              -3.4064e-09          
  -0.05                 -3.9312e-06           -1.22e-12             -2.58e-12             3.9332e-06           
  -0.1                  -5.8618e-06           -7.8e-13              -2.68e-12             5.8686e-06           
  -0.15                 -6.835e-06            -8.8e-13              -2.64e-12             6.8368e-06           
  -0.2                  -7.4204e-06           -7.2e-13              -2.68e-12             7.4226e-06           
  -0.25                 -7.8548e-06           -6.4e-13              -2.66e-12             7.8654e-06           
  -0.3                  -8.2324e-06           -6.6e-13              -2.54e-12             8.234e-06            
  -0.35                 -8.5752e-06           -7.4e-13              -2.62e-12             8.5808e-06           
  -0.4                  -8.8994e-06           -6.4e-13              -2.62e-12             8.9026e-06           
  -0.45                 -9.2002e-06           -5.6e-13              -2.64e-12             9.2086e-06           
  -0.5                  -9.5178e-06           -5.2e-13              -2.58e-12             9.5132e-06           
  -0.55                 -9.8056e-06           -6e-13                -2.46e-12             9.8228e-06           
  -0.6                  -1.009e-05            -6.2e-13              -2.44e-12             1.00948e-05          
  -0.65                 -1.0387e-05           -4.4e-13              -2.5e-12              1.03818e-05          
  -0.7                  -1.06632e-05          -5e-13                -2.5e-12              1.06636e-05          
  -0.75                 -1.09408e-05          -4.8e-13              -2.4e-12              1.09406e-05          
  -0.8                  -1.1204e-05           -1.4e-13              -2.42e-12             1.12126e-05          
  -0.85                 -1.148e-05            -3.4e-13              -2.36e-12             1.15e-05             
  -0.9                  -1.1764e-05           -3.4e-13              -2.38e-12             1.1788e-05           
  -0.95                 -1.2052e-05           0                     -2.38e-12             1.2076e-05           
  -1                    -1.2356e-05           -4e-14                -2.34e-12             1.2348e-05           
  -1.05                 -1.2638e-05           6e-14                 -2.26e-12             1.265e-05            
  -1.1                  -1.2918e-05           1.2e-13               -2.08e-12             1.2918e-05           
  -1.15                 -1.3208e-05           3.4e-13               -1.7e-12              1.3228e-05           
  -1.2                  -1.3482e-05           6e-13                 -7.8e-13              1.3538e-05           
  -1.25                 -1.3814e-05           4.6e-13               1.06e-12              1.3848e-05           
  -1.3                  -1.4148e-05           9e-13                 4.38e-12              1.4146e-05           
  -1.35                 -1.443e-05            1.16e-12              1.102e-11             1.4448e-05           
END_DB

BEGIN_DB
 ICCAP_VAR vg         -0.705         
 ICCAP_VAR vb         -0             
 ICCAP_VAR vs         -0             

 #vd                    id                    ig                    ib                    is                   
  -0                    2.2852e-08            -3.68e-12             -2e-12                -2.1552e-08          
  -0.05                 -1.7818e-05           -3.3e-12              -2.04e-12             1.7848e-05           
  -0.1                  -3.1562e-05           -2.76e-12             -1.96e-12             3.1572e-05           
  -0.15                 -4.1594e-05           -2.78e-12             -2.08e-12             4.1572e-05           
  -0.2                  -4.875e-05            -2.5e-12              -2.06e-12             4.8766e-05           
  -0.25                 -5.3686e-05           -2.2e-12              -2e-12                5.375e-05            
  -0.3                  -5.7302e-05           -2.24e-12             -1.98e-12             5.726e-05            
  -0.35                 -6.0012e-05           -2.26e-12             -1.9e-12              6.007e-05            
  -0.4                  -6.2248e-05           -1.88e-12             -2.02e-12             6.2304e-05           
  -0.45                 -6.4198e-05           -1.76e-12             -2.02e-12             6.433e-05            
  -0.5                  -6.603e-05            -1.82e-12             -2.04e-12             6.5932e-05           
  -0.55                 -6.7512e-05           -1.86e-12             -1.92e-12             6.7624e-05           
  -0.6                  -6.9052e-05           -1.96e-12             -1.96e-12             6.9002e-05           
  -0.65                 -7.0392e-05           -1.9e-12              -1.88e-12             7.0422e-05           
  -0.7                  -7.17e-05             -1.78e-12             -2e-12                7.1854e-05           
  -0.75                 -7.3102e-05           -1.66e-12             -1.92e-12             7.308e-05            
  -0.8                  -7.439e-05            -1.84e-12             -1.9e-12              7.4436e-05           
  -0.85                 -7.5652e-05           -1.88e-12             -1.9e-12              7.5788e-05           
  -0.9                  -7.693e-05            -1.58e-12             -1.94e-12             7.7016e-05           
  -0.95                 -7.8254e-05           -1.76e-12             -1.88e-12             7.832e-05            
  -1                    -7.9398e-05           -1.72e-12             -1.94e-12             7.9474e-05           
  -1.05                 -8.0602e-05           -1.28e-12             -1.86e-12             8.0646e-05           
  -1.1                  -8.1884e-05           -1.46e-12             -1.66e-12             8.1794e-05           
  -1.15                 -8.2882e-05           -1.3e-12              -1.48e-12             8.3004e-05           
  -1.2                  -8.408e-05            -9.2e-13              -6.6e-13              8.4144e-05           
  -1.25                 -8.5214e-05           -1.1e-12              1.02e-12              8.516e-05            
  -1.3                  -8.6588e-05           -1.24e-12             4.82e-12              8.6464e-05           
  -1.35                 -8.776e-05            -8.4e-13              1.254e-11             8.7672e-05           
END_DB

BEGIN_DB
 ICCAP_VAR vg         -0.92          
 ICCAP_VAR vb         -0             
 ICCAP_VAR vs         -0             

 #vd                    id                    ig                    ib                    is                   
  -0                    4.0986e-08            -1.124e-11            -1.7e-12              -3.8976e-08          
  -0.05                 -3.21e-05             -1.022e-11            -1.7e-12              3.214e-05            
  -0.1                  -6.0366e-05           -9e-12                -1.66e-12             6.0372e-05           
  -0.15                 -8.4466e-05           -8.12e-12             -1.68e-12             8.4534e-05           
  -0.2                  -0.000104706          -7.42e-12             -1.64e-12             0.000104756          
  -0.25                 -0.0001209            -7e-12                -1.72e-12             0.00012126           
  -0.3                  -0.00013416           -6.42e-12             -1.7e-12              0.00013452           
  -0.35                 -0.00014462           -6.2e-12              -1.64e-12             0.00014484           
  -0.4                  -0.00015292           -5.64e-12             -1.62e-12             0.00015324           
  -0.45                 -0.00015958           -5.54e-12             -1.64e-12             0.00015984           
  -0.5                  -0.00016536           -5.34e-12             -1.64e-12             0.00016544           
  -0.55                 -0.00016992           -5.24e-12             -1.68e-12             0.00017026           
  -0.6                  -0.00017384           -5.1e-12              -1.56e-12             0.00017428           
  -0.65                 -0.00017756           -5.1e-12              -1.54e-12             0.00017772           
  -0.7                  -0.00018078           -4.72e-12             -1.56e-12             0.00018116           
  -0.75                 -0.00018366           -4.7e-12              -1.56e-12             0.00018408           
  -0.8                  -0.0001867            -4.8e-12              -1.66e-12             0.00018714           
  -0.85                 -0.00018958           -4.84e-12             -1.62e-12             0.00018966           
  -0.9                  -0.000192             -4.76e-12             -1.56e-12             0.00019256           
  -0.95                 -0.00019446           -4.74e-12             -1.6e-12              0.0001947            
  -1                    -0.00019668           -4.58e-12             -1.56e-12             0.00019734           
  -1.05                 -0.0001993            -4.46e-12             -1.52e-12             0.00019956           
  -1.1                  -0.00020136           -4.68e-12             -1.5e-12              0.00020154           
  -1.15                 -0.00020386           -4.44e-12             -1.4e-12              0.00020408           
  -1.2                  -0.00020612           -4.2e-12              -9.8e-13              0.00020666           
  -1.25                 -0.00020834           -4.5e-12              -1.4e-13              0.00020864           
  -1.3                  -0.00021084           -4.44e-12             1.86e-12              0.00021106           
  -1.35                 -0.00021282           -4.22e-12             6.2e-12               0.00021292           
END_DB

BEGIN_DB
 ICCAP_VAR vg         -1.135         
 ICCAP_VAR vb         -0             
 ICCAP_VAR vs         -0             

 #vd                    id                    ig                    ib                    is                   
  -0                    5.5066e-08            -2.662e-11            -1.46e-12             -5.0684e-08          
  -0.05                 -4.3772e-05           -2.42e-11             -1.48e-12             4.379e-05            
  -0.1                  -8.4174e-05           -2.202e-11            -1.5e-12              8.4236e-05           
  -0.15                 -0.00012072           -2e-11                -1.4e-12              0.00012114           
  -0.2                  -0.00015378           -1.836e-11            -1.4e-12              0.00015416           
  -0.25                 -0.00018278           -1.72e-11             -1.36e-12             0.00018314           
  -0.3                  -0.00020826           -1.612e-11            -1.42e-12             0.00020842           
  -0.35                 -0.00022976           -1.52e-11             -1.34e-12             0.0002303            
  -0.4                  -0.00024872           -1.406e-11            -1.48e-12             0.00024892           
  -0.45                 -0.00026396           -1.344e-11            -1.52e-12             0.00026438           
  -0.5                  -0.0002768            -1.28e-11             -1.42e-12             0.0002772            
  -0.55                 -0.00028764           -1.232e-11            -1.38e-12             0.0002882            
  -0.6                  -0.00029722           -1.214e-11            -1.4e-12              0.00029732           
  -0.65                 -0.00030484           -1.18e-11             -1.44e-12             0.00030556           
  -0.7                  -0.0003121            -1.144e-11            -1.36e-12             0.00031238           
  -0.75                 -0.00031784           -1.124e-11            -1.44e-12             0.00031856           
  -0.8                  -0.00032342           -1.094e-11            -1.5e-12              0.00032392           
  -0.85                 -0.00032882           -1.096e-11            -1.42e-12             0.00032904           
  -0.9                  -0.00033322           -1.084e-11            -1.32e-12             0.00033372           
  -0.95                 -0.00033726           -1.066e-11            -1.42e-12             0.00033774           
  -1                    -0.00034148           -1.046e-11            -1.46e-12             0.00034198           
  -1.05                 -0.00034548           -1.034e-11            -1.38e-12             0.00034594           
  -1.1                  -0.00034938           -1.028e-11            -1.38e-12             0.00034972           
  -1.15                 -0.00035304           -1.062e-11            -1.2e-12              0.00035332           
  -1.2                  -0.00035632           -1.032e-11            -1.08e-12             0.0003567            
  -1.25                 -0.00035956           -1.002e-11            -6.2e-13              0.00035976           
  -1.3                  -0.00036306           -1.012e-11            2e-13                 0.00036346           
  -1.35                 -0.00036662           -9.98e-12             2.44e-12              0.00036696           
END_DB

BEGIN_DB
 ICCAP_VAR vg         -1.35          
 ICCAP_VAR vb         -0             
 ICCAP_VAR vs         -0             

 #vd                    id                    ig                    ib                    is                   
  -0                    6.281e-08             -5.328e-11            -8.6e-13              -5.8878e-08          
  -0.05                 -5.2824e-05           -4.918e-11            -9.2e-13              5.2806e-05           
  -0.1                  -0.000102816          -4.584e-11            -1.04e-12             0.000102858          
  -0.15                 -0.00014956           -4.444e-11            -1.04e-12             0.00015002           
  -0.2                  -0.00019334           -3.928e-11            -9.8e-13              0.0001936            
  -0.25                 -0.00023336           -3.634e-11            -1.08e-12             0.0002336            
  -0.3                  -0.00026948           -3.406e-11            -1.14e-12             0.00026982           
  -0.35                 -0.00030224           -3.198e-11            -1.1e-12              0.0003027            
  -0.4                  -0.0003315            -3.016e-11            -1.16e-12             0.00033188           
  -0.45                 -0.00035726           -2.852e-11            -1.24e-12             0.00035782           
  -0.5                  -0.00038028           -2.72e-11             -1.16e-12             0.00038056           
  -0.55                 -0.00040002           -2.614e-11            -1.1e-12              0.00040044           
  -0.6                  -0.00041718           -2.472e-11            -1.28e-12             0.00041754           
  -0.65                 -0.0004321            -2.414e-11            -1.1e-12              0.0004323            
  -0.7                  -0.00044512           -2.374e-11            -1.22e-12             0.00044578           
  -0.75                 -0.00045682           -2.298e-11            -1.24e-12             0.00045704           
  -0.8                  -0.0004663            -2.282e-11            -1.14e-12             0.00046678           
  -0.85                 -0.00047514           -2.242e-11            -1.16e-12             0.00047542           
  -0.9                  -0.00048324           -2.192e-11            -1.2e-12              0.00048364           
  -0.95                 -0.00049046           -2.142e-11            -1.22e-12             0.00049084           
  -1                    -0.00049712           -2.14e-11             -1.12e-12             0.0004974            
  -1.05                 -0.00050318           -2.112e-11            -1.12e-12             0.00050338           
  -1.1                  -0.0005089            -2.094e-11            -1.18e-12             0.00050964           
  -1.15                 -0.0005136            -2.086e-11            -1.12e-12             0.00051438           
  -1.2                  -0.00051868           -2.072e-11            -1.1e-12              0.00051916           
  -1.25                 -0.0005239            -2.066e-11            -8e-13                0.00052382           
  -1.3                  -0.00052768           -2.04e-11             -3e-13                0.00052816           
  -1.35                 -0.0005328            -2.04e-11             7.4e-13               0.0005328            
END_DB

