! VERSION = 6.00
BEGIN_HEADER
 ICCAP_INPUTS
  vd         V  D GROUND SMU1 0.1 LIN        1    -0         -1.35      28   -0.05     
  vg         V  G GROUND SMU2 0.001 LIN        2    -0.614     -1.35      5    -0.184    
  vb         V  B GROUND SMU4 0.1 CON        1.2
  vs         V  S GROUND SMU3 0.1 CON        -0
 ICCAP_OUTPUTS
  id         I  D GROUND SMU1 B
  ig         I  G GROUND SMU2 B
  ib         I  B GROUND SMU4 B
  is         I  S GROUND SMU3 B
 ICCAP_VALUES
  MASTER_SETUP_TYPE "~dc_idvd~"
  LINVT_VALUE "|idvg|100.0n|100.0m|1.000m|5|1.350|"
  LISTVT_VALUE ""
  TYPE "-1"
  TEMP " 27.0000 "
  IS_TNOM " 1.00000 "
  MAIN.W "600.0n"
  MAIN.L "1.200u"
  MAIN.AD "204.0f"
  MAIN.AS "204.0f"
  MAIN.PD "1.880u"
  MAIN.PS "1.880u"
  MAIN.NF "1.000"
  MAIN.M "1"
  MAIN.NRD "0.000"
  MAIN.NRS "0.000"
  MAIN.LDRIFT1 "1E-06"
  MAIN.LDRIFT2 "1E-06"
  MAIN.SA "0.000"
  MAIN.SB "0.000"
  MAIN.SD "0.000"
  MAIN.SCA "0.000"
  MAIN.SCB "0.000"
  MAIN.SCC "0.000"
  MAIN.SC "0.000"
  MODULE "S551"
  PIN_D "12"
  PIN_G "9"
  PIN_S "10"
  PIN_B "11"
  PIN_E ""
  PIN_6 ""
  XY_ID ""
  FUNC "LW Scale"
  STI "SA ref"
  WPE "WPE ref"
  COMMENT ""
  DIS_MEAS ""
  TypeTCI "10"
END_HEADER

BEGIN_DB
 ICCAP_VAR vg         -0.614         
 ICCAP_VAR vb         1.2            
 ICCAP_VAR vs         -0             

 #vd                    id                    ig                    ib                    is                   
  -0                    3.214e-10             -2.46e-12             4.8e-13               -3.6828e-10          
  -0.05                 -1.7768e-07           -2.02e-12             3.4e-13               1.779e-07            
  -0.1                  -2.6406e-07           -1.78e-12             3.8e-13               2.6366e-07           
  -0.15                 -2.9518e-07           -1.66e-12             2.6e-13               2.9462e-07           
  -0.2                  -3.0524e-07           -1.6e-12              3e-13                 3.0582e-07           
  -0.25                 -3.1026e-07           -1.48e-12             3.2e-13               3.108e-07            
  -0.3                  -3.1424e-07           -1.36e-12             2.6e-13               3.1458e-07           
  -0.35                 -3.1774e-07           -1.56e-12             1.2e-13               3.1746e-07           
  -0.4                  -3.1932e-07           -1.54e-12             2e-13                 3.2e-07              
  -0.45                 -3.22e-07             -1.4e-12              2.4e-13               3.223e-07            
  -0.5                  -3.251e-07            -1.48e-12             1.6e-13               3.2386e-07           
  -0.55                 -3.2606e-07           -1.56e-12             1.8e-13               3.2556e-07           
  -0.6                  -3.2798e-07           -1.5e-12              1.8e-13               3.278e-07            
  -0.65                 -3.293e-07            -1.32e-12             2.2e-13               3.2934e-07           
  -0.7                  -3.3078e-07           -1.26e-12             2.6e-13               3.3098e-07           
  -0.75                 -3.3198e-07           -1.32e-12             2e-13                 3.3254e-07           
  -0.8                  -3.3388e-07           -1.28e-12             1.4e-13               3.3436e-07           
  -0.85                 -3.3576e-07           -1.26e-12             1e-13                 3.3576e-07           
  -0.9                  -3.3678e-07           -1.4e-12              1.4e-13               3.3696e-07           
  -0.95                 -3.3768e-07           -1.34e-12             1.4e-13               3.38e-07             
  -1                    -3.3882e-07           -1.38e-12             2e-13                 3.3916e-07           
  -1.05                 -3.4122e-07           -1.32e-12             1.2e-13               3.4004e-07           
  -1.1                  -3.4086e-07           -1.34e-12             1.4e-13               3.4104e-07           
  -1.15                 -3.4186e-07           -1.32e-12             1.2e-13               3.4206e-07           
  -1.2                  -3.4292e-07           -1.38e-12             2e-13                 3.4468e-07           
  -1.25                 -3.4416e-07           -1.34e-12             2.2e-13               3.4562e-07           
  -1.3                  -3.451e-07            -1.24e-12             1e-13                 3.4658e-07           
  -1.35                 -3.4604e-07           -1.28e-12             2.8e-13               3.4624e-07           
END_DB

BEGIN_DB
 ICCAP_VAR vg         -0.798         
 ICCAP_VAR vb         1.2            
 ICCAP_VAR vs         -0             

 #vd                    id                    ig                    ib                    is                   
  -0                    9.898e-10             -9.62e-12             6e-14                 -1.00056e-09         
  -0.05                 -5.8272e-07           -8.36e-12             -6e-14                5.832e-07            
  -0.1                  -1.03286e-06          -7.42e-12             1e-13                 1.0331e-06           
  -0.15                 -1.3512e-06           -6.6e-12              2.2e-13               1.3548e-06           
  -0.2                  -1.5516e-06           -5.94e-12             1e-13                 1.555e-06            
  -0.25                 -1.6576e-06           -5.74e-12             0                     1.661e-06            
  -0.3                  -1.7084e-06           -5.58e-12             4e-14                 1.7128e-06           
  -0.35                 -1.7358e-06           -5.48e-12             1e-13                 1.7396e-06           
  -0.4                  -1.7524e-06           -5.42e-12             4e-14                 1.7558e-06           
  -0.45                 -1.766e-06            -5.48e-12             1.4e-13               1.7692e-06           
  -0.5                  -1.776e-06            -5.48e-12             2e-14                 1.7808e-06           
  -0.55                 -1.7862e-06           -5.34e-12             8e-14                 1.7902e-06           
  -0.6                  -1.794e-06            -5.32e-12             4e-14                 1.797e-06            
  -0.65                 -1.8012e-06           -5.3e-12              1.8e-13               1.8064e-06           
  -0.7                  -1.81e-06             -5.3e-12              1.2e-13               1.8132e-06           
  -0.75                 -1.8168e-06           -5.32e-12             8e-14                 1.8214e-06           
  -0.8                  -1.8252e-06           -5.32e-12             1.2e-13               1.8292e-06           
  -0.85                 -1.8314e-06           -5.2e-12              1.4e-13               1.8352e-06           
  -0.9                  -1.8376e-06           -5.24e-12             2e-14                 1.841e-06            
  -0.95                 -1.8438e-06           -5.26e-12             0                     1.8472e-06           
  -1                    -1.8502e-06           -5.14e-12             4e-14                 1.853e-06            
  -1.05                 -1.856e-06            -5.2e-12              8e-14                 1.8582e-06           
  -1.1                  -1.8598e-06           -5.26e-12             4e-14                 1.863e-06            
  -1.15                 -1.8652e-06           -5.18e-12             1.8e-13               1.8692e-06           
  -1.2                  -1.8692e-06           -5.16e-12             1e-13                 1.8722e-06           
  -1.25                 -1.8732e-06           -5.22e-12             6e-14                 1.878e-06            
  -1.3                  -1.8782e-06           -5.02e-12             -2e-14                1.882e-06            
  -1.35                 -1.8814e-06           -5.04e-12             1.4e-13               1.885e-06            
END_DB

BEGIN_DB
 ICCAP_VAR vg         -0.982         
 ICCAP_VAR vb         1.2            
 ICCAP_VAR vs         -0             

 #vd                    id                    ig                    ib                    is                   
  -0                    1.5618e-09            -2.56e-11             4e-14                 -1.3518e-09          
  -0.05                 -9.9158e-07           -2.304e-11            6e-14                 9.917e-07            
  -0.1                  -1.8568e-06           -2.056e-11            1.4e-13               1.8606e-06           
  -0.15                 -2.595e-06            -1.87e-11             -1e-13                2.5994e-06           
  -0.2                  -3.2022e-06           -1.704e-11            -4e-14                3.2074e-06           
  -0.25                 -3.6784e-06           -1.592e-11            1e-13                 3.6824e-06           
  -0.3                  -4.023e-06            -1.506e-11            1.2e-13               4.0272e-06           
  -0.35                 -4.2528e-06           -1.446e-11            0                     4.258e-06            
  -0.4                  -4.393e-06            -1.396e-11            -4e-14                4.399e-06            
  -0.45                 -4.4752e-06           -1.384e-11            2e-14                 4.479e-06            
  -0.5                  -4.5234e-06           -1.366e-11            8e-14                 4.5284e-06           
  -0.55                 -4.5574e-06           -1.362e-11            -2e-14                4.5636e-06           
  -0.6                  -4.5836e-06           -1.354e-11            0                     4.5848e-06           
  -0.65                 -4.6048e-06           -1.344e-11            -4e-14                4.6082e-06           
  -0.7                  -4.6232e-06           -1.352e-11            6e-14                 4.627e-06            
  -0.75                 -4.642e-06            -1.338e-11            4e-14                 4.6456e-06           
  -0.8                  -4.6582e-06           -1.328e-11            1e-13                 4.6616e-06           
  -0.85                 -4.6738e-06           -1.346e-11            0                     4.6774e-06           
  -0.9                  -4.688e-06            -1.324e-11            -4e-14                4.6924e-06           
  -0.95                 -4.7018e-06           -1.314e-11            6e-14                 4.7046e-06           
  -1                    -4.7148e-06           -1.33e-11             -1.2e-13              4.7204e-06           
  -1.05                 -4.7276e-06           -1.316e-11            1.2e-13               4.7296e-06           
  -1.1                  -4.7382e-06           -1.304e-11            1.2e-13               4.7422e-06           
  -1.15                 -4.7526e-06           -1.316e-11            2e-14                 4.7564e-06           
  -1.2                  -4.7618e-06           -1.318e-11            -2e-14                4.7662e-06           
  -1.25                 -4.7718e-06           -1.306e-11            2e-14                 4.776e-06            
  -1.3                  -4.7816e-06           -1.3e-11              -4e-14                4.785e-06            
  -1.35                 -4.7892e-06           -1.302e-11            1.4e-13               4.7926e-06           
END_DB

BEGIN_DB
 ICCAP_VAR vg         -1.166         
 ICCAP_VAR vb         1.2            
 ICCAP_VAR vs         -0             

 #vd                    id                    ig                    ib                    is                   
  -0                    2.018e-09             -5.458e-11            0                     -1.8174e-09          
  -0.05                 -1.348e-06            -4.988e-11            -6e-14                1.3522e-06           
  -0.1                  -2.589e-06            -4.576e-11            6e-14                 2.5934e-06           
  -0.15                 -3.7154e-06           -4.192e-11            0                     3.7196e-06           
  -0.2                  -4.7238e-06           -3.89e-11             0                     4.7272e-06           
  -0.25                 -5.609e-06            -3.604e-11            6e-14                 5.6126e-06           
  -0.3                  -6.3692e-06           -3.42e-11             -6e-14                6.3736e-06           
  -0.35                 -6.9998e-06           -3.182e-11            0                     7.004e-06            
  -0.4                  -7.5072e-06           -3.038e-11            4e-14                 7.5124e-06           
  -0.45                 -7.8926e-06           -2.922e-11            4e-14                 7.893e-06            
  -0.5                  -8.1582e-06           -2.838e-11            6e-14                 8.1654e-06           
  -0.55                 -8.342e-06            -2.832e-11            6e-14                 8.3452e-06           
  -0.6                  -8.4524e-06           -2.764e-11            4e-14                 8.4554e-06           
  -0.65                 -8.5242e-06           -2.726e-11            -2e-14                8.526e-06            
  -0.7                  -8.576e-06            -2.732e-11            8e-14                 8.5798e-06           
  -0.75                 -8.6168e-06           -2.712e-11            6e-14                 8.6226e-06           
  -0.8                  -8.6554e-06           -2.732e-11            -2e-14                8.6576e-06           
  -0.85                 -8.6858e-06           -2.674e-11            -6e-14                8.6878e-06           
  -0.9                  -8.7122e-06           -2.712e-11            1e-13                 8.7124e-06           
  -0.95                 -8.737e-06            -2.682e-11            6e-14                 8.7428e-06           
  -1                    -8.7604e-06           -2.67e-11             -2e-14                8.766e-06            
  -1.05                 -8.7822e-06           -2.644e-11            0                     8.7882e-06           
  -1.1                  -8.8034e-06           -2.668e-11            6e-14                 8.8092e-06           
  -1.15                 -8.826e-06            -2.662e-11            8e-14                 8.8302e-06           
  -1.2                  -8.84e-06             -2.666e-11            -4e-14                8.8492e-06           
  -1.25                 -8.8624e-06           -2.664e-11            0                     8.8622e-06           
  -1.3                  -8.878e-06            -2.64e-11             8e-14                 8.8826e-06           
  -1.35                 -8.8978e-06           -2.634e-11            8e-14                 8.8956e-06           
END_DB

BEGIN_DB
 ICCAP_VAR vg         -1.35          
 ICCAP_VAR vb         1.2            
 ICCAP_VAR vs         -0             

 #vd                    id                    ig                    ib                    is                   
  -0                    2.353e-09             -1.0288e-10           7.8e-13               -2.0034e-09          
  -0.05                 -1.6504e-06           -9.512e-11            5.2e-13               1.6542e-06           
  -0.1                  -3.2082e-06           -8.832e-11            4.4e-13               3.2114e-06           
  -0.15                 -4.6658e-06           -8.216e-11            3.4e-13               4.6728e-06           
  -0.2                  -6.022e-06            -7.648e-11            2.6e-13               6.0246e-06           
  -0.25                 -7.2664e-06           -7.154e-11            2e-13                 7.2728e-06           
  -0.3                  -8.4074e-06           -6.694e-11            2.8e-13               8.4126e-06           
  -0.35                 -9.4288e-06           -6.356e-11            1.8e-13               9.4296e-06           
  -0.4                  -1.03306e-05          -6.03e-11             1.4e-13               1.03368e-05          
  -0.45                 -1.11168e-05          -5.7e-11              1.6e-13               1.11208e-05          
  -0.5                  -1.1768e-05           -5.476e-11            2.8e-13               1.178e-05            
  -0.55                 -1.2296e-05           -5.314e-11            8e-14                 1.2314e-05           
  -0.6                  -1.2718e-05           -5.17e-11             1.2e-13               1.2732e-05           
  -0.65                 -1.3028e-05           -5.06e-11             2.4e-13               1.304e-05            
  -0.7                  -1.325e-05            -4.94e-11             2e-13                 1.3264e-05           
  -0.75                 -1.3394e-05           -4.954e-11            1.2e-13               1.3406e-05           
  -0.8                  -1.3496e-05           -4.906e-11            1.8e-13               1.3518e-05           
  -0.85                 -1.3582e-05           -4.852e-11            2.2e-13               1.3598e-05           
  -0.9                  -1.363e-05            -4.87e-11             0                     1.3654e-05           
  -0.95                 -1.3682e-05           -4.852e-11            1e-13                 1.3698e-05           
  -1                    -1.3726e-05           -4.82e-11             1.8e-13               1.3746e-05           
  -1.05                 -1.3772e-05           -4.812e-11            1.2e-13               1.3792e-05           
  -1.1                  -1.3812e-05           -4.804e-11            1.2e-13               1.3832e-05           
  -1.15                 -1.384e-05            -4.746e-11            2.8e-13               1.3856e-05           
  -1.2                  -1.3858e-05           -4.778e-11            2.4e-13               1.3878e-05           
  -1.25                 -1.3896e-05           -4.75e-11             1.6e-13               1.3914e-05           
  -1.3                  -1.3924e-05           -4.73e-11             6e-14                 1.3944e-05           
  -1.35                 -1.3954e-05           -4.744e-11            1.4e-13               1.3972e-05           
END_DB

