! VERSION = 6.00
BEGIN_HEADER
 ICCAP_INPUTS
  vd         V  D GROUND SMU1 0.1 LIN        1    -0         -1.35      28   -0.05     
  vg         V  G GROUND SMU2 0.001 LIN        2    -0.494     -1.35      5    -0.214    
  vb         V  B GROUND SMU4 0.1 CON        -0
  vs         V  S GROUND SMU3 0.1 CON        -0
 ICCAP_OUTPUTS
  id         I  D GROUND SMU1 B
  ig         I  G GROUND SMU2 B
  ib         I  B GROUND SMU4 B
  is         I  S GROUND SMU3 B
 ICCAP_VALUES
  MASTER_SETUP_TYPE "~dc_idvd~"
  LINVT_VALUE "|idvg|100.0n|100.0m|1.000m|5|1.350|"
  LISTVT_VALUE ""
  TYPE "-1"
  TEMP " 27.0000 "
  IS_TNOM " 1.00000 "
  MAIN.W "180.0n"
  MAIN.L "140.0n"
  MAIN.AD "102.6f"
  MAIN.AS "102.6f"
  MAIN.PD "1.340u"
  MAIN.PS "1.340u"
  MAIN.NF "1.000"
  MAIN.M "1"
  MAIN.NRD "0.000"
  MAIN.NRS "0.000"
  MAIN.LDRIFT1 "1E-06"
  MAIN.LDRIFT2 "1E-06"
  MAIN.SA "0.000"
  MAIN.SB "0.000"
  MAIN.SD "0.000"
  MAIN.SCA "0.000"
  MAIN.SCB "0.000"
  MAIN.SCC "0.000"
  MAIN.SC "0.000"
  MODULE "S553"
  PIN_D "14"
  PIN_G "7"
  PIN_S "8"
  PIN_B "13"
  PIN_E ""
  PIN_6 ""
  XY_ID ""
  FUNC "LW Scale"
  STI "SA ref"
  WPE "WPE ref"
  COMMENT ""
  DIS_MEAS ""
  TypeTCI "10"
END_HEADER

BEGIN_DB
 ICCAP_VAR vg         -0.494         
 ICCAP_VAR vb         -0             
 ICCAP_VAR vs         -0             

 #vd                    id                    ig                    ib                    is                   
  -0                    6.4188e-10            -3e-13                -3.36e-12             -7.9682e-10          
  -0.05                 -3.952e-07            -2e-13                -3.34e-12             3.9612e-07           
  -0.1                  -5.7746e-07           -3e-13                -3.28e-12             5.7716e-07           
  -0.15                 -6.632e-07            -4e-13                -3.28e-12             6.625e-07            
  -0.2                  -7.138e-07            -4e-13                -3.34e-12             7.1434e-07           
  -0.25                 -7.5746e-07           -1.4e-13              -3.34e-12             7.566e-07            
  -0.3                  -7.9344e-07           -2.4e-13              -3.34e-12             7.9408e-07           
  -0.35                 -8.2816e-07           -2.4e-13              -3.24e-12             8.3276e-07           
  -0.4                  -8.6474e-07           -1.6e-13              -3.12e-12             8.6426e-07           
  -0.45                 -8.9652e-07           -1.6e-13              -3.18e-12             8.9652e-07           
  -0.5                  -9.2724e-07           -1.8e-13              -3.1e-12              9.267e-07            
  -0.55                 -9.5562e-07           -2.4e-13              -3.06e-12             9.5524e-07           
  -0.6                  -9.844e-07            -2.4e-13              -3.04e-12             9.8286e-07           
  -0.65                 -1.01304e-06          -2.6e-13              -3.02e-12             1.01412e-06          
  -0.7                  -1.0423e-06           -4e-14                -2.96e-12             1.04278e-06          
  -0.75                 -1.0679e-06           -4e-14                -3.06e-12             1.06832e-06          
  -0.8                  -1.09522e-06          2e-14                 -2.96e-12             1.09776e-06          
  -0.85                 -1.1238e-06           -1.8e-13              -2.86e-12             1.12362e-06          
  -0.9                  -1.1488e-06           -2.2e-13              -2.78e-12             1.1502e-06           
  -0.95                 -1.175e-06            -1.6e-13              -2.94e-12             1.1808e-06           
  -1                    -1.2042e-06           0                     -2.78e-12             1.2078e-06           
  -1.05                 -1.2272e-06           -1.8e-13              -2.76e-12             1.2314e-06           
  -1.1                  -1.2558e-06           -1.8e-13              -2.76e-12             1.2584e-06           
  -1.15                 -1.2836e-06           -1.6e-13              -2.66e-12             1.2846e-06           
  -1.2                  -1.3084e-06           -2e-14                -2.56e-12             1.3134e-06           
  -1.25                 -1.3382e-06           -1.4e-13              -2.3e-12              1.3412e-06           
  -1.3                  -1.3664e-06           -6e-14                -1.76e-12             1.3688e-06           
  -1.35                 -1.3922e-06           2.4e-13               -8.4e-13              1.396e-06            
END_DB

BEGIN_DB
 ICCAP_VAR vg         -0.708         
 ICCAP_VAR vb         -0             
 ICCAP_VAR vs         -0             

 #vd                    id                    ig                    ib                    is                   
  -0                    2.6176e-09            -6.6e-13              -2.36e-12             -2.3594e-09          
  -0.05                 -1.9712e-06           -4.4e-13              -2.32e-12             1.9738e-06           
  -0.1                  -3.4664e-06           -5.6e-13              -2.34e-12             3.47e-06             
  -0.15                 -4.5304e-06           -3e-13                -2.34e-12             4.5414e-06           
  -0.2                  -5.2692e-06           -2e-13                -2.34e-12             5.271e-06            
  -0.25                 -5.7618e-06           -4.2e-13              -2.4e-12              5.7668e-06           
  -0.3                  -6.1182e-06           -3.6e-13              -2.32e-12             6.1198e-06           
  -0.35                 -6.388e-06            -3e-13                -2.3e-12              6.391e-06            
  -0.4                  -6.6136e-06           -3.6e-13              -2.28e-12             6.621e-06            
  -0.45                 -6.808e-06            -3.8e-13              -2.26e-12             6.8154e-06           
  -0.5                  -6.99e-06             -1.2e-13              -2.2e-12              6.991e-06            
  -0.55                 -7.148e-06            -2.6e-13              -2.36e-12             7.1596e-06           
  -0.6                  -7.3046e-06           -3.8e-13              -2.32e-12             7.3066e-06           
  -0.65                 -7.4498e-06           -2.2e-13              -2.16e-12             7.4522e-06           
  -0.7                  -7.5908e-06           -4.2e-13              -2.32e-12             7.5898e-06           
  -0.75                 -7.7248e-06           -2e-13                -2.32e-12             7.7298e-06           
  -0.8                  -7.8614e-06           -1.8e-13              -2.22e-12             7.8618e-06           
  -0.85                 -7.9904e-06           -3e-13                -2.2e-12              7.988e-06            
  -0.9                  -8.1176e-06           -3.6e-13              -2.22e-12             8.1216e-06           
  -0.95                 -8.2414e-06           -2.4e-13              -2.18e-12             8.2428e-06           
  -1                    -8.3596e-06           -2.4e-13              -2.12e-12             8.3694e-06           
  -1.05                 -8.4878e-06           -4e-13                -2.04e-12             8.4922e-06           
  -1.1                  -8.6132e-06           -2.6e-13              -2.06e-12             8.6124e-06           
  -1.15                 -8.729e-06            -3e-13                -2.16e-12             8.7302e-06           
  -1.2                  -8.8454e-06           -1.6e-13              -1.88e-12             8.8492e-06           
  -1.25                 -8.9628e-06           -1.6e-13              -1.64e-12             8.9678e-06           
  -1.3                  -9.0776e-06           -2.4e-13              -1.14e-12             9.0824e-06           
  -1.35                 -9.1988e-06           -2.6e-13              -4e-14                9.1966e-06           
END_DB

BEGIN_DB
 ICCAP_VAR vg         -0.922         
 ICCAP_VAR vb         -0             
 ICCAP_VAR vs         -0             

 #vd                    id                    ig                    ib                    is                   
  -0                    3.3134e-09            -1.6e-12              -1.9e-12              -3.6964e-09          
  -0.05                 -3.65e-06             -1.38e-12             -1.94e-12             3.653e-06            
  -0.1                  -6.8318e-06           -1.28e-12             -1.86e-12             6.8324e-06           
  -0.15                 -9.5258e-06           -1.06e-12             -1.92e-12             9.5272e-06           
  -0.2                  -1.1734e-05           -1.04e-12             -1.8e-12              1.1752e-05           
  -0.25                 -1.3516e-05           -1.08e-12             -1.78e-12             1.3534e-05           
  -0.3                  -1.4912e-05           -7.4e-13              -1.94e-12             1.4928e-05           
  -0.35                 -1.5988e-05           -7.2e-13              -1.92e-12             1.6008e-05           
  -0.4                  -1.6832e-05           -9.2e-13              -1.8e-12              1.6848e-05           
  -0.45                 -1.7496e-05           -9.8e-13              -1.8e-12              1.7514e-05           
  -0.5                  -1.8032e-05           -8.4e-13              -1.86e-12             1.8042e-05           
  -0.55                 -1.8484e-05           -6.2e-13              -1.78e-12             1.8506e-05           
  -0.6                  -1.8906e-05           -8e-13                -1.72e-12             1.8928e-05           
  -0.65                 -1.9266e-05           -7.4e-13              -1.84e-12             1.9276e-05           
  -0.7                  -1.9596e-05           -7.4e-13              -1.84e-12             1.9606e-05           
  -0.75                 -1.9902e-05           -7.6e-13              -1.74e-12             1.9928e-05           
  -0.8                  -2.02e-05             -9e-13                -1.76e-12             2.0224e-05           
  -0.85                 -2.0476e-05           -8.2e-13              -1.86e-12             2.0492e-05           
  -0.9                  -2.0744e-05           -5.4e-13              -1.78e-12             2.076e-05            
  -0.95                 -2.1008e-05           -7e-13                -1.82e-12             2.1028e-05           
  -1                    -2.1262e-05           -7.8e-13              -1.76e-12             2.1282e-05           
  -1.05                 -2.1508e-05           -6e-13                -1.64e-12             2.1524e-05           
  -1.1                  -2.1742e-05           -8.2e-13              -1.82e-12             2.1764e-05           
  -1.15                 -2.1976e-05           -9.2e-13              -1.74e-12             2.1996e-05           
  -1.2                  -2.2208e-05           -6.8e-13              -1.66e-12             2.2226e-05           
  -1.25                 -2.2426e-05           -7e-13                -1.62e-12             2.2456e-05           
  -1.3                  -2.2666e-05           -1e-12                -1.16e-12             2.2676e-05           
  -1.35                 -2.2876e-05           -7.2e-13              -5.8e-13              2.2898e-05           
END_DB

BEGIN_DB
 ICCAP_VAR vg         -1.136         
 ICCAP_VAR vb         -0             
 ICCAP_VAR vs         -0             

 #vd                    id                    ig                    ib                    is                   
  -0                    3.8574e-09            -3.44e-12             -1.58e-12             -4.7076e-09          
  -0.05                 -5.0666e-06           -3.14e-12             -1.62e-12             5.0686e-06           
  -0.1                  -9.7094e-06           -2.82e-12             -1.66e-12             9.7184e-06           
  -0.15                 -1.3888e-05           -2.7e-12              -1.58e-12             1.391e-05            
  -0.2                  -1.7588e-05           -2.72e-12             -1.52e-12             1.7606e-05           
  -0.25                 -2.0804e-05           -2.28e-12             -1.66e-12             2.0824e-05           
  -0.3                  -2.356e-05            -2.5e-12              -1.62e-12             2.3578e-05           
  -0.35                 -2.5882e-05           -2.56e-12             -1.6e-12              2.5904e-05           
  -0.4                  -2.7824e-05           -2.26e-12             -1.62e-12             2.7838e-05           
  -0.45                 -2.9416e-05           -2.1e-12              -1.6e-12              2.9442e-05           
  -0.5                  -3.0742e-05           -2.08e-12             -1.42e-12             3.0768e-05           
  -0.55                 -3.184e-05            -2.1e-12              -1.62e-12             3.1864e-05           
  -0.6                  -3.2766e-05           -1.72e-12             -1.54e-12             3.2782e-05           
  -0.65                 -3.3544e-05           -1.7e-12              -1.56e-12             3.356e-05            
  -0.7                  -3.4286e-05           -2.06e-12             -1.44e-12             3.432e-05            
  -0.75                 -3.4896e-05           -2.06e-12             -1.52e-12             3.491e-05            
  -0.8                  -3.544e-05            -1.88e-12             -1.54e-12             3.546e-05            
  -0.85                 -3.594e-05            -1.64e-12             -1.6e-12              3.5964e-05           
  -0.9                  -3.6402e-05           -1.8e-12              -1.52e-12             3.6422e-05           
  -0.95                 -3.6832e-05           -1.8e-12              -1.56e-12             3.6862e-05           
  -1                    -3.726e-05            -1.82e-12             -1.5e-12              3.7212e-05           
  -1.05                 -3.7624e-05           -1.9e-12              -1.42e-12             3.7674e-05           
  -1.1                  -3.8034e-05           -1.88e-12             -1.48e-12             3.8054e-05           
  -1.15                 -3.8398e-05           -1.7e-12              -1.56e-12             3.8412e-05           
  -1.2                  -3.8752e-05           -1.66e-12             -1.4e-12              3.8766e-05           
  -1.25                 -3.9104e-05           -2.06e-12             -1.36e-12             3.9116e-05           
  -1.3                  -3.9448e-05           -1.86e-12             -1.24e-12             3.9462e-05           
  -1.35                 -3.9764e-05           -1.68e-12             -9e-13                3.9782e-05           
END_DB

BEGIN_DB
 ICCAP_VAR vg         -1.35          
 ICCAP_VAR vb         -0             
 ICCAP_VAR vs         -0             

 #vd                    id                    ig                    ib                    is                   
  -0                    3.0616e-09            -6.96e-12             -1.36e-12             -5.33e-09            
  -0.05                 -6.1762e-06           -6.46e-12             -1.28e-12             6.1768e-06           
  -0.1                  -1.199e-05            -6.2e-12              -1.34e-12             1.2008e-05           
  -0.15                 -1.7404e-05           -5.96e-12             -1.32e-12             1.7418e-05           
  -0.2                  -2.2374e-05           -5.58e-12             -1.22e-12             2.2398e-05           
  -0.25                 -2.689e-05            -5.46e-12             -1.28e-12             2.6892e-05           
  -0.3                  -3.09e-05             -5.14e-12             -1.36e-12             3.0908e-05           
  -0.35                 -3.4454e-05           -4.96e-12             -1.26e-12             3.447e-05            
  -0.4                  -3.7592e-05           -4.68e-12             -1.42e-12             3.7596e-05           
  -0.45                 -4.0328e-05           -4.54e-12             -1.28e-12             4.033e-05            
  -0.5                  -4.2684e-05           -4.6e-12              -1.14e-12             4.2698e-05           
  -0.55                 -4.473e-05            -4.48e-12             -1.22e-12             4.4748e-05           
  -0.6                  -4.6492e-05           -4.3e-12              -1.4e-12              4.6512e-05           
  -0.65                 -4.7998e-05           -4.2e-12              -1.3e-12              4.8098e-05           
  -0.7                  -4.9386e-05           -4.14e-12             -1.22e-12             4.9394e-05           
  -0.75                 -5.0462e-05           -4.22e-12             -1.28e-12             5.0522e-05           
  -0.8                  -5.1464e-05           -4.08e-12             -1.18e-12             5.1482e-05           
  -0.85                 -5.2354e-05           -3.98e-12             -1.16e-12             5.2382e-05           
  -0.9                  -5.3118e-05           -4.04e-12             -1.3e-12              5.3154e-05           
  -0.95                 -5.3732e-05           -3.9e-12              -1.44e-12             5.371e-05            
  -1                    -5.4342e-05           -3.96e-12             -1.22e-12             5.4384e-05           
  -1.05                 -5.4956e-05           -4.2e-12              -1.2e-12              5.504e-05            
  -1.1                  -5.5558e-05           -4e-12                -1.24e-12             5.5596e-05           
  -1.15                 -5.6132e-05           -3.82e-12             -1.28e-12             5.6144e-05           
  -1.2                  -5.6596e-05           -3.88e-12             -1.3e-12              5.66e-05             
  -1.25                 -5.715e-05            -4.06e-12             -1.22e-12             5.7184e-05           
  -1.3                  -5.7628e-05           -4.1e-12              -1.2e-12              5.7694e-05           
  -1.35                 -5.8142e-05           -3.78e-12             -1e-12                5.8176e-05           
END_DB

