! VERSION = 6.00
BEGIN_HEADER
 ICCAP_INPUTS
  vd         V  D GROUND SMU1 0.1 LIN        1    -0         -1.35      28   -0.05     
  vg         V  G GROUND SMU2 0.001 LIST       2 3 -0.148 -0.348 -0.548
  vb         V  B GROUND SMU4 0.1 CON        -0
  vs         V  S GROUND SMU3 0.1 CON        -0
 ICCAP_OUTPUTS
  id         I  D GROUND SMU1 B
  ig         I  G GROUND SMU2 B
  ib         I  B GROUND SMU4 B
  is         I  S GROUND SMU3 B
 ICCAP_VALUES
  MASTER_SETUP_TYPE "~dc_idvd~"
  LINVT_VALUE ""
  LISTVT_VALUE "|idvg|100.0n|-200.0m|1.000m|3|200.0m|200.0m|"
  TYPE "-1"
  TEMP " 27.0000 "
  IS_TNOM " 1.00000 "
  MAIN.W "10.00u"
  MAIN.L "2.000u"
  MAIN.AD "3.400p"
  MAIN.AS "3.400p"
  MAIN.PD "20.68u"
  MAIN.PS "20.68u"
  MAIN.NF "1.000"
  MAIN.M "1"
  MAIN.NRD "0.000"
  MAIN.NRS "0.000"
  MAIN.LDRIFT1 "1E-06"
  MAIN.LDRIFT2 "1E-06"
  MAIN.SA "0.000"
  MAIN.SB "0.000"
  MAIN.SD "0.000"
  MAIN.SCA "0.000"
  MAIN.SCB "0.000"
  MAIN.SCC "0.000"
  MAIN.SC "0.000"
  MODULE "S549"
  PIN_D "16"
  PIN_G "5"
  PIN_S "6"
  PIN_B "15"
  PIN_E ""
  PIN_6 ""
  XY_ID ""
  FUNC "L Scale"
  STI "SA ref"
  WPE "WPE ref"
  COMMENT ""
  DIS_MEAS ""
  TypeTCI "10"
END_HEADER

BEGIN_DB
 ICCAP_VAR vg         -0.148         
 ICCAP_VAR vb         -0             
 ICCAP_VAR vs         -0             

 #vd                    id                    ig                    ib                    is                   
  -0                    3.06e-12              -1e-13                -1.3e-12              -4.88e-12            
  -0.05                 -1.3442e-09           -2e-14                -1.24e-12             1.3456e-09           
  -0.1                  -1.5566e-09           -2e-14                -1.28e-12             1.5584e-09           
  -0.15                 -1.6004e-09           -8e-14                -1.2e-12              1.6012e-09           
  -0.2                  -1.6174e-09           6e-14                 -1.26e-12             1.6184e-09           
  -0.25                 -1.6294e-09           2e-14                 -1.14e-12             1.6302e-09           
  -0.3                  -1.64e-09             -2e-14                -1.08e-12             1.6406e-09           
  -0.35                 -1.6492e-09           2.6e-13               -1.18e-12             1.6492e-09           
  -0.4                  -1.658e-09            2.6e-13               -1.16e-12             1.6586e-09           
  -0.45                 -1.666e-09            3.4e-13               -1.18e-12             1.6668e-09           
  -0.5                  -1.6738e-09           6.4e-13               -1.22e-12             1.674e-09            
  -0.55                 -1.6806e-09           6.8e-13               -1.26e-12             1.6808e-09           
  -0.6                  -1.6876e-09           1.04e-12              -1.08e-12             1.687e-09            
  -0.65                 -1.6936e-09           1.18e-12              -1.22e-12             1.6932e-09           
  -0.7                  -1.6992e-09           1.52e-12              -1.08e-12             1.6986e-09           
  -0.75                 -1.7048e-09           1.9e-12               -1.12e-12             1.7034e-09           
  -0.8                  -1.7094e-09           2.24e-12              -1.12e-12             1.7086e-09           
  -0.85                 -1.7154e-09           2.94e-12              -1.12e-12             1.7128e-09           
  -0.9                  -1.7196e-09           3.3e-12               -1.18e-12             1.7172e-09           
  -0.95                 -1.7248e-09           3.94e-12              -9.8e-13              1.7214e-09           
  -1                    -1.7294e-09           4.64e-12              -1.1e-12              1.7254e-09           
  -1.05                 -1.7342e-09           5.4e-12               -1e-12                1.729e-09            
  -1.1                  -1.7386e-09           6.4e-12               -8.6e-13              1.7324e-09           
  -1.15                 -1.7426e-09           7.2e-12               -8.2e-13              1.7358e-09           
  -1.2                  -1.7478e-09           8.18e-12              -3.6e-13              1.7392e-09           
  -1.25                 -1.7518e-09           9.46e-12              -6e-14                1.7424e-09           
  -1.3                  -1.7568e-09           1.07e-11              7.2e-13               1.7444e-09           
  -1.35                 -1.7614e-09           1.198e-11             1.6e-12               1.7476e-09           
END_DB

BEGIN_DB
 ICCAP_VAR vg         -0.348         
 ICCAP_VAR vb         -0             
 ICCAP_VAR vs         -0             

 #vd                    id                    ig                    ib                    is                   
  -0                    1.0182e-09            -6.4e-12              -1.1e-12              -1.0916e-09          
  -0.05                 -3.9976e-07           -4.62e-12             -1.14e-12             3.9988e-07           
  -0.1                  -5.006e-07            -4.08e-12             -1.14e-12             5.0086e-07           
  -0.15                 -5.2448e-07           -3.8e-12              -1.16e-12             5.2468e-07           
  -0.2                  -5.336e-07            -3.84e-12             -1.16e-12             5.3382e-07           
  -0.25                 -5.395e-07            -3.64e-12             -1.1e-12              5.3978e-07           
  -0.3                  -5.4438e-07           -3.5e-12              -1.06e-12             5.4454e-07           
  -0.35                 -5.4858e-07           -3.52e-12             -1.04e-12             5.4872e-07           
  -0.4                  -5.5238e-07           -3.44e-12             -1e-12                5.5264e-07           
  -0.45                 -5.5582e-07           -3.28e-12             -9.4e-13              5.56e-07             
  -0.5                  -5.5884e-07           -3.32e-12             -9e-13                5.5894e-07           
  -0.55                 -5.6164e-07           -3.32e-12             -1.08e-12             5.6188e-07           
  -0.6                  -5.642e-07            -3.24e-12             -1.14e-12             5.645e-07            
  -0.65                 -5.6678e-07           -3.12e-12             -1.12e-12             5.67e-07             
  -0.7                  -5.691e-07            -2.86e-12             -1.1e-12              5.693e-07            
  -0.75                 -5.7114e-07           -2.66e-12             -1e-12                5.7142e-07           
  -0.8                  -5.7322e-07           -2.5e-12              -9e-13                5.7342e-07           
  -0.85                 -5.7502e-07           -2.2e-12              -9.4e-13              5.7534e-07           
  -0.9                  -5.7666e-07           -1.78e-12             -1.1e-12              5.7702e-07           
  -0.95                 -5.7826e-07           -1.58e-12             -1.04e-12             5.7864e-07           
  -1                    -5.7984e-07           -9.4e-13              -9.8e-13              5.8006e-07           
  -1.05                 -5.8126e-07           -6e-13                -9.8e-13              5.8146e-07           
  -1.1                  -5.8256e-07           -2e-14                -9.6e-13              5.828e-07            
  -1.15                 -5.8392e-07           5.8e-13               -9e-13                5.8426e-07           
  -1.2                  -5.8518e-07           1.26e-12              -7e-13                5.8538e-07           
  -1.25                 -5.8634e-07           2.06e-12              -2.4e-13              5.8644e-07           
  -1.3                  -5.8738e-07           2.58e-12              3e-13                 5.8756e-07           
  -1.35                 -5.883e-07            3.54e-12              1.18e-12              5.8858e-07           
END_DB

BEGIN_DB
 ICCAP_VAR vg         -0.548         
 ICCAP_VAR vb         -0             
 ICCAP_VAR vs         -0             

 #vd                    id                    ig                    ib                    is                   
  -0                    3.1446e-09            -6.216e-11            -9e-13                -4.1884e-09          
  -0.05                 -3.8962e-06           -5.102e-11            -9.6e-13              3.8998e-06           
  -0.1                  -6.4556e-06           -4.308e-11            -1e-12                6.4598e-06           
  -0.15                 -7.843e-06            -3.852e-11            -1e-12                7.847e-06            
  -0.2                  -8.4326e-06           -3.662e-11            -9.8e-13              8.4386e-06           
  -0.25                 -8.6632e-06           -3.564e-11            -1.04e-12             8.668e-06            
  -0.3                  -8.7766e-06           -3.536e-11            -1.04e-12             8.781e-06            
  -0.35                 -8.8526e-06           -3.5e-11              -9e-13                8.856e-06            
  -0.4                  -8.9136e-06           -3.464e-11            -9e-13                8.9176e-06           
  -0.45                 -8.9668e-06           -3.45e-11             -9.6e-13              8.9702e-06           
  -0.5                  -9.013e-06            -3.432e-11            -9e-13                9.0172e-06           
  -0.55                 -9.055e-06            -3.432e-11            -9.2e-13              9.0592e-06           
  -0.6                  -9.0944e-06           -3.404e-11            -9.6e-13              9.0976e-06           
  -0.65                 -9.1302e-06           -3.4e-11              -8.6e-13              9.1346e-06           
  -0.7                  -9.1638e-06           -3.374e-11            -8.8e-13              9.1678e-06           
  -0.75                 -9.1942e-06           -3.352e-11            -8.8e-13              9.1986e-06           
  -0.8                  -9.224e-06            -3.342e-11            -8.4e-13              9.2278e-06           
  -0.85                 -9.2518e-06           -3.312e-11            -7.8e-13              9.2552e-06           
  -0.9                  -9.278e-06            -3.306e-11            -1.04e-12             9.2818e-06           
  -0.95                 -9.3016e-06           -3.286e-11            -9.6e-13              9.3056e-06           
  -1                    -9.324e-06            -3.244e-11            -9e-13                9.328e-06            
  -1.05                 -9.3458e-06           -3.222e-11            -1e-12                9.3492e-06           
  -1.1                  -9.3662e-06           -3.178e-11            -9e-13                9.3694e-06           
  -1.15                 -9.3856e-06           -3.126e-11            -8.4e-13              9.3888e-06           
  -1.2                  -9.404e-06            -3.088e-11            -6.8e-13              9.4084e-06           
  -1.25                 -9.4224e-06           -3.026e-11            -2.6e-13              9.4256e-06           
  -1.3                  -9.4386e-06           -2.97e-11             6.6e-13               9.4422e-06           
  -1.35                 -9.4554e-06           -2.898e-11            2.06e-12              9.4598e-06           
END_DB

