! VERSION = 6.00
BEGIN_HEADER
 ICCAP_INPUTS
  vd         V  D GROUND SMU1 0.1 LIN        1    -0         -1.35      28   -0.05     
  vg         V  G GROUND SMU2 0.001 LIN        2    -0.65      -1.35      5    -0.175    
  vb         V  B GROUND SMU4 0.1 CON        1.2
  vs         V  S GROUND SMU3 0.1 CON        -0
 ICCAP_OUTPUTS
  id         I  D GROUND SMU1 B
  ig         I  G GROUND SMU2 B
  ib         I  B GROUND SMU4 B
  is         I  S GROUND SMU3 B
 ICCAP_VALUES
  MASTER_SETUP_TYPE "~dc_idvd~"
  LINVT_VALUE "|idvg|100.0n|100.0m|1.000m|5|1.350|"
  LISTVT_VALUE ""
  TYPE "-1"
  TEMP " 27.0000 "
  IS_TNOM " 1.00000 "
  MAIN.W "600.0n"
  MAIN.L "130.0n"
  MAIN.AD "204.0f"
  MAIN.AS "204.0f"
  MAIN.PD "1.880u"
  MAIN.PS "1.880u"
  MAIN.NF "1.000"
  MAIN.M "1"
  MAIN.NRD "0.000"
  MAIN.NRS "0.000"
  MAIN.LDRIFT1 "1E-06"
  MAIN.LDRIFT2 "1E-06"
  MAIN.SA "0.000"
  MAIN.SB "0.000"
  MAIN.SD "0.000"
  MAIN.SCA "0.000"
  MAIN.SCB "0.000"
  MAIN.SCC "0.000"
  MAIN.SC "0.000"
  MODULE "S551"
  PIN_D "18"
  PIN_G "3"
  PIN_S "4"
  PIN_B "17"
  PIN_E ""
  PIN_6 ""
  XY_ID ""
  FUNC "LW Scale"
  STI "SA ref"
  WPE "WPE ref"
  COMMENT ""
  DIS_MEAS ""
  TypeTCI "10"
END_HEADER

BEGIN_DB
 ICCAP_VAR vg         -0.65          
 ICCAP_VAR vb         1.2            
 ICCAP_VAR vs         -0             

 #vd                    id                    ig                    ib                    is                   
  -0                    1.4728e-09            -1.28e-12             5e-13                 -1.575e-09           
  -0.05                 -1.10172e-06          -1.1e-12              5.2e-13               1.10216e-06          
  -0.1                  -1.6632e-06           -8.8e-13              4.2e-13               1.666e-06            
  -0.15                 -1.9706e-06           -9.6e-13              3.2e-13               1.9708e-06           
  -0.2                  -2.1734e-06           -1e-12                1.8e-13               2.1786e-06           
  -0.25                 -2.3382e-06           -7.6e-13              3.6e-13               2.3426e-06           
  -0.3                  -2.48e-06             -7.4e-13              4.4e-13               2.4838e-06           
  -0.35                 -2.6122e-06           -7.6e-13              3.8e-13               2.6142e-06           
  -0.4                  -2.7404e-06           -7.6e-13              4e-13                 2.7414e-06           
  -0.45                 -2.8646e-06           -7e-13                3.4e-13               2.87e-06             
  -0.5                  -2.9914e-06           -6.4e-13              3.8e-13               2.9952e-06           
  -0.55                 -3.1194e-06           -6.8e-13              3e-13                 3.122e-06            
  -0.6                  -3.2432e-06           -6.4e-13              2.4e-13               3.2384e-06           
  -0.65                 -3.372e-06            -7.4e-13              3.6e-13               3.3756e-06           
  -0.7                  -3.5022e-06           -7.6e-13              3.2e-13               3.5056e-06           
  -0.75                 -3.6336e-06           -6.6e-13              2.8e-13               3.6376e-06           
  -0.8                  -3.7692e-06           -6.2e-13              2e-13                 3.7732e-06           
  -0.85                 -3.9012e-06           -6e-13                2.4e-13               3.9072e-06           
  -0.9                  -4.0416e-06           -6.4e-13              3.8e-13               4.0452e-06           
  -0.95                 -4.178e-06            -7.6e-13              2.4e-13               4.1802e-06           
  -1                    -4.3226e-06           -6.6e-13              1.8e-13               4.3262e-06           
  -1.05                 -4.4648e-06           -4.8e-13              2.2e-13               4.468e-06            
  -1.1                  -4.6086e-06           -4.6e-13              3.4e-13               4.6132e-06           
  -1.15                 -4.7592e-06           -5.4e-13              3.2e-13               4.7626e-06           
  -1.2                  -4.9114e-06           -5.2e-13              4.8e-13               4.9152e-06           
  -1.25                 -5.0658e-06           -5e-13                9.2e-13               5.0662e-06           
  -1.3                  -5.2276e-06           -5e-13                1.56e-12              5.228e-06            
  -1.35                 -5.3864e-06           -4e-13                3.18e-12              5.3882e-06           
END_DB

BEGIN_DB
 ICCAP_VAR vg         -0.825         
 ICCAP_VAR vb         1.2            
 ICCAP_VAR vs         -0             

 #vd                    id                    ig                    ib                    is                   
  -0                    3.3622e-09            -2.78e-12             2.6e-13               -4.183e-09           
  -0.05                 -4.6162e-06           -2.4e-12              1.2e-13               4.6242e-06           
  -0.1                  -8.0954e-06           -2.18e-12             1e-13                 8.0834e-06           
  -0.15                 -1.0574e-05           -2.2e-12              2e-14                 1.05734e-05          
  -0.2                  -1.2304e-05           -1.96e-12             8e-14                 1.2334e-05           
  -0.25                 -1.3556e-05           -1.82e-12             6e-14                 1.3566e-05           
  -0.3                  -1.4482e-05           -1.72e-12             2e-14                 1.4494e-05           
  -0.35                 -1.5226e-05           -1.74e-12             2e-13                 1.5234e-05           
  -0.4                  -1.5858e-05           -1.64e-12             -2e-14                1.5872e-05           
  -0.45                 -1.6428e-05           -1.76e-12             -4e-14                1.6444e-05           
  -0.5                  -1.6948e-05           -1.62e-12             4e-14                 1.695e-05            
  -0.55                 -1.7442e-05           -1.54e-12             8e-14                 1.746e-05            
  -0.6                  -1.7912e-05           -1.64e-12             0                     1.7928e-05           
  -0.65                 -1.8364e-05           -1.58e-12             2e-14                 1.838e-05            
  -0.7                  -1.8844e-05           -1.56e-12             1.2e-13               1.8858e-05           
  -0.75                 -1.9288e-05           -1.6e-12              2e-14                 1.931e-05            
  -0.8                  -1.9728e-05           -1.54e-12             1.4e-13               1.9746e-05           
  -0.85                 -2.018e-05            -1.38e-12             6e-14                 2.0246e-05           
  -0.9                  -2.0612e-05           -1.4e-12              1.4e-13               2.06e-05             
  -0.95                 -2.1042e-05           -1.56e-12             2.4e-13               2.106e-05            
  -1                    -2.1478e-05           -1.48e-12             1.2e-13               2.1494e-05           
  -1.05                 -2.1916e-05           -1.52e-12             0                     2.1932e-05           
  -1.1                  -2.2306e-05           -1.44e-12             1.2e-13               2.2352e-05           
  -1.15                 -2.2778e-05           -1.4e-12              2e-13                 2.2808e-05           
  -1.2                  -2.321e-05            -1.46e-12             3.4e-13               2.323e-05            
  -1.25                 -2.3644e-05           -1.42e-12             6.4e-13               2.3664e-05           
  -1.3                  -2.4086e-05           -1.36e-12             1.58e-12              2.4096e-05           
  -1.35                 -2.4552e-05           -1.32e-12             3.28e-12              2.4546e-05           
END_DB

BEGIN_DB
 ICCAP_VAR vg         -1             
 ICCAP_VAR vb         1.2            
 ICCAP_VAR vs         -0             

 #vd                    id                    ig                    ib                    is                   
  -0                    1.1316e-08            -5.74e-12             4e-14                 -1.114e-08           
  -0.05                 -8.4566e-06           -5.26e-12             2e-14                 8.4612e-06           
  -0.1                  -1.5774e-05           -4.72e-12             2e-14                 1.581e-05            
  -0.15                 -2.189e-05            -4.54e-12             1.2e-13               2.1938e-05           
  -0.2                  -2.6918e-05           -4.04e-12             2e-14                 2.6944e-05           
  -0.25                 -3.0914e-05           -3.8e-12              6e-14                 3.094e-05            
  -0.3                  -3.3992e-05           -3.74e-12             2e-14                 3.3978e-05           
  -0.35                 -3.6384e-05           -3.48e-12             -6e-14                3.6436e-05           
  -0.4                  -3.846e-05            -3.2e-12              6e-14                 3.8448e-05           
  -0.45                 -4.0104e-05           -3.32e-12             1.8e-13               4.0094e-05           
  -0.5                  -4.1442e-05           -3.18e-12             1e-13                 4.1434e-05           
  -0.55                 -4.2618e-05           -3.02e-12             -8e-14                4.264e-05            
  -0.6                  -4.3674e-05           -3.06e-12             -6e-14                4.37e-05             
  -0.65                 -4.4728e-05           -3e-12                1e-13                 4.4712e-05           
  -0.7                  -4.5632e-05           -2.88e-12             6e-14                 4.566e-05            
  -0.75                 -4.6516e-05           -3.08e-12             2e-13                 4.6534e-05           
  -0.8                  -4.7256e-05           -2.9e-12              8e-14                 4.7264e-05           
  -0.85                 -4.818e-05            -2.88e-12             8e-14                 4.8168e-05           
  -0.9                  -4.9008e-05           -2.92e-12             -6e-14                4.9042e-05           
  -0.95                 -4.9814e-05           -2.82e-12             1e-13                 4.9722e-05           
  -1                    -5.0586e-05           -2.86e-12             8e-14                 5.0552e-05           
  -1.05                 -5.1342e-05           -2.9e-12              -1.2e-13              5.1302e-05           
  -1.1                  -5.2064e-05           -2.78e-12             1.4e-13               5.2124e-05           
  -1.15                 -5.2798e-05           -2.68e-12             2.4e-13               5.2836e-05           
  -1.2                  -5.3448e-05           -2.7e-12              2.4e-13               5.3598e-05           
  -1.25                 -5.4358e-05           -2.78e-12             3e-13                 5.433e-05            
  -1.3                  -5.503e-05            -2.84e-12             1.02e-12              5.5034e-05           
  -1.35                 -5.5754e-05           -2.84e-12             2.16e-12              5.5832e-05           
END_DB

BEGIN_DB
 ICCAP_VAR vg         -1.175         
 ICCAP_VAR vb         1.2            
 ICCAP_VAR vs         -0             

 #vd                    id                    ig                    ib                    is                   
  -0                    1.536e-08             -1.094e-11            8e-14                 -1.4728e-08          
  -0.05                 -1.1748e-05           -1.016e-11            -4e-14                1.1768e-05           
  -0.1                  -2.2506e-05           -9.24e-12             1.6e-13               2.253e-05            
  -0.15                 -3.2142e-05           -8.58e-12             1.2e-13               3.2148e-05           
  -0.2                  -4.0558e-05           -8.04e-12             6e-14                 4.06e-05             
  -0.25                 -4.793e-05            -7.4e-12              1e-13                 4.792e-05            
  -0.3                  -5.4134e-05           -7.02e-12             8e-14                 5.4162e-05           
  -0.35                 -5.939e-05            -6.64e-12             -8e-14                5.933e-05            
  -0.4                  -6.3622e-05           -6.32e-12             -2e-14                6.356e-05            
  -0.45                 -6.7102e-05           -6.04e-12             2.8e-13               6.71e-05             
  -0.5                  -6.998e-05            -5.94e-12             1e-13                 7.0108e-05           
  -0.55                 -7.2798e-05           -5.9e-12              -4e-14                7.2684e-05           
  -0.6                  -7.481e-05            -5.6e-12              6e-14                 7.495e-05            
  -0.65                 -7.677e-05            -5.44e-12             1.8e-13               7.6816e-05           
  -0.7                  -7.8482e-05           -5.52e-12             1.2e-13               7.841e-05            
  -0.75                 -7.9984e-05           -5.4e-12              2e-13                 7.9966e-05           
  -0.8                  -8.1356e-05           -5.3e-12              8e-14                 8.1296e-05           
  -0.85                 -8.266e-05            -5.38e-12             -4e-14                8.258e-05            
  -0.9                  -8.4072e-05           -5.22e-12             -1.2e-13              8.3912e-05           
  -0.95                 -8.5268e-05           -5.24e-12             -4e-14                8.5148e-05           
  -1                    -8.6338e-05           -5.14e-12             -4e-14                8.6364e-05           
  -1.05                 -8.7426e-05           -5.18e-12             4e-14                 8.7552e-05           
  -1.1                  -8.859e-05            -5.06e-12             0                     8.8548e-05           
  -1.15                 -8.9722e-05           -5.06e-12             -4e-14                8.9546e-05           
  -1.2                  -9.0594e-05           -4.98e-12             1.8e-13               9.0472e-05           
  -1.25                 -9.161e-05            -5.06e-12             3.4e-13               9.1676e-05           
  -1.3                  -9.2918e-05           -5.02e-12             4.2e-13               9.2954e-05           
  -1.35                 -9.3894e-05           -4.98e-12             1.26e-12              9.3926e-05           
END_DB

BEGIN_DB
 ICCAP_VAR vg         -1.35          
 ICCAP_VAR vb         1.2            
 ICCAP_VAR vs         -0             

 #vd                    id                    ig                    ib                    is                   
  -0                    1.8904e-08            -2.046e-11            2.8e-13               -1.8722e-08          
  -0.05                 -1.4454e-05           -1.872e-11            2.2e-13               1.4462e-05           
  -0.1                  -2.8028e-05           -1.752e-11            8e-14                 2.8042e-05           
  -0.15                 -4.0608e-05           -1.632e-11            2e-14                 4.064e-05            
  -0.2                  -5.2114e-05           -1.518e-11            -6e-14                5.2122e-05           
  -0.25                 -6.2464e-05           -1.422e-11            1.2e-13               6.2394e-05           
  -0.3                  -7.1704e-05           -1.336e-11            2.2e-13               7.1696e-05           
  -0.35                 -7.991e-05            -1.286e-11            1.4e-13               7.9846e-05           
  -0.4                  -8.6824e-05           -1.208e-11            1e-13                 8.6902e-05           
  -0.45                 -9.3122e-05           -1.15e-11             1.4e-13               9.307e-05            
  -0.5                  -9.8302e-05           -1.108e-11            1.4e-13               9.8334e-05           
  -0.55                 -0.00010255           -1.07e-11             1e-13                 0.000102708          
  -0.6                  -0.000106556          -1.038e-11            1e-13                 0.000106586          
  -0.65                 -0.000109852          -1.012e-11            1.2e-13               0.000109916          
  -0.7                  -0.000112744          -9.94e-12             1.4e-13               0.000112736          
  -0.75                 -0.0001152            -9.64e-12             2.4e-13               0.00011548           
  -0.8                  -0.0001175            -9.46e-12             1.8e-13               0.00011788           
  -0.85                 -0.00011972           -9.3e-12              -6e-14                0.00012016           
  -0.9                  -0.00012162           -9.2e-12              2.2e-13               0.00012188           
  -0.95                 -0.0001231            -9.18e-12             1.8e-13               0.00012358           
  -1                    -0.00012498           -9.08e-12             1e-13                 0.0001253            
  -1.05                 -0.00012654           -9.04e-12             2.2e-13               0.0001269            
  -1.1                  -0.00012822           -8.94e-12             1.6e-13               0.00012864           
  -1.15                 -0.00012954           -8.86e-12             -2e-14                0.00012986           
  -1.2                  -0.00013102           -8.88e-12             1.4e-13               0.00013136           
  -1.25                 -0.00013252           -8.88e-12             3.4e-13               0.00013264           
  -1.3                  -0.00013358           -8.74e-12             3.6e-13               0.00013378           
  -1.35                 -0.00013482           -8.7e-12              7e-13                 0.00013528           
END_DB

