! VERSION = 6.00
BEGIN_HEADER
 ICCAP_INPUTS
  vd         V  D GROUND SMU1 0.1 LIN        1    -0         -1.35      28   -0.05     
  vg         V  G GROUND SMU2 0.001 LIN        2    -0.474     -1.35      5    -0.219    
  vb         V  B GROUND SMU4 0.1 CON        -0
  vs         V  S GROUND SMU3 0.1 CON        -0
 ICCAP_OUTPUTS
  id         I  D GROUND SMU1 B
  ig         I  G GROUND SMU2 B
  ib         I  B GROUND SMU4 B
  is         I  S GROUND SMU3 B
 ICCAP_VALUES
  MASTER_SETUP_TYPE "~dc_idvd~"
  LINVT_VALUE "|idvg|100.0n|100.0m|1.000m|5|1.350|"
  LISTVT_VALUE ""
  TYPE "-1"
  TEMP " 27.0000 "
  IS_TNOM " 1.00000 "
  MAIN.W "150.0n"
  MAIN.L "120.0n"
  MAIN.AD "100.5f"
  MAIN.AS "100.5f"
  MAIN.PD "1.340u"
  MAIN.PS "1.340u"
  MAIN.NF "1.000"
  MAIN.M "1"
  MAIN.NRD "0.000"
  MAIN.NRS "0.000"
  MAIN.LDRIFT1 "1E-06"
  MAIN.LDRIFT2 "1E-06"
  MAIN.SA "0.000"
  MAIN.SB "0.000"
  MAIN.SD "0.000"
  MAIN.SCA "0.000"
  MAIN.SCB "0.000"
  MAIN.SCC "0.000"
  MAIN.SC "0.000"
  MODULE "S554"
  PIN_D "18"
  PIN_G "3"
  PIN_S "4"
  PIN_B "17"
  PIN_E ""
  PIN_6 ""
  XY_ID ""
  FUNC "Additional"
  STI "SA ref"
  WPE "WPE ref"
  COMMENT ""
  DIS_MEAS ""
  TypeTCI "10"
END_HEADER

BEGIN_DB
 ICCAP_VAR vg         -0.474         
 ICCAP_VAR vb         -0             
 ICCAP_VAR vs         -0             

 #vd                    id                    ig                    ib                    is                   
  -0                    6.4712e-10            -3e-13                -3.62e-12             -7.996e-10           
  -0.05                 -3.685e-07            -8e-14                -3.42e-12             3.6892e-07           
  -0.1                  -5.427e-07            -1.2e-13              -3.38e-12             5.433e-07            
  -0.15                 -6.3182e-07           -1.2e-13              -3.2e-12              6.3256e-07           
  -0.2                  -6.8562e-07           0                     -3.22e-12             6.8518e-07           
  -0.25                 -7.271e-07            4e-14                 -3.32e-12             7.2636e-07           
  -0.3                  -7.6476e-07           -6e-14                -3.18e-12             7.6588e-07           
  -0.35                 -7.9972e-07           -1.8e-13              -3.12e-12             8.0172e-07           
  -0.4                  -8.363e-07            -1.6e-13              -2.96e-12             8.3584e-07           
  -0.45                 -8.7016e-07           4e-14                 -2.94e-12             8.72e-07             
  -0.5                  -9.0406e-07           -8e-14                -2.98e-12             9.0494e-07           
  -0.55                 -9.4104e-07           2e-14                 -3.06e-12             9.3904e-07           
  -0.6                  -9.7704e-07           6e-14                 -2.94e-12             9.7612e-07           
  -0.65                 -1.01026e-06          6e-14                 -2.78e-12             1.0131e-06           
  -0.7                  -1.04822e-06          -1e-13                -2.94e-12             1.04758e-06          
  -0.75                 -1.08572e-06          1.4e-13               -2.78e-12             1.08552e-06          
  -0.8                  -1.12274e-06          8e-14                 -2.82e-12             1.12528e-06          
  -0.85                 -1.158e-06            2e-14                 -3e-12                1.1634e-06           
  -0.9                  -1.1992e-06           0                     -2.7e-12              1.2028e-06           
  -0.95                 -1.2364e-06           8e-14                 -2.66e-12             1.2434e-06           
  -1                    -1.279e-06            2e-14                 -2.78e-12             1.2828e-06           
  -1.05                 -1.3178e-06           2e-14                 -2.78e-12             1.3214e-06           
  -1.1                  -1.3588e-06           2e-14                 -2.66e-12             1.3646e-06           
  -1.15                 -1.403e-06            2e-14                 -2.54e-12             1.4056e-06           
  -1.2                  -1.4436e-06           4e-14                 -2.36e-12             1.4474e-06           
  -1.25                 -1.4868e-06           1.4e-13               -1.94e-12             1.49e-06             
  -1.3                  -1.5296e-06           1.4e-13               -1.34e-12             1.5318e-06           
  -1.35                 -1.5736e-06           8e-14                 -6e-14                1.5762e-06           
END_DB

BEGIN_DB
 ICCAP_VAR vg         -0.693         
 ICCAP_VAR vb         -0             
 ICCAP_VAR vs         -0             

 #vd                    id                    ig                    ib                    is                   
  -0                    2.7336e-09            -4.2e-13              -2.44e-12             -2.5472e-09          
  -0.05                 -2.1078e-06           -2.8e-13              -2.34e-12             2.1112e-06           
  -0.1                  -3.6912e-06           -3e-13                -2.18e-12             3.696e-06            
  -0.15                 -4.8324e-06           -2e-13                -2.16e-12             4.8322e-06           
  -0.2                  -5.643e-06            -3e-13                -2.4e-12              5.645e-06            
  -0.25                 -6.2114e-06           -1.4e-13              -2.3e-12              6.209e-06            
  -0.3                  -6.6162e-06           -1.2e-13              -2.2e-12              6.6244e-06           
  -0.35                 -6.9462e-06           -2.2e-13              -2.12e-12             6.9464e-06           
  -0.4                  -7.2118e-06           -1.6e-13              -2.18e-12             7.2128e-06           
  -0.45                 -7.4608e-06           -4e-14                -2.14e-12             7.4604e-06           
  -0.5                  -7.6658e-06           -1.8e-13              -2.08e-12             7.6744e-06           
  -0.55                 -7.8654e-06           -6e-14                -2.26e-12             7.8762e-06           
  -0.6                  -8.068e-06            -4e-14                -2.14e-12             8.0694e-06           
  -0.65                 -8.2414e-06           -8e-14                -2.08e-12             8.253e-06            
  -0.7                  -8.4192e-06           -1.2e-13              -2e-12                8.4238e-06           
  -0.75                 -8.5906e-06           -1e-13                -2.1e-12              8.6064e-06           
  -0.8                  -8.7808e-06           -1.6e-13              -2.22e-12             8.7706e-06           
  -0.85                 -8.9324e-06           -6e-14                -2.24e-12             8.9412e-06           
  -0.9                  -9.1086e-06           -6e-14                -2e-12                9.1164e-06           
  -0.95                 -9.2708e-06           -2.2e-13              -2.14e-12             9.2762e-06           
  -1                    -9.4332e-06           -2e-13                -2.08e-12             9.4454e-06           
  -1.05                 -9.6002e-06           -1.2e-13              -1.92e-12             9.6152e-06           
  -1.1                  -9.7552e-06           -4e-14                -1.96e-12             9.759e-06            
  -1.15                 -9.9258e-06           -1.4e-13              -1.92e-12             9.921e-06            
  -1.2                  -9.8894e-06           -1e-13                -1.66e-12             1.00786e-05          
  -1.25                 -1.02354e-05          -8e-14                -1.16e-12             1.03372e-05          
  -1.3                  -1.04972e-05          -8e-14                -3.2e-13              1.0499e-05           
  -1.35                 -1.0666e-05           -4e-14                1.4e-12               1.06672e-05          
END_DB

BEGIN_DB
 ICCAP_VAR vg         -0.912         
 ICCAP_VAR vb         -0             
 ICCAP_VAR vs         -0             

 #vd                    id                    ig                    ib                    is                   
  -0                    3.5224e-09            -1.16e-12             -1.92e-12             -4.0562e-09          
  -0.05                 -4.0534e-06           -9.8e-13              -1.88e-12             4.0676e-06           
  -0.1                  -7.5918e-06           -8.2e-13              -1.8e-12              7.5888e-06           
  -0.15                 -1.05488e-05          -6.4e-13              -1.88e-12             1.06074e-05          
  -0.2                  -1.2956e-05           -6.6e-13              -1.72e-12             1.2984e-05           
  -0.25                 -1.503e-05            -5.8e-13              -1.76e-12             1.493e-05            
  -0.3                  -1.6452e-05           -5.8e-13              -1.8e-12              1.6468e-05           
  -0.35                 -1.7674e-05           -5e-13                -1.86e-12             1.7694e-05           
  -0.4                  -1.8642e-05           -4.6e-13              -1.86e-12             1.8666e-05           
  -0.45                 -1.9424e-05           -4.6e-13              -1.74e-12             1.9454e-05           
  -0.5                  -2.0092e-05           -3.8e-13              -1.7e-12              2.011e-05            
  -0.55                 -2.0724e-05           -4.4e-13              -1.66e-12             2.0662e-05           
  -0.6                  -2.1136e-05           -3.2e-13              -1.72e-12             2.1168e-05           
  -0.65                 -2.1588e-05           -3.2e-13              -1.72e-12             2.1612e-05           
  -0.7                  -2.2012e-05           -3.8e-13              -1.68e-12             2.2028e-05           
  -0.75                 -2.2392e-05           -2.8e-13              -1.68e-12             2.2424e-05           
  -0.8                  -2.2764e-05           -3.6e-13              -1.54e-12             2.2786e-05           
  -0.85                 -2.3114e-05           -2e-13                -1.58e-12             2.3138e-05           
  -0.9                  -2.3464e-05           -1.8e-13              -1.6e-12              2.3488e-05           
  -0.95                 -2.3874e-05           -2.8e-13              -1.68e-12             2.3802e-05           
  -1                    -2.4122e-05           -2.4e-13              -1.58e-12             2.4128e-05           
  -1.05                 -2.4552e-05           -3e-13                -1.48e-12             2.4458e-05           
  -1.1                  -2.4752e-05           -3e-13                -1.52e-12             2.4756e-05           
  -1.15                 -2.5062e-05           -3e-13                -1.58e-12             2.5082e-05           
  -1.2                  -2.5356e-05           -1.8e-13              -1.44e-12             2.5382e-05           
  -1.25                 -2.5664e-05           -2.8e-13              -1.24e-12             2.5676e-05           
  -1.3                  -2.5964e-05           -2e-13                -6e-13                2.588e-05            
  -1.35                 -2.63e-05             -3.4e-13              6.8e-13               2.6266e-05           
END_DB

BEGIN_DB
 ICCAP_VAR vg         -1.131         
 ICCAP_VAR vb         -0             
 ICCAP_VAR vs         -0             

 #vd                    id                    ig                    ib                    is                   
  -0                    2.98e-09              -2.42e-12             -1.74e-12             -5.108e-09           
  -0.05                 -5.8022e-06           -2.16e-12             -1.52e-12             5.817e-06            
  -0.1                  -1.10856e-05          -1.96e-12             -1.46e-12             1.10896e-05          
  -0.15                 -1.5864e-05           -1.76e-12             -1.56e-12             1.5874e-05           
  -0.2                  -2.0058e-05           -1.58e-12             -1.52e-12             2.0088e-05           
  -0.25                 -2.3628e-05           -1.42e-12             -1.42e-12             2.3662e-05           
  -0.3                  -2.6698e-05           -1.32e-12             -1.4e-12              2.6736e-05           
  -0.35                 -2.9426e-05           -1.28e-12             -1.46e-12             2.9368e-05           
  -0.4                  -3.1526e-05           -1.1e-12              -1.36e-12             3.1434e-05           
  -0.45                 -3.3354e-05           -1.06e-12             -1.44e-12             3.3286e-05           
  -0.5                  -3.4734e-05           -1.14e-12             -1.42e-12             3.4726e-05           
  -0.55                 -3.6076e-05           -9.6e-13              -1.3e-12              3.6154e-05           
  -0.6                  -3.7202e-05           -9.2e-13              -1.46e-12             3.7256e-05           
  -0.65                 -3.816e-05            -9.6e-13              -1.4e-12              3.8136e-05           
  -0.7                  -3.9016e-05           -9e-13                -1.34e-12             3.9042e-05           
  -0.75                 -3.9578e-05           -8.4e-13              -1.52e-12             3.9878e-05           
  -0.8                  -4.0258e-05           -8.8e-13              -1.42e-12             4.0334e-05           
  -0.85                 -4.1144e-05           -8.8e-13              -1.28e-12             4.1116e-05           
  -0.9                  -4.1728e-05           -8.8e-13              -1.44e-12             4.1756e-05           
  -0.95                 -4.2074e-05           -8.6e-13              -1.52e-12             4.2292e-05           
  -1                    -4.258e-05            -7.4e-13              -1.32e-12             4.2624e-05           
  -1.05                 -4.3362e-05           -7.6e-13              -1.3e-12              4.3382e-05           
  -1.1                  -4.3858e-05           -7.6e-13              -1.36e-12             4.388e-05            
  -1.15                 -4.4322e-05           -7.8e-13              -1.4e-12              4.4364e-05           
  -1.2                  -4.4806e-05           -8.2e-13              -1.18e-12             4.482e-05            
  -1.25                 -4.528e-05            -8.8e-13              -1.16e-12             4.5308e-05           
  -1.3                  -4.5724e-05           -8.4e-13              -8.4e-13              4.5728e-05           
  -1.35                 -4.6172e-05           -7.6e-13              4e-14                 4.6238e-05           
END_DB

BEGIN_DB
 ICCAP_VAR vg         -1.35          
 ICCAP_VAR vb         -0             
 ICCAP_VAR vs         -0             

 #vd                    id                    ig                    ib                    is                   
  -0                    1.1236e-08            -4.7e-12              -1.22e-12             -1.0814e-08          
  -0.05                 -7.2476e-06           -4.48e-12             -1.34e-12             7.2624e-06           
  -0.1                  -1.4054e-05           -3.94e-12             -1.14e-12             1.4078e-05           
  -0.15                 -2.0328e-05           -3.72e-12             -1.3e-12              2.035e-05            
  -0.2                  -2.6028e-05           -3.52e-12             -1.24e-12             2.6062e-05           
  -0.25                 -3.1154e-05           -3.18e-12             -1.3e-12              3.1192e-05           
  -0.3                  -3.5634e-05           -3e-12                -1.3e-12              3.5616e-05           
  -0.35                 -3.965e-05            -2.82e-12             -1.24e-12             3.9662e-05           
  -0.4                  -4.326e-05            -2.4e-12              -1.22e-12             4.3336e-05           
  -0.45                 -4.6406e-05           -2.4e-12              -1.22e-12             4.6428e-05           
  -0.5                  -4.9092e-05           -2.28e-12             -1.18e-12             4.9172e-05           
  -0.55                 -5.149e-05            -2.16e-12             -1.26e-12             5.1288e-05           
  -0.6                  -5.3254e-05           -2.02e-12             -1.36e-12             5.328e-05            
  -0.65                 -5.5096e-05           -2.06e-12             -1.14e-12             5.518e-05            
  -0.7                  -5.6652e-05           -1.9e-12              -1.1e-12              5.6604e-05           
  -0.75                 -5.7928e-05           -1.8e-12              -1.28e-12             5.8076e-05           
  -0.8                  -5.9388e-05           -1.86e-12             -1.16e-12             5.9182e-05           
  -0.85                 -6.0278e-05           -1.7e-12              -1.12e-12             6.0238e-05           
  -0.9                  -6.15e-05             -1.74e-12             -1.16e-12             6.1438e-05           
  -0.95                 -6.2298e-05           -1.78e-12             -1.16e-12             6.2414e-05           
  -1                    -6.3014e-05           -1.72e-12             -1.08e-12             6.316e-05            
  -1.05                 -6.378e-05            -1.64e-12             -1.16e-12             6.3884e-05           
  -1.1                  -6.4392e-05           -1.56e-12             -1.2e-12              6.4648e-05           
  -1.15                 -6.551e-05            -1.48e-12             -1e-12                6.5354e-05           
  -1.2                  -6.592e-05            -1.56e-12             -8.8e-13              6.6258e-05           
  -1.25                 -6.6616e-05           -1.54e-12             -8.8e-13              6.696e-05            
  -1.3                  -6.737e-05            -1.5e-12              -6.8e-13              6.745e-05            
  -1.35                 -6.8056e-05           -1.52e-12             -2.6e-13              6.808e-05            
END_DB

