! VERSION = 6.00
BEGIN_HEADER
 ICCAP_INPUTS
  vd         V  D GROUND SMU1 0.1 LIN        1    -0         -1.35      28   -0.05     
  vg         V  G GROUND SMU2 0.001 LIN        2    -0.458     -1.35      5    -0.223    
  vb         V  B GROUND SMU4 0.1 CON        -0
  vs         V  S GROUND SMU3 0.1 CON        -0
 ICCAP_OUTPUTS
  id         I  D GROUND SMU1 B
  ig         I  G GROUND SMU2 B
  ib         I  B GROUND SMU4 B
  is         I  S GROUND SMU3 B
 ICCAP_VALUES
  MASTER_SETUP_TYPE "~dc_idvd~"
  LINVT_VALUE "|idvg|100.0n|100.0m|1.000m|5|1.350|"
  LISTVT_VALUE ""
  TYPE "-1"
  TEMP " 70.0000 "
  IS_TNOM " 0.00000 "
  MAIN.W "10.00u"
  MAIN.L "180.0n"
  MAIN.AD "3.400p"
  MAIN.AS "3.400p"
  MAIN.PD "20.68u"
  MAIN.PS "20.68u"
  MAIN.NF "1.000"
  MAIN.M "1"
  MAIN.NRD "0.000"
  MAIN.NRS "0.000"
  MAIN.LDRIFT1 "1E-06"
  MAIN.LDRIFT2 "1E-06"
  MAIN.SA "0.000"
  MAIN.SB "0.000"
  MAIN.SD "0.000"
  MAIN.SCA "0.000"
  MAIN.SCB "0.000"
  MAIN.SCC "0.000"
  MAIN.SC "0.000"
  MODULE "S548"
  PIN_D "12"
  PIN_G "9"
  PIN_S "10"
  PIN_B "11"
  PIN_E ""
  PIN_6 ""
  XY_ID ""
  FUNC "L Scale"
  STI "SA ref"
  WPE "WPE ref"
  COMMENT ""
  DIS_MEAS ""
  TypeTCI "10"
END_HEADER

BEGIN_DB
 ICCAP_VAR vg         -0.458         
 ICCAP_VAR vb         -0             
 ICCAP_VAR vs         -0             

 #vd                    id                    ig                    ib                    is                   
  -0                    2.5186e-08            -3.54e-12             -5.916e-11            -2.718e-08           
  -0.05                 -1.4984e-05           -3.18e-12             -5.626e-11            1.4988e-05           
  -0.1                  -2.2648e-05           -2.58e-12             -5.514e-11            2.2654e-05           
  -0.15                 -2.6298e-05           -2.32e-12             -5.396e-11            2.63e-05             
  -0.2                  -2.8172e-05           -2.3e-12              -5.298e-11            2.818e-05            
  -0.25                 -2.9398e-05           -2.18e-12             -5.168e-11            2.94e-05             
  -0.3                  -3.0344e-05           -2.1e-12              -5.046e-11            3.0342e-05           
  -0.35                 -3.115e-05            -1.94e-12             -4.928e-11            3.1166e-05           
  -0.4                  -3.1908e-05           -1.86e-12             -4.786e-11            3.191e-05            
  -0.45                 -3.2594e-05           -1.88e-12             -4.65e-11             3.2598e-05           
  -0.5                  -3.3244e-05           -1.9e-12              -4.512e-11            3.3254e-05           
  -0.55                 -3.3862e-05           -1.9e-12              -4.372e-11            3.3868e-05           
  -0.6                  -3.4482e-05           -1.74e-12             -4.228e-11            3.4482e-05           
  -0.65                 -3.505e-05            -1.7e-12              -4.074e-11            3.505e-05            
  -0.7                  -3.5604e-05           -1.58e-12             -3.918e-11            3.561e-05            
  -0.75                 -3.6136e-05           -1.5e-12              -3.758e-11            3.6142e-05           
  -0.8                  -3.6644e-05           -1.4e-12              -3.586e-11            3.667e-05            
  -0.85                 -3.717e-05            -9.6e-13              -3.422e-11            3.7166e-05           
  -0.9                  -3.7638e-05           -9.2e-13              -3.258e-11            3.7648e-05           
  -0.95                 -3.813e-05            -4.6e-13              -3.088e-11            3.8116e-05           
  -1                    -3.8594e-05           -2.8e-13              -2.892e-11            3.8614e-05           
  -1.05                 -3.9054e-05           1.4e-13               -2.684e-11            3.906e-05            
  -1.1                  -3.9492e-05           5.2e-13               -2.418e-11            3.9486e-05           
  -1.15                 -3.9908e-05           9.8e-13               -2.026e-11            3.9894e-05           
  -1.2                  -4.036e-05            1.7e-12               -1.388e-11            4.0364e-05           
  -1.25                 -4.0776e-05           2.32e-12              -3.12e-12             4.078e-05            
  -1.3                  -4.119e-05            3.04e-12              1.5e-11               4.1208e-05           
  -1.35                 -4.1598e-05           3.98e-12              4.56e-11              4.1584e-05           
END_DB

BEGIN_DB
 ICCAP_VAR vg         -0.681         
 ICCAP_VAR vb         -0             
 ICCAP_VAR vs         -0             

 #vd                    id                    ig                    ib                    is                   
  -0                    9.347e-08             -1.714e-11            -1.726e-11            -8.3952e-08          
  -0.05                 -5.904e-05            -1.482e-11            -1.556e-11            5.9056e-05           
  -0.1                  -0.000105698          -1.312e-11            -1.474e-11            0.000105672          
  -0.15                 -0.00014046           -1.176e-11            -1.352e-11            0.00014078           
  -0.2                  -0.00016524           -1.07e-11             -1.288e-11            0.00016556           
  -0.25                 -0.00018212           -1e-11                -1.214e-11            0.00018242           
  -0.3                  -0.00019358           -9.42e-12             -1.144e-11            0.00019388           
  -0.35                 -0.00020174           -9.12e-12             -1.076e-11            0.00020202           
  -0.4                  -0.00020792           -8.84e-12             -1.022e-11            0.0002081            
  -0.45                 -0.00021282           -8.62e-12             -9.48e-12             0.00021318           
  -0.5                  -0.0002173            -8.54e-12             -8.94e-12             0.0002176            
  -0.55                 -0.00022128           -8.34e-12             -8.42e-12             0.00022148           
  -0.6                  -0.00022484           -8.3e-12              -7.74e-12             0.00022524           
  -0.65                 -0.00022834           -8.2e-12              -7.26e-12             0.00022856           
  -0.7                  -0.00023142           -8.1e-12              -6.84e-12             0.00023182           
  -0.75                 -0.00023454           -8.2e-12              -6.38e-12             0.00023494           
  -0.8                  -0.00023756           -7.96e-12             -5.84e-12             0.00023788           
  -0.85                 -0.00024046           -7.92e-12             -5.48e-12             0.0002407            
  -0.9                  -0.00024316           -7.9e-12              -5.1e-12              0.00024342           
  -0.95                 -0.00024586           -7.62e-12             -4.62e-12             0.00024618           
  -1                    -0.00024832           -7.42e-12             -4.16e-12             0.0002487            
  -1.05                 -0.00025094           -7.18e-12             -3.6e-12              0.0002512            
  -1.1                  -0.00025338           -6.98e-12             -2.64e-12             0.00025368           
  -1.15                 -0.0002559            -6.66e-12             -8.6e-13              0.00025616           
  -1.2                  -0.0002582            -6.4e-12              2.6e-12               0.00025848           
  -1.25                 -0.00026054           -6e-12                9.9e-12               0.00026084           
  -1.3                  -0.00026282           -5.6e-12              2.472e-11             0.00026322           
  -1.35                 -0.00026512           -5.08e-12             5.394e-11             0.00026546           
END_DB

BEGIN_DB
 ICCAP_VAR vg         -0.904         
 ICCAP_VAR vb         -0             
 ICCAP_VAR vs         -0             

 #vd                    id                    ig                    ib                    is                   
  -0                    2.5326e-07            -5.532e-11            -6.44e-12             -1.3382e-07          
  -0.05                 -0.00010258           -4.924e-11            -5.98e-12             0.00010288           
  -0.1                  -0.00019386           -4.44e-11             -5.74e-12             0.00019416           
  -0.15                 -0.00027338           -4.04e-11             -5.26e-12             0.00027374           
  -0.2                  -0.00034126           -3.656e-11            -5e-12                0.00034154           
  -0.25                 -0.00039738           -3.378e-11            -4.6e-12              0.00039776           
  -0.3                  -0.00044286           -3.142e-11            -4.42e-12             0.00044336           
  -0.35                 -0.00047874           -2.98e-11             -4.02e-12             0.00047932           
  -0.4                  -0.00050676           -2.858e-11            -3.6e-12              0.00050714           
  -0.45                 -0.00052812           -2.756e-11            -3.38e-12             0.0005283            
  -0.5                  -0.0005448            -2.66e-11             -3e-12                0.00054512           
  -0.55                 -0.00055828           -2.59e-11             -2.7e-12              0.00055864           
  -0.6                  -0.00056972           -2.558e-11            -2.46e-12             0.00056998           
  -0.65                 -0.00057922           -2.516e-11            -2.24e-12             0.0005797            
  -0.7                  -0.00058838           -2.48e-11             -1.92e-12             0.00058872           
  -0.75                 -0.00059642           -2.468e-11            -1.7e-12              0.00059668           
  -0.8                  -0.0006036            -2.44e-11             -1.3e-12              0.0006041            
  -0.85                 -0.0006107            -2.402e-11            -1.06e-12             0.0006109            
  -0.9                  -0.0006172            -2.396e-11            -9.2e-13              0.00061764           
  -0.95                 -0.0006236            -2.374e-11            -7e-13                0.0006239            
  -1                    -0.00062926           -2.366e-11            -4.6e-13              0.00062978           
  -1.05                 -0.00063538           -2.35e-11             -1.2e-13              0.00063568           
  -1.1                  -0.0006411            -2.328e-11            2e-13                 0.00064132           
  -1.15                 -0.00064662           -2.294e-11            7.6e-13               0.00064682           
  -1.2                  -0.00065208           -2.268e-11            1.88e-12              0.00065234           
  -1.25                 -0.00065744           -2.258e-11            4.36e-12              0.00065756           
  -1.3                  -0.00066228           -2.23e-11             9.46e-12              0.0006626            
  -1.35                 -0.00066748           -2.18e-11             2.076e-11             0.00066766           
END_DB

BEGIN_DB
 ICCAP_VAR vg         -1.127         
 ICCAP_VAR vb         -0             
 ICCAP_VAR vs         -0             

 #vd                    id                    ig                    ib                    is                   
  -0                    3.6998e-07            -1.4016e-10           -3.64e-12             -1.4242e-07          
  -0.05                 -0.00013834           -1.2828e-10           -3.44e-12             0.00013862           
  -0.1                  -0.00026712           -1.1764e-10           -3.16e-12             0.00026736           
  -0.15                 -0.00038572           -1.0846e-10           -3.1e-12              0.00038602           
  -0.2                  -0.0004935            -9.968e-11            -2.8e-12              0.0004939            
  -0.25                 -0.00059056           -9.254e-11            -2.5e-12              0.0005909            
  -0.3                  -0.00067676           -8.646e-11            -2.24e-12             0.00067692           
  -0.35                 -0.0007518            -8.124e-11            -2.12e-12             0.00075234           
  -0.4                  -0.00081662           -7.678e-11            -1.66e-12             0.00081678           
  -0.45                 -0.00087098           -7.312e-11            -1.4e-12              0.00087128           
  -0.5                  -0.00091644           -7e-11                -1.28e-12             0.00091708           
  -0.55                 -0.00095382           -6.77e-11             -1.02e-12             0.00095394           
  -0.6                  -0.00098466           -6.58e-11             -7.8e-13              0.00098494           
  -0.65                 -0.00101022           -6.394e-11            -4.6e-13              0.00101042           
  -0.7                  -0.0010316            -6.276e-11            -2.4e-13              0.00103214           
  -0.75                 -0.00105048           -6.174e-11            -1.2e-13              0.00105034           
  -0.8                  -0.00106604           -6.104e-11            0                     0.00106626           
  -0.85                 -0.00108034           -6e-11                2.8e-13               0.00108058           
  -0.9                  -0.00109304           -5.95e-11             4.8e-13               0.00109318           
  -0.95                 -0.00110506           -5.9e-11              6e-13                 0.00110514           
  -1                    -0.00111568           -5.844e-11            9.8e-13               0.00111588           
  -1.05                 -0.00112666           -5.806e-11            1.04e-12              0.00112682           
  -1.1                  -0.00113662           -5.776e-11            1.12e-12              0.00113664           
  -1.15                 -0.001146             -5.746e-11            1.36e-12              0.00114644           
  -1.2                  -0.0011552            -5.706e-11            1.86e-12              0.0011556            
  -1.25                 -0.0011636            -5.644e-11            2.62e-12              0.0011644            
  -1.3                  -0.0011726            -5.62e-11             4.22e-12              0.0011734            
  -1.35                 -0.001181             -5.586e-11            7.38e-12              0.0011812            
END_DB

BEGIN_DB
 ICCAP_VAR vg         -1.35          
 ICCAP_VAR vb         -0             
 ICCAP_VAR vs         -0             

 #vd                    id                    ig                    ib                    is                   
  -0                    4.0068e-07            -2.9932e-10           8e-13                 -1.7146e-07          
  -0.05                 -0.00016658           -2.7788e-10           2e-13                 0.00016686           
  -0.1                  -0.00032514           -2.5924e-10           -1.4e-13              0.00032548           
  -0.15                 -0.00047524           -2.4162e-10           -3.4e-13              0.00047538           
  -0.2                  -0.00061586           -2.2636e-10           -4.6e-13              0.00061618           
  -0.25                 -0.00074714           -2.1148e-10           -3.8e-13              0.00074742           
  -0.3                  -0.00086854           -1.984e-10            -3e-13                0.00086874           
  -0.35                 -0.0009796            -1.8756e-10           -1.8e-13              0.00098034           
  -0.4                  -0.00108076           -1.7802e-10           -2e-14                0.00108092           
  -0.45                 -0.0011716            -1.6838e-10           1.8e-13               0.0011726            
  -0.5                  -0.0012526            -1.6058e-10           3.6e-13               0.0012532            
  -0.55                 -0.0013234            -1.543e-10            5.6e-13               0.0013244            
  -0.6                  -0.0013854            -1.4868e-10           7.6e-13               0.0013862            
  -0.65                 -0.0014388            -1.4422e-10           8.8e-13               0.0014394            
  -0.7                  -0.0014844            -1.3982e-10           9.6e-13               0.001485             
  -0.75                 -0.0015234            -1.3666e-10           1.22e-12              0.0015242            
  -0.8                  -0.0015568            -1.3426e-10           1.4e-12               0.0015574            
  -0.85                 -0.0015856            -1.3174e-10           1.5e-12               0.0015866            
  -0.9                  -0.0016106            -1.299e-10            1.72e-12              0.0016114            
  -0.95                 -0.0016328            -1.2798e-10           1.94e-12              0.001634             
  -1                    -0.0016532            -1.2672e-10           2.06e-12              0.0016532            
  -1.05                 -0.0016704            -1.2574e-10           2.04e-12              0.0016708            
  -1.1                  -0.0016868            -1.2434e-10           2.22e-12              0.0016874            
  -1.15                 -0.001703             -1.2366e-10           2.42e-12              0.0017034            
  -1.2                  -0.0017174            -1.2268e-10           2.58e-12              0.0017176            
  -1.25                 -0.001731             -1.2158e-10           2.98e-12              0.0017312            
  -1.3                  -0.0017434            -1.2114e-10           3.44e-12              0.001744             
  -1.35                 -0.0017554            -1.208e-10            4.48e-12              0.0017562            
END_DB

