! VERSION = 6.00
BEGIN_HEADER
 ICCAP_INPUTS
  vd         V  D GROUND SMU1 0.1 LIN        1    -0         -1.35      28   -0.05     
  vg         V  G GROUND SMU2 0.001 LIST       2 3 -0.358 -0.558 -0.758
  vb         V  B GROUND SMU4 0.1 CON        1.2
  vs         V  S GROUND SMU3 0.1 CON        -0
 ICCAP_OUTPUTS
  id         I  D GROUND SMU1 B
  ig         I  G GROUND SMU2 B
  ib         I  B GROUND SMU4 B
  is         I  S GROUND SMU3 B
 ICCAP_VALUES
  MASTER_SETUP_TYPE "~dc_idvd~"
  LINVT_VALUE ""
  LISTVT_VALUE "|idvg|100.0n|-200.0m|1.000m|3|200.0m|200.0m|"
  TYPE "-1"
  TEMP " 27.0000 "
  IS_TNOM " 1.00000 "
  MAIN.W "300.0n"
  MAIN.L "180.0n"
  MAIN.AD "102.0f"
  MAIN.AS "102.0f"
  MAIN.PD "1.280u"
  MAIN.PS "1.280u"
  MAIN.NF "1.000"
  MAIN.M "1"
  MAIN.NRD "0.000"
  MAIN.NRS "0.000"
  MAIN.LDRIFT1 "1E-06"
  MAIN.LDRIFT2 "1E-06"
  MAIN.SA "0.000"
  MAIN.SB "0.000"
  MAIN.SD "0.000"
  MAIN.SCA "0.000"
  MAIN.SCB "0.000"
  MAIN.SCC "0.000"
  MAIN.SC "0.000"
  MODULE "S552"
  PIN_D "12"
  PIN_G "9"
  PIN_S "10"
  PIN_B "11"
  PIN_E ""
  PIN_6 ""
  XY_ID ""
  FUNC "LW Scale"
  STI "SA ref"
  WPE "WPE ref"
  COMMENT ""
  DIS_MEAS ""
  TypeTCI "10"
END_HEADER

BEGIN_DB
 ICCAP_VAR vg         -0.358         
 ICCAP_VAR vb         1.2            
 ICCAP_VAR vs         -0             

 #vd                    id                    ig                    ib                    is                   
  -0                    9e-13                 -4e-14                1e-13                 -1.04e-12            
  -0.05                 -3.5008e-10           -1.2e-13              1.4e-13               3.4996e-10           
  -0.1                  -4.1752e-10           0                     8e-14                 4.1754e-10           
  -0.15                 -4.4224e-10           -2.4e-13              1.6e-13               4.4146e-10           
  -0.2                  -4.5728e-10           -2e-14                1.6e-13               4.5768e-10           
  -0.25                 -4.7262e-10           -2e-13                -2e-14                4.7216e-10           
  -0.3                  -4.8698e-10           -2e-14                6e-14                 4.861e-10            
  -0.35                 -5.0012e-10           -2e-14                0                     4.9978e-10           
  -0.4                  -5.139e-10            -4e-14                0                     5.1354e-10           
  -0.45                 -5.2652e-10           4e-14                 2.2e-13               5.2618e-10           
  -0.5                  -5.3974e-10           -1.4e-13              2e-14                 5.396e-10            
  -0.55                 -5.522e-10            -8e-14                8e-14                 5.5242e-10           
  -0.6                  -5.6468e-10           -8e-14                4e-14                 5.6502e-10           
  -0.65                 -5.8112e-10           0                     0                     5.8098e-10           
  -0.7                  -5.9364e-10           0                     -2e-14                5.9364e-10           
  -0.75                 -6.0608e-10           -8e-14                -4e-14                6.0626e-10           
  -0.8                  -6.1538e-10           0                     4e-14                 6.1464e-10           
  -0.85                 -6.2774e-10           -1.4e-13              -4e-14                6.2712e-10           
  -0.9                  -6.4262e-10           -1.4e-13              0                     6.3974e-10           
  -0.95                 -6.5274e-10           0                     -4e-14                6.5172e-10           
  -1                    -6.6498e-10           6e-14                 -4e-14                6.6408e-10           
  -1.05                 -6.7708e-10           -1e-13                6e-14                 6.765e-10            
  -1.1                  -6.9054e-10           4e-14                 4e-14                 6.896e-10            
  -1.15                 -7.0256e-10           -1e-13                6e-14                 7.0296e-10           
  -1.2                  -7.157e-10            -6e-14                4e-14                 7.1582e-10           
  -1.25                 -7.2888e-10           4e-14                 0                     7.2822e-10           
  -1.3                  -7.4104e-10           8e-14                 0                     7.4096e-10           
  -1.35                 -7.5794e-10           6e-14                 -2e-14                7.5794e-10           
END_DB

BEGIN_DB
 ICCAP_VAR vg         -0.558         
 ICCAP_VAR vb         1.2            
 ICCAP_VAR vs         -0             

 #vd                    id                    ig                    ib                    is                   
  -0                    2.936e-10             -6.8e-13              -6e-14                -2.9518e-10          
  -0.05                 -1.0878e-07           -6.6e-13              6e-14                 1.0928e-07           
  -0.1                  -1.444e-07            -7.4e-13              0                     1.4444e-07           
  -0.15                 -1.5736e-07           -5.8e-13              -6e-14                1.5722e-07           
  -0.2                  -1.6408e-07           -7e-13                0                     1.6564e-07           
  -0.25                 -1.7058e-07           -7.2e-13              -8e-14                1.7074e-07           
  -0.3                  -1.7532e-07           -6.8e-13              4e-14                 1.755e-07            
  -0.35                 -1.79e-07             -5.2e-13              0                     1.794e-07            
  -0.4                  -1.8326e-07           -6.8e-13              0                     1.8326e-07           
  -0.45                 -1.8736e-07           -7.4e-13              -2e-14                1.8776e-07           
  -0.5                  -1.913e-07            -6.6e-13              -6e-14                1.9156e-07           
  -0.55                 -1.9498e-07           -6e-13                -2e-14                1.9516e-07           
  -0.6                  -1.9872e-07           -5.8e-13              4e-14                 1.9898e-07           
  -0.65                 -2.0244e-07           -6.8e-13              -1.2e-13              2.0266e-07           
  -0.7                  -2.0606e-07           -6.6e-13              0                     2.0658e-07           
  -0.75                 -2.0988e-07           -6.8e-13              0                     2.0994e-07           
  -0.8                  -2.1404e-07           -5.4e-13              -2e-14                2.1418e-07           
  -0.85                 -2.1674e-07           -6.6e-13              8e-14                 2.1716e-07           
  -0.9                  -2.2046e-07           -6.6e-13              0                     2.2072e-07           
  -0.95                 -2.2368e-07           -6.6e-13              -8e-14                2.2376e-07           
  -1                    -2.276e-07            -6.4e-13              0                     2.2772e-07           
  -1.05                 -2.3102e-07           -6.6e-13              -1e-13                2.3044e-07           
  -1.1                  -2.3382e-07           -5.8e-13              -8e-14                2.345e-07            
  -1.15                 -2.3758e-07           -5.4e-13              8e-14                 2.377e-07            
  -1.2                  -2.409e-07            -5e-13                1e-13                 2.4102e-07           
  -1.25                 -2.4336e-07           -5.8e-13              1.4e-13               2.435e-07            
  -1.3                  -2.4678e-07           -5.8e-13              1.8e-13               2.468e-07            
  -1.35                 -2.5024e-07           -6e-13                2.2e-13               2.5088e-07           
END_DB

BEGIN_DB
 ICCAP_VAR vg         -0.758         
 ICCAP_VAR vb         1.2            
 ICCAP_VAR vs         -0             

 #vd                    id                    ig                    ib                    is                   
  -0                    2.0932e-09            -2.28e-12             -1.2e-13              -1.9522e-09          
  -0.05                 -1.2458e-06           -2.12e-12             0                     1.2486e-06           
  -0.1                  -2.099e-06            -2.1e-12              -6e-14                2.1036e-06           
  -0.15                 -2.6284e-06           -2.02e-12             -1e-13                2.644e-06            
  -0.2                  -2.9624e-06           -1.94e-12             -6e-14                2.9652e-06           
  -0.25                 -3.1882e-06           -1.92e-12             -8e-14                3.195e-06            
  -0.3                  -3.3402e-06           -1.86e-12             2e-14                 3.3774e-06           
  -0.35                 -3.4962e-06           -1.7e-12              6e-14                 3.4842e-06           
  -0.4                  -3.5776e-06           -1.78e-12             8e-14                 3.5798e-06           
  -0.45                 -3.6624e-06           -2e-12                2e-14                 3.673e-06            
  -0.5                  -3.731e-06            -1.88e-12             6e-14                 3.7318e-06           
  -0.55                 -3.7998e-06           -1.86e-12             -6e-14                3.8046e-06           
  -0.6                  -3.877e-06            -1.9e-12              0                     3.8658e-06           
  -0.65                 -3.911e-06            -1.94e-12             4e-14                 3.9232e-06           
  -0.7                  -3.9716e-06           -1.88e-12             -2e-14                3.9762e-06           
  -0.75                 -4.0316e-06           -1.9e-12              2e-14                 4.0352e-06           
  -0.8                  -4.0918e-06           -1.76e-12             4e-14                 4.097e-06            
  -0.85                 -4.1468e-06           -1.84e-12             6e-14                 4.1436e-06           
  -0.9                  -4.1946e-06           -1.86e-12             4e-14                 4.1978e-06           
  -0.95                 -4.2534e-06           -1.64e-12             -8e-14                4.2512e-06           
  -1                    -4.3016e-06           -1.72e-12             0                     4.3034e-06           
  -1.05                 -4.3514e-06           -1.8e-12              2e-14                 4.3558e-06           
  -1.1                  -4.4046e-06           -1.76e-12             2e-14                 4.408e-06            
  -1.15                 -4.4544e-06           -1.76e-12             -2e-14                4.4578e-06           
  -1.2                  -4.5044e-06           -1.92e-12             0                     4.506e-06            
  -1.25                 -4.5508e-06           -1.86e-12             1.4e-13               4.53e-06             
  -1.3                  -4.5748e-06           -1.74e-12             2.8e-13               4.6042e-06           
  -1.35                 -4.649e-06            -1.82e-12             4.2e-13               4.6532e-06           
END_DB

