! VERSION = 6.00
BEGIN_HEADER
 ICCAP_INPUTS
  vd         V  D GROUND SMU1 0.1 LIN        1    -0         -1.35      28   -0.05     
  vg         V  G GROUND SMU2 0.001 LIN        2    -0.602     -1.35      5    -0.187    
  vb         V  B GROUND SMU4 0.1 CON        1.2
  vs         V  S GROUND SMU3 0.1 CON        -0
 ICCAP_OUTPUTS
  id         I  D GROUND SMU1 B
  ig         I  G GROUND SMU2 B
  ib         I  B GROUND SMU4 B
  is         I  S GROUND SMU3 B
 ICCAP_VALUES
  MASTER_SETUP_TYPE "~dc_idvd~"
  LINVT_VALUE "|idvg|100.0n|100.0m|1.000m|5|1.350|"
  LISTVT_VALUE ""
  TYPE "-1"
  TEMP " 70.0000 "
  IS_TNOM " 0.00000 "
  MAIN.W "10.00u"
  MAIN.L "10.00u"
  MAIN.AD "3.400p"
  MAIN.AS "3.400p"
  MAIN.PD "20.68u"
  MAIN.PS "20.68u"
  MAIN.NF "1.000"
  MAIN.M "1"
  MAIN.NRD "0.000"
  MAIN.NRS "0.000"
  MAIN.LDRIFT1 "1E-06"
  MAIN.LDRIFT2 "1E-06"
  MAIN.SA "0.000"
  MAIN.SB "0.000"
  MAIN.SD "0.000"
  MAIN.SCA "0.000"
  MAIN.SCB "0.000"
  MAIN.SCC "0.000"
  MAIN.SC "0.000"
  MODULE "S549"
  PIN_D "12"
  PIN_G "9"
  PIN_S "10"
  PIN_B "11"
  PIN_E ""
  PIN_6 ""
  XY_ID ""
  FUNC "Large"
  STI "SA ref"
  WPE "WPE ref"
  COMMENT ""
  DIS_MEAS ""
  TypeTCI "10"
END_HEADER

BEGIN_DB
 ICCAP_VAR vg         -0.602         
 ICCAP_VAR vb         1.2            
 ICCAP_VAR vs         -0             

 #vd                    id                    ig                    ib                    is                   
  -0                    6.6802e-10            -2.7008e-10           1.63e-11              -4.577e-10           
  -0.05                 -3.1064e-07           -2.1192e-10           1.632e-11             3.1092e-07           
  -0.1                  -4.7422e-07           -1.78e-10             1.624e-11             4.7456e-07           
  -0.15                 -5.3908e-07           -1.629e-10            1.624e-11             5.3942e-07           
  -0.2                  -5.581e-07            -1.5788e-10           1.636e-11             5.5838e-07           
  -0.25                 -5.6308e-07           -1.565e-10            1.628e-11             5.6338e-07           
  -0.3                  -5.6484e-07           -1.5584e-10           1.628e-11             5.6518e-07           
  -0.35                 -5.6586e-07           -1.5566e-10           1.63e-11              5.6612e-07           
  -0.4                  -5.6658e-07           -1.554e-10            1.626e-11             5.6688e-07           
  -0.45                 -5.6722e-07           -1.551e-10            1.638e-11             5.6748e-07           
  -0.5                  -5.678e-07            -1.5494e-10           1.63e-11              5.6808e-07           
  -0.55                 -5.6832e-07           -1.5498e-10           1.63e-11              5.6856e-07           
  -0.6                  -5.6876e-07           -1.5456e-10           1.638e-11             5.6904e-07           
  -0.65                 -5.6916e-07           -1.5448e-10           1.614e-11             5.6942e-07           
  -0.7                  -5.6954e-07           -1.544e-10            1.618e-11             5.6982e-07           
  -0.75                 -5.6992e-07           -1.5416e-10           1.626e-11             5.7014e-07           
  -0.8                  -5.702e-07            -1.5402e-10           1.62e-11              5.7052e-07           
  -0.85                 -5.7056e-07           -1.5394e-10           1.63e-11              5.7082e-07           
  -0.9                  -5.7084e-07           -1.5372e-10           1.618e-11             5.711e-07            
  -0.95                 -5.7112e-07           -1.5346e-10           1.628e-11             5.7142e-07           
  -1                    -5.7138e-07           -1.5308e-10           1.616e-11             5.7168e-07           
  -1.05                 -5.7164e-07           -1.528e-10            1.624e-11             5.719e-07            
  -1.1                  -5.7186e-07           -1.5244e-10           1.63e-11              5.7208e-07           
  -1.15                 -5.7208e-07           -1.5204e-10           1.626e-11             5.723e-07            
  -1.2                  -5.7224e-07           -1.5142e-10           1.634e-11             5.7252e-07           
  -1.25                 -5.7242e-07           -1.5104e-10           1.646e-11             5.7268e-07           
  -1.3                  -5.7262e-07           -1.5026e-10           1.67e-11              5.7288e-07           
  -1.35                 -5.7278e-07           -1.4946e-10           1.716e-11             5.7306e-07           
END_DB

BEGIN_DB
 ICCAP_VAR vg         -0.789         
 ICCAP_VAR vb         1.2            
 ICCAP_VAR vs         -0             

 #vd                    id                    ig                    ib                    is                   
  -0                    2.036e-09             -1.1502e-09           1.606e-11             -9.1664e-10          
  -0.05                 -9.2778e-07           -9.8318e-10           1.606e-11             9.2898e-07           
  -0.1                  -1.6592e-06           -8.5272e-10           1.6e-11               1.663e-06            
  -0.15                 -2.198e-06            -7.562e-10            1.6e-11               2.202e-06            
  -0.2                  -2.5552e-06           -6.903e-10            1.596e-11             2.559e-06            
  -0.25                 -2.7556e-06           -6.52e-10             1.604e-11             2.7596e-06           
  -0.3                  -2.8438e-06           -6.343e-10            1.6e-11               2.8476e-06           
  -0.35                 -2.8744e-06           -6.2778e-10           1.61e-11              2.878e-06            
  -0.4                  -2.8854e-06           -6.2514e-10           1.604e-11             2.889e-06            
  -0.45                 -2.8908e-06           -6.2392e-10           1.608e-11             2.8944e-06           
  -0.5                  -2.8944e-06           -6.23e-10             1.61e-11              2.8982e-06           
  -0.55                 -2.8976e-06           -6.2246e-10           1.608e-11             2.9014e-06           
  -0.6                  -2.9004e-06           -6.2162e-10           1.61e-11              2.904e-06            
  -0.65                 -2.9026e-06           -6.2124e-10           1.598e-11             2.9062e-06           
  -0.7                  -2.9048e-06           -6.2068e-10           1.61e-11              2.9084e-06           
  -0.75                 -2.9068e-06           -6.2008e-10           1.608e-11             2.9104e-06           
  -0.8                  -2.9086e-06           -6.197e-10            1.614e-11             2.9124e-06           
  -0.85                 -2.9104e-06           -6.193e-10            1.614e-11             2.914e-06            
  -0.9                  -2.9118e-06           -6.1908e-10           1.606e-11             2.9156e-06           
  -0.95                 -2.9134e-06           -6.1872e-10           1.606e-11             2.917e-06            
  -1                    -2.9148e-06           -6.1854e-10           1.608e-11             2.9184e-06           
  -1.05                 -2.916e-06            -6.1812e-10           1.614e-11             2.9196e-06           
  -1.1                  -2.917e-06            -6.18e-10             1.618e-11             2.9208e-06           
  -1.15                 -2.9182e-06           -6.1752e-10           1.614e-11             2.9218e-06           
  -1.2                  -2.9192e-06           -6.1666e-10           1.614e-11             2.923e-06            
  -1.25                 -2.9204e-06           -6.1636e-10           1.614e-11             2.924e-06            
  -1.3                  -2.9214e-06           -6.1524e-10           1.622e-11             2.925e-06            
  -1.35                 -2.9222e-06           -6.1462e-10           1.632e-11             2.9258e-06           
END_DB

BEGIN_DB
 ICCAP_VAR vg         -0.976         
 ICCAP_VAR vb         1.2            
 ICCAP_VAR vs         -0             

 #vd                    id                    ig                    ib                    is                   
  -0                    3.6128e-09            -3.1318e-09           1.622e-11             -7.4796e-10          
  -0.05                 -1.538e-06            -2.7856e-09           1.62e-11              1.544e-06            
  -0.1                  -2.8948e-06           -2.4904e-09           1.612e-11             2.9006e-06           
  -0.15                 -4.0616e-06           -2.244e-09            1.612e-11             4.0672e-06           
  -0.2                  -5.0354e-06           -2.0416e-09           1.614e-11             5.0412e-06           
  -0.25                 -5.8158e-06           -1.883e-09            1.606e-11             5.8212e-06           
  -0.3                  -6.4046e-06           -1.7624e-09           1.6e-11               6.41e-06             
  -0.35                 -6.8092e-06           -1.6806e-09           1.604e-11             6.8146e-06           
  -0.4                  -7.0516e-06           -1.6304e-09           1.61e-11              7.0568e-06           
  -0.45                 -7.1698e-06           -1.606e-09            1.614e-11             7.1748e-06           
  -0.5                  -7.218e-06            -1.5946e-09           1.614e-11             7.2228e-06           
  -0.55                 -7.2378e-06           -1.5898e-09           1.616e-11             7.2426e-06           
  -0.6                  -7.2488e-06           -1.5878e-09           1.614e-11             7.2534e-06           
  -0.65                 -7.2566e-06           -1.5858e-09           1.608e-11             7.261e-06            
  -0.7                  -7.263e-06            -1.5842e-09           1.624e-11             7.2676e-06           
  -0.75                 -7.2686e-06           -1.583e-09            1.602e-11             7.2732e-06           
  -0.8                  -7.274e-06            -1.5816e-09           1.612e-11             7.2784e-06           
  -0.85                 -7.2786e-06           -1.5804e-09           1.612e-11             7.2834e-06           
  -0.9                  -7.283e-06            -1.5796e-09           1.604e-11             7.2876e-06           
  -0.95                 -7.2868e-06           -1.5794e-09           1.612e-11             7.2914e-06           
  -1                    -7.2906e-06           -1.5788e-09           1.614e-11             7.295e-06            
  -1.05                 -7.294e-06            -1.5772e-09           1.616e-11             7.2986e-06           
  -1.1                  -7.297e-06            -1.5768e-09           1.608e-11             7.3016e-06           
  -1.15                 -7.3004e-06           -1.576e-09            1.614e-11             7.305e-06            
  -1.2                  -7.3034e-06           -1.575e-09            1.624e-11             7.3078e-06           
  -1.25                 -7.3058e-06           -1.5746e-09           1.614e-11             7.3104e-06           
  -1.3                  -7.308e-06            -1.5744e-09           1.616e-11             7.3122e-06           
  -1.35                 -7.3102e-06           -1.5734e-09           1.62e-11              7.315e-06            
END_DB

BEGIN_DB
 ICCAP_VAR vg         -1.163         
 ICCAP_VAR vb         1.2            
 ICCAP_VAR vs         -0             

 #vd                    id                    ig                    ib                    is                   
  -0                    5.1442e-09            -6.814e-09            2.364e-11             1.2646e-10           
  -0.05                 -2.0742e-06           -6.2056e-09           2.104e-11             2.0834e-06           
  -0.1                  -3.9904e-06           -5.6642e-09           1.962e-11             3.9992e-06           
  -0.15                 -5.7362e-06           -5.188e-09            1.886e-11             5.745e-06            
  -0.2                  -7.3066e-06           -4.7724e-09           1.832e-11             7.3146e-06           
  -0.25                 -8.6974e-06           -4.4186e-09           1.806e-11             8.7052e-06           
  -0.3                  -9.9032e-06           -4.118e-09            1.784e-11             9.9112e-06           
  -0.35                 -1.09204e-05          -3.8704e-09           1.776e-11             1.0928e-05           
  -0.4                  -1.1748e-05           -3.6718e-09           1.756e-11             1.1758e-05           
  -0.45                 -1.2386e-05           -3.5212e-09           1.75e-11              1.2396e-05           
  -0.5                  -1.2842e-05           -3.4124e-09           1.754e-11             1.2852e-05           
  -0.55                 -1.3132e-05           -3.345e-09            1.748e-11             1.3142e-05           
  -0.6                  -1.3288e-05           -3.3082e-09           1.738e-11             1.3298e-05           
  -0.65                 -1.3358e-05           -3.2898e-09           1.74e-11              1.3368e-05           
  -0.7                  -1.3392e-05           -3.2822e-09           1.752e-11             1.34e-05             
  -0.75                 -1.341e-05            -3.2784e-09           1.738e-11             1.3418e-05           
  -0.8                  -1.3422e-05           -3.2742e-09           1.746e-11             1.3432e-05           
  -0.85                 -1.3432e-05           -3.2702e-09           1.742e-11             1.3442e-05           
  -0.9                  -1.3442e-05           -3.2674e-09           1.732e-11             1.3452e-05           
  -0.95                 -1.345e-05            -3.266e-09            1.748e-11             1.346e-05            
  -1                    -1.3458e-05           -3.264e-09            1.738e-11             1.3468e-05           
  -1.05                 -1.3464e-05           -3.2628e-09           1.75e-11              1.3474e-05           
  -1.1                  -1.347e-05            -3.2616e-09           1.748e-11             1.348e-05            
  -1.15                 -1.3476e-05           -3.2592e-09           1.746e-11             1.3486e-05           
  -1.2                  -1.3482e-05           -3.2588e-09           1.73e-11              1.3492e-05           
  -1.25                 -1.3486e-05           -3.2554e-09           1.736e-11             1.3496e-05           
  -1.3                  -1.3492e-05           -3.256e-09            1.746e-11             1.3502e-05           
  -1.35                 -1.3498e-05           -3.2528e-09           1.732e-11             1.3506e-05           
END_DB

BEGIN_DB
 ICCAP_VAR vg         -1.35          
 ICCAP_VAR vb         1.2            
 ICCAP_VAR vs         -0             

 #vd                    id                    ig                    ib                    is                   
  -0                    1.0478e-08            -1.2962e-08           1.4426e-10            1.9102e-09           
  -0.05                 -2.53e-06             -1.1968e-08           1.11e-10              2.5448e-06           
  -0.1                  -4.9262e-06           -1.1072e-08           8.828e-11             4.9406e-06           
  -0.15                 -7.173e-06            -1.0258e-08           7.296e-11             7.1872e-06           
  -0.2                  -9.265e-06            -9.543e-09            6.248e-11             9.2786e-06           
  -0.25                 -1.11988e-05          -8.9064e-09           5.542e-11             1.1212e-05           
  -0.3                  -1.2968e-05           -8.3338e-09           5.04e-11              1.2982e-05           
  -0.35                 -1.4562e-05           -7.837e-09            4.668e-11             1.4578e-05           
  -0.4                  -1.5986e-05           -7.4072e-09           4.432e-11             1.6002e-05           
  -0.45                 -1.7232e-05           -7.0432e-09           4.238e-11             1.7246e-05           
  -0.5                  -1.8294e-05           -6.7418e-09           4.092e-11             1.831e-05            
  -0.55                 -1.9172e-05           -6.4866e-09           3.97e-11              1.9186e-05           
  -0.6                  -1.9864e-05           -6.2924e-09           3.888e-11             1.9878e-05           
  -0.65                 -2.0374e-05           -6.1486e-09           3.822e-11             2.039e-05            
  -0.7                  -2.0716e-05           -6.0544e-09           3.802e-11             2.073e-05            
  -0.75                 -2.0914e-05           -6.0012e-09           3.776e-11             2.0928e-05           
  -0.8                  -2.1016e-05           -5.9704e-09           3.766e-11             2.1028e-05           
  -0.85                 -2.1064e-05           -5.957e-09            3.78e-11              2.1078e-05           
  -0.9                  -2.1092e-05           -5.9534e-09           3.78e-11              2.1104e-05           
  -0.95                 -2.1112e-05           -5.946e-09            3.758e-11             2.1124e-05           
  -1                    -2.1126e-05           -5.942e-09            3.756e-11             2.114e-05            
  -1.05                 -2.114e-05            -5.9394e-09           3.764e-11             2.1152e-05           
  -1.1                  -2.1152e-05           -5.9362e-09           3.776e-11             2.1164e-05           
  -1.15                 -2.1162e-05           -5.9334e-09           3.766e-11             2.1174e-05           
  -1.2                  -2.1172e-05           -5.929e-09            3.77e-11              2.1186e-05           
  -1.25                 -2.118e-05            -5.9274e-09           3.77e-11              2.1194e-05           
  -1.3                  -2.119e-05            -5.9272e-09           3.77e-11              2.1202e-05           
  -1.35                 -2.1198e-05           -5.9236e-09           3.766e-11             2.121e-05            
END_DB

