! VERSION = 6.00
BEGIN_HEADER
 ICCAP_INPUTS
  vd         V  D GROUND SMU1 0.1 LIN        1    -0         -1.35      28   -0.05     
  vg         V  G GROUND SMU2 0.001 LIST       2 3 -0.15 -0.35 -0.55
  vb         V  B GROUND SMU4 0.1 CON        -0
  vs         V  S GROUND SMU3 0.1 CON        -0
 ICCAP_OUTPUTS
  id         I  D GROUND SMU1 B
  ig         I  G GROUND SMU2 B
  ib         I  B GROUND SMU4 B
  is         I  S GROUND SMU3 B
 ICCAP_VALUES
  MASTER_SETUP_TYPE "~dc_idvd~"
  LINVT_VALUE ""
  LISTVT_VALUE "|idvg|100.0n|-200.0m|1.000m|3|200.0m|200.0m|"
  TYPE "-1"
  TEMP " 27.0000 "
  IS_TNOM " 1.00000 "
  MAIN.W "150.0n"
  MAIN.L "180.0n"
  MAIN.AD "100.5f"
  MAIN.AS "100.5f"
  MAIN.PD "1.340u"
  MAIN.PS "1.340u"
  MAIN.NF "1.000"
  MAIN.M "1"
  MAIN.NRD "0.000"
  MAIN.NRS "0.000"
  MAIN.LDRIFT1 "1E-06"
  MAIN.LDRIFT2 "1E-06"
  MAIN.SA "0.000"
  MAIN.SB "0.000"
  MAIN.SD "0.000"
  MAIN.SCA "0.000"
  MAIN.SCB "0.000"
  MAIN.SCC "0.000"
  MAIN.SC "0.000"
  MODULE "S555"
  PIN_D "20"
  PIN_G "1"
  PIN_S "2"
  PIN_B "19"
  PIN_E ""
  PIN_6 ""
  XY_ID ""
  FUNC "LW Scale"
  STI "SA ref"
  WPE "WPE ref"
  COMMENT ""
  DIS_MEAS ""
  TypeTCI "10"
END_HEADER

BEGIN_DB
 ICCAP_VAR vg         -0.15          
 ICCAP_VAR vb         -0             
 ICCAP_VAR vs         -0             

 #vd                    id                    ig                    ib                    is                   
  -0                    5.4e-13               2.2e-13               -1.04e-12             -5.4e-13             
  -0.05                 -1.678e-10            1.6e-13               -1.08e-12             1.6782e-10           
  -0.1                  -2.059e-10            1.4e-13               -1.18e-12             2.058e-10            
  -0.15                 -2.2298e-10           1e-13                 -1.06e-12             2.2264e-10           
  -0.2                  -2.3662e-10           1e-13                 -1.18e-12             2.373e-10            
  -0.25                 -2.499e-10            2.6e-13               -1.14e-12             2.4968e-10           
  -0.3                  -2.624e-10            8e-14                 -1.06e-12             2.6154e-10           
  -0.35                 -2.7326e-10           1.4e-13               -9.8e-13              2.728e-10            
  -0.4                  -2.8538e-10           1.6e-13               -1e-12                2.8452e-10           
  -0.45                 -2.9674e-10           8e-14                 -1.08e-12             2.9624e-10           
  -0.5                  -3.075e-10            2e-13                 -1.16e-12             3.0684e-10           
  -0.55                 -3.1834e-10           2e-14                 -1.08e-12             3.1758e-10           
  -0.6                  -3.282e-10            6e-14                 -1.16e-12             3.2752e-10           
  -0.65                 -3.3942e-10           1.4e-13               -1.14e-12             3.3884e-10           
  -0.7                  -3.498e-10            4e-14                 -1.04e-12             3.4882e-10           
  -0.75                 -3.5956e-10           8e-14                 -1.18e-12             3.577e-10            
  -0.8                  -3.6848e-10           4e-14                 -9.8e-13              3.6832e-10           
  -0.85                 -3.7884e-10           4e-14                 -1.14e-12             3.7778e-10           
  -0.9                  -3.8764e-10           4e-14                 -9.4e-13              3.8502e-10           
  -0.95                 -3.9562e-10           1.2e-13               -1.04e-12             3.938e-10            
  -1                    -4.042e-10            8e-14                 -1.1e-12              4.0346e-10           
  -1.05                 -4.1242e-10           1.2e-13               -1e-12                4.1142e-10           
  -1.1                  -4.2216e-10           1.8e-13               -1.02e-12             4.2148e-10           
  -1.15                 -4.3092e-10           1.8e-13               -1.08e-12             4.2936e-10           
  -1.2                  -4.397e-10            2.2e-13               -9.4e-13              4.3808e-10           
  -1.25                 -4.4794e-10           2e-13                 -1.1e-12              4.4768e-10           
  -1.3                  -4.572e-10            2e-13                 -1.14e-12             4.5654e-10           
  -1.35                 -4.6614e-10           2.6e-13               -8.8e-13              4.6556e-10           
END_DB

BEGIN_DB
 ICCAP_VAR vg         -0.35          
 ICCAP_VAR vb         -0             
 ICCAP_VAR vs         -0             

 #vd                    id                    ig                    ib                    is                   
  -0                    1.2472e-10            0                     -1.12e-12             -1.2506e-10          
  -0.05                 -4.261e-08            -2e-14                -9.4e-13              4.2672e-08           
  -0.1                  -5.7004e-08           0                     -8.8e-13              5.5738e-08           
  -0.15                 -6.2044e-08           -8e-14                -9.6e-13              6.2068e-08           
  -0.2                  -6.7516e-08           -4e-14                -1.08e-12             6.7936e-08           
  -0.25                 -7.3072e-08           0                     -1.08e-12             7.4582e-08           
  -0.3                  -7.682e-08            -1e-13                -9.6e-13              7.9136e-08           
  -0.35                 -8.0568e-08           -1e-13                -9.8e-13              8.0606e-08           
  -0.4                  -8.577e-08            -1.2e-13              -9e-13                8.5928e-08           
  -0.45                 -8.8196e-08           -1e-13                -9.4e-13              9.0544e-08           
  -0.5                  -9.3626e-08           -1e-13                -9.4e-13              9.3786e-08           
  -0.55                 -9.6668e-08           0                     -8.8e-13              9.6622e-08           
  -0.6                  -9.9648e-08           -1e-13                -1e-12                9.9688e-08           
  -0.65                 -1.02474e-07          -6e-14                -1e-12                1.02476e-07          
  -0.7                  -1.05192e-07          -8e-14                -1.04e-12             1.05184e-07          
  -0.75                 -1.07782e-07          -6e-14                -9.4e-13              1.07874e-07          
  -0.8                  -1.1024e-07           2e-14                 -9e-13                1.10492e-07          
  -0.85                 -1.1298e-07           4e-14                 -9e-13                1.13052e-07          
  -0.9                  -1.1532e-07           2e-14                 -1.02e-12             1.157e-07            
  -0.95                 -1.178e-07            2e-14                 -9.6e-13              1.1812e-07           
  -1                    -1.2022e-07           -2e-14                -8.8e-13              1.2014e-07           
  -1.05                 -1.2248e-07           -8e-14                -9.2e-13              1.228e-07            
  -1.1                  -1.2486e-07           2e-14                 -9.2e-13              1.2504e-07           
  -1.15                 -1.2708e-07           -6e-14                -7.6e-13              1.2738e-07           
  -1.2                  -1.2938e-07           -2e-14                -8.6e-13              1.294e-07            
  -1.25                 -1.3134e-07           0                     -9e-13                1.3164e-07           
  -1.3                  -1.335e-07            4e-14                 -6.4e-13              1.339e-07            
  -1.35                 -1.3576e-07           4e-14                 -4.4e-13              1.359e-07            
END_DB

BEGIN_DB
 ICCAP_VAR vg         -0.55          
 ICCAP_VAR vb         -0             
 ICCAP_VAR vs         -0             

 #vd                    id                    ig                    ib                    is                   
  -0                    1.4082e-09            -2.4e-13              -8.4e-13              -1.278e-09           
  -0.05                 -7.286e-07            -1.8e-13              -1e-12                7.2938e-07           
  -0.1                  -1.167e-06            -2.2e-13              -8.4e-13              1.1708e-06           
  -0.15                 -1.4106e-06           -3e-13                -8.2e-13              1.4148e-06           
  -0.2                  -1.5514e-06           -4e-14                -8.2e-13              1.5568e-06           
  -0.25                 -1.6462e-06           -1e-13                -1e-12                1.6494e-06           
  -0.3                  -1.718e-06            -1.8e-13              -9e-13                1.7218e-06           
  -0.35                 -1.7792e-06           -1e-13                -7.8e-13              1.7826e-06           
  -0.4                  -1.8326e-06           -1.8e-13              -9e-13                1.836e-06            
  -0.45                 -1.883e-06            -1.8e-13              -9.8e-13              1.8868e-06           
  -0.5                  -1.9306e-06           -1.4e-13              -7.8e-13              1.9344e-06           
  -0.55                 -1.9734e-06           -1.4e-13              -8.8e-13              1.9768e-06           
  -0.6                  -2.0158e-06           -2.2e-13              -9.2e-13              2.0204e-06           
  -0.65                 -2.0574e-06           -8e-14                -7.4e-13              2.0616e-06           
  -0.7                  -2.097e-06            -1.8e-13              -8.6e-13              2.1018e-06           
  -0.75                 -2.1358e-06           -2.4e-13              -9e-13                2.1382e-06           
  -0.8                  -2.1714e-06           -1e-13                -9.2e-13              2.1756e-06           
  -0.85                 -2.2086e-06           -6e-14                -8.6e-13              2.2122e-06           
  -0.9                  -2.2452e-06           -1e-13                -8.4e-13              2.2486e-06           
  -0.95                 -2.2796e-06           -1.2e-13              -8.6e-13              2.283e-06            
  -1                    -2.311e-06            -1.6e-13              -9.4e-13              2.3162e-06           
  -1.05                 -2.3466e-06           -1e-13                -9e-13                2.3502e-06           
  -1.1                  -2.3784e-06           -1.8e-13              -9e-13                2.3802e-06           
  -1.15                 -2.4078e-06           -1.4e-13              -8.2e-13              2.4118e-06           
  -1.2                  -2.439e-06            -1.4e-13              -8.4e-13              2.4412e-06           
  -1.25                 -2.4692e-06           -2e-13                -5.2e-13              2.4712e-06           
  -1.3                  -2.499e-06            -1.8e-13              -1.6e-13              2.503e-06            
  -1.35                 -2.5294e-06           -4e-14                2.2e-13               2.5308e-06           
END_DB

