! VERSION = 6.00
BEGIN_HEADER
 ICCAP_INPUTS
  vd         V  D GROUND SMU1 0.1 LIN        1    -0         -1.35      28   -0.05     
  vg         V  G GROUND SMU2 0.001 LIN        2    -0.582     -1.35      5    -0.192    
  vb         V  B GROUND SMU4 0.1 CON        1.2
  vs         V  S GROUND SMU3 0.1 CON        -0
 ICCAP_OUTPUTS
  id         I  D GROUND SMU1 B
  ig         I  G GROUND SMU2 B
  ib         I  B GROUND SMU4 B
  is         I  S GROUND SMU3 B
 ICCAP_VALUES
  MASTER_SETUP_TYPE "~dc_idvd~"
  LINVT_VALUE "|idvg|100.0n|100.0m|1.000m|5|1.350|"
  LISTVT_VALUE ""
  TYPE "-1"
  TEMP " 125.000 "
  IS_TNOM " 0.00000 "
  MAIN.W "10.00u"
  MAIN.L "180.0n"
  MAIN.AD "3.400p"
  MAIN.AS "3.400p"
  MAIN.PD "20.68u"
  MAIN.PS "20.68u"
  MAIN.NF "1.000"
  MAIN.M "1"
  MAIN.NRD "0.000"
  MAIN.NRS "0.000"
  MAIN.LDRIFT1 "1E-06"
  MAIN.LDRIFT2 "1E-06"
  MAIN.SA "0.000"
  MAIN.SB "0.000"
  MAIN.SD "0.000"
  MAIN.SCA "0.000"
  MAIN.SCB "0.000"
  MAIN.SCC "0.000"
  MAIN.SC "0.000"
  MODULE "S548"
  PIN_D "12"
  PIN_G "9"
  PIN_S "10"
  PIN_B "11"
  PIN_E ""
  PIN_6 ""
  XY_ID ""
  FUNC "L Scale"
  STI "SA ref"
  WPE "WPE ref"
  COMMENT ""
  DIS_MEAS ""
  TypeTCI "10"
END_HEADER

BEGIN_DB
 ICCAP_VAR vg         -0.582         
 ICCAP_VAR vb         1.2            
 ICCAP_VAR vs         -0             

 #vd                    id                    ig                    ib                    is                   
  -0                    1.845e-08             -8.94e-12             6.6e-11               -2.1148e-08          
  -0.05                 -1.2378e-05           -7.62e-12             5.304e-11             1.2386e-05           
  -0.1                  -1.9256e-05           -6.72e-12             4.946e-11             1.9262e-05           
  -0.15                 -2.2852e-05           -6.04e-12             4.68e-11              2.286e-05            
  -0.2                  -2.4816e-05           -5.6e-12              4.412e-11             2.482e-05            
  -0.25                 -2.608e-05            -5.3e-12              4.198e-11             2.6102e-05           
  -0.3                  -2.7084e-05           -5.3e-12              3.902e-11             2.7096e-05           
  -0.35                 -2.7942e-05           -5.06e-12             3.772e-11             2.7934e-05           
  -0.4                  -2.8724e-05           -4.86e-12             3.666e-11             2.8728e-05           
  -0.45                 -2.9454e-05           -4.84e-12             3.492e-11             2.946e-05            
  -0.5                  -3.016e-05            -4.86e-12             3.322e-11             3.017e-05            
  -0.55                 -3.0836e-05           -4.7e-12              3.244e-11             3.0846e-05           
  -0.6                  -3.1524e-05           -4.66e-12             3.13e-11              3.154e-05            
  -0.65                 -3.2186e-05           -4.78e-12             3.036e-11             3.218e-05            
  -0.7                  -3.2786e-05           -4.5e-12              2.928e-11             3.279e-05            
  -0.75                 -3.3422e-05           -4.48e-12             2.858e-11             3.344e-05            
  -0.8                  -3.4034e-05           -4.36e-12             2.826e-11             3.4046e-05           
  -0.85                 -3.464e-05            -4.34e-12             2.732e-11             3.4672e-05           
  -0.9                  -3.5254e-05           -4.1e-12              2.642e-11             3.525e-05            
  -0.95                 -3.5848e-05           -3.9e-12              2.628e-11             3.5858e-05           
  -1                    -3.6394e-05           -3.58e-12             2.616e-11             3.6438e-05           
  -1.05                 -3.6988e-05           -3.26e-12             2.644e-11             3.6992e-05           
  -1.1                  -3.7578e-05           -3.02e-12             2.862e-11             3.7564e-05           
  -1.15                 -3.8168e-05           -2.76e-12             3.236e-11             3.8198e-05           
  -1.2                  -3.8748e-05           -2.28e-12             4.026e-11             3.8738e-05           
  -1.25                 -3.9308e-05           -1.78e-12             5.394e-11             3.932e-05            
  -1.3                  -3.9856e-05           -1.3e-12              7.768e-11             3.9844e-05           
  -1.35                 -4.0412e-05           -4.6e-13              1.1808e-10            4.0408e-05           
END_DB

BEGIN_DB
 ICCAP_VAR vg         -0.774         
 ICCAP_VAR vb         1.2            
 ICCAP_VAR vs         -0             

 #vd                    id                    ig                    ib                    is                   
  -0                    6.4782e-08            -2.918e-11            1.678e-11             -5.893e-08           
  -0.05                 -4.1748e-05           -2.55e-11             1.674e-11             4.1756e-05           
  -0.1                  -7.4636e-05           -2.268e-11            1.602e-11             7.4654e-05           
  -0.15                 -9.93e-05             -2.032e-11            1.614e-11             9.9288e-05           
  -0.2                  -0.00011678           -1.862e-11            1.618e-11             0.00011704           
  -0.25                 -0.00012896           -1.742e-11            1.628e-11             0.00012922           
  -0.3                  -0.00013738           -1.65e-11             1.586e-11             0.0001376            
  -0.35                 -0.00014342           -1.578e-11            1.584e-11             0.0001438            
  -0.4                  -0.00014824           -1.54e-11             1.594e-11             0.00014852           
  -0.45                 -0.00015226           -1.518e-11            1.512e-11             0.00015256           
  -0.5                  -0.00015572           -1.482e-11            1.56e-11              0.00015602           
  -0.55                 -0.00015884           -1.458e-11            1.524e-11             0.0001591            
  -0.6                  -0.00016176           -1.446e-11            1.552e-11             0.00016208           
  -0.65                 -0.00016454           -1.432e-11            1.48e-11              0.00016486           
  -0.7                  -0.00016736           -1.426e-11            1.496e-11             0.0001676            
  -0.75                 -0.0001699            -1.398e-11            1.532e-11             0.00017012           
  -0.8                  -0.00017216           -1.398e-11            1.48e-11              0.0001726            
  -0.85                 -0.00017484           -1.376e-11            1.426e-11             0.00017508           
  -0.9                  -0.0001772            -1.364e-11            1.464e-11             0.00017758           
  -0.95                 -0.0001797            -1.356e-11            1.444e-11             0.00017996           
  -1                    -0.000182             -1.338e-11            1.418e-11             0.00018232           
  -1.05                 -0.0001843            -1.324e-11            1.614e-11             0.00018454           
  -1.1                  -0.00018662           -1.304e-11            1.654e-11             0.0001868            
  -1.15                 -0.00018882           -1.28e-11             1.954e-11             0.000189             
  -1.2                  -0.00019092           -1.24e-11             2.548e-11             0.00019134           
  -1.25                 -0.00019324           -1.22e-11             3.682e-11             0.00019362           
  -1.3                  -0.00019536           -1.19e-11             5.894e-11             0.00019576           
  -1.35                 -0.0001975            -1.134e-11            1.0084e-10            0.00019782           
END_DB

BEGIN_DB
 ICCAP_VAR vg         -0.966         
 ICCAP_VAR vb         1.2            
 ICCAP_VAR vs         -0             

 #vd                    id                    ig                    ib                    is                   
  -0                    9.8524e-08            -7.348e-11            1.206e-11             -9.1504e-08          
  -0.05                 -7.2388e-05           -6.682e-11            1.2e-11               7.2378e-05           
  -0.1                  -0.00013614           -6.058e-11            1.162e-11             0.00013644           
  -0.15                 -0.00019128           -5.512e-11            1.132e-11             0.00019162           
  -0.2                  -0.0002379            -5.076e-11            1.156e-11             0.00023816           
  -0.25                 -0.00027618           -4.69e-11             1.138e-11             0.0002766            
  -0.3                  -0.00030686           -4.412e-11            1.142e-11             0.0003072            
  -0.35                 -0.00033098           -4.162e-11            1.182e-11             0.00033138           
  -0.4                  -0.00034992           -3.986e-11            1.188e-11             0.00035008           
  -0.45                 -0.00036432           -3.858e-11            1.142e-11             0.00036464           
  -0.5                  -0.000376             -3.762e-11            1.15e-11              0.0003763            
  -0.55                 -0.00038546           -3.656e-11            1.158e-11             0.0003858            
  -0.6                  -0.0003935            -3.608e-11            1.158e-11             0.00039404           
  -0.65                 -0.00040092           -3.558e-11            1.152e-11             0.00040122           
  -0.7                  -0.0004076            -3.502e-11            1.146e-11             0.00040798           
  -0.75                 -0.00041386           -3.484e-11            1.118e-11             0.0004139            
  -0.8                  -0.00041934           -3.448e-11            1.116e-11             0.00041966           
  -0.85                 -0.00042492           -3.414e-11            1.106e-11             0.00042514           
  -0.9                  -0.00043028           -3.394e-11            1.156e-11             0.00043046           
  -0.95                 -0.00043514           -3.376e-11            1.108e-11             0.00043528           
  -1                    -0.00044024           -3.356e-11            1.14e-11              0.00044052           
  -1.05                 -0.00044512           -3.324e-11            1.17e-11              0.00044542           
  -1.1                  -0.00044996           -3.308e-11            1.232e-11             0.00045012           
  -1.15                 -0.00045432           -3.284e-11            1.296e-11             0.00045466           
  -1.2                  -0.00045906           -3.24e-11             1.578e-11             0.00045952           
  -1.25                 -0.00046356           -3.242e-11            2.06e-11              0.00046404           
  -1.3                  -0.000468             -3.228e-11            3.064e-11             0.00046838           
  -1.35                 -0.00047242           -3.16e-11             5.098e-11             0.0004726            
END_DB

BEGIN_DB
 ICCAP_VAR vg         -1.158         
 ICCAP_VAR vb         1.2            
 ICCAP_VAR vs         -0             

 #vd                    id                    ig                    ib                    is                   
  -0                    1.15008e-07           -1.6138e-10           1.044e-11             -1.15508e-07         
  -0.05                 -9.922e-05            -1.4788e-10           1.014e-11             9.9254e-05           
  -0.1                  -0.00019084           -1.361e-10            1.004e-11             0.00019106           
  -0.15                 -0.00027468           -1.2566e-10           9.84e-12              0.00027496           
  -0.2                  -0.00035032           -1.1648e-10           9.96e-12              0.00035082           
  -0.25                 -0.00041788           -1.0844e-10           1e-11                 0.00041832           
  -0.3                  -0.00047758           -1.016e-10            9.96e-12              0.00047792           
  -0.35                 -0.00052884           -9.58e-11             9.94e-12              0.00052934           
  -0.4                  -0.0005726            -9.118e-11            1.02e-11              0.000573             
  -0.45                 -0.0006091            -8.688e-11            9.7e-12               0.00060978           
  -0.5                  -0.00063972           -8.366e-11            9.96e-12              0.00063996           
  -0.55                 -0.00066486           -8.09e-11             1.026e-11             0.00066526           
  -0.6                  -0.00068536           -7.878e-11            1.054e-11             0.00068576           
  -0.65                 -0.00070272           -7.728e-11            9.88e-12              0.00070312           
  -0.7                  -0.0007175            -7.584e-11            9.88e-12              0.00071806           
  -0.75                 -0.00073046           -7.478e-11            1.034e-11             0.00073062           
  -0.8                  -0.00074174           -7.376e-11            9.88e-12              0.00074218           
  -0.85                 -0.00075246           -7.304e-11            9.64e-12              0.0007526            
  -0.9                  -0.00076186           -7.224e-11            9.82e-12              0.00076224           
  -0.95                 -0.00077106           -7.168e-11            9.72e-12              0.00077144           
  -1                    -0.00077964           -7.112e-11            1.02e-11              0.00077998           
  -1.05                 -0.0007877            -7.072e-11            9.92e-12              0.000788             
  -1.1                  -0.00079568           -7.018e-11            1.012e-11             0.00079588           
  -1.15                 -0.00080302           -6.992e-11            1.082e-11             0.0008032            
  -1.2                  -0.00081046           -6.964e-11            1.092e-11             0.00081118           
  -1.25                 -0.00081808           -6.898e-11            1.26e-11              0.00081798           
  -1.3                  -0.000825             -6.876e-11            1.638e-11             0.00082542           
  -1.35                 -0.00083212           -6.826e-11            2.44e-11              0.0008326            
END_DB

BEGIN_DB
 ICCAP_VAR vg         -1.35          
 ICCAP_VAR vb         1.2            
 ICCAP_VAR vs         -0             

 #vd                    id                    ig                    ib                    is                   
  -0                    3.1538e-07            -3.1256e-10           1.402e-11             -1.474e-07           
  -0.05                 -0.00012168           -2.9e-10              1.27e-11              0.000122             
  -0.1                  -0.0002371            -2.6964e-10           1.2e-11               0.00023736           
  -0.15                 -0.00034556           -2.5214e-10           1.142e-11             0.0003459            
  -0.2                  -0.0004468            -2.3622e-10           1.114e-11             0.00044724           
  -0.25                 -0.00054076           -2.2148e-10           1.08e-11              0.00054116           
  -0.3                  -0.00062688           -2.0802e-10           1.042e-11             0.00062742           
  -0.35                 -0.00070572           -1.9592e-10           1.036e-11             0.000706             
  -0.4                  -0.00077684           -1.8628e-10           1.05e-11              0.00077712           
  -0.45                 -0.0008395            -1.7738e-10           1.024e-11             0.00084016           
  -0.5                  -0.0008956            -1.6998e-10           1.018e-11             0.00089586           
  -0.55                 -0.00094376           -1.6314e-10           1.038e-11             0.00094452           
  -0.6                  -0.0009857            -1.582e-10            1.028e-11             0.0009858            
  -0.65                 -0.0010214            -1.5428e-10           1.006e-11             0.00102204           
  -0.7                  -0.00105198           -1.4992e-10           1.032e-11             0.0010523            
  -0.75                 -0.00107796           -1.468e-10            9.96e-12              0.00107876           
  -0.8                  -0.00110112           -1.4406e-10           9.7e-12               0.0011018            
  -0.85                 -0.00112086           -1.4176e-10           1.024e-11             0.00112104           
  -0.9                  -0.00113818           -1.403e-10            9.5e-12               0.00113844           
  -0.95                 -0.0011536            -1.387e-10            9.9e-12               0.0011542            
  -1                    -0.0011674            -1.3746e-10           1.04e-11              0.0011684            
  -1.05                 -0.001181             -1.3636e-10           9.94e-12              0.001182             
  -1.1                  -0.0011934            -1.3514e-10           1.06e-11              0.001194             
  -1.15                 -0.001205             -1.3484e-10           1.022e-11             0.0012058            
  -1.2                  -0.0012166            -1.3348e-10           1.04e-11              0.001217             
  -1.25                 -0.001227             -1.3266e-10           1.072e-11             0.0012274            
  -1.3                  -0.0012372            -1.3172e-10           1.24e-11              0.0012376            
  -1.35                 -0.0012476            -1.3128e-10           1.476e-11             0.0012484            
END_DB

