! VERSION = 6.00
BEGIN_HEADER
 ICCAP_INPUTS
  vg         V  G GROUND SMU2 0.001 LIN        1    0.5        -1.35      38   -0.05     
  vb         V  B GROUND SMU4 0.1 LIN        2    0          1.2        7    0.2       
  vd         V  D GROUND SMU1 0.1 LIST       3 3 -0.05 -0.6 -1.2
  vs         V  S GROUND SMU3 0.1 CON        -0
 ICCAP_OUTPUTS
  id         I  D GROUND SMU1 B
  ig         I  G GROUND SMU2 B
  ib         I  B GROUND SMU4 B
  is         I  S GROUND SMU3 B
 ICCAP_VALUES
  MASTER_SETUP_TYPE "~dc_idvg~"
  LINVT_VALUE ""
  LISTVT_VALUE ""
  TYPE "-1"
  TEMP " 27.0000 "
  IS_TNOM " 1.00000 "
  MAIN.W "10.00u"
  MAIN.L "10.00u"
  MAIN.AD "3.400p"
  MAIN.AS "3.400p"
  MAIN.PD "20.68u"
  MAIN.PS "20.68u"
  MAIN.NF "1.000"
  MAIN.M "1"
  MAIN.NRD "0.000"
  MAIN.NRS "0.000"
  MAIN.LDRIFT1 "1E-06"
  MAIN.LDRIFT2 "1E-06"
  MAIN.SA "0.000"
  MAIN.SB "0.000"
  MAIN.SD "0.000"
  MAIN.SCA "0.000"
  MAIN.SCB "0.000"
  MAIN.SCC "0.000"
  MAIN.SC "0.000"
  MODULE "S549"
  PIN_D "12"
  PIN_G "9"
  PIN_S "10"
  PIN_B "11"
  PIN_E ""
  PIN_6 ""
  XY_ID ""
  FUNC "Large"
  STI "SA ref"
  WPE "WPE ref"
  COMMENT ""
  DIS_MEAS ""
  TypeTCI "10"
END_HEADER

BEGIN_DB
 ICCAP_VAR vb         0              
 ICCAP_VAR vd         -0.05          
 ICCAP_VAR vs         -0             

 #vg                    id                    ig                    ib                    is                   
  0.5                   -2.06e-12             2.362e-11             -6.74e-12             -1.84e-12            
  0.45                  -1.72e-12             6.52e-12              -2.68e-12             -1.56e-12            
  0.4                   -1.26e-12             3.18e-12              -1.66e-12             -9.6e-13             
  0.35                  -1e-12                2.02e-12              -1.4e-12              -8.8e-13             
  0.3                   -8.2e-13              1.3e-12               -1.26e-12             -4.2e-13             
  0.25                  -4.8e-13              8.2e-13               -1.16e-12             -2.8e-13             
  0.2                   -5e-13                5.2e-13               -1.2e-12              -2.8e-13             
  0.15                  -4e-13                0                     -1e-12                8e-14                
  0.1                   -2.6e-13              -4e-14                -1.02e-12             1.4e-13              
  0.05                  -7.4e-13              -2.6e-13              -1.1e-12              6.4e-13              
  0                     -2.96e-12             -4e-13                -1.02e-12             2.98e-12             
  -0.05                 -1.392e-11            -3.6e-13              -1.12e-12             1.392e-11            
  -0.1                  -6.858e-11            -5.6e-13              -1.08e-12             6.86e-11             
  -0.15                 -3.3788e-10           -8.6e-13              -1e-12                3.3816e-10           
  -0.2                  -1.6542e-09           -1.12e-12             -1e-12                1.6554e-09           
  -0.25                 -7.7854e-09           -2.52e-12             -9.6e-13              7.7874e-09           
  -0.3                  -3.177e-08            -6.66e-12             -1.12e-12             3.1796e-08           
  -0.35                 -9.8932e-08           -1.73e-11             -1e-12                9.8972e-08           
  -0.4                  -2.274e-07            -3.818e-11            -1.04e-12             2.2754e-07           
  -0.45                 -4.0884e-07           -7.294e-11            -1.02e-12             4.0904e-07           
  -0.5                  -6.23e-07             -1.2652e-10           -9.6e-13              6.233e-07            
  -0.55                 -8.5198e-07           -2.0358e-10           -1e-12                8.523e-07            
  -0.6                  -1.08572e-06          -3.107e-10            -9e-13                1.08614e-06          
  -0.65                 -1.316e-06            -4.5496e-10           -9.6e-13              1.32e-06             
  -0.7                  -1.5428e-06           -6.4456e-10           -9.4e-13              1.547e-06            
  -0.75                 -1.7622e-06           -8.8722e-10           -9.8e-13              1.7664e-06           
  -0.8                  -1.9738e-06           -1.1934e-09           -8.6e-13              1.9784e-06           
  -0.85                 -2.1766e-06           -1.5744e-09           -9.2e-13              2.1816e-06           
  -0.9                  -2.3706e-06           -2.0378e-09           -1.04e-12             2.3758e-06           
  -0.95                 -2.555e-06            -2.5948e-09           -9e-13                2.5608e-06           
  -1                    -2.7306e-06           -3.2594e-09           -9.4e-13              2.7372e-06           
  -1.05                 -2.8972e-06           -4.039e-09            -7.4e-13              2.9046e-06           
  -1.1                  -3.0556e-06           -4.949e-09            -3.6e-13              3.0638e-06           
  -1.15                 -3.2054e-06           -5.9996e-09           7.8e-13               3.2148e-06           
  -1.2                  -3.3472e-06           -7.2054e-09           4.32e-12              3.3578e-06           
  -1.25                 -3.4818e-06           -8.5858e-09           1.218e-11             3.4936e-06           
  -1.3                  -3.6084e-06           -1.01456e-08          2.94e-11              3.6218e-06           
  -1.35                 -3.7284e-06           -1.1912e-08           6.368e-11             3.7434e-06           
END_DB

BEGIN_DB
 ICCAP_VAR vb         0.2            
 ICCAP_VAR vd         -0.05          
 ICCAP_VAR vs         -0             

 #vg                    id                    ig                    ib                    is                   
  0.5                   -2.02e-12             4.22e-12              -4e-14                -1.92e-12            
  0.45                  -1.66e-12             3.12e-12              -1.4e-13              -1.3e-12             
  0.4                   -1.28e-12             2.32e-12              6e-14                 -1.12e-12            
  0.35                  -8.2e-13              1.88e-12              0                     -8.2e-13             
  0.3                   -7.6e-13              1.22e-12              -4e-14                -5.8e-13             
  0.25                  -5.4e-13              8e-13                 0                     -3.8e-13             
  0.2                   -3.4e-13              3.8e-13               -4e-14                -2.2e-13             
  0.15                  -3.2e-13              2.2e-13               0                     -8e-14               
  0.1                   -1.8e-13              -4e-14                -8e-14                -2e-14               
  0.05                  -3.8e-13              -1.6e-13              0                     2.2e-13              
  0                     -8.4e-13              -4e-13                -6e-14                9.2e-13              
  -0.05                 -3.92e-12             -5.2e-13              0                     3.94e-12             
  -0.1                  -1.932e-11            -4.8e-13              -1.2e-13              1.942e-11            
  -0.15                 -9.786e-11            -7.6e-13              -8e-14                9.808e-11            
  -0.2                  -4.9652e-10           -1.04e-12             -6e-14                4.9716e-10           
  -0.25                 -2.4902e-09           -1.88e-12             8e-14                 2.492e-09            
  -0.3                  -1.1638e-08           -4.36e-12             -8e-14                1.1664e-08           
  -0.35                 -4.4842e-08           -1.214e-11            2e-14                 4.4878e-08           
  -0.4                  -1.2772e-07           -2.946e-11            -4e-14                1.2788e-07           
  -0.45                 -2.698e-07            -6.116e-11            -1.2e-13              2.7e-07              
  -0.5                  -4.5734e-07           -1.114e-10            4e-14                 4.5756e-07           
  -0.55                 -6.6982e-07           -1.8534e-10           -2e-14                6.7018e-07           
  -0.6                  -8.9338e-07           -2.8952e-10           -1.8e-13              8.9382e-07           
  -0.65                 -1.1189e-06           -4.3084e-10           -2e-14                1.11942e-06          
  -0.7                  -1.3402e-06           -6.1696e-10           0                     1.3442e-06           
  -0.75                 -1.557e-06            -8.5614e-10           2e-14                 1.5612e-06           
  -0.8                  -1.767e-06            -1.1594e-09           -1.8e-13              1.7716e-06           
  -0.85                 -1.9692e-06           -1.5344e-09           4e-14                 1.974e-06            
  -0.9                  -2.1628e-06           -1.9944e-09           -1.4e-13              2.1682e-06           
  -0.95                 -2.3474e-06           -2.5472e-09           -1.2e-13              2.3534e-06           
  -1                    -2.5236e-06           -3.208e-09            4e-14                 2.5302e-06           
  -1.05                 -2.6908e-06           -3.9814e-09           1.4e-13               2.6982e-06           
  -1.1                  -2.85e-06             -4.8886e-09           5.2e-13               2.858e-06            
  -1.15                 -3.0008e-06           -5.9358e-09           1.92e-12              3.01e-06             
  -1.2                  -3.1436e-06           -7.1368e-09           5.16e-12              3.154e-06            
  -1.25                 -3.2792e-06           -8.5102e-09           1.324e-11             3.2908e-06           
  -1.3                  -3.4072e-06           -1.00724e-08          3.06e-11              3.4204e-06           
  -1.35                 -3.5284e-06           -1.1826e-08           6.462e-11             3.5432e-06           
END_DB

BEGIN_DB
 ICCAP_VAR vb         0.4            
 ICCAP_VAR vd         -0.05          
 ICCAP_VAR vs         -0             

 #vg                    id                    ig                    ib                    is                   
  0.5                   -1.98e-12             4.04e-12              -4e-14                -1.62e-12            
  0.45                  -1.62e-12             2.94e-12              -1.2e-13              -1.26e-12            
  0.4                   -1.3e-12              2.16e-12              1.8e-13               -9.4e-13             
  0.35                  -8.4e-13              1.72e-12              0                     -8.2e-13             
  0.3                   -6.8e-13              1.02e-12              0                     -4e-13               
  0.25                  -5.8e-13              6.6e-13               -6e-14                -3.4e-13             
  0.2                   -4e-13                4.6e-13               8e-14                 -2.4e-13             
  0.15                  -1.2e-13              0                     -1.8e-13              0                    
  0.1                   -3e-13                0                     0                     -1.2e-13             
  0.05                  -8e-14                -1.6e-13              6e-14                 1e-13                
  0                     -2.4e-13              -1.6e-13              -1.6e-13              4e-13                
  -0.05                 -1.3e-12              -3.6e-13              -2e-14                1.08e-12             
  -0.1                  -5.86e-12             -4.6e-13              1.4e-13               5.92e-12             
  -0.15                 -3.098e-11            -6e-13                2e-14                 3.122e-11            
  -0.2                  -1.6066e-10           -9.8e-13              2e-14                 1.613e-10            
  -0.25                 -8.347e-10            -1.48e-12             -1e-13                8.3554e-10           
  -0.3                  -4.205e-09            -2.98e-12             1.2e-13               4.207e-09            
  -0.35                 -1.8882e-08           -8.12e-12             -6e-14                1.8912e-08           
  -0.4                  -6.6238e-08           -2.176e-11            4e-14                 6.6276e-08           
  -0.45                 -1.6816e-07           -4.918e-11            -1e-13                1.6834e-07           
  -0.5                  -3.2456e-07           -9.584e-11            1e-13                 3.2478e-07           
  -0.55                 -5.1684e-07           -1.6622e-10           6e-14                 5.1718e-07           
  -0.6                  -7.2784e-07           -2.6698e-10           4e-14                 7.2824e-07           
  -0.65                 -9.4562e-07           -4.0458e-10           -1.8e-13              9.462e-07            
  -0.7                  -1.162e-06            -5.8706e-10           -4e-14                1.1662e-06           
  -0.75                 -1.3758e-06           -8.2268e-10           -1.8e-13              1.38e-06             
  -0.8                  -1.584e-06            -1.1206e-09           -4e-14                1.5884e-06           
  -0.85                 -1.7848e-06           -1.4928e-09           -6e-14                1.7898e-06           
  -0.9                  -1.9778e-06           -1.9472e-09           -1.4e-13              1.9832e-06           
  -0.95                 -2.1624e-06           -2.4976e-09           0                     2.1682e-06           
  -1                    -2.3384e-06           -3.152e-09            4e-14                 2.345e-06            
  -1.05                 -2.5062e-06           -3.9218e-09           2.8e-13               2.5134e-06           
  -1.1                  -2.6658e-06           -4.8228e-09           6.6e-13               2.674e-06            
  -1.15                 -2.8172e-06           -5.8662e-09           1.98e-12              2.8266e-06           
  -1.2                  -2.9608e-06           -7.066e-09            5.34e-12              2.9714e-06           
  -1.25                 -3.0976e-06           -8.4346e-09           1.338e-11             3.1092e-06           
  -1.3                  -3.2264e-06           -9.9862e-09           3.082e-11             3.2396e-06           
  -1.35                 -3.3484e-06           -1.174e-08            6.5e-11               3.3634e-06           
END_DB

BEGIN_DB
 ICCAP_VAR vb         0.6            
 ICCAP_VAR vd         -0.05          
 ICCAP_VAR vs         -0             

 #vg                    id                    ig                    ib                    is                   
  0.5                   -2e-12                4.12e-12              -4e-14                -1.78e-12            
  0.45                  -1.54e-12             3e-12                 -6e-14                -1.28e-12            
  0.4                   -1.2e-12              2.32e-12              6e-14                 -1.22e-12            
  0.35                  -8.4e-13              1.66e-12              8e-14                 -6.4e-13             
  0.3                   -7.6e-13              1.24e-12              -6e-14                -7e-13               
  0.25                  -5e-13                7e-13                 -6e-14                -3.6e-13             
  0.2                   -4.8e-13              4.8e-13               0                     -1.8e-13             
  0.15                  -1e-13                2.4e-13               8e-14                 -3e-13               
  0.1                   -6e-14                -1.2e-13              -4e-14                -6e-14               
  0.05                  -1.4e-13              -6e-14                -4e-14                2e-14                
  0                     0                     -3.2e-13              4e-14                 1e-13                
  -0.05                 -3.6e-13              -4.2e-13              -2e-14                5.6e-13              
  -0.1                  -2.04e-12             -5.2e-13              0                     2.12e-12             
  -0.15                 -1.05e-11             -8e-13                -4e-14                1.096e-11            
  -0.2                  -5.542e-11            -9.6e-13              -4e-14                5.594e-11            
  -0.25                 -2.9408e-10           -1.46e-12             -1.2e-13              2.949e-10            
  -0.3                  -1.5406e-09           -2.38e-12             4e-14                 1.5436e-09           
  -0.35                 -7.6176e-09           -5.56e-12             -6e-14                7.6224e-09           
  -0.4                  -3.1778e-08           -1.534e-11            2e-14                 3.1812e-08           
  -0.45                 -9.8002e-08           -3.814e-11            -4e-14                9.8054e-08           
  -0.5                  -2.2038e-07           -8.02e-11             -1e-13                2.2058e-07           
  -0.55                 -3.8872e-07           -1.4636e-10           6e-14                 3.8896e-07           
  -0.6                  -5.8456e-07           -2.4326e-10           -2e-14                5.8494e-07           
  -0.65                 -7.9294e-07           -3.77e-10             -6e-14                7.9344e-07           
  -0.7                  -1.005e-06            -5.553e-10            -2e-14                1.00566e-06          
  -0.75                 -1.2136e-06           -7.8714e-10           -2e-14                1.2176e-06           
  -0.8                  -1.4192e-06           -1.0806e-09           0                     1.4236e-06           
  -0.85                 -1.6184e-06           -1.448e-09            -6e-14                1.6234e-06           
  -0.9                  -1.8106e-06           -1.8988e-09           -2e-14                1.8158e-06           
  -0.95                 -1.9946e-06           -2.4444e-09           0                     2.0004e-06           
  -1                    -2.171e-06            -3.0936e-09           2e-13                 2.1774e-06           
  -1.05                 -2.3388e-06           -3.8604e-09           2.2e-13               2.346e-06            
  -1.1                  -2.4988e-06           -4.757e-09            6.4e-13               2.507e-06            
  -1.15                 -2.651e-06            -5.7926e-09           1.92e-12              2.6602e-06           
  -1.2                  -2.7952e-06           -6.9902e-09           5.32e-12              2.8054e-06           
  -1.25                 -2.9322e-06           -8.3562e-09           1.358e-11             2.944e-06            
  -1.3                  -3.062e-06            -9.8992e-09           3.086e-11             3.0752e-06           
  -1.35                 -3.185e-06            -1.1658e-08           6.514e-11             3.1998e-06           
END_DB

BEGIN_DB
 ICCAP_VAR vb         0.8            
 ICCAP_VAR vd         -0.05          
 ICCAP_VAR vs         -0             

 #vg                    id                    ig                    ib                    is                   
  0.5                   -2.02e-12             4.08e-12              6e-14                 -1.7e-12             
  0.45                  -1.44e-12             2.98e-12              0                     -1.36e-12            
  0.4                   -1.18e-12             2.28e-12              1.2e-13               -1.04e-12            
  0.35                  -7.6e-13              1.58e-12              8e-14                 -4.4e-13             
  0.3                   -7.6e-13              1.22e-12              -4e-14                -6.8e-13             
