! VERSION = 6.00
BEGIN_HEADER
 ICCAP_INPUTS
  vd         V  D GROUND SMU1 0.1 LIN        1    -0         -1.35      28   -0.05     
  vg         V  G GROUND SMU2 0.001 LIST       2 3 -0.114 -0.314 -0.514
  vb         V  B GROUND SMU4 0.1 CON        -0
  vs         V  S GROUND SMU3 0.1 CON        -0
 ICCAP_OUTPUTS
  id         I  D GROUND SMU1 B
  ig         I  G GROUND SMU2 B
  ib         I  B GROUND SMU4 B
  is         I  S GROUND SMU3 B
 ICCAP_VALUES
  MASTER_SETUP_TYPE "~dc_idvd~"
  LINVT_VALUE ""
  LISTVT_VALUE "|idvg|100.0n|-200.0m|1.000m|3|200.0m|200.0m|"
  TYPE "-1"
  TEMP " 27.0000 "
  IS_TNOM " 1.00000 "
  MAIN.W "300.0n"
  MAIN.L "10.00u"
  MAIN.AD "102.0f"
  MAIN.AS "102.0f"
  MAIN.PD "1.280u"
  MAIN.PS "1.280u"
  MAIN.NF "1.000"
  MAIN.M "1"
  MAIN.NRD "0.000"
  MAIN.NRS "0.000"
  MAIN.LDRIFT1 "1E-06"
  MAIN.LDRIFT2 "1E-06"
  MAIN.SA "0.000"
  MAIN.SB "0.000"
  MAIN.SD "0.000"
  MAIN.SCA "0.000"
  MAIN.SCB "0.000"
  MAIN.SCC "0.000"
  MAIN.SC "0.000"
  MODULE "S553"
  PIN_D "18"
  PIN_G "3"
  PIN_S "4"
  PIN_B "17"
  PIN_E ""
  PIN_6 ""
  XY_ID ""
  FUNC "W Scale"
  STI "SA ref"
  WPE "WPE ref"
  COMMENT ""
  DIS_MEAS ""
  TypeTCI "10"
END_HEADER

BEGIN_DB
 ICCAP_VAR vg         -0.114         
 ICCAP_VAR vb         -0             
 ICCAP_VAR vs         -0             

 #vd                    id                    ig                    ib                    is                   
  -0                    2e-13                 2.6e-13               -1.14e-12             1e-13                
  -0.05                 -6.84e-12             2.8e-13               -1.18e-12             6.82e-12             
  -0.1                  -7.9e-12              8e-14                 -1.16e-12             7.84e-12             
  -0.15                 -8.1e-12              2.4e-13               -1.26e-12             8.08e-12             
  -0.2                  -8.18e-12             8e-14                 -1.22e-12             8.12e-12             
  -0.25                 -8.32e-12             1.4e-13               -1.14e-12             7.98e-12             
  -0.3                  -8.36e-12             2.2e-13               -1.18e-12             8.2e-12              
  -0.35                 -8.48e-12             1.8e-13               -1.2e-12              8.16e-12             
  -0.4                  -8.34e-12             1.8e-13               -1.04e-12             8.08e-12             
  -0.45                 -8.48e-12             8e-14                 -1.12e-12             8.14e-12             
  -0.5                  -8.58e-12             1.4e-13               -1.06e-12             8.16e-12             
  -0.55                 -8.64e-12             2e-13                 -1.16e-12             8.18e-12             
  -0.6                  -8.6e-12              1.2e-13               -1e-12                8.14e-12             
  -0.65                 -8.64e-12             2.6e-13               -9.8e-13              8.16e-12             
  -0.7                  -8.48e-12             6e-14                 -1.02e-12             8.3e-12              
  -0.75                 -8.84e-12             2.4e-13               -9.6e-13              8.2e-12              
  -0.8                  -8.62e-12             1.4e-13               -1.1e-12              8.22e-12             
  -0.85                 -8.64e-12             1.8e-13               -9.8e-13              8.26e-12             
  -0.9                  -8.8e-12              1.6e-13               -1.14e-12             8.16e-12             
  -0.95                 -8.78e-12             1.4e-13               -1.16e-12             8.46e-12             
  -1                    -8.96e-12             1.4e-13               -1.12e-12             8.12e-12             
  -1.05                 -8.82e-12             2.8e-13               -1.12e-12             8.28e-12             
  -1.1                  -8.88e-12             2.6e-13               -1.14e-12             8.42e-12             
  -1.15                 -9.02e-12             3.2e-13               -1e-12                8.3e-12              
  -1.2                  -9e-12                2.6e-13               -1.16e-12             8.4e-12              
  -1.25                 -9.12e-12             1.8e-13               -9.2e-13              8.18e-12             
  -1.3                  -9.04e-12             4.6e-13               -1.12e-12             8.3e-12              
  -1.35                 -9.2e-12              2.8e-13               -8.4e-13              8.1e-12              
END_DB

BEGIN_DB
 ICCAP_VAR vg         -0.314         
 ICCAP_VAR vb         -0             
 ICCAP_VAR vs         -0             

 #vd                    id                    ig                    ib                    is                   
  -0                    6.7e-12               -5.6e-13              -1.04e-12             -5.76e-12            
  -0.05                 -2.5302e-09           -3e-13                -1.06e-12             2.5316e-09           
  -0.1                  -3.0962e-09           -3e-13                -9.6e-13              3.0962e-09           
  -0.15                 -3.2036e-09           -3e-13                -1.08e-12             3.2058e-09           
  -0.2                  -3.234e-09            -2.8e-13              -9e-13                3.2346e-09           
  -0.25                 -3.2484e-09           -2.4e-13              -1.02e-12             3.2494e-09           
  -0.3                  -3.259e-09            -2e-13                -1e-12                3.2596e-09           
  -0.35                 -3.2676e-09           -2.2e-13              -9e-13                3.2674e-09           
  -0.4                  -3.2732e-09           -2.8e-13              -1.02e-12             3.2746e-09           
  -0.45                 -3.281e-09            -3.8e-13              -1e-12                3.2826e-09           
  -0.5                  -3.2876e-09           -2.6e-13              -1e-12                3.2874e-09           
  -0.55                 -3.2934e-09           -2.4e-13              -9.6e-13              3.2934e-09           
  -0.6                  -3.2984e-09           -1.8e-13              -9.4e-13              3.2986e-09           
  -0.65                 -3.3028e-09           -2.8e-13              -9.8e-13              3.3042e-09           
  -0.7                  -3.3066e-09           -1.6e-13              -8.4e-13              3.3082e-09           
  -0.75                 -3.3112e-09           -1.6e-13              -1.02e-12             3.312e-09            
  -0.8                  -3.3152e-09           -1.6e-13              -1e-12                3.3162e-09           
  -0.85                 -3.3186e-09           -2.2e-13              -9.4e-13              3.3196e-09           
  -0.9                  -3.323e-09            -3.6e-13              -1.06e-12             3.324e-09            
  -0.95                 -3.3256e-09           -2e-13                -9.2e-13              3.3264e-09           
  -1                    -3.3294e-09           -1.2e-13              -1e-12                3.3302e-09           
  -1.05                 -3.3318e-09           -1.6e-13              -1.08e-12             3.332e-09            
  -1.1                  -3.3346e-09           -1e-13                -8.8e-13              3.3348e-09           
  -1.15                 -3.3368e-09           -8e-14                -8.8e-13              3.3378e-09           
  -1.2                  -3.3412e-09           -1.8e-13              -8.8e-13              3.3418e-09           
  -1.25                 -3.3416e-09           -1e-13                -9e-13                3.3424e-09           
  -1.3                  -3.3446e-09           0                     -8.4e-13              3.345e-09            
  -1.35                 -3.3468e-09           -1.4e-13              -9.8e-13              3.3474e-09           
END_DB

BEGIN_DB
 ICCAP_VAR vg         -0.514         
 ICCAP_VAR vb         -0             
 ICCAP_VAR vs         -0             

 #vd                    id                    ig                    ib                    is                   
  -0                    4.276e-11             -6.6e-12              -8.8e-13              -3.688e-11           
  -0.05                 -2.8866e-08           -5.32e-12             -9e-13                2.89e-08             
  -0.1                  -4.7548e-08           -4.36e-12             -9e-13                4.7586e-08           
  -0.15                 -5.738e-08            -3.88e-12             -8.4e-13              5.7392e-08           
  -0.2                  -6.1122e-08           -3.7e-12              -8.2e-13              6.1144e-08           
  -0.25                 -6.2216e-08           -3.7e-12              -8.8e-13              6.2246e-08           
  -0.3                  -6.2612e-08           -3.7e-12              -9e-13                6.265e-08            
  -0.35                 -6.2852e-08           -3.66e-12             -9e-13                6.287e-08            
  -0.4                  -6.3004e-08           -3.64e-12             -8.2e-13              6.3042e-08           
  -0.45                 -6.3166e-08           -3.52e-12             -7.8e-13              6.3196e-08           
  -0.5                  -6.3304e-08           -3.6e-12              -8e-13                6.3336e-08           
  -0.55                 -6.3394e-08           -3.7e-12              -9.4e-13              6.3412e-08           
  -0.6                  -6.3482e-08           -3.56e-12             -8.6e-13              6.3518e-08           
  -0.65                 -6.358e-08            -3.62e-12             -8e-13                6.3602e-08           
  -0.7                  -6.365e-08            -3.58e-12             -7.6e-13              6.3676e-08           
  -0.75                 -6.3706e-08           -3.58e-12             -9.2e-13              6.3742e-08           
  -0.8                  -6.3784e-08           -3.58e-12             -1e-12                6.382e-08            
  -0.85                 -6.3864e-08           -3.46e-12             -8.8e-13              6.389e-08            
  -0.9                  -6.392e-08            -3.54e-12             -8.2e-13              6.3966e-08           
  -0.95                 -6.4e-08              -3.6e-12              -7e-13                6.4024e-08           
  -1                    -6.405e-08            -3.48e-12             -7.8e-13              6.4088e-08           
  -1.05                 -6.4108e-08           -3.5e-12              -8.8e-13              6.4142e-08           
  -1.1                  -6.4142e-08           -3.56e-12             -8.6e-13              6.4184e-08           
  -1.15                 -6.4206e-08           -3.54e-12             -8.8e-13              6.4248e-08           
  -1.2                  -6.4248e-08           -3.54e-12             -9.6e-13              6.4302e-08           
  -1.25                 -6.4312e-08           -3.54e-12             -8.8e-13              6.4342e-08           
  -1.3                  -6.4352e-08           -3.52e-12             -9.6e-13              6.4394e-08           
  -1.35                 -6.4398e-08           -3.4e-12              -8e-13                6.4424e-08           
END_DB

