! VERSION = 6.00
BEGIN_HEADER
 ICCAP_INPUTS
  vg         V  G GROUND SMU2 0.001 LIN        1    0.5        -1.35      38   -0.05     
  vb         V  B GROUND SMU4 0.1 LIN        2    0          1.2        7    0.2       
  vd         V  D GROUND SMU1 0.1 LIST       3 3 -0.05 -0.6 -1.2
  vs         V  S GROUND SMU3 0.1 CON        -0
 ICCAP_OUTPUTS
  id         I  D GROUND SMU1 B
  ig         I  G GROUND SMU2 B
  ib         I  B GROUND SMU4 B
  is         I  S GROUND SMU3 B
 ICCAP_VALUES
  MASTER_SETUP_TYPE "~dc_idvg~"
  LINVT_VALUE ""
  LISTVT_VALUE ""
  TYPE "-1"
  TEMP " 125.000 "
  IS_TNOM " 0.00000 "
  MAIN.W "10.00u"
  MAIN.L "130.0n"
  MAIN.AD "3.400p"
  MAIN.AS "3.400p"
  MAIN.PD "20.68u"
  MAIN.PS "20.68u"
  MAIN.NF "1.000"
  MAIN.M "1"
  MAIN.NRD "0.000"
  MAIN.NRS "0.000"
  MAIN.LDRIFT1 "1E-06"
  MAIN.LDRIFT2 "1E-06"
  MAIN.SA "0.000"
  MAIN.SB "0.000"
  MAIN.SD "0.000"
  MAIN.SCA "0.000"
  MAIN.SCB "0.000"
  MAIN.SCC "0.000"
  MAIN.SC "0.000"
  MODULE "S548"
  PIN_D "18"
  PIN_G "3"
  PIN_S "4"
  PIN_B "17"
  PIN_E ""
  PIN_6 ""
  XY_ID ""
  FUNC "Short"
  STI "SA ref"
  WPE "WPE ref"
  COMMENT ""
  DIS_MEAS ""
  TypeTCI "10"
END_HEADER

BEGIN_DB
 ICCAP_VAR vb         0              
 ICCAP_VAR vd         -0.05          
 ICCAP_VAR vs         -0             

 #vg                    id                    ig                    ib                    is                   
  0.5                   -4e-12                2.1118e-08            -2.1064e-08           -3.22e-12            
  0.45                  2.68e-12              4.9332e-09            -4.9292e-09           -1.84e-12            
  0.4                   -3.5e-12              1.1546e-09            -1.1548e-09           -1.2e-13             
  0.35                  -5.66e-12             2.7204e-10            -2.7054e-10           3e-12                
  0.3                   -1.202e-11            6.488e-11             -6.466e-11            9.74e-12             
  0.25                  -2.924e-11            1.606e-11             -1.536e-11            2.774e-11            
  0.2                   -7.782e-11            4.36e-12              -3.5e-12              7.684e-11            
  0.15                  -2.1584e-10           1.24e-12              -7.2e-13              2.1512e-10           
  0.1                   -6.126e-10            5.2e-13               4e-13                 6.1218e-10           
  0.05                  -1.7586e-09           1.2e-13               6.6e-13               1.7582e-09           
  0                     -5.1044e-09           -1.8e-13              2.8e-13               5.1042e-09           
  -0.05                 -1.4884e-08           -3.8e-13              6.6e-13               1.4904e-08           
  -0.1                  -4.3576e-08           -5.6e-13              4.8e-13               4.3616e-08           
  -0.15                 -1.2696e-07           -7e-13                6.6e-13               1.2698e-07           
  -0.2                  -3.6364e-07           -9.6e-13              1e-12                 3.636e-07            
  -0.25                 -1.0012e-06           -1.18e-12             9.6e-13               1.00112e-06          
  -0.3                  -2.5528e-06           -1.52e-12             1.36e-12              2.5552e-06           
  -0.35                 -5.803e-06            -2.26e-12             1.32e-12              5.805e-06            
  -0.4                  -1.14822e-05          -3.16e-12             1.06e-12              1.14758e-05          
  -0.45                 -1.9786e-05           -4.32e-12             1.8e-12               1.9772e-05           
  -0.5                  -3.0328e-05           -6.12e-12             1.04e-12              3.032e-05            
  -0.55                 -4.2354e-05           -8.4e-12              1.72e-12              4.2332e-05           
  -0.6                  -5.526e-05            -1.156e-11            1.42e-12              5.5258e-05           
  -0.65                 -6.8494e-05           -1.558e-11            1.46e-12              6.8482e-05           
  -0.7                  -8.1686e-05           -2.048e-11            1.6e-12               8.1696e-05           
  -0.75                 -9.4678e-05           -2.684e-11            1.56e-12              9.4692e-05           
  -0.8                  -0.000107242          -3.444e-11            1.9e-12               0.000107254          
  -0.85                 -0.0001193            -4.358e-11            2.04e-12              0.00011952           
  -0.9                  -0.00013096           -5.434e-11            1.56e-12              0.00013122           
  -0.95                 -0.00014202           -6.758e-11            1.76e-12              0.00014234           
  -1                    -0.00015266           -8.358e-11            1.9e-12               0.00015292           
  -1.05                 -0.00016274           -1.0042e-10           2e-12                 0.00016288           
  -1.1                  -0.00017226           -1.2328e-10           2.12e-12              0.00017256           
  -1.15                 -0.00018138           -1.484e-10            2.56e-12              0.00018164           
  -1.2                  -0.0001901            -1.7186e-10           2.74e-12              0.00019032           
  -1.25                 -0.0001983            -2.091e-10            3.1e-12               0.0001986            
  -1.3                  -0.00020614           -2.4536e-10           4.26e-12              0.00020642           
  -1.35                 -0.0002136            -2.8768e-10           6.52e-12              0.00021382           
END_DB

BEGIN_DB
 ICCAP_VAR vb         0.2            
 ICCAP_VAR vd         -0.05          
 ICCAP_VAR vs         -0             

 #vg                    id                    ig                    ib                    is                   
  0.5                   -3.16e-12             6.948e-11             -5.036e-11            -4.24e-12            
  0.45                  -2.64e-12             1.97e-11              -4.18e-12             -3.26e-12            
  0.4                   -2.32e-12             7.1e-12               6.68e-12              -2.14e-12            
  0.35                  -2.48e-12             3.54e-12              8.34e-12              -1.1e-12             
  0.3                   -3.72e-12             2.08e-12              8.62e-12              1.18e-12             
  0.25                  -8.4e-12              1.22e-12              8.84e-12              6.52e-12             
  0.2                   -2.284e-11            6.2e-13               8.1e-12               2.152e-11            
  0.15                  -6.696e-11            3.4e-13               7.32e-12              6.594e-11            
  0.1                   -2.0078e-10           4e-14                 7.52e-12              2.001e-10            
  0.05                  -6.0618e-10           -2e-13                7.08e-12              6.0542e-10           
  0                     -1.8386e-09           -2e-13                7.56e-12              1.8372e-09           
  -0.05                 -5.5774e-09           -4.4e-13              6.86e-12              5.5736e-09           
  -0.1                  -1.6954e-08           -5.2e-13              6.86e-12              1.6974e-08           
  -0.15                 -5.145e-08            -7.4e-13              6.12e-12              5.1476e-08           
  -0.2                  -1.5404e-07           -1.12e-12             6.12e-12              1.5394e-07           
  -0.25                 -4.4932e-07           -1.3e-12              6e-12                 4.498e-07            
  -0.3                  -1.2434e-06           -1.54e-12             6.18e-12              1.2456e-06           
  -0.35                 -3.1298e-06           -2.2e-12              6.34e-12              3.1342e-06           
  -0.4                  -6.9408e-06           -3.12e-12             6.1e-12               6.9394e-06           
  -0.45                 -1.3258e-05           -4.26e-12             6.38e-12              1.3246e-05           
  -0.5                  -2.2122e-05           -5.98e-12             5.68e-12              2.2122e-05           
  -0.55                 -3.2982e-05           -8.24e-12             5.46e-12              3.298e-05            
  -0.6                  -4.5124e-05           -1.13e-11             5.76e-12              4.5142e-05           
  -0.65                 -5.7922e-05           -1.528e-11            5.56e-12              5.7904e-05           
  -0.7                  -7.091e-05            -2.02e-11             5.58e-12              7.0908e-05           
  -0.75                 -8.3778e-05           -2.652e-11            5.64e-12              8.3762e-05           
  -0.8                  -9.6362e-05           -3.404e-11            5.74e-12              9.6356e-05           
  -0.85                 -0.000108548          -4.322e-11            5.5e-12               0.00010856           
  -0.9                  -0.00012018           -5.43e-11             5.56e-12              0.00012042           
  -0.95                 -0.00013146           -6.728e-11            5.24e-12              0.0001317            
  -1                    -0.00014216           -8.278e-11            5.52e-12              0.00014238           
  -1.05                 -0.0001524            -9.992e-11            5.7e-12               0.0001527            
  -1.1                  -0.00016212           -1.2246e-10           5.06e-12              0.00016236           
  -1.15                 -0.00017134           -1.4428e-10           5.62e-12              0.00017162           
  -1.2                  -0.00018016           -1.7174e-10           5.86e-12              0.00018034           
  -1.25                 -0.00018858           -2.0716e-10           5.94e-12              0.0001888            
  -1.3                  -0.00019652           -2.4356e-10           7.54e-12              0.00019668           
  -1.35                 -0.000204             -2.8696e-10           9.18e-12              0.00020424           
END_DB

BEGIN_DB
 ICCAP_VAR vb         0.4            
 ICCAP_VAR vd         -0.05          
 ICCAP_VAR vs         -0             

 #vg                    id                    ig                    ib                    is                   
  0.5                   -3.4e-12              6.34e-12              1.546e-11             -4.28e-12            
  0.45                  -2.6e-12              4.94e-12              1.372e-11             -3.38e-12            
  0.4                   -2.18e-12             3.58e-12              1.28e-11              -2.4e-12             
  0.35                  -2e-12                2.66e-12              1.18e-11              -1.74e-12            
  0.3                   -2.22e-12             1.96e-12              1.136e-11             -6e-13               
  0.25                  -3.6e-12              1.14e-12              1.118e-11             1.68e-12             
  0.2                   -9.22e-12             8e-13                 1.044e-11             7.6e-12              
  0.15                  -2.662e-11            4.6e-13               1.062e-11             2.546e-11            
  0.1                   -8.132e-11            2e-14                 9.94e-12              8.044e-11            
  0.05                  -2.5218e-10           -1.4e-13              9.76e-12              2.513e-10            
  0                     -7.8634e-10           -4.4e-13              9.62e-12              7.8562e-10           
  -0.05                 -2.4478e-09           -3e-13                9.6e-12               2.447e-09            
  -0.1                  -7.6378e-09           -5.4e-13              8.32e-12              7.6382e-09           
  -0.15                 -2.3762e-08           -7e-13                8.7e-12               2.3778e-08           
  -0.2                  -7.3228e-08           -9.8e-13              7.98e-12              7.3172e-08           
  -0.25                 -2.2154e-07           -1.36e-12             8.36e-12              2.2174e-07           
  -0.3                  -6.4718e-07           -1.64e-12             8.26e-12              6.4708e-07           
  -0.35                 -1.7544e-06           -2.14e-12             8.2e-12               1.7556e-06           
  -0.4                  -4.2564e-06           -3e-12                7.36e-12              4.263e-06            
  -0.45                 -8.9438e-06           -4.24e-12             7.6e-12               8.953e-06            
  -0.5                  -1.6256e-05           -5.74e-12             7.72e-12              1.625e-05            
  -0.55                 -2.5856e-05           -7.9e-12              7.98e-12              2.5842e-05           
  -0.6                  -3.7118e-05           -1.098e-11            7.44e-12              3.714e-05            
  -0.65                 -4.941e-05            -1.486e-11            7.06e-12              4.942e-05            
  -0.7                  -6.2164e-05           -1.98e-11             7.52e-12              6.2134e-05           
  -0.75                 -7.487e-05            -2.59e-11             7.14e-12              7.485e-05            
  -0.8                  -8.7412e-05           -3.35e-11             7.04e-12              8.7384e-05           
  -0.85                 -9.9576e-05           -4.262e-11            6.72e-12              9.956e-05            
  -0.9                  -0.000111408          -5.356e-11            7.28e-12              0.000111412          
  -0.95                 -0.00012256           -6.626e-11            7.22e-12              0.00012282           
  -1                    -0.00013338           -8.09e-11             6.68e-12              0.00013368           
  -1.05                 -0.00014376           -9.908e-11            6.84e-12              0.00014398           
  -1.1                  -0.0001536            -1.2176e-10           6.84e-12              0.00015382           
  -1.15                 -0.000163             -1.4252e-10           6.82e-12              0.00016322           
  -1.2                  -0.0001719            -1.702e-10            7.62e-12              0.0001721            
  -1.25                 -0.0001803            -2.0292e-10           7.82e-12              0.00018054           
  -1.3                  -0.00018838           -2.3942e-10           8.5e-12               0.00018862           
  -1.35                 -0.00019598           -2.7834e-10           1.09e-11              0.00019612           
END_DB

BEGIN_DB
 ICCAP_VAR vb         0.6            
 ICCAP_VAR vd         -0.05          
 ICCAP_VAR vs         -0             

 #vg                    id                    ig                    ib                    is                   
  0.5                   -3.34e-12             6.24e-12              1.726e-11             -4.36e-12            
  0.45                  -2.58e-12             4.76e-12              1.542e-11             -3.36e-12            
  0.4                   -2.1e-12              3.5e-12               1.468e-11             -2.52e-12            
  0.35                  -1.78e-12             2.48e-12              1.346e-11             -1.7e-12             
  0.3                   -1.7e-12              1.82e-12              1.308e-11             -1.08e-12            
  0.25                  -2.22e-12             1.16e-12              1.27e-11              1.6e-13              
  0.2                   -4.56e-12             7.6e-13               1.22e-11              2.94e-12             
  0.15                  -1.24e-11             3.2e-13               1.184e-11             1.14e-11             
  0.1                   -3.81e-11             0                     1.1e-11               3.728e-11            
  0.05                  -1.2024e-10           -2.8e-13              1.106e-11             1.1954e-10           
  0                     -3.8218e-10           -4e-13                1.046e-11             3.813e-10            
  -0.05                 -1.2126e-09           -4e-13                1.044e-11             1.212e-09            
  -0.1                  -3.85e-09             -5.2e-13              1.008e-11             3.85e-09             
  -0.15                 -1.2196e-08           -6.8e-13              1.002e-11             1.221e-08            
  -0.2                  -3.8312e-08           -8.4e-13              9.68e-12              3.8342e-08           
  -0.25                 -1.1908e-07           -1.24e-12             9.92e-12              1.1902e-07           
  -0.3                  -3.5972e-07           -1.64e-12             9.4e-12               3.5976e-07           
  -0.35                 -1.02872e-06          -2.16e-12             9.54e-12              1.02834e-06          
  -0.4                  -2.6794e-06           -2.98e-12             9.56e-12              2.681e-06            
  -0.45                 -6.1072e-06           -4.02e-12             8.94e-12              6.1054e-06           
  -0.5                  -1.1972e-05           -5.52e-12             8.96e-12              1.197e-05            
  -0.55                 -2.0336e-05           -7.86e-12             8.52e-12              2.0334e-05           
  -0.6                  -3.0718e-05           -1.074e-11            9.28e-12              3.0734e-05           
  -0.65                 -4.2438e-05           -1.46e-11             8e-12                 4.2442e-05           
  -0.7                  -5.4834e-05           -1.944e-11            8.54e-12              5.4822e-05           
  -0.75                 -6.7402e-05           -2.53e-11             8.58e-12              6.7384e-05           
  -0.8                  -7.9872e-05           -3.296e-11            8.08e-12              7.986e-05            
  -0.85                 -9.2106e-05           -4.186e-11            8.52e-12              9.208e-05            
  -0.9                  -0.000103908          -5.286e-11            8.16e-12              0.000103884          
  -0.95                 -0.00011514           -6.568e-11            8.08e-12              0.00011536           
  -1                    -0.00012602           -8.044e-11            7.72e-12              0.00012628           
  -1.05                 -0.00013642           -9.77e-11             8.24e-12              0.00013664           
  -1.1                  -0.00014636           -1.2e-10              8.34e-12              0.00014658           
  -1.15                 -0.00015576           -1.4394e-10           8.6e-12               0.00015602           
  -1.2                  -0.00016474           -1.7242e-10           8.34e-12              0.00016502           
  -1.25                 -0.00017326           -2.0326e-10           9.34e-12              0.00017354           
  -1.3                  -0.00018144           -2.3808e-10           1.03e-11              0.00018164           
  -1.35                 -0.00018908           -2.819e-10            1.214e-11             0.0001893            
END_DB

BEGIN_DB
 ICCAP_VAR vb         0.8            
 ICCAP_VAR vd         -0.05          
 ICCAP_VAR vs         -0             

 #vg                    id                    ig                    ib                    is                   
  0.5                   -3.36e-12             6.18e-12              1.88e-11              -4.42e-12            
  0.45                  -2.7e-12              4.7e-12               1.672e-11             -3.44e-12            
  0.4                   -2.1e-12              3.5e-12               1.528e-11             -2.62e-12            
  0.35                  -1.8e-12              2.64e-12              1.494e-11             -1.98e-12            
  0.3                   -1.52e-12             1.66e-12              1.448e-11             -1.22e-12            
