! VERSION = 6.00
BEGIN_HEADER
 ICCAP_INPUTS
  vg         V  G GROUND SMU2 0.001 LIN        1    0.5        -1.35      38   -0.05     
  vb         V  B GROUND SMU4 0.1 LIN        2    0          1.2        7    0.2       
  vd         V  D GROUND SMU1 0.1 LIST       3 3 -0.05 -0.6 -1.2
  vs         V  S GROUND SMU3 0.1 CON        -0
 ICCAP_OUTPUTS
  id         I  D GROUND SMU1 B
  ig         I  G GROUND SMU2 B
  ib         I  B GROUND SMU4 B
  is         I  S GROUND SMU3 B
 ICCAP_VALUES
  MASTER_SETUP_TYPE "~dc_idvg~"
  LINVT_VALUE ""
  LISTVT_VALUE ""
  TYPE "-1"
  TEMP " 27.0000 "
  IS_TNOM " 1.00000 "
  MAIN.W "300.0n"
  MAIN.L "180.0n"
  MAIN.AD "102.0f"
  MAIN.AS "102.0f"
  MAIN.PD "1.280u"
  MAIN.PS "1.280u"
  MAIN.NF "1.000"
  MAIN.M "1"
  MAIN.NRD "0.000"
  MAIN.NRS "0.000"
  MAIN.LDRIFT1 "1E-06"
  MAIN.LDRIFT2 "1E-06"
  MAIN.SA "0.000"
  MAIN.SB "0.000"
  MAIN.SD "0.000"
  MAIN.SCA "0.000"
  MAIN.SCB "0.000"
  MAIN.SCC "0.000"
  MAIN.SC "0.000"
  MODULE "S552"
  PIN_D "12"
  PIN_G "9"
  PIN_S "10"
  PIN_B "11"
  PIN_E ""
  PIN_6 ""
  XY_ID ""
  FUNC "LW Scale"
  STI "SA ref"
  WPE "WPE ref"
  COMMENT ""
  DIS_MEAS ""
  TypeTCI "10"
END_HEADER

BEGIN_DB
 ICCAP_VAR vb         0              
 ICCAP_VAR vd         -0.05          
 ICCAP_VAR vs         -0             

 #vg                    id                    ig                    ib                    is                   
  0.5                   -4e-14                2.014e-11             -6.64e-12             -4e-13               
  0.45                  -4e-14                3.4e-12               -1.7e-12              -2.4e-13             
  0.4                   -2.2e-13              6.6e-13               -1.08e-12             -1e-13               
  0.35                  -6e-14                2e-13                 -7.4e-13              -1e-13               
  0.3                   -2e-14                4e-14                 -9.2e-13              -1.6e-13             
  0.25                  -1.6e-13              -1.2e-13              -7.4e-13              -1.2e-13             
  0.2                   0                     -1.8e-13              -7.8e-13              0                    
  0.15                  -2.6e-13              -2.8e-13              -9e-13                -2e-14               
  0.1                   -6e-14                -3e-13                -8.2e-13              1.2e-13              
  0.05                  -3.4e-13              -4.2e-13              -7.8e-13              2e-13                
  0                     -1.12e-12             -3.2e-13              -7.2e-13              9.6e-13              
  -0.05                 -4.84e-12             -5.6e-13              -8.8e-13              4.98e-12             
  -0.1                  -2.148e-11            -5e-13                -7.6e-13              2.16e-11             
  -0.15                 -9.76e-11             -4e-13                -8.2e-13              9.748e-11            
  -0.2                  -4.4198e-10           -6e-13                -7.8e-13              4.4184e-10           
  -0.25                 -1.9826e-09           -4.4e-13              -7.4e-13              1.9832e-09           
  -0.3                  -8.5158e-09           -6.4e-13              -7.6e-13              8.5092e-09           
  -0.35                 -3.2608e-08           -5e-13                -7.6e-13              3.261e-08            
  -0.4                  -1.02132e-07          -6.4e-13              -8e-13                1.02112e-07          
  -0.45                 -2.5318e-07           -9.8e-13              -7.4e-13              2.5344e-07           
  -0.5                  -5.0628e-07           -8.8e-13              -7.4e-13              5.064e-07            
  -0.55                 -8.5478e-07           -1.24e-12             -7.2e-13              8.558e-07            
  -0.6                  -1.2756e-06           -1.28e-12             -6.2e-13              1.2772e-06           
  -0.65                 -1.7376e-06           -1.82e-12             -7.8e-13              1.735e-06            
  -0.7                  -2.2012e-06           -2.08e-12             -7.4e-13              2.206e-06            
  -0.75                 -2.6704e-06           -2.52e-12             -8.6e-13              2.6726e-06           
  -0.8                  -3.1302e-06           -3.18e-12             -8.8e-13              3.1342e-06           
  -0.85                 -3.5746e-06           -4.04e-12             -6.6e-13              3.5778e-06           
  -0.9                  -4.001e-06            -5.04e-12             -8.2e-13              4.0048e-06           
  -0.95                 -4.4032e-06           -6.42e-12             -7e-13                4.4106e-06           
  -1                    -4.783e-06            -7.94e-12             -7e-13                4.7942e-06           
  -1.05                 -5.1414e-06           -1.016e-11            -6.4e-13              5.1558e-06           
  -1.1                  -5.496e-06            -1.258e-11            -7.4e-13              5.4892e-06           
  -1.15                 -5.8084e-06           -1.572e-11            -8e-13                5.7986e-06           
  -1.2                  -6.1136e-06           -1.908e-11            -6.8e-13              6.1126e-06           
  -1.25                 -6.4012e-06           -2.328e-11            -6.6e-13              6.3944e-06           
  -1.3                  -6.66e-06             -2.798e-11            -6.6e-13              6.6576e-06           
  -1.35                 -6.9222e-06           -3.392e-11            -5.8e-13              6.925e-06            
END_DB

BEGIN_DB
 ICCAP_VAR vb         0.2            
 ICCAP_VAR vd         -0.05          
 ICCAP_VAR vs         -0             

 #vg                    id                    ig                    ib                    is                   
  0.5                   -1.6e-13              8.4e-13               2e-14                 -3.2e-13             
  0.45                  -8e-14                2.4e-13               -1e-13                -1e-13               
  0.4                   2e-14                 3.2e-13               -6e-14                -2.4e-13             
  0.35                  -1.8e-13              -6e-14                -1.8e-13              4e-14                
  0.3                   -1.2e-13              4e-14                 1.2e-13               -8e-14               
  0.25                  -2e-14                -2e-13                4e-14                 6e-14                
  0.2                   0                     -6e-14                -1.2e-13              8e-14                
  0.15                  -2e-13                -1.8e-13              2e-14                 -1e-13               
  0.1                   8e-14                 -1.2e-13              0                     2e-14                
  0.05                  -1.2e-13              -2.2e-13              -6e-14                2e-14                
  0                     -3e-13                -2.2e-13              0                     2.8e-13              
  -0.05                 -1.36e-12             -2.8e-13              -2e-14                1.46e-12             
  -0.1                  -6.36e-12             -4e-13                -2e-14                6.3e-12              
  -0.15                 -3.018e-11            -3.4e-13              -2e-14                3.026e-11            
  -0.2                  -1.4092e-10           -3.8e-13              -4e-14                1.4112e-10           
  -0.25                 -6.6148e-10           -5.2e-13              0                     6.6152e-10           
  -0.3                  -3.0284e-09           -4.4e-13              -2.4e-13              3.0292e-09           
  -0.35                 -1.2964e-08           -5e-13                4e-14                 1.2972e-08           
  -0.4                  -4.8008e-08           -8e-13                -1.2e-13              4.772e-08            
  -0.45                 -1.4042e-07           -7e-13                0                     1.4052e-07           
  -0.5                  -3.2402e-07           -1.1e-12              -6e-14                3.2464e-07           
  -0.55                 -6.0808e-07           -1.22e-12             -4e-14                6.0834e-07           
  -0.6                  -9.7904e-07           -1.46e-12             -1.4e-13              9.8502e-07           
  -0.65                 -1.4064e-06           -1.5e-12              0                     1.4094e-06           
  -0.7                  -1.861e-06            -1.96e-12             -6e-14                1.8688e-06           
  -0.75                 -2.3234e-06           -2.58e-12             -6e-14                2.3276e-06           
  -0.8                  -2.7818e-06           -3.08e-12             -6e-14                2.7854e-06           
  -0.85                 -3.2252e-06           -4.08e-12             0                     3.2288e-06           
  -0.9                  -3.652e-06            -4.98e-12             -1.2e-13              3.6512e-06           
  -0.95                 -4.0568e-06           -6.36e-12             6e-14                 4.0542e-06           
  -1                    -4.4348e-06           -8e-12                -2e-13                4.4406e-06           
  -1.05                 -4.802e-06            -1.01e-11             0                     4.8062e-06           
  -1.1                  -5.1452e-06           -1.266e-11            -2e-14                5.1544e-06           
  -1.15                 -5.4664e-06           -1.578e-11            -1.2e-13              5.4798e-06           
  -1.2                  -5.772e-06            -1.892e-11            0                     5.7754e-06           
  -1.25                 -6.0448e-06           -2.334e-11            -4e-14                6.0574e-06           
  -1.3                  -6.3268e-06           -2.79e-11             -6e-14                6.3318e-06           
  -1.35                 -6.5866e-06           -3.39e-11             4e-14                 6.5984e-06           
END_DB

BEGIN_DB
 ICCAP_VAR vb         0.4            
 ICCAP_VAR vd         -0.05          
 ICCAP_VAR vs         -0             

 #vg                    id                    ig                    ib                    is                   
  0.5                   1e-13                 8.6e-13               4e-14                 -2.8e-13             
  0.45                  -1e-13                4.4e-13               2e-14                 -2.8e-13             
  0.4                   4e-14                 2e-13                 2e-14                 -4e-14               
  0.35                  -4e-14                1.8e-13               -6e-14                6e-14                
  0.3                   -8e-14                4e-14                 6e-14                 -1e-13               
  0.25                  -8e-14                -8e-14                -1.2e-13              -1e-13               
  0.2                   -6e-14                -2e-13                2e-14                 1.8e-13              
  0.15                  -4e-14                -2.2e-13              2e-14                 8e-14                
  0.1                   1.2e-13               -2.6e-13              -2e-14                8e-14                
  0.05                  -2e-13                -2.2e-13              -1e-13                -6e-14               
  0                     -4e-14                -3.6e-13              1e-13                 1.6e-13              
  -0.05                 -4.8e-13              -2e-13                8e-14                 4.2e-13              
  -0.1                  -2.22e-12             -3.2e-13              0                     2.34e-12             
  -0.15                 -1.046e-11            -4e-13                -6e-14                1.048e-11            
  -0.2                  -5.112e-11            -4.2e-13              -6e-14                5.1e-11              
  -0.25                 -2.4512e-10           -4.6e-13              -4e-14                2.4498e-10           
  -0.3                  -1.1656e-09           -4.6e-13              -2e-14                1.1666e-09           
  -0.35                 -5.3328e-09           -5e-13                -6e-14                5.3342e-09           
  -0.4                  -2.2174e-08           -5.8e-13              -6e-14                2.2176e-08           
  -0.45                 -7.5712e-08           -6.2e-13              -8e-14                7.5738e-08           
  -0.5                  -2.0286e-07           -1e-12                4e-14                 2.0302e-07           
  -0.55                 -4.266e-07            -9.8e-13              0                     4.2556e-07           
  -0.6                  -7.4288e-07           -1.32e-12             0                     7.4146e-07           
  -0.65                 -1.13312e-06          -1.62e-12             -6e-14                1.1356e-06           
  -0.7                  -1.572e-06            -2e-12                2e-14                 1.5754e-06           
  -0.75                 -2.0206e-06           -2.4e-12              -1.2e-13              2.0242e-06           
  -0.8                  -2.466e-06            -2.92e-12             -1e-13                2.4678e-06           
  -0.85                 -2.907e-06            -3.92e-12             2e-14                 2.91e-06             
  -0.9                  -3.334e-06            -5.06e-12             0                     3.3364e-06           
  -0.95                 -3.7388e-06           -6.1e-12              -1.4e-13              3.737e-06            
  -1                    -4.1192e-06           -8.08e-12             0                     4.1312e-06           
  -1.05                 -4.4924e-06           -1.006e-11            -4e-14                4.4942e-06           
  -1.1                  -4.8528e-06           -1.254e-11            -4e-14                4.8358e-06           
  -1.15                 -5.1794e-06           -1.552e-11            4e-14                 5.1814e-06           
  -1.2                  -5.4864e-06           -1.908e-11            -6e-14                5.5058e-06           
  -1.25                 -5.7804e-06           -2.322e-11            8e-14                 5.7902e-06           
  -1.3                  -6.0568e-06           -2.802e-11            2e-13                 6.0576e-06           
  -1.35                 -6.3214e-06           -3.38e-11             -8e-14                6.3184e-06           
END_DB

BEGIN_DB
 ICCAP_VAR vb         0.6            
 ICCAP_VAR vd         -0.05          
 ICCAP_VAR vs         -0             

 #vg                    id                    ig                    ib                    is                   
  0.5                   -6e-14                7.6e-13               0                     -3.4e-13             
  0.45                  0                     4.8e-13               6e-14                 -3.2e-13             
  0.4                   -1.6e-13              1.4e-13               -1e-13                -8e-14               
  0.35                  4e-14                 8e-14                 1.4e-13               -1.6e-13             
  0.3                   0                     -2e-14                0                     1e-13                
  0.25                  -1.2e-13              -6e-14                -4e-14                -6e-14               
  0.2                   -2e-14                -4e-14                -2e-14                -2e-13               
  0.15                  -1e-13                -2.6e-13              8e-14                 2e-13                
  0.1                   -2e-14                -4e-14                -6e-14                6e-14                
  0.05                  -1.6e-13              -3.4e-13              -4e-14                1e-13                
  0                     8e-14                 -3.4e-13              8e-14                 2e-14                
  -0.05                 -1.2e-13              -3.4e-13              -8e-14                3e-13                
  -0.1                  -8.2e-13              -3.6e-13              -4e-14                8e-13                
  -0.15                 -4.04e-12             -3.8e-13              -2e-14                4.26e-12             
  -0.2                  -2.012e-11            -4.2e-13              -1.2e-13              2.036e-11            
  -0.25                 -9.906e-11            -4.6e-13              1.2e-13               9.914e-11            
  -0.3                  -4.8402e-10           -5.8e-13              -1.8e-13              4.8378e-10           
  -0.35                 -2.3052e-09           -3.4e-13              0                     2.3084e-09           
  -0.4                  -1.03598e-08          -5.8e-13              -6e-14                1.03658e-08          
  -0.45                 -4.0358e-08           -6.8e-13              6e-14                 4.0106e-08           
  -0.5                  -1.2406e-07           -9.8e-13              -1.2e-13              1.2426e-07           
  -0.55                 -2.9554e-07           -1.14e-12             0                     2.9598e-07           
  -0.6                  -5.6086e-07           -1.42e-12             -4e-14                5.5744e-07           
  -0.65                 -9.1116e-07           -1.64e-12             0                     9.1476e-07           
  -0.7                  -1.3198e-06           -1.92e-12             -4e-14                1.3296e-06           
  -0.75                 -1.7576e-06           -2.44e-12             -6e-14                1.7652e-06           
  -0.8                  -2.2038e-06           -3.22e-12             -4e-14                2.2068e-06           
  -0.85                 -2.6408e-06           -4.02e-12             4e-14                 2.6454e-06           
  -0.9                  -3.0672e-06           -4.9e-12              -2e-14                3.0716e-06           
  -0.95                 -3.4784e-06           -6.28e-12             -1.2e-13              3.482e-06            
  -1                    -3.8662e-06           -7.86e-12             1.4e-13               3.8754e-06           
  -1.05                 -4.2388e-06           -1.012e-11            -4e-14                4.2448e-06           
  -1.1                  -4.588e-06            -1.236e-11            4e-14                 4.5926e-06           
  -1.15                 -4.9218e-06           -1.55e-11             0                     4.9334e-06           
  -1.2                  -5.2392e-06           -1.89e-11             -1e-13                5.2464e-06           
  -1.25                 -5.5452e-06           -2.31e-11             4e-14                 5.5364e-06           
  -1.3                  -5.8156e-06           -2.8e-11              -1e-13                5.8136e-06           
  -1.35                 -6.09e-06             -3.378e-11            2e-14                 6.098e-06            
END_DB

BEGIN_DB
 ICCAP_VAR vb         0.8            
 ICCAP_VAR vd         -0.05          
 ICCAP_VAR vs         -0             

 #vg                    id                    ig                    ib                    is                   
  0.5                   -2.6e-13              5.8e-13               2e-14                 -4e-13               
  0.45                  -1e-13                4.4e-13               -1.6e-13              -1e-13               
  0.4                   0                     2.2e-13               -2e-14                0                    
  0.35                  2e-14                 8e-14                 1e-13                 -2e-14               
  0.3                   8e-14                 4e-14                 -1.2e-13              -2e-14               
