! VERSION = 6.00
BEGIN_HEADER
 ICCAP_INPUTS
  vd         V  D GROUND SMU1 0.1 LIN        1    -0         -1.35      28   -0.05     
  vg         V  G GROUND SMU2 0.001 LIN        2    -0.682     -1.35      5    -0.167    
  vb         V  B GROUND SMU4 0.1 CON        1.2
  vs         V  S GROUND SMU3 0.1 CON        -0
 ICCAP_OUTPUTS
  id         I  D GROUND SMU1 B
  ig         I  G GROUND SMU2 B
  ib         I  B GROUND SMU4 B
  is         I  S GROUND SMU3 B
 ICCAP_VALUES
  MASTER_SETUP_TYPE "~dc_idvd~"
  LINVT_VALUE "|idvg|100.0n|100.0m|1.000m|5|1.350|"
  LISTVT_VALUE ""
  TYPE "-1"
  TEMP "-40.0000 "
  IS_TNOM " 0.00000 "
  MAIN.W "10.00u"
  MAIN.L "180.0n"
  MAIN.AD "3.400p"
  MAIN.AS "3.400p"
  MAIN.PD "20.68u"
  MAIN.PS "20.68u"
  MAIN.NF "1.000"
  MAIN.M "1"
  MAIN.NRD "0.000"
  MAIN.NRS "0.000"
  MAIN.LDRIFT1 "1E-06"
  MAIN.LDRIFT2 "1E-06"
  MAIN.SA "0.000"
  MAIN.SB "0.000"
  MAIN.SD "0.000"
  MAIN.SCA "0.000"
  MAIN.SCB "0.000"
  MAIN.SCC "0.000"
  MAIN.SC "0.000"
  MODULE "S548"
  PIN_D "12"
  PIN_G "9"
  PIN_S "10"
  PIN_B "11"
  PIN_E ""
  PIN_6 ""
  XY_ID ""
  FUNC "L Scale"
  STI "SA ref"
  WPE "WPE ref"
  COMMENT ""
  DIS_MEAS ""
  TypeTCI "10"
END_HEADER

BEGIN_DB
 ICCAP_VAR vg         -0.682         
 ICCAP_VAR vb         1.2            
 ICCAP_VAR vs         -0             

 #vd                    id                    ig                    ib                    is                   
  -0                    3.4102e-08            -1.142e-11            3.2e-13               -3.6034e-08          
  -0.05                 -1.8044e-05           -9.64e-12             2.2e-13               1.8054e-05           
  -0.1                  -2.731e-05            -8.4e-12              2e-13                 2.7338e-05           
  -0.15                 -3.19e-05             -7.5e-12              2.2e-13               3.1908e-05           
  -0.2                  -3.4534e-05           -7.18e-12             1.8e-13               3.4578e-05           
  -0.25                 -3.644e-05            -6.78e-12             2e-13                 3.6458e-05           
  -0.3                  -3.8012e-05           -6.42e-12             2.4e-13               3.8022e-05           
  -0.35                 -3.9356e-05           -6.34e-12             2.4e-13               3.9368e-05           
  -0.4                  -4.0636e-05           -6.12e-12             2.4e-13               4.0666e-05           
  -0.45                 -4.1848e-05           -6.02e-12             1.6e-13               4.1886e-05           
  -0.5                  -4.3044e-05           -6.06e-12             1.2e-13               4.3062e-05           
  -0.55                 -4.4156e-05           -5.98e-12             1.2e-13               4.4162e-05           
  -0.6                  -4.5206e-05           -5.74e-12             2e-13                 4.5228e-05           
  -0.65                 -4.6266e-05           -5.9e-12              2.2e-13               4.6266e-05           
  -0.7                  -4.7296e-05           -5.82e-12             1.6e-13               4.7298e-05           
  -0.75                 -4.8326e-05           -5.72e-12             1.6e-13               4.8348e-05           
  -0.8                  -4.93e-05             -5.74e-12             1.4e-13               4.935e-05            
  -0.85                 -5.03e-05             -5.68e-12             1.8e-13               5.03e-05             
  -0.9                  -5.1286e-05           -5.54e-12             1e-13                 5.1282e-05           
  -0.95                 -5.2202e-05           -5.42e-12             1.2e-13               5.2194e-05           
  -1                    -5.3144e-05           -5.36e-12             1e-13                 5.319e-05            
  -1.05                 -5.4094e-05           -5.22e-12             1.8e-13               5.4112e-05           
  -1.1                  -5.5004e-05           -4.94e-12             1.6e-13               5.5002e-05           
  -1.15                 -5.5902e-05           -4.78e-12             2.2e-13               5.5944e-05           
  -1.2                  -5.6834e-05           -4.36e-12             3.8e-13               5.6838e-05           
  -1.25                 -5.772e-05            -4.1e-12              8.6e-13               5.7722e-05           
  -1.3                  -5.8624e-05           -3.82e-12             2.24e-12              5.8654e-05           
  -1.35                 -5.9494e-05           -3.36e-12             5.44e-12              5.9532e-05           
END_DB

BEGIN_DB
 ICCAP_VAR vg         -0.849         
 ICCAP_VAR vb         1.2            
 ICCAP_VAR vs         -0             

 #vd                    id                    ig                    ib                    is                   
  -0                    9.913e-08             -3.228e-11            8e-14                 -9.0062e-08          
  -0.05                 -5.9062e-05           -2.83e-11             0                     5.9068e-05           
  -0.1                  -0.00010439           -2.524e-11            -2e-14                0.00010442           
  -0.15                 -0.00013712           -2.262e-11            0                     0.00013746           
  -0.2                  -0.0001597            -2.078e-11            8e-14                 0.00016002           
  -0.25                 -0.00017504           -1.952e-11            6e-14                 0.0001754            
  -0.3                  -0.00018584           -1.854e-11            4e-14                 0.00018618           
  -0.35                 -0.00019388           -1.778e-11            0                     0.00019426           
  -0.4                  -0.00020042           -1.706e-11            6e-14                 0.00020078           
  -0.45                 -0.00020602           -1.678e-11            -2e-14                0.00020642           
  -0.5                  -0.00021102           -1.656e-11            0                     0.00021144           
  -0.55                 -0.00021568           -1.632e-11            -2e-14                0.000216             
  -0.6                  -0.00022              -1.608e-11            -4e-14                0.00022036           
  -0.65                 -0.00022406           -1.586e-11            8e-14                 0.00022448           
  -0.7                  -0.00022802           -1.574e-11            6e-14                 0.00022838           
  -0.75                 -0.00023184           -1.578e-11            6e-14                 0.00023218           
  -0.8                  -0.00023558           -1.55e-11             1e-13                 0.0002359            
  -0.85                 -0.00023918           -1.546e-11            4e-14                 0.00023948           
  -0.9                  -0.00024264           -1.538e-11            8e-14                 0.00024296           
  -0.95                 -0.00024608           -1.512e-11            2e-14                 0.00024654           
  -1                    -0.0002494            -1.49e-11             -4e-14                0.00024984           
  -1.05                 -0.00025278           -1.496e-11            -6e-14                0.00025312           
  -1.1                  -0.00025606           -1.49e-11             2e-14                 0.00025638           
  -1.15                 -0.00025924           -1.462e-11            6e-14                 0.0002596            
  -1.2                  -0.00026252           -1.432e-11            1.2e-13               0.00026286           
  -1.25                 -0.0002656            -1.42e-11             5e-13                 0.00026594           
  -1.3                  -0.0002687            -1.396e-11            1.16e-12              0.00026902           
  -1.35                 -0.00027176           -1.356e-11            3.28e-12              0.00027206           
END_DB

BEGIN_DB
 ICCAP_VAR vg         -1.016         
 ICCAP_VAR vb         1.2            
 ICCAP_VAR vs         -0             

 #vd                    id                    ig                    ib                    is                   
  -0                    2.5422e-07            -7.374e-11            0                     -1.4162e-07          
  -0.05                 -9.959e-05            -6.65e-11             6e-14                 9.9612e-05           
  -0.1                  -0.00018618           -5.982e-11            -8e-14                0.00018654           
  -0.15                 -0.00025954           -5.45e-11             -4e-14                0.0002599            
  -0.2                  -0.00031992           -5.004e-11            2e-14                 0.00032036           
  -0.25                 -0.00036812           -4.636e-11            2e-14                 0.0003686            
  -0.3                  -0.00040562           -4.352e-11            4e-14                 0.00040594           
  -0.35                 -0.00043388           -4.124e-11            0                     0.0004343            
  -0.4                  -0.00045562           -3.958e-11            -6e-14                0.00045596           
  -0.45                 -0.00047278           -3.826e-11            0                     0.00047304           
  -0.5                  -0.0004868            -3.74e-11             0                     0.00048714           
  -0.55                 -0.00049838           -3.65e-11             0                     0.00049882           
  -0.6                  -0.00050872           -3.592e-11            -2e-14                0.0005091            
  -0.65                 -0.00051834           -3.542e-11            0                     0.00051846           
  -0.7                  -0.00052686           -3.49e-11             0                     0.00052722           
  -0.75                 -0.00053496           -3.458e-11            6e-14                 0.0005353            
  -0.8                  -0.00054252           -3.442e-11            8e-14                 0.00054284           
  -0.85                 -0.00054968           -3.41e-11             6e-14                 0.00054994           
  -0.9                  -0.00055666           -3.378e-11            -2e-14                0.00055706           
  -0.95                 -0.00056344           -3.358e-11            -8e-14                0.00056376           
  -1                    -0.00057002           -3.336e-11            -6e-14                0.00057022           
  -1.05                 -0.00057632           -3.312e-11            6e-14                 0.00057678           
  -1.1                  -0.00058288           -3.296e-11            4e-14                 0.00058296           
  -1.15                 -0.0005889            -3.274e-11            4e-14                 0.00058916           
  -1.2                  -0.000595             -3.244e-11            6e-14                 0.00059496           
  -1.25                 -0.0006007            -3.238e-11            2.6e-13               0.00060122           
  -1.3                  -0.00060646           -3.202e-11            4.2e-13               0.00060672           
  -1.35                 -0.00061234           -3.172e-11            1.38e-12              0.0006128            
END_DB

BEGIN_DB
 ICCAP_VAR vg         -1.183         
 ICCAP_VAR vb         1.2            
 ICCAP_VAR vs         -0             

 #vd                    id                    ig                    ib                    is                   
  -0                    3.6388e-07            -1.4666e-10           6e-14                 -1.5028e-07          
  -0.05                 -0.00013348           -1.3412e-10           4e-14                 0.00013382           
  -0.1                  -0.00025604           -1.2312e-10           4e-14                 0.00025644           
  -0.15                 -0.0003666            -1.1354e-10           0                     0.00036698           
  -0.2                  -0.0004649            -1.0496e-10           2e-14                 0.00046518           
  -0.25                 -0.00055032           -9.754e-11            0                     0.00055064           
  -0.3                  -0.00062354           -9.152e-11            8e-14                 0.00062398           
  -0.35                 -0.00068478           -8.636e-11            6e-14                 0.0006852            
  -0.4                  -0.00073512           -8.204e-11            6e-14                 0.00073574           
  -0.45                 -0.00077658           -7.87e-11             4e-14                 0.0007767            
  -0.5                  -0.00080978           -7.562e-11            8e-14                 0.00081042           
  -0.55                 -0.00083698           -7.336e-11            0                     0.0008375            
  -0.6                  -0.00085946           -7.16e-11             6e-14                 0.0008596            
  -0.65                 -0.00087864           -7.022e-11            8e-14                 0.00087848           
  -0.7                  -0.00089446           -6.932e-11            2e-14                 0.0008948            
  -0.75                 -0.00090908           -6.846e-11            2e-14                 0.00090968           
  -0.8                  -0.00092272           -6.744e-11            -4e-14                0.00092294           
  -0.85                 -0.00093448           -6.68e-11             4e-14                 0.00093498           
  -0.9                  -0.000946             -6.644e-11            -2e-14                0.00094654           
  -0.95                 -0.0009571            -6.6e-11              6e-14                 0.00095704           
  -1                    -0.00096728           -6.55e-11             1.4e-13               0.0009676            
  -1.05                 -0.00097718           -6.498e-11            8e-14                 0.00097748           
  -1.1                  -0.00098696           -6.442e-11            1e-13                 0.00098716           
  -1.15                 -0.00099618           -6.424e-11            4e-14                 0.00099658           
  -1.2                  -0.00100568           -6.372e-11            6e-14                 0.0010059            
  -1.25                 -0.00101438           -6.36e-11             8e-14                 0.0010149            
  -1.3                  -0.00102306           -6.318e-11            3e-13                 0.00102312           
  -1.35                 -0.00103142           -6.274e-11            4.8e-13               0.00103188           
END_DB

BEGIN_DB
 ICCAP_VAR vg         -1.35          
 ICCAP_VAR vb         1.2            
 ICCAP_VAR vs         -0             

 #vd                    id                    ig                    ib                    is                   
  -0                    4.6144e-07            -2.5804e-10           1.56e-12              -1.817e-07           
  -0.05                 -0.00016114           -2.3966e-10           1.12e-12              0.00016148           
  -0.1                  -0.00031312           -2.2238e-10           9.6e-13               0.00031342           
  -0.15                 -0.00045474           -2.0708e-10           6.4e-13               0.00045514           
  -0.2                  -0.0005855            -1.9306e-10           5.6e-13               0.00058574           
  -0.25                 -0.00070446           -1.8046e-10           5.2e-13               0.00070476           
  -0.3                  -0.0008118            -1.695e-10            4.6e-13               0.00081242           
  -0.35                 -0.00090706           -1.5998e-10           4e-13                 0.00090716           
  -0.4                  -0.00099016           -1.5148e-10           4.2e-13               0.00099066           
  -0.45                 -0.00106226           -1.4446e-10           4.6e-13               0.00106256           
  -0.5                  -0.00112356           -1.3834e-10           4e-13                 0.00112416           
  -0.55                 -0.001175             -1.3324e-10           3e-13                 0.0011766            
  -0.6                  -0.0012182            -1.301e-10            3e-13                 0.0012198            
  -0.65                 -0.0012548            -1.2646e-10           4.4e-13               0.0012564            
  -0.7                  -0.0012856            -1.2366e-10           3.4e-13               0.0012872            
  -0.75                 -0.0013124            -1.2134e-10           3.6e-13               0.0013138            
  -0.8                  -0.0013358            -1.195e-10            2.4e-13               0.0013368            
  -0.85                 -0.0013556            -1.178e-10            2.6e-13               0.0013578            
  -0.9                  -0.0013742            -1.166e-10            2.2e-13               0.0013756            
  -0.95                 -0.001391             -1.156e-10            2.4e-13               0.0013928            
  -1                    -0.0014064            -1.142e-10            3e-13                 0.0014078            
  -1.05                 -0.0014208            -1.1346e-10           3e-13                 0.0014226            
  -1.1                  -0.0014346            -1.1276e-10           3.8e-13               0.0014368            
  -1.15                 -0.0014482            -1.1186e-10           3.6e-13               0.0014502            
  -1.2                  -0.0014606            -1.1114e-10           3e-13                 0.0014624            
  -1.25                 -0.0014738            -1.109e-10            3e-13                 0.001475             
  -1.3                  -0.0014854            -1.0998e-10           3e-13                 0.0014872            
  -1.35                 -0.001497             -1.0952e-10           4.8e-13               0.0014978            
END_DB

