! VERSION = 6.00
BEGIN_HEADER
 ICCAP_INPUTS
  vg         V  G GROUND SMU2 0.001 LIN        1    0.5        -1.35      38   -0.05     
  vb         V  B GROUND SMU4 0.1 LIN        2    0          1.2        7    0.2       
  vd         V  D GROUND SMU1 0.1 LIST       3 3 -0.05 -0.6 -1.2
  vs         V  S GROUND SMU3 0.1 CON        -0
 ICCAP_OUTPUTS
  id         I  D GROUND SMU1 B
  ig         I  G GROUND SMU2 B
  ib         I  B GROUND SMU4 B
  is         I  S GROUND SMU3 B
 ICCAP_VALUES
  MASTER_SETUP_TYPE "~dc_idvg~"
  LINVT_VALUE ""
  LISTVT_VALUE ""
  TYPE "-1"
  TEMP " 125.000 "
  IS_TNOM " 0.00000 "
  MAIN.W "300.0n"
  MAIN.L "130.0n"
  MAIN.AD "102.0f"
  MAIN.AS "102.0f"
  MAIN.PD "1.280u"
  MAIN.PS "1.280u"
  MAIN.NF "1.000"
  MAIN.M "1"
  MAIN.NRD "0.000"
  MAIN.NRS "0.000"
  MAIN.LDRIFT1 "1E-06"
  MAIN.LDRIFT2 "1E-06"
  MAIN.SA "0.000"
  MAIN.SB "0.000"
  MAIN.SD "0.000"
  MAIN.SCA "0.000"
  MAIN.SCB "0.000"
  MAIN.SCC "0.000"
  MAIN.SC "0.000"
  MODULE "S552"
  PIN_D "18"
  PIN_G "3"
  PIN_S "4"
  PIN_B "17"
  PIN_E ""
  PIN_6 ""
  XY_ID ""
  FUNC "LW Scale"
  STI "SA ref"
  WPE "WPE ref"
  COMMENT ""
  DIS_MEAS ""
  TypeTCI "10"
END_HEADER

BEGIN_DB
 ICCAP_VAR vb         0              
 ICCAP_VAR vd         -0.05          
 ICCAP_VAR vs         -0             

 #vg                    id                    ig                    ib                    is                   
  0.5                   -2.6e-13              2.0772e-08            -2.0744e-08           -8e-14               
  0.45                  5.96e-12              4.8612e-09            -4.872e-09            1.2e-13              
  0.4                   1.4e-13               1.1388e-09            -1.1542e-09           6e-14                
  0.35                  -8e-14                2.6754e-10            -2.7984e-10           2.2e-13              
  0.3                   -3.8e-13              6.288e-11             -7.564e-11            4.6e-13              
  0.25                  -1.18e-12             1.494e-11             -2.646e-11            1.2e-12              
  0.2                   -2.96e-12             3.48e-12              -1.452e-11            2.94e-12             
  0.15                  -8.1e-12              5.6e-13               -1.05e-11             8.08e-12             
  0.1                   -2.294e-11            -2e-13                -1e-11                2.294e-11            
  0.05                  -6.566e-11            -2e-13                -9.5e-12              6.604e-11            
  0                     -1.9248e-10           -3.8e-13              -9.46e-12             1.927e-10            
  -0.05                 -5.65e-10             -4.6e-13              -9.54e-12             5.6334e-10           
  -0.1                  -1.6626e-09           -3.2e-13              -8.56e-12             1.6624e-09           
  -0.15                 -4.8804e-09           -5.2e-13              -7.94e-12             4.8778e-09           
  -0.2                  -1.407e-08            -3.6e-13              -8.62e-12             1.4086e-08           
  -0.25                 -3.9044e-08           -5.6e-13              -8.16e-12             3.9126e-08           
  -0.3                  -1.00646e-07          -4.6e-13              -7.72e-12             1.00688e-07          
  -0.35                 -2.293e-07            -4.6e-13              -7.72e-12             2.2938e-07           
  -0.4                  -4.513e-07            -6.8e-13              -7.7e-12              4.5124e-07           
  -0.45                 -7.6784e-07           -8e-13                -7.62e-12             7.6826e-07           
  -0.5                  -1.1594e-06           -7.2e-13              -6.86e-12             1.159e-06            
  -0.55                 -1.596e-06            -7.2e-13              -7.24e-12             1.6042e-06           
  -0.6                  -2.0644e-06           -9.4e-13              -7.42e-12             2.0652e-06           
  -0.65                 -2.533e-06            -1.12e-12             -7.5e-12              2.5398e-06           
  -0.7                  -3.004e-06            -1.26e-12             -6.54e-12             3.0076e-06           
  -0.75                 -3.4536e-06           -1.46e-12             -6.24e-12             3.4698e-06           
  -0.8                  -3.9094e-06           -1.64e-12             -6.82e-12             3.8976e-06           
  -0.85                 -4.3256e-06           -1.9e-12              -6.5e-12              4.335e-06            
  -0.9                  -4.7542e-06           -2.32e-12             -6.32e-12             4.7662e-06           
  -0.95                 -5.164e-06            -2.76e-12             -6.04e-12             5.1634e-06           
  -1                    -5.543e-06            -3.18e-12             -6.66e-12             5.5394e-06           
  -1.05                 -5.918e-06            -3.8e-12              -6.3e-12              5.908e-06            
  -1.1                  -6.269e-06            -4.58e-12             -6.02e-12             6.2576e-06           
  -1.15                 -6.5806e-06           -5.54e-12             -6.16e-12             6.5796e-06           
  -1.2                  -6.9106e-06           -6.46e-12             -5.96e-12             6.9018e-06           
  -1.25                 -7.2094e-06           -7.6e-12              -5.78e-12             7.1968e-06           
  -1.3                  -7.4868e-06           -8.68e-12             -5.74e-12             7.4902e-06           
  -1.35                 -7.7712e-06           -9.96e-12             -5.9e-12              7.7654e-06           
END_DB

BEGIN_DB
 ICCAP_VAR vb         0.2            
 ICCAP_VAR vd         -0.05          
 ICCAP_VAR vs         -0             

 #vg                    id                    ig                    ib                    is                   
  0.5                   -1e-13                6.378e-11             -5.906e-11            -2.4e-13             
  0.45                  -1.8e-13              1.526e-11             -1.212e-11            -6e-14               
  0.4                   -1.4e-13              3.76e-12              -1.68e-12             -2e-14               
  0.35                  -6e-14                8.6e-13               1.2e-12               0                    
  0.3                   -1.6e-13              1.2e-13               1.36e-12              8e-14                
  0.25                  -2.4e-13              -1e-13                8.6e-13               2.6e-13              
  0.2                   -7.4e-13              -1.8e-13              6.2e-13               8.2e-13              
  0.15                  -2.4e-12              -3e-13                7.4e-13               2.44e-12             
  0.1                   -7.12e-12             -4e-13                8e-14                 7.34e-12             
  0.05                  -2.16e-11             -2.4e-13              4.2e-13               2.148e-11            
  0                     -6.506e-11            -5.4e-13              2.4e-13               6.532e-11            
  -0.05                 -1.9852e-10           -4.6e-13              -4e-14                1.9866e-10           
  -0.1                  -6.0654e-10           -5e-13                -2e-13                6.0606e-10           
  -0.15                 -1.849e-09            -3.8e-13              -6e-14                1.8456e-09           
  -0.2                  -5.569e-09            -3.8e-13              -1.4e-13              5.5658e-09           
  -0.25                 -1.644e-08            -4.2e-13              -7e-13                1.6454e-08           
  -0.3                  -4.617e-08            -5.2e-13              -6.2e-13              4.6192e-08           
  -0.35                 -1.181e-07            -8e-13                -5.6e-13              1.1812e-07           
  -0.4                  -2.6408e-07           -6e-13                -5.6e-13              2.643e-07            
  -0.45                 -5.051e-07            -8e-13                -8e-13                5.0542e-07           
  -0.5                  -8.3776e-07           -8.6e-13              -7.4e-13              8.3632e-07           
  -0.55                 -1.2334e-06           -7.6e-13              -7.2e-13              1.2324e-06           
  -0.6                  -1.6746e-06           -1e-12                -1.18e-12             1.6716e-06           
  -0.65                 -2.1364e-06           -9.6e-13              -1.24e-12             2.14e-06             
  -0.7                  -2.5928e-06           -1.26e-12             -8.2e-13              2.6032e-06           
  -0.75                 -3.0492e-06           -1.36e-12             -1.2e-12              3.0566e-06           
  -0.8                  -3.508e-06            -1.52e-12             -7e-13                3.5016e-06           
  -0.85                 -3.9432e-06           -1.9e-12              -1.28e-12             3.9396e-06           
  -0.9                  -4.358e-06            -2.3e-12              -1.18e-12             4.3612e-06           
  -0.95                 -4.768e-06            -2.8e-12              -1.38e-12             4.7772e-06           
  -1                    -5.1622e-06           -3.14e-12             -9.2e-13              5.166e-06            
  -1.05                 -5.5242e-06           -3.9e-12              -1.42e-12             5.5344e-06           
  -1.1                  -5.8884e-06           -4.6e-12              -1.04e-12             5.8856e-06           
  -1.15                 -6.2102e-06           -5.52e-12             -9.8e-13              6.1944e-06           
  -1.2                  -6.518e-06            -6.48e-12             -8e-13                6.5286e-06           
  -1.25                 -6.84e-06             -7.6e-12              -1.46e-12             6.8346e-06           
  -1.3                  -7.1202e-06           -8.58e-12             -1.14e-12             7.1198e-06           
  -1.35                 -7.3988e-06           -1.008e-11            -1.1e-12              7.3868e-06           
END_DB

BEGIN_DB
 ICCAP_VAR vb         0.4            
 ICCAP_VAR vd         -0.05          
 ICCAP_VAR vs         -0             

 #vg                    id                    ig                    ib                    is                   
  0.5                   -1e-13                7.8e-13               8.48e-12              -2.2e-13             
  0.45                  -1.2e-13              2.8e-13               7.26e-12              -2e-14               
  0.4                   -1.8e-13              4e-14                 6.52e-12              -4e-14               
  0.35                  2e-14                 -4e-14                5.46e-12              6e-14                
  0.3                   -2.8e-13              -4e-14                5.44e-12              -6e-14               
  0.25                  -1e-13                -1e-13                5.14e-12              1.8e-13              
  0.2                   -4.8e-13              -2.4e-13              4.68e-12              1.8e-13              
  0.15                  -9.6e-13              -1.8e-13              4.2e-12               8e-13                
  0.1                   -2.78e-12             -3.4e-13              3.78e-12              2.84e-12             
  0.05                  -8.54e-12             -3.6e-13              4.44e-12              8.4e-12              
  0                     -2.634e-11            -5.4e-13              2.44e-12              2.654e-11            
  -0.05                 -8.268e-11            -3.8e-13              3.6e-12               8.258e-11            
  -0.1                  -2.5854e-10           -5.4e-13              2.94e-12              2.5846e-10           
  -0.15                 -8.0916e-10           -5.8e-13              2.7e-12               8.0948e-10           
  -0.2                  -2.5024e-09           -3.8e-13              2.6e-12               2.5038e-09           
  -0.25                 -7.6808e-09           -5.4e-13              2.26e-12              7.683e-09            
  -0.3                  -2.2794e-08           -6.2e-13              2.1e-12               2.2808e-08           
  -0.35                 -6.313e-08            -6.4e-13              2.26e-12              6.3136e-08           
  -0.4                  -1.5632e-07           -5.2e-13              1.68e-12              1.563e-07            
  -0.45                 -3.3282e-07           -8e-13                1.94e-12              3.3298e-07           
  -0.5                  -6.0492e-07           -9.8e-13              1.88e-12              6.051e-07            
  -0.55                 -9.577e-07            -7.6e-13              1.58e-12              9.5792e-07           
  -0.6                  -1.3716e-06           -8.8e-13              1.22e-12              1.3728e-06           
  -0.65                 -1.8134e-06           -1.02e-12             1.52e-12              1.8156e-06           
  -0.7                  -2.2572e-06           -1.24e-12             1.72e-12              2.2746e-06           
  -0.75                 -2.7266e-06           -1.42e-12             1.4e-12               2.714e-06            
  -0.8                  -3.1588e-06           -1.66e-12             1.02e-12              3.1596e-06           
  -0.85                 -3.594e-06            -1.82e-12             1.38e-12              3.5986e-06           
  -0.9                  -4.0158e-06           -2.3e-12              2.18e-12              4.018e-06            
  -0.95                 -4.427e-06            -2.76e-12             9.2e-13               4.4296e-06           
  -1                    -4.8168e-06           -3.18e-12             1.5e-12               4.8242e-06           
  -1.05                 -5.1948e-06           -3.84e-12             1.42e-12              5.1944e-06           
  -1.1                  -5.5444e-06           -4.88e-12             1.76e-12              5.555e-06            
  -1.15                 -5.9006e-06           -5.72e-12             1.32e-12              5.8946e-06           
  -1.2                  -6.2166e-06           -6.54e-12             1.28e-12              6.2222e-06           
  -1.25                 -6.544e-06            -7.48e-12             1.52e-12              6.5304e-06           
  -1.3                  -6.8456e-06           -8.72e-12             1.12e-12              6.8284e-06           
  -1.35                 -7.1098e-06           -1.01e-11             1.38e-12              7.0924e-06           
END_DB

BEGIN_DB
 ICCAP_VAR vb         0.6            
 ICCAP_VAR vd         -0.05          
 ICCAP_VAR vs         -0             

 #vg                    id                    ig                    ib                    is                   
  0.5                   -1.4e-13              1.9e-12               1.044e-11             -1e-13               
  0.45                  -1.8e-13              2.6e-13               9.58e-12              -1.2e-13             
  0.4                   -1.2e-13              8e-14                 8.52e-12              -8e-14               
  0.35                  -2e-13                -1.2e-13              7.92e-12              2e-14                
  0.3                   -1.6e-13              -1.4e-13              7.9e-12               -4e-14               
  0.25                  -6e-14                -2.4e-13              6.2e-12               1.2e-13              
  0.2                   -2e-13                -2.6e-13              6.38e-12              1.8e-13              
  0.15                  -4.4e-13              -3.6e-13              5.86e-12              4.2e-13              
  0.1                   -1.12e-12             -3.4e-13              6.06e-12              1.1e-12              
  0.05                  -3.8e-12              -4.4e-13              5.06e-12              3.74e-12             
  0                     -1.18e-11             -5e-13                5.36e-12              1.176e-11            
  -0.05                 -3.738e-11            -6e-13                5.58e-12              3.752e-11            
  -0.1                  -1.199e-10            -4e-13                4.8e-12               1.1992e-10           
  -0.15                 -3.8224e-10           -5.6e-13              5.32e-12              3.8248e-10           
  -0.2                  -1.2086e-09           -4.6e-13              4.12e-12              1.2074e-09           
  -0.25                 -3.7974e-09           -6.4e-13              4.18e-12              3.784e-09            
  -0.3                  -1.1646e-08           -5e-13                4.76e-12              1.1664e-08           
  -0.35                 -3.4124e-08           -6e-13                3.74e-12              3.4136e-08           
  -0.4                  -9.1566e-08           -6.4e-13              3.74e-12              9.1726e-08           
  -0.45                 -2.1414e-07           -8.2e-13              3.8e-12               2.1416e-07           
  -0.5                  -4.2758e-07           -7.4e-13              4.12e-12              4.2726e-07           
  -0.55                 -7.317e-07            -9.4e-13              3.36e-12              7.3164e-07           
  -0.6                  -1.10282e-06          -1e-12                3.4e-12               1.10788e-06          
  -0.65                 -1.5284e-06           -9.8e-13              3.62e-12              1.5262e-06           
  -0.7                  -1.9614e-06           -1.24e-12             3.2e-12               1.973e-06            
  -0.75                 -2.4246e-06           -1.36e-12             3.32e-12              2.43e-06             
  -0.8                  -2.8508e-06           -1.6e-12              3.36e-12              2.8584e-06           
  -0.85                 -3.296e-06            -1.92e-12             3e-12                 3.3014e-06           
  -0.9                  -3.7242e-06           -2.22e-12             3.32e-12              3.7296e-06           
  -0.95                 -4.1356e-06           -2.66e-12             2.94e-12              4.1496e-06           
  -1                    -4.5356e-06           -3.14e-12             2.86e-12              4.5292e-06           
  -1.05                 -4.9144e-06           -3.72e-12             3.24e-12              4.9144e-06           
  -1.1                  -5.2842e-06           -4.52e-12             3.12e-12              5.2826e-06           
  -1.15                 -5.6266e-06           -5.34e-12             2.7e-12               5.625e-06            
  -1.2                  -5.95e-06             -6.36e-12             2.52e-12              5.9462e-06           
  -1.25                 -6.2468e-06           -7.54e-12             2.82e-12              6.248e-06            
  -1.3                  -6.5518e-06           -8.58e-12             2.82e-12              6.5478e-06           
  -1.35                 -6.8512e-06           -9.96e-12             2.7e-12               6.8296e-06           
END_DB

BEGIN_DB
 ICCAP_VAR vb         0.8            
 ICCAP_VAR vd         -0.05          
 ICCAP_VAR vs         -0             

 #vg                    id                    ig                    ib                    is                   
  0.5                   -2e-13                6.2e-13               1.198e-11             -2e-13               
  0.45                  -2.2e-13              2.4e-13               1.12e-11              -2e-14               
  0.4                   -8e-14                4e-14                 1.02e-11              -1.2e-13             
  0.35                  -2e-14                4e-14                 9.58e-12              -1e-13               
  0.3                   -4e-14                -1.2e-13              8.76e-12              -8e-14               
