! VERSION = 6.00
BEGIN_HEADER
 ICCAP_INPUTS
  vd         V  D GROUND SMU1 0.1 LIN        1    -0         -1.35      28   -0.05     
  vg         V  G GROUND SMU2 0.001 LIN        2    -0.61      -1.35      5    -0.185    
  vb         V  B GROUND SMU4 0.1 CON        1.2
  vs         V  S GROUND SMU3 0.1 CON        -0
 ICCAP_OUTPUTS
  id         I  D GROUND SMU1 B
  ig         I  G GROUND SMU2 B
  ib         I  B GROUND SMU4 B
  is         I  S GROUND SMU3 B
 ICCAP_VALUES
  MASTER_SETUP_TYPE "~dc_idvd~"
  LINVT_VALUE "|idvg|100.0n|100.0m|1.000m|5|1.350|"
  LISTVT_VALUE ""
  TYPE "-1"
  TEMP " 70.0000 "
  IS_TNOM " 0.00000 "
  MAIN.W "300.0n"
  MAIN.L "130.0n"
  MAIN.AD "102.0f"
  MAIN.AS "102.0f"
  MAIN.PD "1.280u"
  MAIN.PS "1.280u"
  MAIN.NF "1.000"
  MAIN.M "1"
  MAIN.NRD "0.000"
  MAIN.NRS "0.000"
  MAIN.LDRIFT1 "1E-06"
  MAIN.LDRIFT2 "1E-06"
  MAIN.SA "0.000"
  MAIN.SB "0.000"
  MAIN.SD "0.000"
  MAIN.SCA "0.000"
  MAIN.SCB "0.000"
  MAIN.SCC "0.000"
  MAIN.SC "0.000"
  MODULE "S552"
  PIN_D "18"
  PIN_G "3"
  PIN_S "4"
  PIN_B "17"
  PIN_E ""
  PIN_6 ""
  XY_ID ""
  FUNC "LW Scale"
  STI "SA ref"
  WPE "WPE ref"
  COMMENT ""
  DIS_MEAS ""
  TypeTCI "10"
END_HEADER

BEGIN_DB
 ICCAP_VAR vg         -0.61          
 ICCAP_VAR vb         1.2            
 ICCAP_VAR vs         -0             

 #vd                    id                    ig                    ib                    is                   
  -0                    5.696e-10             -4.8e-13              1.336e-11             -7.4214e-10          
  -0.05                 -5.4746e-07           -2.8e-13              1.33e-11              5.4792e-07           
  -0.1                  -8.2916e-07           -4.6e-13              1.34e-11              8.2916e-07           
  -0.15                 -9.766e-07            -3.4e-13              1.342e-11             9.7688e-07           
  -0.2                  -1.07018e-06          -3.2e-13              1.346e-11             1.07228e-06          
  -0.25                 -1.14672e-06          -4.4e-13              1.342e-11             1.14544e-06          
  -0.3                  -1.2076e-06           -2.6e-13              1.324e-11             1.2108e-06           
  -0.35                 -1.266e-06            -2.4e-13              1.33e-11              1.2702e-06           
  -0.4                  -1.325e-06            -1.8e-13              1.32e-11              1.3264e-06           
  -0.45                 -1.3782e-06           -2.6e-13              1.324e-11             1.3816e-06           
  -0.5                  -1.4328e-06           -2.8e-13              1.33e-11              1.436e-06            
  -0.55                 -1.4882e-06           -3.2e-13              1.32e-11              1.4906e-06           
  -0.6                  -1.5422e-06           -3e-13                1.324e-11             1.5474e-06           
  -0.65                 -1.599e-06            -2e-13                1.316e-11             1.6016e-06           
  -0.7                  -1.654e-06            -2.6e-13              1.312e-11             1.6572e-06           
  -0.75                 -1.709e-06            -1.6e-13              1.322e-11             1.7118e-06           
  -0.8                  -1.7644e-06           -3.2e-13              1.342e-11             1.7654e-06           
  -0.85                 -1.8186e-06           -2.4e-13              1.326e-11             1.8234e-06           
  -0.9                  -1.8778e-06           -1.6e-13              1.33e-11              1.8806e-06           
  -0.95                 -1.9348e-06           -1.8e-13              1.318e-11             1.9356e-06           
  -1                    -1.991e-06            -1e-13                1.322e-11             1.9964e-06           
  -1.05                 -2.0502e-06           -2e-13                1.32e-11              2.0522e-06           
  -1.1                  -2.1088e-06           -2.4e-13              1.336e-11             2.1116e-06           
  -1.15                 -2.1692e-06           -1.6e-13              1.348e-11             2.1732e-06           
  -1.2                  -2.2312e-06           -2e-13                1.352e-11             2.233e-06            
  -1.25                 -2.2922e-06           -2.4e-13              1.42e-11              2.2956e-06           
  -1.3                  -2.3564e-06           -1.4e-13              1.506e-11             2.3596e-06           
  -1.35                 -2.4186e-06           -1.4e-13              1.68e-11              2.422e-06            
END_DB

BEGIN_DB
 ICCAP_VAR vg         -0.795         
 ICCAP_VAR vb         1.2            
 ICCAP_VAR vs         -0             

 #vd                    id                    ig                    ib                    is                   
  -0                    2.0524e-09            -9.2e-13              1.288e-11             -1.8054e-09          
  -0.05                 -2.2208e-06           -7.4e-13              1.294e-11             2.224e-06            
  -0.1                  -3.9116e-06           -7.2e-13              1.292e-11             3.913e-06            
  -0.15                 -5.1378e-06           -5.6e-13              1.294e-11             5.1428e-06           
  -0.2                  -5.9998e-06           -5e-13                1.304e-11             6.0032e-06           
  -0.25                 -6.6022e-06           -5.6e-13              1.312e-11             6.605e-06            
  -0.3                  -7.0522e-06           -6.2e-13              1.304e-11             7.0554e-06           
  -0.35                 -7.3942e-06           -4.2e-13              1.312e-11             7.4288e-06           
  -0.4                  -7.7168e-06           -5e-13                1.318e-11             7.7268e-06           
  -0.45                 -7.9854e-06           -4.2e-13              1.296e-11             7.9834e-06           
  -0.5                  -8.2288e-06           -4.6e-13              1.298e-11             8.2346e-06           
  -0.55                 -8.474e-06            -5.6e-13              1.294e-11             8.4724e-06           
  -0.6                  -8.6952e-06           -6.2e-13              1.29e-11              8.6998e-06           
  -0.65                 -8.9e-06              -6.6e-13              1.298e-11             8.9076e-06           
  -0.7                  -9.1138e-06           -5.4e-13              1.284e-11             9.111e-06            
  -0.75                 -9.3124e-06           -5.4e-13              1.292e-11             9.316e-06            
  -0.8                  -9.4988e-06           -5.2e-13              1.302e-11             9.499e-06            
  -0.85                 -9.6858e-06           -5.2e-13              1.302e-11             9.7032e-06           
  -0.9                  -9.8908e-06           -5.6e-13              1.296e-11             9.8966e-06           
  -0.95                 -1.00878e-05          -5.4e-13              1.292e-11             1.0092e-05           
  -1                    -1.0273e-05           -4.6e-13              1.292e-11             1.02768e-05          
  -1.05                 -1.04518e-05          -5.6e-13              1.294e-11             1.04592e-05          
  -1.1                  -1.06522e-05          -5.8e-13              1.294e-11             1.06684e-05          
  -1.15                 -1.08646e-05          -4.6e-13              1.316e-11             1.08438e-05          
  -1.2                  -1.10306e-05          -5.2e-13              1.34e-11              1.10258e-05          
  -1.25                 -1.1228e-05           -4.8e-13              1.392e-11             1.12342e-05          
  -1.3                  -1.142e-05            -5.2e-13              1.492e-11             1.14176e-05          
  -1.35                 -1.161e-05            -4.8e-13              1.674e-11             1.161e-05            
END_DB

BEGIN_DB
 ICCAP_VAR vg         -0.98          
 ICCAP_VAR vb         1.2            
 ICCAP_VAR vs         -0             

 #vd                    id                    ig                    ib                    is                   
  -0                    2.5492e-09            -2.16e-12             1.26e-11              -2.7202e-09          
  -0.05                 -4.0428e-06           -1.92e-12             1.282e-11             4.0502e-06           
  -0.1                  -7.564e-06            -1.68e-12             1.288e-11             7.5314e-06           
  -0.15                 -1.05052e-05          -1.64e-12             1.288e-11             1.0504e-05           
  -0.2                  -1.3006e-05           -1.62e-12             1.28e-11              1.2998e-05           
  -0.25                 -1.4966e-05           -1.48e-12             1.288e-11             1.4976e-05           
  -0.3                  -1.652e-05            -1.42e-12             1.29e-11              1.6522e-05           
  -0.35                 -1.7752e-05           -1.32e-12             1.3e-11               1.7746e-05           
  -0.4                  -1.8702e-05           -1.18e-12             1.286e-11             1.87e-05             
  -0.45                 -1.9474e-05           -1.18e-12             1.292e-11             1.9488e-05           
  -0.5                  -2.0132e-05           -1.2e-12              1.292e-11             2.0196e-05           
  -0.55                 -2.0766e-05           -1.28e-12             1.288e-11             2.074e-05            
  -0.6                  -2.1248e-05           -1.16e-12             1.286e-11             2.1248e-05           
  -0.65                 -2.173e-05            -1.18e-12             1.292e-11             2.1764e-05           
  -0.7                  -2.2244e-05           -1.28e-12             1.298e-11             2.2198e-05           
  -0.75                 -2.264e-05            -1.16e-12             1.3e-11               2.2614e-05           
  -0.8                  -2.3066e-05           -1.06e-12             1.296e-11             2.31e-05             
  -0.85                 -2.3432e-05           -1.08e-12             1.292e-11             2.3484e-05           
  -0.9                  -2.3824e-05           -1.08e-12             1.3e-11               2.3814e-05           
  -0.95                 -2.4212e-05           -1.1e-12              1.28e-11              2.4212e-05           
  -1                    -2.458e-05            -1.1e-12              1.288e-11             2.4566e-05           
  -1.05                 -2.4918e-05           -1.04e-12             1.29e-11              2.4924e-05           
  -1.1                  -2.5272e-05           -1.16e-12             1.292e-11             2.5218e-05           
  -1.15                 -2.558e-05            -1.22e-12             1.298e-11             2.559e-05            
  -1.2                  -2.5972e-05           -1.16e-12             1.32e-11              2.5932e-05           
  -1.25                 -2.6282e-05           -1.08e-12             1.338e-11             2.6324e-05           
  -1.3                  -2.659e-05            -1.06e-12             1.412e-11             2.6586e-05           
  -1.35                 -2.6958e-05           -1.04e-12             1.54e-11              2.6996e-05           
END_DB

BEGIN_DB
 ICCAP_VAR vg         -1.165         
 ICCAP_VAR vb         1.2            
 ICCAP_VAR vs         -0             

 #vd                    id                    ig                    ib                    is                   
  -0                    2.9424e-09            -4.56e-12             1.276e-11             -3.5366e-09          
  -0.05                 -5.6408e-06           -4.42e-12             1.27e-11              5.6466e-06           
  -0.1                  -1.07894e-05          -4.18e-12             1.28e-11              1.08148e-05          
  -0.15                 -1.5492e-05           -3.84e-12             1.278e-11             1.5488e-05           
  -0.2                  -1.9558e-05           -3.68e-12             1.282e-11             1.9592e-05           
  -0.25                 -2.3254e-05           -3.6e-12              1.28e-11              2.324e-05            
  -0.3                  -2.6396e-05           -3.28e-12             1.29e-11              2.6374e-05           
  -0.35                 -2.8864e-05           -3.38e-12             1.302e-11             2.8938e-05           
  -0.4                  -3.1054e-05           -3.28e-12             1.29e-11              3.1048e-05           
  -0.45                 -3.2786e-05           -3.04e-12             1.288e-11             3.2872e-05           
  -0.5                  -3.4394e-05           -2.98e-12             1.288e-11             3.439e-05            
  -0.55                 -3.5658e-05           -2.96e-12             1.294e-11             3.5674e-05           
  -0.6                  -3.6778e-05           -2.84e-12             1.292e-11             3.6874e-05           
  -0.65                 -3.7704e-05           -2.78e-12             1.296e-11             3.7748e-05           
  -0.7                  -3.861e-05            -2.82e-12             1.288e-11             3.86e-05             
  -0.75                 -3.9348e-05           -2.74e-12             1.312e-11             3.9466e-05           
  -0.8                  -4.016e-05            -2.74e-12             1.3e-11               4.0134e-05           
  -0.85                 -4.076e-05            -2.7e-12              1.29e-11              4.0732e-05           
  -0.9                  -4.1342e-05           -2.8e-12              1.286e-11             4.1434e-05           
  -0.95                 -4.2068e-05           -2.6e-12              1.296e-11             4.197e-05            
  -1                    -4.2562e-05           -2.58e-12             1.282e-11             4.2412e-05           
  -1.05                 -4.3056e-05           -2.76e-12             1.3e-11               4.3058e-05           
  -1.1                  -4.3656e-05           -2.64e-12             1.3e-11               4.3618e-05           
  -1.15                 -4.4106e-05           -2.62e-12             1.294e-11             4.4184e-05           
  -1.2                  -4.4648e-05           -2.74e-12             1.294e-11             4.472e-05            
  -1.25                 -4.5302e-05           -2.76e-12             1.318e-11             4.526e-05            
  -1.3                  -4.575e-05            -2.64e-12             1.342e-11             4.5748e-05           
  -1.35                 -4.6104e-05           -2.7e-12              1.436e-11             4.6078e-05           
END_DB

BEGIN_DB
 ICCAP_VAR vg         -1.35          
 ICCAP_VAR vb         1.2            
 ICCAP_VAR vs         -0             

 #vd                    id                    ig                    ib                    is                   
  -0                    2.5388e-09            -8.68e-12             1.282e-11             -3.8792e-09          
  -0.05                 -6.9426e-06           -8.2e-12              1.276e-11             6.9376e-06           
  -0.1                  -1.349e-05            -7.94e-12             1.266e-11             1.35e-05             
  -0.15                 -1.96e-05             -7.48e-12             1.28e-11              1.9564e-05           
  -0.2                  -2.5096e-05           -7.18e-12             1.284e-11             2.5172e-05           
  -0.25                 -3.0232e-05           -6.92e-12             1.286e-11             3.0256e-05           
  -0.3                  -3.4778e-05           -6.8e-12              1.274e-11             3.4942e-05           
  -0.35                 -3.8916e-05           -6.38e-12             1.284e-11             3.8946e-05           
  -0.4                  -4.2428e-05           -6.22e-12             1.284e-11             4.246e-05            
  -0.45                 -4.559e-05            -6.06e-12             1.292e-11             4.5528e-05           
  -0.5                  -4.814e-05            -5.86e-12             1.296e-11             4.8228e-05           
  -0.55                 -5.045e-05            -5.7e-12              1.288e-11             5.035e-05            
  -0.6                  -5.2536e-05           -5.66e-12             1.278e-11             5.2528e-05           
  -0.65                 -5.4214e-05           -5.68e-12             1.288e-11             5.428e-05            
  -0.7                  -5.547e-05            -5.46e-12             1.292e-11             5.5638e-05           
  -0.75                 -5.6908e-05           -5.26e-12             1.284e-11             5.7086e-05           
  -0.8                  -5.8286e-05           -5.46e-12             1.292e-11             5.8132e-05           
  -0.85                 -5.9148e-05           -5.3e-12              1.296e-11             5.9108e-05           
  -0.9                  -6.0328e-05           -5.2e-12              1.296e-11             6.037e-05            
  -0.95                 -6.1416e-05           -5.2e-12              1.284e-11             6.1264e-05           
  -1                    -6.1934e-05           -5.16e-12             1.286e-11             6.1666e-05           
  -1.05                 -6.2674e-05           -5.08e-12             1.282e-11             6.284e-05            
  -1.1                  -6.3582e-05           -5.12e-12             1.29e-11              6.3296e-05           
  -1.15                 -6.4194e-05           -4.92e-12             1.302e-11             6.43e-05             
  -1.2                  -6.511e-05            -4.98e-12             1.296e-11             6.5072e-05           
  -1.25                 -6.5782e-05           -5.1e-12              1.29e-11              6.5682e-05           
  -1.3                  -6.6578e-05           -4.98e-12             1.312e-11             6.664e-05            
  -1.35                 -6.7116e-05           -5e-12                1.352e-11             6.7132e-05           
END_DB

