! VERSION = 6.00
BEGIN_HEADER
 ICCAP_INPUTS
  vd         V  D GROUND SMU1 0.1 LIN        1    -0         -1.35      28   -0.05     
  vg         V  G GROUND SMU2 0.001 LIST       2 3 -0.154 -0.354 -0.554
  vb         V  B GROUND SMU4 0.1 CON        -0
  vs         V  S GROUND SMU3 0.1 CON        -0
 ICCAP_OUTPUTS
  id         I  D GROUND SMU1 B
  ig         I  G GROUND SMU2 B
  ib         I  B GROUND SMU4 B
  is         I  S GROUND SMU3 B
 ICCAP_VALUES
  MASTER_SETUP_TYPE "~dc_idvd~"
  LINVT_VALUE ""
  LISTVT_VALUE "|idvg|100.0n|-200.0m|1.000m|3|200.0m|200.0m|"
  TYPE "-1"
  TEMP " 27.0000 "
  IS_TNOM " 1.00000 "
  MAIN.W "10.00u"
  MAIN.L "1.200u"
  MAIN.AD "3.400p"
  MAIN.AS "3.400p"
  MAIN.PD "20.68u"
  MAIN.PS "20.68u"
  MAIN.NF "1.000"
  MAIN.M "1"
  MAIN.NRD "0.000"
  MAIN.NRS "0.000"
  MAIN.LDRIFT1 "1E-06"
  MAIN.LDRIFT2 "1E-06"
  MAIN.SA "0.000"
  MAIN.SB "0.000"
  MAIN.SD "0.000"
  MAIN.SCA "0.000"
  MAIN.SCB "0.000"
  MAIN.SCC "0.000"
  MAIN.SC "0.000"
  MODULE "S549"
  PIN_D "18"
  PIN_G "3"
  PIN_S "4"
  PIN_B "17"
  PIN_E ""
  PIN_6 ""
  XY_ID ""
  FUNC "L Scale"
  STI "SA ref"
  WPE "WPE ref"
  COMMENT ""
  DIS_MEAS ""
  TypeTCI "10"
END_HEADER

BEGIN_DB
 ICCAP_VAR vg         -0.154         
 ICCAP_VAR vb         -0             
 ICCAP_VAR vs         -0             

 #vd                    id                    ig                    ib                    is                   
  -0                    4.3e-12               -1.8e-13              -1.16e-12             -7.86e-12            
  -0.05                 -2.2742e-09           -1.2e-13              -1.18e-12             2.275e-09            
  -0.1                  -2.6478e-09           0                     -1.1e-12              2.6492e-09           
  -0.15                 -2.7338e-09           0                     -1.26e-12             2.7352e-09           
  -0.2                  -2.7758e-09           4e-14                 -1.14e-12             2.7776e-09           
  -0.25                 -2.8084e-09           1e-13                 -9.8e-13              2.8082e-09           
  -0.3                  -2.8352e-09           1.2e-13               -1.18e-12             2.8362e-09           
  -0.35                 -2.861e-09            2.4e-13               -1.06e-12             2.8622e-09           
  -0.4                  -2.8838e-09           2.2e-13               -1.04e-12             2.8838e-09           
  -0.45                 -2.9054e-09           3.4e-13               -1.24e-12             2.905e-09            
  -0.5                  -2.9244e-09           4.6e-13               -1.12e-12             2.9234e-09           
  -0.55                 -2.9422e-09           7.2e-13               -1.18e-12             2.9422e-09           
  -0.6                  -2.9604e-09           8.6e-13               -1e-12                2.9592e-09           
  -0.65                 -2.9758e-09           1.18e-12              -1.16e-12             2.9756e-09           
  -0.7                  -2.9904e-09           1.62e-12              -1.12e-12             2.9882e-09           
  -0.75                 -3.005e-09            2e-12                 -1.08e-12             3.0048e-09           
  -0.8                  -3.0196e-09           2.4e-12               -1.08e-12             3.0174e-09           
  -0.85                 -3.0318e-09           3.04e-12              -9e-13                3.0288e-09           
  -0.9                  -3.0424e-09           3.46e-12              -1.08e-12             3.0408e-09           
  -0.95                 -3.0554e-09           4.2e-12               -1e-12                3.052e-09            
  -1                    -3.068e-09            5.06e-12              -9.6e-13              3.063e-09            
  -1.05                 -3.0788e-09           5.8e-12               -7.8e-13              3.0734e-09           
  -1.1                  -3.0894e-09           6.72e-12              -6.6e-13              3.0828e-09           
  -1.15                 -3.1008e-09           7.62e-12              -5e-13                3.093e-09            
  -1.2                  -3.1106e-09           8.82e-12              -1.4e-13              3.1014e-09           
  -1.25                 -3.1194e-09           9.98e-12              1.2e-13               3.1072e-09           
  -1.3                  -3.1288e-09           1.126e-11             5.6e-13               3.1154e-09           
  -1.35                 -3.1384e-09           1.286e-11             1e-12                 3.1248e-09           
END_DB

BEGIN_DB
 ICCAP_VAR vg         -0.354         
 ICCAP_VAR vb         -0             
 ICCAP_VAR vs         -0             

 #vd                    id                    ig                    ib                    is                   
  -0                    1.533e-09             -4.52e-12             -1e-12                -1.619e-09           
  -0.05                 -6.418e-07            -3.42e-12             -9.4e-13              6.4214e-07           
  -0.1                  -8.0908e-07           -3.04e-12             -9.4e-13              8.0936e-07           
  -0.15                 -8.5374e-07           -2.72e-12             -1.02e-12             8.5414e-07           
  -0.2                  -8.7342e-07           -2.7e-12              -1.08e-12             8.7386e-07           
  -0.25                 -8.873e-07            -2.62e-12             -1.1e-12              8.876e-07            
  -0.3                  -8.99e-07             -2.58e-12             -1.16e-12             8.9926e-07           
  -0.35                 -9.093e-07            -2.56e-12             -9.8e-13              9.0964e-07           
  -0.4                  -9.1892e-07           -2.54e-12             -9.8e-13              9.1894e-07           
  -0.45                 -9.2728e-07           -2.46e-12             -1.02e-12             9.2744e-07           
  -0.5                  -9.3478e-07           -2.42e-12             -1e-12                9.352e-07            
  -0.55                 -9.423e-07            -2.32e-12             -1.02e-12             9.4256e-07           
  -0.6                  -9.4874e-07           -2.18e-12             -1.04e-12             9.4894e-07           
  -0.65                 -9.5468e-07           -2.1e-12              -1.02e-12             9.5502e-07           
  -0.7                  -9.6036e-07           -1.84e-12             -1.04e-12             9.6072e-07           
  -0.75                 -9.656e-07            -1.66e-12             -1.06e-12             9.6592e-07           
  -0.8                  -9.7072e-07           -1.4e-12              -1.02e-12             9.7088e-07           
  -0.85                 -9.7528e-07           -1.06e-12             -8.6e-13              9.7564e-07           
  -0.9                  -9.7994e-07           -6.4e-13              -8.8e-13              9.8026e-07           
  -0.95                 -9.843e-07            -2.4e-13              -8.6e-13              9.8436e-07           
  -1                    -9.881e-07            1e-13                 -9.4e-13              9.8798e-07           
  -1.05                 -9.9162e-07           6.8e-13               -1.04e-12             9.9212e-07           
  -1.1                  -9.9516e-07           1.34e-12              -8.4e-13              9.9532e-07           
  -1.15                 -9.983e-07            1.88e-12              -7.4e-13              9.9854e-07           
  -1.2                  -1.00164e-06          2.6e-12               -3.6e-13              1.00206e-06          
  -1.25                 -1.00492e-06          3.42e-12              0                     1.00508e-06          
  -1.3                  -1.00746e-06          4.26e-12              8.4e-13               1.00784e-06          
  -1.35                 -1.01012e-06          5.32e-12              2.12e-12              1.0105e-06           
END_DB

BEGIN_DB
 ICCAP_VAR vg         -0.554         
 ICCAP_VAR vb         -0             
 ICCAP_VAR vs         -0             

 #vd                    id                    ig                    ib                    is                   
  -0                    1.0822e-08            -4.038e-11            -8.8e-13              -1.0658e-08          
  -0.05                 -6.3906e-06           -3.304e-11            -9e-13                6.3928e-06           
  -0.1                  -1.05522e-05          -2.826e-11            -8.8e-13              1.0555e-05           
  -0.15                 -1.2786e-05           -2.556e-11            -9e-13                1.2802e-05           
  -0.2                  -1.377e-05            -2.414e-11            -9.6e-13              1.3788e-05           
  -0.25                 -1.4196e-05           -2.356e-11            -1e-12                1.4214e-05           
  -0.3                  -1.4434e-05           -2.334e-11            -9.4e-13              1.4454e-05           
  -0.35                 -1.4606e-05           -2.296e-11            -1e-12                1.4622e-05           
  -0.4                  -1.4744e-05           -2.268e-11            -9.8e-13              1.4762e-05           
  -0.45                 -1.4868e-05           -2.252e-11            -1e-12                1.4884e-05           
  -0.5                  -1.4976e-05           -2.242e-11            -9e-13                1.4996e-05           
  -0.55                 -1.508e-05            -2.228e-11            -9.2e-13              1.5098e-05           
  -0.6                  -1.5176e-05           -2.224e-11            -8e-13                1.5192e-05           
  -0.65                 -1.5262e-05           -2.198e-11            -8.6e-13              1.5278e-05           
  -0.7                  -1.5344e-05           -2.182e-11            -9.6e-13              1.5362e-05           
  -0.75                 -1.5418e-05           -2.172e-11            -9.4e-13              1.5436e-05           
  -0.8                  -1.549e-05            -2.156e-11            -9e-13                1.5508e-05           
  -0.85                 -1.5558e-05           -2.126e-11            -7.8e-13              1.5574e-05           
  -0.9                  -1.5618e-05           -2.114e-11            -8.4e-13              1.5636e-05           
  -0.95                 -1.5682e-05           -2.086e-11            -9e-13                1.57e-05             
  -1                    -1.5738e-05           -2.062e-11            -8.2e-13              1.5756e-05           
  -1.05                 -1.5794e-05           -2.014e-11            -9.2e-13              1.581e-05            
  -1.1                  -1.5844e-05           -1.992e-11            -7.4e-13              1.5862e-05           
  -1.15                 -1.5894e-05           -1.942e-11            -7e-13                1.5912e-05           
  -1.2                  -1.5944e-05           -1.894e-11            -5e-13                1.5962e-05           
  -1.25                 -1.599e-05            -1.84e-11             8e-14                 1.6008e-05           
  -1.3                  -1.6032e-05           -1.77e-11             1.46e-12              1.605e-05            
  -1.35                 -1.6076e-05           -1.704e-11            3.98e-12              1.6092e-05           
END_DB

